!Keysight Technologies,N5242B,MY48420967,A.15.65.19
!Date: Thursday, December 22, 2022 14:19:06
!Correction: S11(C  2-Port  ) 
!S21(C  2-Port  ) 
!S12(C  2-Port  ) 
!S22(C  2-Port  ) 
!S2P File: Measurements: S11, S21, S12, S22:
# Hz S  dB   R 50
100000000 -1.4821453 40.636162 -107.32587 138.09694 -113.2962 116.89582 -1.4183633 28.840719
109500000 -1.3798524 11.079072 -108.47838 143.96246 -107.19797 129.93311 -1.3890904 -1.0616603
119000000 -1.241173 -17.220753 -115.9537 98.871536 -114.28517 114.95845 -1.3829439 -30.856817
128500000 -1.20795 -45.302898 -107.5964 55.991127 -110.15838 58.310581 -1.4097089 -60.601955
138000000 -1.2224153 -74.08876 -107.40873 39.740849 -109.8004 33.628834 -1.4658544 -90.407547
147500000 -1.2487292 -103.11332 -109.64739 6.3237805 -105.87527 -5.9253101 -1.5560975 -120.45042
157000000 -1.3188392 -131.9677 -108.96893 -34.625107 -111.91087 -26.196026 -1.6919073 -150.7888
166500000 -1.4262948 -161.65253 -105.71357 -64.906921 -106.43369 -68.871078 -1.8637606 178.66129
176000000 -1.5409334 168.08922 -105.8936 -73.504784 -105.70526 -90.274185 -2.0400617 148.05002
185500000 -1.6179343 138.02213 -106.59804 -100.76241 -104.18176 -117.79826 -2.1885462 117.56372
195000000 -1.6783051 107.87009 -105.987 -146.45619 -103.77074 -140.85167 -2.288727 87.448082
204500000 -1.6642767 77.999001 -102.19079 -170.39236 -103.75986 177.49159 -2.3329499 57.865677
214000000 -1.5879191 48.839439 -102.83661 162.82864 -100.90479 150.49313 -2.3311083 28.732298
223500000 -1.5726631 20.127146 -103.8571 122.9411 -101.75871 130.48471 -2.3244016 -0.21720155
233000000 -1.5452483 -8.6132202 -102.20387 103.54034 -100.13 99.996536 -2.3553402 -29.248404
242500000 -1.4640452 -37.200005 -99.75264 59.351646 -100.69485 64.926842 -2.4444144 -58.514286
252000000 -1.4485214 -65.411644 -99.499908 48.647694 -99.449387 41.026623 -2.5796607 -88.106895
261500000 -1.5401222 -94.209755 -99.554222 -14.815676 -100.66158 12.91341 -2.7391961 -118.07086
271000000 -1.6348062 -123.89033 -97.559814 -30.255577 -99.904533 -22.261759 -2.9089568 -148.33401
280500000 -1.6712028 -153.71111 -98.826988 -52.529861 -97.757759 -58.65472 -3.0765345 -178.72359
290000000 -1.7693698 176.44757 -99.498817 -92.078873 -97.632042 -86.045067 -3.2279918 150.89868
299500000 -1.9161912 146.20631 -97.007492 -130.56134 -97.289474 -122.45496 -3.3563018 120.6198
309000000 -1.9690737 115.58951 -97.624863 -151.14778 -96.799332 -146.54926 -3.4583912 90.576111
318500000 -1.9460412 85.508263 -97.307716 -174.58577 -97.045708 175.82443 -3.5218577 60.936401
328000000 -1.9285887 56.288902 -97.511055 147.98914 -96.895081 148.9136 -3.5390122 31.726151
337500000 -1.9401249 27.202631 -96.547928 120.4902 -95.662506 117.80776 -3.5310075 2.7768843
347000000 -1.9201158 -2.0080678 -95.093842 97.286903 -95.079689 90.981758 -3.5428228 -26.138716
356500000 -1.8664137 -30.968273 -95.100723 64.486183 -94.784523 64.238693 -3.6108994 -55.194595
366000000 -1.8792665 -59.474998 -94.968719 30.367729 -94.261719 36.131268 -3.7359788 -84.545189
375500000 -1.964606 -88.439423 -94.925835 1.1317347 -94.25029 3.5174024 -3.8913262 -114.30595
385000000 -2.0536351 -118.5134 -93.318314 -29.833149 -93.477844 -34.890522 -4.0434089 -144.41977
394500000 -2.1020596 -148.73721 -93.157761 -58.52372 -94.415298 -58.423473 -4.1606531 -174.627
404000000 -2.1784174 -178.65536 -92.907654 -89.080643 -93.334396 -86.404854 -4.223999 155.35986
413500000 -2.3009982 151.22755 -93.49157 -114.40203 -93.089478 -118.01895 -4.2400198 125.69601
423000000 -2.3403995 120.7072 -93.541855 -148.43979 -92.720505 -145.233 -4.234437 96.419907
432500000 -2.318948 90.595428 -93.541183 -178.5527 -92.96196 -174.2962 -4.225585 67.559212
442000000 -2.3020267 61.5709 -92.144844 156.73877 -92.53804 159.60532 -4.2096019 39.104286
451500000 -2.2653513 32.917583 -92.453163 129.33992 -92.634697 131.67998 -4.1791673 10.954459
461000000 -2.2249494 4.262352 -92.393562 107.83895 -91.318588 105.76375 -4.1461864 -17.041473
470500000 -2.1904674 -24.093113 -91.245743 78.216492 -91.212646 79.13192 -4.1396618 -45.0247
480000000 -2.1783199 -52.162636 -90.047043 54.826279 -90.172501 55.430477 -4.1807866 -73.122353
489500000 -2.2014246 -80.275803 -88.670609 31.310041 -88.772614 27.683908 -4.2706208 -101.4964
499000000 -2.2587209 -109.0848 -86.707794 0.77755111 -86.814552 -0.55952817 -4.3904319 -130.25597
508500000 -2.3334458 -138.46332 -85.194077 -39.541611 -84.806442 -38.311081 -4.5045609 -159.33919
518000000 -2.373687 -167.68599 -84.007645 -77.934761 -84.103195 -76.811188 -4.5763235 171.50842
527500000 -2.4196768 163.10292 -84.311165 -118.61245 -84.26973 -118.79084 -4.5855236 142.56697
537000000 -2.4879966 133.62743 -84.978714 -157.15602 -85.102722 -155.4189 -4.5490737 114.03698
546500000 -2.493005 104.25487 -85.737465 172.65468 -85.62793 174.3855 -4.5031843 85.977333
556000000 -2.4466095 75.595062 -86.01593 144.75223 -86.275963 142.99174 -4.4742413 58.285858
565500000 -2.400486 47.558277 -86.927856 114.07529 -86.470222 113.34216 -4.4709415 30.756256
575000000 -2.3609581 19.697124 -86.679871 85.103394 -86.73143 86.967979 -4.4923267 3.2155972
584500000 -2.3260753 -7.8919797 -86.806015 59.24258 -86.757278 56.982857 -4.5288086 -24.360142
594000000 -2.2977836 -35.360622 -86.585083 30.233946 -86.616913 28.066229 -4.5663867 -52.00642
603500000 -2.2966692 -63.052071 -86.714066 2.0154831 -86.348015 2.2626176 -4.6199679 -79.820816
613000000 -2.3351386 -90.811546 -86.137398 -28.321451 -85.90435 -27.427408 -4.7084236 -107.84563
622500000 -2.4050639 -118.99866 -85.830162 -54.542332 -86.118904 -56.141582 -4.8287129 -136.20644
632000000 -2.4992993 -148.07178 -85.644066 -88.982162 -85.588669 -90.724106 -4.9631615 -165.01096
641500000 -2.5405629 -177.43025 -86.785469 -119.21747 -86.648514 -116.39048 -5.0781698 165.83449
651000000 -2.5837839 153.49606 -86.336792 -142.7359 -86.357483 -142.59326 -5.138505 136.58603
660500000 -2.6580064 124.50457 -86.069695 -171.6272 -86.622833 -172.19666 -5.135685 107.61137
670000000 -2.6751649 94.99704 -86.170982 160.53334 -86.133461 160.61417 -5.0917826 79.160469
679500000 -2.6265063 65.857895 -85.850899 131.871 -85.86039 135.12624 -5.0441837 51.208397
689000000 -2.5799983 37.85746 -85.798393 105.84998 -85.868584 105.92396 -5.0278749 23.494459
698500000 -2.5680134 10.216957 -85.720329 75.826637 -85.654022 76.30864 -5.0602589 -4.2769599
708000000 -2.5494273 -17.895746 -85.472862 48.07003 -85.12751 49.613266 -5.1293898 -32.279015
717500000 -2.5308473 -46.078167 -84.848282 20.814554 -84.862717 20.510437 -5.205462 -60.562611
727000000 -2.5493028 -73.678802 -84.671875 -7.9054856 -84.614235 -8.8202887 -5.2705202 -89.096809
736500000 -2.6204042 -101.59026 -84.779747 -36.315487 -84.466949 -37.888493 -5.3313718 -117.80202
746000000 -2.7363262 -130.82356 -84.307037 -65.866844 -84.221893 -65.526077 -5.4010358 -146.62828
755500000 -2.7994969 -160.63214 -83.972923 -96.182808 -83.923019 -94.756653 -5.4769983 -175.6145
765000000 -2.8288198 170.06639 -83.694588 -122.66843 -84.017525 -124.41474 -5.5394783 155.18071
774500000 -2.9251511 140.86475 -83.931801 -153.13638 -83.837761 -152.72566 -5.562542 125.85577
784000000 -3.0037491 110.66016 -83.582672 176.38586 -83.394684 177.3037 -5.5311489 96.717171
793500000 -2.9655755 80.51619 -83.476028 148.21423 -83.580101 148.60674 -5.4509358 68.09285
803000000 -2.885834 52.060001 -83.578621 120.19513 -83.564789 118.5637 -5.3517537 40.08577
812500000 -2.8722181 24.149439 -83.712227 90.533913 -83.400452 91.863167 -5.2724509 12.526004
822000000 -2.8673441 -4.281116 -83.096359 61.11367 -83.338104 63.005192 -5.2389755 -14.877378
831500000 -2.78548 -32.362041 -83.001694 34.491074 -83.284203 34.101505 -5.2480726 -42.385162
841000000 -2.7551682 -59.696037 -83.274513 6.3204532 -83.068115 5.7144794 -5.2760134 -70.141823
850500000 -2.8243771 -87.193123 -83.103409 -20.914585 -82.954041 -22.147223 -5.3009286 -98.139885
860000000 -2.8710582 -115.52061 -82.610634 -48.709793 -82.469078 -49.221401 -5.3182621 -126.25108
869500000 -2.9045775 -144.17033 -82.505272 -77.774452 -82.533646 -78.148529 -5.3340468 -154.37106
879000000 -2.9808836 -172.85529 -82.367363 -106.32642 -82.284416 -106.16565 -5.3541217 177.47713
888500000 -3.0438454 158.10182 -82.103775 -134.20209 -82.101799 -134.90477 -5.3768172 149.20628
898000000 -3.0650496 128.92122 -81.868011 -162.8376 -81.863556 -162.7852 -5.3873773 120.8496
907500000 -3.0831399 99.859917 -81.946854 168.23396 -81.969307 167.58467 -5.3634086 92.604034
917000000 -3.0691378 70.973076 -81.913506 138.99857 -81.9151 140.04591 -5.2960663 64.709709
926500000 -2.9878857 42.697662 -81.55497 111.4125 -81.802216 111.69939 -5.2055635 37.292507
936000000 -2.9124217 15.253716 -81.426331 83.602882 -81.6399 84.190323 -5.1295013 10.307668
945500000 -2.8712146 -11.894266 -81.492592 54.970345 -81.420853 55.86404 -5.0945582 -16.422905
955000000 -2.8280358 -39.083767 -81.455597 27.44084 -81.263168 26.695438 -5.1009908 -43.158081
964500000 -2.7967715 -65.939041 -81.045868 -0.20935835 -81.025436 0.045101874 -5.133688 -70.146889
974000000 -2.8097911 -92.66581 -80.807816 -27.547709 -80.806702 -27.849573 -5.1810603 -97.471436
983500000 -2.874002 -119.92613 -80.618279 -55.745979 -80.54541 -56.269619 -5.2363105 -125.02602
993000000 -2.9338481 -147.82715 -80.186554 -85.659119 -80.138184 -86.267456 -5.2940726 -152.6978
1002500000 -2.9812822 -176.21999 -80.141365 -115.06704 -79.997467 -114.21896 -5.3568096 179.47684
1012000000 -3.041039 155.46463 -80.270699 -142.50482 -80.077377 -143.26482 -5.4287968 151.40617
1021500000 -3.0849874 127.1571 -80.158905 -169.30109 -79.940742 -170.04993 -5.49718 123.09805
1031000000 -3.1336107 98.169449 -79.814583 162.73526 -79.712975 162.50903 -5.5321412 94.70993
1040500000 -3.1299551 69.02771 -79.748611 134.01717 -79.497681 134.04933 -5.5137544 66.470116
1050000000 -3.0473247 40.845646 -79.650055 104.31946 -79.585419 104.62473 -5.4567304 38.586609
1059500000 -2.9956241 13.686685 -79.648132 78.209862 -79.768433 77.809929 -5.3979468 11.143691
1069000000 -2.980953 -13.75382 -79.201683 52.088367 -79.200233 52.889057 -5.3692355 -15.965465
1078500000 -2.9538238 -41.636612 -78.832489 23.416584 -78.789139 23.845739 -5.3797517 -43.02058
1088000000 -2.9173238 -68.510277 -78.658524 -4.006022 -78.70607 -4.5299711 -5.4256225 -70.309608
1097500000 -2.9290264 -94.912338 -78.294128 -32.469707 -78.308601 -32.1478 -5.4937954 -97.962914
1107000000 -3.0250108 -122.55972 -77.977577 -59.98053 -77.934128 -60.174358 -5.5705585 -125.9447
1116500000 -3.1103222 -151.24295 -77.606537 -88.98777 -77.592613 -88.82737 -5.6492753 -154.1754
1126000000 -3.1558099 -179.70663 -77.532967 -117.91132 -77.377541 -118.19349 -5.7325649 177.37808
1135500000 -3.2290554 151.98984 -77.168144 -146.41548 -77.073082 -146.1244 -5.8169665 148.70903
1145000000 -3.3240733 122.63252 -76.823868 -174.95992 -76.737015 -174.73515 -5.8836474 119.83022
1154500000 -3.3968391 92.472351 -76.638634 156.1626 -76.712151 155.75621 -5.9018903 90.882454
1164000000 -3.3798451 63.073082 -76.49469 128.11929 -76.374969 128.66512 -5.8586144 62.088764
1173500000 -3.3151824 34.559723 -76.106491 100.15577 -76.103218 100.51607 -5.7741389 33.710453
1183000000 -3.299758 6.1396451 -75.877602 72.111725 -75.967232 72.360497 -5.6833544 5.8830261
1192500000 -3.2839224 -22.406193 -75.666702 43.431541 -75.646988 44.109299 -5.6149688 -21.503784
1202000000 -3.2224872 -50.317123 -75.359436 15.244325 -75.414986 15.902201 -5.5807872 -48.742821
1211500000 -3.1744385 -77.210854 -75.044014 -12.76234 -75.130424 -12.899108 -5.5808377 -76.1157
1221000000 -3.2132568 -104.43871 -74.575241 -39.024124 -74.636024 -39.197453 -5.6049185 -103.73363
1230500000 -3.3164442 -132.73254 -74.129402 -69.283264 -74.042992 -69.425667 -5.6424351 -131.55591
1240000000 -3.3613815 -161.12932 -73.674683 -99.186134 -73.693253 -98.866493 -5.6836953 -159.50853
1249500000 -3.3775682 170.65088 -73.250107 -127.61031 -73.190804 -127.72444 -5.7321911 172.38982
1259000000 -3.4634249 141.8782 -72.833443 -157.32582 -72.734756 -157.11087 -5.7835765 144.11339
1268500000 -3.5508597 112.47102 -72.302605 170.49055 -72.237686 171.00774 -5.8190303 115.66721
1278000000 -3.5631025 83.077858 -72.473755 138.80611 -72.459808 138.53418 -5.8129268 87.1959
1287500000 -3.5375323 53.996479 -72.701416 113.0778 -72.662315 113.00159 -5.7508497 58.957012
1297000000 -3.4927928 25.296043 -72.011536 84.709335 -71.938156 85.244667 -5.6517477 31.173059
1306500000 -3.423408 -2.7770393 -71.836159 56.248665 -71.860939 56.473495 -5.5451221 3.9441171
1316000000 -3.359998 -30.341251 -70.776093 29.677036 -70.831856 29.840431 -5.4670959 -22.943504
1325500000 -3.3047264 -57.643478 -69.814392 -2.5960848 -69.786209 -2.2001719 -5.4393396 -49.692936
1335000000 -3.2491775 -84.482544 -69.140038 -38.240063 -69.158028 -38.01548 -5.4511061 -76.51104
1344500000 -3.2438538 -110.91279 -69.141487 -72.596138 -69.124252 -72.316498 -5.4817553 -103.52579
1354000000 -3.298883 -137.88147 -68.91703 -105.50196 -68.935425 -105.54585 -5.5235043 -130.73532
1363500000 -3.3485305 -165.71245 -69.077797 -142.36406 -69.098259 -142.03432 -5.5776792 -158.05956
1373000000 -3.3552003 166.67551 -70.506386 -176.81195 -70.398117 -176.38782 -5.642005 174.49377
1382500000 -3.3891675 139.27702 -71.502678 162.62523 -71.504967 162.62704 -5.717175 146.75786
1392000000 -3.50616 110.88651 -70.761703 143.80934 -70.748665 143.44275 -5.7888408 118.689
1401500000 -3.5653479 81.674812 -68.813339 113.17239 -68.800117 113.39662 -5.8331518 90.395493
1411000000 -3.5017598 53.006447 -68.200081 71.996429 -68.167564 72.677811 -5.8234735 62.220108
1420500000 -3.4665775 25.328506 -69.090126 37.924141 -69.053947 38.017574 -5.7624617 34.391071
1430000000 -3.4808192 -2.471417 -69.103119 9.4002075 -69.044991 9.5910931 -5.6920094 7.0567999
1439500000 -3.4471102 -30.693518 -68.660461 -23.903877 -68.65744 -23.449615 -5.6436954 -19.885151
1449000000 -3.3414955 -57.850891 -68.601669 -59.445263 -68.615135 -59.36422 -5.6367726 -46.769215
1458500000 -3.2711754 -83.880966 -69.398796 -96.669029 -69.398331 -96.73941 -5.6677794 -73.825676
1468000000 -3.3281076 -110.3697 -70.762253 -128.16191 -70.708099 -127.90383 -5.7138948 -101.18543
1477500000 -3.4006157 -137.89716 -71.542725 -155.32463 -71.466347 -154.94814 -5.7577605 -128.77646
1487000000 -3.3961267 -165.42815 -72.002411 176.52341 -72.033592 176.50163 -5.8014741 -156.50519
1496500000 -3.4209187 167.59415 -72.695374 148.45609 -72.645737 148.45697 -5.863276 175.69389
1506000000 -3.5455174 139.88399 -73.145058 124.22599 -73.078209 124.70049 -5.9484911 147.73247
1515500000 -3.6730311 110.79176 -72.360878 94.748604 -72.374229 95.37326 -6.0380921 119.46745
1525000000 -3.6920552 81.650452 -72.736961 61.382439 -72.698914 61.267815 -6.0944433 90.794159
1534500000 -3.6974032 53.10236 -73.58493 30.878281 -73.553307 31.0511 -6.0994515 61.926189
1544000000 -3.7624762 24.232758 -74.268417 1.8747113 -74.216484 2.5876207 -6.051722 33.303623
1553500000 -3.7731488 -5.0850058 -74.806435 -25.326124 -74.893837 -25.470762 -5.9737577 5.2089591
1563000000 -3.6904559 -33.562214 -75.552734 -53.386993 -75.460915 -52.916935 -5.9029808 -22.409647
1572500000 -3.6267025 -61.029709 -76.124245 -79.49781 -76.016983 -79.369362 -5.8699808 -49.82869
1582000000 -3.6454668 -88.523071 -76.481567 -106.06882 -76.426689 -105.28948 -5.8768139 -77.334084
1591500000 -3.6694496 -116.17928 -76.702957 -131.99445 -76.812347 -132.4182 -5.9029036 -105.06384
1601000000 -3.6741087 -143.84413 -77.08992 -158.81816 -77.243431 -160.0748 -5.9262862 -132.96312
1610500000 -3.7365057 -171.6908 -77.824249 174.49669 -77.68187 174.38063 -5.9434018 -160.8605
1620000000 -3.8012407 160.21626 -78.108269 148.71082 -78.125908 148.86859 -5.9641833 171.33173
1629500000 -3.8586357 131.75261 -78.32402 123.05376 -78.437836 123.5508 -6.0001197 143.52249
1639000000 -3.9885464 102.81705 -78.809601 98.575829 -78.76545 98.786987 -6.0466013 115.50095
1648500000 -4.0802293 73.229378 -78.954323 72.16037 -78.803452 73.33416 -6.0844383 87.143631
1658000000 -4.0629807 43.561001 -79.2528 45.972225 -79.288132 46.917549 -6.0889993 58.582569
1667500000 -4.0565 14.579585 -79.772285 22.857994 -79.783722 22.796112 -6.0487223 30.140259
1677000000 -4.0840769 -14.471569 -79.984612 1.4172435 -79.914818 1.5282979 -5.9770937 2.0965166
1686500000 -4.0243134 -43.672977 -80.072189 -21.81362 -79.775986 -21.324562 -5.9034748 -25.490498
1696000000 -3.8897302 -71.673492 -79.563583 -45.116253 -79.715546 -44.73597 -5.8512254 -52.775803
1705500000 -3.8630264 -98.702171 -79.209946 -67.777596 -79.19619 -68.11026 -5.8231673 -79.99968
1715000000 -3.9215925 -126.20425 -78.823227 -93.366386 -78.860222 -93.354027 -5.8084917 -107.32679
1724500000 -3.8890488 -154.19456 -78.491142 -120.1153 -78.347778 -120.02387 -5.8002014 -134.75575
1734000000 -3.8354077 178.3784 -78.23011 -146.10979 -78.37899 -145.07707 -5.8028522 -162.15372
1743500000 -3.9095037 151.11542 -77.954094 -170.5948 -77.930008 -171.338 -5.8256345 170.55637
1753000000 -4.0190048 122.9882 -77.634781 163.85484 -77.541122 163.24637 -5.8717237 143.27284
1762500000 -4.0299497 94.312675 -77.195694 137.45636 -77.078522 137.5204 -5.9337344 115.76403
1772000000 -4.0525718 65.728325 -76.695694 111.46957 -76.657822 111.60578 -5.9937606 87.870926
1781500000 -4.1470289 37.171577 -76.341888 84.570709 -76.308968 85.161324 -6.0286021 59.665691
1791000000 -4.1634383 8.3199806 -76.054443 59.055115 -75.954941 59.539703 -6.0241647 31.419741
1800500000 -4.1010623 -20.55163 -75.588516 33.333599 -75.483871 33.952496 -5.9869909 3.400773
1810000000 -4.0575371 -48.829895 -74.982895 8.9852219 -75.073402 9.1918259 -5.9419837 -24.299194
1819500000 -4.0294814 -76.46756 -74.161407 -16.398756 -74.116928 -16.230078 -5.911263 -51.764729
1829000000 -3.9936478 -103.61304 -72.957001 -44.60545 -72.916016 -44.758274 -5.8973699 -79.147614
1838500000 -3.9512167 -130.71054 -71.988823 -75.70472 -72.011276 -75.126991 -5.8878965 -106.55379
1848000000 -3.9644947 -158.01649 -71.408783 -107.29617 -71.505699 -107.03073 -5.8739595 -133.97906
1857500000 -4.0383291 174.91927 -71.177559 -136.83112 -71.090836 -136.97865 -5.86588 -161.35558
1867000000 -4.0903091 147.86365 -70.44635 -166.45723 -70.430603 -166.2885 -5.885324 171.34435
1876500000 -4.1289296 120.32396 -69.735298 161.81868 -69.750313 162.28082 -5.9455252 144.01088
1886000000 -4.2296662 92.542763 -69.140678 128.89757 -69.125015 129.36385 -6.0371656 116.4276
1895500000 -4.3903432 64.524261 -69.031036 94.021019 -68.961021 94.104652 -6.1275396 88.412895
1905000000 -4.4873772 36.094696 -69.312309 61.020195 -69.265869 61.094563 -6.1800485 59.963856
1914500000 -4.4692693 7.6733088 -69.42231 30.890255 -69.395477 31.114054 -6.1811681 31.304495
1924000000 -4.4740777 -20.592388 -69.479279 -1.1692047 -69.406113 -1.1431937 -6.1501284 2.7656212
1933500000 -4.5070977 -49.134003 -70.13797 -35.322086 -70.048172 -35.038231 -6.1155233 -25.45048
1943000000 -4.4124131 -77.526497 -71.276962 -60.061638 -71.229942 -59.894756 -6.0900669 -53.382839
1952500000 -4.250226 -104.90748 -71.309158 -85.777847 -71.347313 -85.476509 -6.0670004 -81.229187
1962000000 -4.2195826 -132.11295 -71.432732 -109.08555 -71.428841 -109.04401 -6.0337029 -109.10546
1971500000 -4.2748508 -159.9991 -71.092606 -133.44164 -71.022705 -133.21408 -5.9867349 -136.91505
1981000000 -4.2305522 172.23886 -70.166679 -158.05505 -70.197792 -157.69211 -5.9380021 -164.47444
1990500000 -4.1817918 145.05009 -68.76973 173.25079 -68.786293 173.00177 -5.9128113 168.25812
2000000000 -4.2684908 117.56367 -67.629181 136.85039 -67.581696 137.12968 -5.9368243 141.09056
