!Keysight Technologies,N5242B,MY48420967,A.15.65.19
!Date: Monday, December 19, 2022 16:08:40
!Correction: S11(C  2-Port  ) 
!S21(C  2-Port  ) 
!S12(C  2-Port  ) 
!S22(C  2-Port  ) 
!S2P File: Measurements: S11, S21, S12, S22:
# Hz S  dB   R 50
100000000 -1.4798634 40.655067 -107.89989 146.36349 -115.17949 98.434929 -1.3670858 28.856564
109500000 -1.3639847 11.14831 -109.23705 168.78297 -115.51031 115.77657 -1.3452814 -1.0118312
119000000 -1.2444167 -17.028801 -108.00792 89.600601 -111.52971 100.54934 -1.337056 -30.780281
128500000 -1.2014805 -45.09322 -109.32969 57.069782 -112.43138 86.592796 -1.35067 -60.554047
138000000 -1.2079148 -73.879372 -107.77074 53.623329 -111.14719 34.728004 -1.3961242 -90.409073
147500000 -1.2402912 -102.79044 -108.78382 -3.2418885 -108.91669 8.1987457 -1.4844189 -120.4383
157000000 -1.3070986 -131.69722 -108.13336 -50.124214 -105.7225 -10.32075 -1.6198655 -150.72363
166500000 -1.4103464 -161.32518 -103.59566 -61.629776 -107.83535 -67.052475 -1.7916692 178.72659
176000000 -1.5217915 168.50444 -104.35305 -73.358597 -104.88761 -96.575912 -1.9707808 148.04677
185500000 -1.6072873 138.33521 -106.09613 -109.18589 -104.25021 -117.70252 -2.1191623 117.49792
195000000 -1.6569974 108.20339 -105.29333 -137.0876 -104.24659 -145.69446 -2.2084608 87.361771
204500000 -1.6420522 78.439186 -102.14591 -174.85127 -102.19581 179.03377 -2.2379432 57.773319
214000000 -1.582049 49.289925 -103.12914 153.19844 -102.7633 166.48338 -2.2342138 28.644852
223500000 -1.5540148 20.442526 -103.21503 124.52583 -101.49491 122.57956 -2.2344351 -0.27276221
233000000 -1.5228367 -8.2827454 -100.89695 85.335487 -101.93849 93.372406 -2.2692943 -29.278473
242500000 -1.4460776 -36.75227 -99.180443 69.100296 -101.04079 59.262466 -2.352298 -58.595142
252000000 -1.4280801 -65.047668 -100.06725 36.952709 -99.767097 38.139835 -2.4773242 -88.292885
261500000 -1.5138576 -93.819435 -98.6978 -11.184662 -100.12568 6.0619497 -2.6277463 -118.31504
271000000 -1.6004432 -123.47678 -97.286118 -37.538647 -98.520477 -23.818419 -2.7867854 -148.55284
280500000 -1.6444674 -153.35815 -97.817902 -48.664673 -98.013077 -52.879169 -2.9459789 -178.90715
290000000 -1.7299082 176.91299 -98.134987 -92.709999 -97.299065 -79.110634 -3.0994995 150.70888
299500000 -1.8727674 146.70143 -97.814796 -133.8643 -98.012436 -119.3201 -3.2352681 120.40991
309000000 -1.9387537 116.03627 -95.802528 -146.38176 -96.663193 -146.69395 -3.3344133 90.341415
318500000 -1.8982172 85.957138 -96.268669 -174.22 -96.858879 178.47137 -3.3832324 60.648651
328000000 -1.8820302 56.842834 -96.616341 150.49925 -96.578423 154.90155 -3.3885326 31.382763
337500000 -1.9015869 27.814171 -95.510521 123.28246 -95.776871 118.53784 -3.3798714 2.441736
347000000 -1.8721188 -1.5265223 -95.312035 97.061874 -95.495811 92.346771 -3.3941975 -26.405436
356500000 -1.8135247 -30.430399 -95.243637 66.911209 -94.202728 55.015736 -3.4594483 -55.435318
366000000 -1.8232404 -58.901886 -94.26207 31.015709 -93.494156 35.235394 -3.5794766 -84.85817
375500000 -1.910657 -87.950211 -93.584373 0.92891628 -94.249092 2.6126518 -3.7309015 -114.71717
385000000 -1.9839848 -117.93217 -93.464714 -30.862852 -93.983902 -29.439205 -3.8757541 -144.86604
394500000 -2.0300608 -148.15668 -93.989433 -56.078197 -93.050125 -56.51004 -3.9824209 -175.0486
404000000 -2.1176786 -178.10857 -93.353134 -86.65361 -93.582397 -81.346062 -4.0426021 154.97264
413500000 -2.2181401 151.80063 -93.063141 -115.01014 -93.889931 -110.66994 -4.0674253 125.34136
423000000 -2.2624681 121.26953 -93.073341 -146.37708 -92.831604 -143.6227 -4.0712585 96.088547
432500000 -2.2517481 91.150406 -92.916199 -174.14886 -92.215034 -172.31047 -4.0608196 67.199951
442000000 -2.2177906 62.103939 -92.57093 160.7413 -92.780388 161.99467 -4.0369539 38.657425
451500000 -2.1853535 33.560287 -92.007843 136.07127 -92.174232 132.201 -4.0030742 10.439639
461000000 -2.1537039 4.9048257 -92.29921 108.17374 -91.561508 105.40929 -3.9722145 -17.534258
470500000 -2.1136827 -23.61108 -91.247658 81.006851 -90.832191 83.964661 -3.9668159 -45.444946
480000000 -2.0893204 -51.624519 -89.983047 60.176125 -90.026962 62.424931 -4.0067091 -73.520355
489500000 -2.1133826 -79.680893 -88.209595 33.510536 -88.278641 33.23653 -4.0960197 -101.95866
499000000 -2.1753178 -108.508 -86.295891 3.5408258 -86.020683 4.47226 -4.2144556 -130.81656
508500000 -2.2328241 -137.84937 -84.227242 -35.432316 -84.230164 -36.315277 -4.3234038 -159.96684
518000000 -2.2755368 -167.05544 -83.273964 -78.377678 -83.519691 -78.842743 -4.388135 170.87416
527500000 -2.3256004 163.73428 -83.937386 -119.39819 -83.762474 -120.12128 -4.3965645 141.98689
537000000 -2.379257 134.23755 -84.528778 -158.01265 -84.730881 -156.27306 -4.3657622 113.53088
546500000 -2.3925445 104.91005 -85.149971 173.25659 -85.577171 172.61482 -4.3258414 85.48922
556000000 -2.3518906 76.254807 -85.972565 143.77171 -86.026581 141.08627 -4.3006458 57.726341
565500000 -2.297282 48.196293 -86.672401 112.93542 -86.155685 113.31029 -4.2987542 30.094156
575000000 -2.2603176 20.440495 -86.561615 85.881546 -86.619995 86.340736 -4.3153577 2.5095162
584500000 -2.2354844 -7.1944442 -86.465485 59.37101 -86.401352 58.366486 -4.3412781 -25.050325
594000000 -2.2042143 -34.804707 -86.546844 30.385675 -86.532036 30.125065 -4.3733053 -52.650936
603500000 -2.186511 -62.436535 -86.517601 2.6042624 -86.141449 3.0757117 -4.4259095 -80.42157
613000000 -2.2266948 -90.146545 -85.988861 -26.837109 -85.922264 -25.359276 -4.5138788 -108.48952
622500000 -2.3021903 -118.3471 -85.672928 -54.383278 -85.760338 -55.377533 -4.6334572 -136.97157
632000000 -2.3690362 -147.39812 -85.328072 -84.896523 -85.377655 -85.735718 -4.762836 -165.89333
641500000 -2.4146669 -176.73714 -85.891708 -119.89132 -85.579353 -117.49789 -4.869988 164.91203
651000000 -2.4667599 154.1935 -86.387413 -145.28302 -86.377609 -143.1703 -4.9239521 135.74405
660500000 -2.5278003 125.11052 -86.094353 -170.37561 -86.340065 -170.79449 -4.9205308 106.88838
670000000 -2.5459821 95.665627 -86.193314 159.70222 -86.074394 161.79651 -4.882268 78.483124
679500000 -2.5031612 66.558952 -85.945511 133.62128 -86.086258 133.36903 -4.843647 50.462162
689000000 -2.4526694 38.545242 -85.4646 105.06815 -85.707565 105.71391 -4.8323874 22.631075
698500000 -2.4366939 10.995837 -85.522614 78.339508 -85.141121 77.517952 -4.8581176 -5.2179141
708000000 -2.4298019 -17.122803 -85.143661 50.119461 -85.093376 48.768791 -4.9124393 -33.224751
717500000 -2.4073789 -45.423733 -84.837685 21.333483 -84.670082 21.373072 -4.9792323 -61.452183
727000000 -2.4083135 -73.051262 -84.542473 -6.6576943 -84.583557 -7.329844 -5.0481462 -89.909889
736500000 -2.4838014 -100.85062 -84.397774 -35.269035 -84.211494 -37.15377 -5.1183529 -118.58929
746000000 -2.5976408 -130.07536 -84.229645 -64.769577 -83.855003 -65.322563 -5.1908317 -147.50096
755500000 -2.6510875 -159.93307 -83.915688 -94.532013 -83.715538 -95.256805 -5.261024 -176.64259
765000000 -2.6801641 170.84605 -83.623505 -123.43433 -83.794716 -123.431 -5.3144712 154.06691
774500000 -2.778466 141.58167 -83.499939 -152.2515 -83.609367 -153.85657 -5.330514 124.81232
784000000 -2.8552954 111.32053 -83.567299 177.16867 -83.379608 178.56024 -5.2984986 95.824112
793500000 -2.8103068 81.262909 -83.231323 149.2784 -83.349052 149.55717 -5.2276382 67.275879
803000000 -2.7415519 52.771084 -83.323799 121.23834 -83.399437 121.01023 -5.1438999 39.206734
812500000 -2.7302742 24.839087 -83.301735 90.546158 -83.305679 92.437111 -5.0747008 11.506075
822000000 -2.7147455 -3.5754042 -83.132637 63.386658 -82.918221 63.096333 -5.0368762 -16.019415
831500000 -2.6480768 -31.700312 -82.907341 34.707336 -82.899567 35.39893 -5.0324421 -43.565586
841000000 -2.6150939 -59.10696 -82.936279 7.3383265 -83.02813 6.2216043 -5.0513763 -71.262756
850500000 -2.6664524 -86.64193 -82.815811 -21.677628 -82.571915 -21.710014 -5.0799103 -99.164925
860000000 -2.721633 -114.89033 -82.629539 -48.425526 -82.537468 -49.120033 -5.1086845 -127.25288
869500000 -2.7575111 -143.56357 -82.355156 -76.329651 -82.380516 -77.514648 -5.1342297 -155.48643
879000000 -2.8203716 -172.30284 -82.306129 -105.13404 -82.214058 -105.73787 -5.1556344 176.18279
888500000 -2.8801217 158.74309 -81.958267 -133.50967 -81.83728 -133.7468 -5.1693115 147.81622
898000000 -2.9127028 129.53198 -81.750931 -162.86278 -81.772667 -163.27466 -5.165894 119.51841
907500000 -2.9269328 100.38459 -81.755157 168.39886 -81.781548 168.69896 -5.1357484 91.416893
917000000 -2.9010618 71.540276 -81.738274 139.65109 -81.807487 140.12878 -5.0788531 63.625359
926500000 -2.8321273 43.36591 -81.557503 111.41275 -81.630592 112.6265 -5.0082793 36.202591
936000000 -2.7594674 15.96946 -81.279694 85.057182 -81.371765 85.205299 -4.9433084 9.1180172
945500000 -2.716522 -11.181048 -81.299355 56.173637 -81.254379 55.524593 -4.9011045 -17.742733
955000000 -2.6847441 -38.341354 -81.210716 27.959549 -81.221161 27.609283 -4.8903217 -44.548649
964500000 -2.6476097 -65.278641 -80.779755 0.62295175 -80.999321 0.79418564 -4.9106817 -71.479668
974000000 -2.6516113 -92.036697 -80.632698 -26.89613 -80.704735 -27.000359 -4.9565063 -98.664101
983500000 -2.7133031 -119.13051 -80.348915 -55.790703 -80.276634 -54.812054 -5.019217 -126.14933
993000000 -2.7736657 -147.02504 -79.996147 -84.96566 -79.960922 -84.886063 -5.0883417 -153.91533
1002500000 -2.8135538 -175.45752 -79.829735 -114.79656 -79.760757 -115.17857 -5.1556659 178.07712
1012000000 -2.8606915 156.27043 -79.985619 -142.12141 -80.047173 -142.68324 -5.2164502 149.89528
1021500000 -2.9150796 127.9379 -80.042038 -170.36147 -79.991539 -170.44225 -5.2622256 121.62302
1031000000 -2.9583948 98.905128 -79.649246 162.29782 -79.725143 162.74413 -5.2837853 93.377388
1040500000 -2.9416192 69.762993 -79.403023 134.07561 -79.550339 134.7491 -5.2753372 65.284126
1050000000 -2.8723605 41.6926 -79.426964 105.75816 -79.302086 105.69073 -5.2418814 37.451485
1059500000 -2.8232815 14.5548 -79.56691 77.881332 -79.502838 77.90313 -5.1979876 9.9256477
1069000000 -2.8071289 -12.919517 -79.058128 51.520489 -79.10183 52.844334 -5.1642065 -17.349539
1078500000 -2.7842481 -40.735504 -78.61805 24.145964 -78.806419 24.337212 -5.1576376 -44.513386
1088000000 -2.7469234 -67.674683 -78.556938 -4.5309377 -78.588684 -4.321734 -5.1886964 -71.757256
1097500000 -2.7559216 -94.130379 -78.255745 -32.559196 -78.143188 -31.740196 -5.2545075 -99.261292
1107000000 -2.8455019 -121.68425 -77.870659 -60.101418 -77.739769 -60.235973 -5.3441901 -127.14944
1116500000 -2.9326491 -150.36925 -77.617119 -88.911156 -77.502708 -88.803307 -5.4411664 -155.45401
1126000000 -2.9716852 -178.8829 -77.399826 -117.66779 -77.195305 -117.83543 -5.5303359 175.89481
1135500000 -3.0332098 152.82988 -77.094002 -146.64955 -77.015007 -146.33932 -5.5984497 147.04167
1145000000 -3.134619 123.52197 -76.629242 -174.35867 -76.625771 -174.62599 -5.6367469 118.12255
1154500000 -3.2028935 93.299507 -76.60743 155.21275 -76.562317 155.49153 -5.6415434 89.303589
1164000000 -3.1823537 63.835659 -76.507118 127.37233 -76.482803 127.575 -5.6116047 60.701271
1173500000 -3.124619 35.410164 -76.159332 99.151512 -76.211601 99.410164 -5.5533767 32.407131
1183000000 -3.1079128 6.9587874 -75.995018 71.698814 -76.119087 71.346405 -5.4787822 4.4635801
1192500000 -3.0950341 -21.616463 -75.810875 43.18681 -75.810379 43.173977 -5.4074335 -23.159843
1202000000 -3.0337002 -49.439369 -75.474358 15.040795 -75.555763 14.777472 -5.3578296 -50.560783
1211500000 -2.9880512 -76.441193 -75.158318 -13.110426 -75.235611 -13.437859 -5.3430595 -77.895142
1221000000 -3.0311198 -103.77387 -74.997772 -40.752888 -74.942169 -40.203426 -5.3644018 -105.33105
1230500000 -3.1220841 -132.00455 -74.290039 -68.774857 -74.36116 -68.774605 -5.4132657 -133.03101
1240000000 -3.1647303 -160.39378 -73.890854 -98.713806 -73.902542 -99.017265 -5.475441 -161.04573
1249500000 -3.1840191 171.351 -73.537201 -127.5727 -73.587036 -128.01898 -5.53052 170.63466
1259000000 -3.263236 142.58299 -73.15757 -157.26744 -73.129974 -157.18547 -5.5662413 142.15199
1268500000 -3.3515859 113.15327 -72.679802 171.60699 -72.66217 171.50345 -5.572556 113.67471
1278000000 -3.3658776 83.669884 -72.61013 139.6062 -72.59201 139.49925 -5.5484262 85.372139
1287500000 -3.332689 54.578545 -72.912399 110.32127 -72.968987 109.85868 -5.4956579 57.372707
1297000000 -3.285167 25.972172 -72.772697 85.026436 -72.827774 85.347382 -5.4204173 29.709486
1306500000 -3.2257738 -2.0415962 -72.375153 55.57568 -72.454178 55.817039 -5.3398647 2.3886898
1316000000 -3.1647573 -29.56542 -71.896095 31.391373 -71.928909 30.652168 -5.2610335 -24.653297
1325500000 -3.1077967 -56.851746 -70.83255 0.7828626 -70.870354 0.79544747 -5.211627 -51.533123
1335000000 -3.0590353 -83.684265 -70.125092 -32.480824 -70.113777 -32.577297 -5.198554 -78.312943
1344500000 -3.0517631 -110.09366 -69.915817 -67.255524 -69.916992 -67.098183 -5.2209973 -105.15126
1354000000 -3.1035056 -137.0089 -69.852425 -98.264046 -69.876724 -98.462547 -5.2763853 -132.19817
1363500000 -3.1524377 -164.77115 -69.586693 -131.12724 -69.528275 -131.10182 -5.3546386 -159.53517
1373000000 -3.1551805 167.58365 -69.695938 -167.88075 -69.675102 -167.4236 -5.4360733 172.84297
1382500000 -3.1888678 140.21002 -71.109299 160.37732 -71.114532 160.48657 -5.4927058 144.93338
1392000000 -3.2972383 111.91196 -72.35717 141.52269 -72.354263 141.6163 -5.526258 116.78303
1401500000 -3.3548584 82.661278 -70.683907 122.47147 -70.756172 122.75872 -5.5449986 88.622589
1411000000 -3.2961578 54.006413 -68.876282 85.915581 -68.865631 85.995438 -5.5402327 60.703335
1420500000 -3.253829 26.355572 -69.379204 48.006165 -69.374741 47.852604 -5.5049434 33.061512
1430000000 -3.2700448 -1.4405726 -69.845123 20.475739 -69.85199 20.25078 -5.4606957 5.63097
1439500000 -3.2347953 -29.558357 -69.274048 -7.6424866 -69.256126 -7.6264758 -5.4276371 -21.576962
1449000000 -3.1274393 -56.669144 -68.60054 -41.117413 -68.656189 -40.929714 -5.4117298 -48.647942
1458500000 -3.0660911 -82.686035 -68.324089 -77.481499 -68.363022 -77.647331 -5.4217734 -75.688965
1468000000 -3.1180954 -109.15321 -69.114906 -114.54735 -69.080338 -114.55273 -5.4558482 -102.84594
1477500000 -3.1890886 -136.65578 -70.051704 -144.52097 -70.089241 -144.46242 -5.5161462 -130.23178
1487000000 -3.1868577 -164.14453 -70.502579 -172.87674 -70.556572 -172.86502 -5.5937533 -157.87418
1496500000 -3.2056882 168.80341 -70.802338 156.81673 -70.787704 156.49948 -5.6725626 174.19194
1506000000 -3.3287463 141.07208 -71.555641 127.45296 -71.51458 127.57767 -5.7419705 145.9503
1515500000 -3.447453 112.01912 -71.438431 103.63676 -71.450783 103.96365 -5.8008337 117.46566
1525000000 -3.4654837 82.816444 -70.980011 69.496986 -71.013245 69.428345 -5.8356924 88.911911
1534500000 -3.4724257 54.233799 -71.648338 36.375046 -71.630569 36.289215 -5.8392034 60.363121
1544000000 -3.533288 25.354931 -72.402916 5.30089 -72.356758 5.7891583 -5.8150663 31.964556
1553500000 -3.5446436 -3.9377813 -73.152519 -23.697031 -73.186035 -23.46718 -5.7679968 3.8082535
1563000000 -3.4601104 -32.391174 -73.78907 -50.531094 -73.773911 -50.966263 -5.7118258 -24.082798
1572500000 -3.4022737 -59.877586 -74.297455 -79.055298 -74.349693 -78.666649 -5.6641097 -51.764122
1582000000 -3.4200006 -87.360817 -74.874382 -106.07776 -74.835258 -106.22726 -5.6404791 -79.333847
1591500000 -3.4376872 -115.05183 -75.237793 -132.97144 -75.294205 -133.0462 -5.6468401 -106.91686
1601000000 -3.4528224 -142.68932 -75.567184 -159.44682 -75.522148 -160.93227 -5.6800833 -134.6082
1610500000 -3.5081382 -170.52893 -75.974022 171.36362 -75.890594 171.51033 -5.7276783 -162.44823
1620000000 -3.5654249 161.2261 -76.509842 143.80112 -76.585426 144.26088 -5.7713828 169.56447
1629500000 -3.628535 132.7558 -77.143951 118.98643 -77.139648 118.09297 -5.801609 141.43343
1639000000 -3.745311 103.79286 -77.517418 93.490959 -77.60183 93.056458 -5.8180757 113.20055
1648500000 -3.8326809 74.060066 -78.031128 67.671883 -77.804863 68.396454 -5.8238983 84.915657
1658000000 -3.81831 44.401207 -78.187302 41.118797 -78.270233 42.016289 -5.8190293 56.639481
1667500000 -3.8064959 15.404118 -78.766319 14.866059 -78.899529 14.905661 -5.7989779 28.440554
1677000000 -3.8311934 -13.661779 -79.452423 -7.5968337 -79.42907 -7.3342137 -5.7593341 0.40498352
1686500000 -3.7689507 -42.755928 -79.758926 -29.978271 -79.629402 -29.168644 -5.7016144 -27.388824
1696000000 -3.6423628 -70.725769 -79.610016 -51.834747 -79.829247 -51.988277 -5.6357498 -54.904369
1705500000 -3.6188607 -97.808182 -79.487404 -71.921272 -79.66938 -73.457512 -5.5779223 -82.183441
1715000000 -3.6702366 -125.26775 -78.957298 -95.741386 -78.936981 -96.791855 -5.5439572 -109.3326
1724500000 -3.6399961 -153.12863 -78.456406 -122.20352 -78.389862 -121.88615 -5.5427394 -136.48366
1734000000 -3.5904217 179.43555 -78.083374 -148.97804 -78.199997 -149.4987 -5.5712457 -163.73393
1743500000 -3.6591637 152.16042 -77.870903 -173.3439 -78.008514 -173.97661 -5.616188 168.86151
1753000000 -3.7626886 124.12935 -77.656227 161.01582 -77.656403 160.27145 -5.6614108 141.30251
1762500000 -3.7821414 95.411217 -77.31694 134.3927 -77.336548 134.49788 -5.696125 113.61192
1772000000 -3.7974846 66.739716 -77.031738 108.098 -76.97744 108.33788 -5.7190752 85.812431
1781500000 -3.8730161 38.219818 -76.699356 82.49559 -76.671074 82.472649 -5.7348814 57.922382
1791000000 -3.8997238 9.4889641 -76.528351 56.60704 -76.432732 56.738766 -5.7457585 29.978077
1800500000 -3.8335547 -19.311672 -76.203682 30.135052 -76.183823 30.771791 -5.7460876 2.0421653
1810000000 -3.7773139 -47.550953 -75.994904 4.8312869 -76.071602 4.6655788 -5.7279353 -25.810623
1819500000 -3.7647724 -75.033882 -76.012314 -16.457998 -75.939125 -16.454046 -5.6909513 -53.505272
1829000000 -3.7320869 -102.17809 -74.608139 -35.05843 -74.503044 -35.108093 -5.6460662 -80.991852
1838500000 -3.6797125 -129.32602 -72.689293 -62.700569 -72.704857 -62.948143 -5.6104817 -108.27914
1848000000 -3.6904674 -156.43523 -70.979218 -95.431831 -71.019356 -95.427666 -5.5996122 -135.44844
1857500000 -3.7680457 176.51974 -70.280594 -130.27594 -70.279289 -130.80118 -5.6206679 -162.64061
1867000000 -3.8200703 149.33612 -69.824371 -163.30975 -69.842903 -163.13042 -5.6717615 170.00632
1876500000 -3.8455808 121.87384 -69.340149 164.06958 -69.406494 164.36366 -5.741015 142.42207
1886000000 -3.951473 94.082527 -68.963585 132.57675 -68.967812 132.52104 -5.8102322 114.59858
1895500000 -4.1230221 65.856888 -68.680809 98.218384 -68.632301 98.574104 -5.8647809 86.561096
1905000000 -4.2112503 37.321121 -68.747986 63.879147 -68.739395 63.822189 -5.9004555 58.343052
1914500000 -4.2054501 8.9041739 -69.176735 32.570976 -69.183113 32.337051 -5.9211845 29.991884
1924000000 -4.225934 -19.417061 -69.273201 2.0204949 -69.246025 1.7223774 -5.9298863 1.577803
1933500000 -4.2533922 -47.944435 -69.468048 -31.940382 -69.416321 -31.885427 -5.9232678 -26.817942
1943000000 -4.1687679 -76.13929 -71.129974 -62.463242 -71.105118 -62.064255 -5.8955479 -55.098183
1952500000 -4.0300298 -103.48539 -71.417305 -85.443642 -71.472237 -85.486877 -5.8468337 -83.175903
1962000000 -3.9928968 -130.71579 -72.057648 -105.73902 -72.065216 -105.8854 -5.7876368 -110.98885
1971500000 -4.0325584 -158.44165 -71.385643 -127.89887 -71.400658 -127.91076 -5.7356935 -138.54044
1981000000 -4.0119767 173.82164 -70.562691 -151.52277 -70.570869 -151.65657 -5.7088995 -165.92172
1990500000 -3.9669173 146.48888 -69.155891 -176.34071 -69.205383 -176.86067 -5.7182994 166.72391
2000000000 -4.0253625 118.93687 -67.201805 151.08867 -67.207352 150.94917 -5.7624826 139.25337
