!Keysight Technologies,N5242B,MY48420967,A.15.65.19
!Date: Monday, December 19, 2022 09:41:41
!Correction: S11(C  2-Port  ) 
!S21(C  2-Port  ) 
!S12(C  2-Port  ) 
!S22(C  2-Port  ) 
!S2P File: Measurements: S11, S21, S12, S22:
# Hz S  dB   R 50
100000000 -1.2910999 40.853756 -109.60305 155.09229 -112.03785 140.83261 -1.3260059 31.328323
109500000 -1.1708822 11.46428 -109.25541 134.42552 -110.02515 136.84219 -1.3168925 1.7348965
119000000 -1.0412955 -16.677242 -112.44635 112.26057 -114.38243 130.68819 -1.3255064 -27.789513
128500000 -0.99105924 -44.718128 -108.46412 50.110176 -109.53394 110.3214 -1.3605521 -57.340649
138000000 -0.98670417 -73.513237 -107.80687 55.381222 -110.80746 46.289043 -1.4304217 -86.99408
147500000 -1.0173814 -102.43642 -105.30361 9.3083 -107.30545 27.84976 -1.5452513 -116.84932
157000000 -1.077332 -131.42255 -108.92455 -19.42996 -108.71359 10.655679 -1.7113904 -146.98645
166500000 -1.1798377 -161.09727 -105.61177 -43.986126 -107.87738 -53.443924 -1.9197255 -177.4088
176000000 -1.2897369 168.64549 -104.45634 -61.149284 -109.0761 -62.789139 -2.1400197 152.00925
185500000 -1.3782464 138.42209 -108.93546 -88.983505 -103.89651 -94.251389 -2.332401 121.51576
195000000 -1.4347422 108.23723 -104.49525 -136.46213 -105.51257 -127.81929 -2.4667425 91.401207
204500000 -1.4262823 78.426857 -103.97983 -159.93213 -103.58845 -159.91446 -2.5389538 61.833519
214000000 -1.3717734 49.24202 -100.97298 177.5475 -101.60831 165.15874 -2.5729942 32.761017
223500000 -1.349915 20.355549 -103.37283 131.59325 -101.52097 136.65427 -2.6079037 3.9582057
233000000 -1.3229003 -8.3808651 -100.82676 113.67565 -103.13061 115.88367 -2.676966 -24.866877
242500000 -1.246565 -36.877651 -100.16786 86.733261 -102.67563 79.983711 -2.7944226 -53.949219
252000000 -1.2288401 -65.176697 -100.64998 52.715069 -99.127495 47.996971 -2.9549961 -83.387741
261500000 -1.3101104 -93.978531 -100.61384 14.743111 -99.873276 20.897123 -3.1418078 -113.16027
271000000 -1.3899909 -123.63414 -98.038078 -16.162693 -99.293343 -10.725775 -3.3384402 -143.17485
280500000 -1.4267018 -153.48232 -100.07261 -41.053642 -97.887535 -37.594116 -3.5352831 -173.33705
290000000 -1.5062745 176.78383 -100.06507 -75.313835 -100.31434 -68.055229 -3.7266452 156.43602
299500000 -1.6397538 146.5853 -99.901894 -114.34406 -98.818573 -90.590042 -3.8992641 126.23924
309000000 -1.6944935 115.97852 -97.026962 -121.33633 -97.496689 -136.65062 -4.0337424 96.211288
318500000 -1.6497326 85.965942 -97.44075 -161.4427 -97.265442 -162.91736 -4.11658 66.522804
328000000 -1.6276028 56.86742 -97.906227 161.80093 -96.88121 168.75948 -4.1530347 37.265541
337500000 -1.636077 27.868361 -96.265633 141.05325 -96.581764 133.22003 -4.1710939 8.3694439
347000000 -1.5953702 -1.4090248 -95.158669 118.90913 -95.300034 107.2495 -4.2129483 -20.379847
356500000 -1.5277779 -30.289608 -96.337326 80.97625 -95.874466 78.700989 -4.3110561 -49.267277
366000000 -1.5257235 -58.769749 -94.73719 58.028332 -94.553017 59.16592 -4.4690652 -78.549461
375500000 -1.5947052 -87.813354 -94.289764 22.03228 -94.99073 14.992577 -4.6621466 -108.33517
385000000 -1.652004 -117.79185 -94.277344 -4.1402936 -94.593811 -8.4456482 -4.8512001 -138.51984
394500000 -1.6864672 -148.0197 -94.505859 -35.688828 -93.937599 -39.26796 -4.9984579 -168.8485
404000000 -1.7630754 -178.00519 -94.076721 -68.760223 -94.675636 -67.177551 -5.088407 160.95107
413500000 -1.8553532 151.86133 -93.285286 -97.966667 -93.87915 -92.63324 -5.1336102 131.06714
423000000 -1.8913268 121.32137 -93.502991 -121.11805 -93.897331 -123.47541 -5.1517301 101.55794
432500000 -1.8789709 91.174141 -93.788551 -155.23291 -93.08934 -155.11353 -5.1495104 72.424889
442000000 -1.8486738 62.075718 -92.732841 179.18044 -92.872879 -176.79791 -5.1295576 43.669704
451500000 -1.8128287 33.464344 -92.245804 156.2959 -92.560982 153.95306 -5.0987325 15.294961
461000000 -1.7744904 4.7625556 -92.760376 127.39433 -91.490448 122.73612 -5.0710945 -12.767729
470500000 -1.7315401 -23.795347 -91.307861 96.428551 -91.194382 96.277443 -5.0723834 -40.691349
480000000 -1.7039256 -51.894775 -90.146133 72.115074 -90.152306 72.635742 -5.1261554 -68.715836
489500000 -1.7162535 -80.027306 -89.048737 45.887272 -89.271255 43.805344 -5.2348332 -97.08165
499000000 -1.7635252 -108.9026 -88.070755 17.377048 -87.827721 14.980268 -5.3747883 -125.90458
508500000 -1.8149709 -138.28694 -86.586746 -15.792557 -86.791992 -13.903069 -5.5046635 -155.09233
518000000 -1.8520465 -167.52193 -84.931282 -48.653603 -84.860664 -47.030113 -5.5847983 175.64255
527500000 -1.8913796 163.26682 -83.624359 -88.487366 -83.625023 -88.484505 -5.5976462 146.61786
537000000 -1.9374987 133.7825 -83.212723 -130.77144 -82.964615 -129.34509 -5.5633378 118.04398
546500000 -1.9478731 104.45172 -83.355835 -171.40953 -83.604042 -171.10788 -5.5208521 89.938461
556000000 -1.9073743 75.796875 -84.54837 150.19527 -84.620094 150.95619 -5.4954357 62.163548
565500000 -1.8530236 47.750313 -85.284279 120.85541 -85.188652 121.1575 -5.4953742 34.551445
575000000 -1.8146803 19.984926 -86.308395 89.069229 -85.943878 90.821526 -5.5193796 7.0047002
584500000 -1.7853317 -7.6615973 -86.475883 61.790653 -86.525528 62.946575 -5.5590243 -20.502464
594000000 -1.7463125 -35.266537 -86.712761 35.130791 -86.705551 32.508186 -5.610033 -48.020889
603500000 -1.7201015 -62.911144 -87.321037 7.4235482 -86.592621 6.4681706 -5.6879473 -75.675415
613000000 -1.7479339 -90.643822 -86.970078 -22.301878 -86.706184 -21.031868 -5.8083267 -103.61351
622500000 -1.8058569 -118.85854 -86.568062 -50.903591 -86.671951 -50.89563 -5.9652424 -131.99615
632000000 -1.8570714 -147.89771 -86.567253 -79.089775 -86.714149 -79.496628 -6.1324377 -160.89455
641500000 -1.8902866 -177.2081 -86.34816 -115.29422 -86.339272 -114.15876 -6.2738233 169.8313
651000000 -1.9346656 153.73991 -87.010353 -144.84201 -87.090149 -142.48743 -6.3528886 140.49744
660500000 -1.9881393 124.6883 -87.767982 -166.42326 -87.740082 -167.50922 -6.3602591 111.44588
670000000 -1.9992635 95.288559 -87.47084 163.73732 -87.822029 164.53958 -6.3266635 82.876022
679500000 -1.9576458 66.233559 -87.503784 137.73674 -87.386734 139.34087 -6.2923603 54.756237
689000000 -1.9116756 38.231693 -87.127892 114.62738 -87.539825 112.91947 -6.2880397 26.880877
698500000 -1.8914645 10.65489 -87.085716 85.281441 -86.885216 83.467552 -6.3271804 -0.98518968
708000000 -1.8718441 -17.473583 -86.852341 54.113461 -86.431816 56.827629 -6.4047275 -29.011173
717500000 -1.8419319 -45.782101 -86.21666 26.367163 -86.102074 27.893673 -6.4998059 -57.277897
727000000 -1.8372366 -73.472336 -86.186783 0.80467218 -85.967308 0.098217361 -6.5976 -85.808533
736500000 -1.8921795 -101.3738 -85.883659 -28.041401 -85.583206 -30.679865 -6.6977615 -114.59407
746000000 -1.9798428 -130.65082 -85.536331 -58.126011 -85.488235 -59.758049 -6.7996264 -143.65163
755500000 -2.0199695 -160.52844 -85.128578 -89.009659 -85.179848 -87.948051 -6.8921695 -172.99576
765000000 -2.0437491 170.1629 -85.185852 -118.66548 -85.207962 -117.02088 -6.9567885 157.44194
774500000 -2.1287031 140.8129 -85.052895 -145.57439 -85.119736 -146.57806 -6.9711065 127.85912
784000000 -2.1928432 110.54269 -84.741219 -176.25835 -85.016014 -176.65533 -6.9225736 98.530792
793500000 -2.1560416 80.473297 -84.72654 154.46304 -85.087021 155.56161 -6.8241839 69.688042
803000000 -2.1005888 51.912941 -84.99836 126.28042 -84.83329 126.53123 -6.7107701 41.400555
812500000 -2.0893185 23.888067 -84.969109 97.051071 -84.955345 97.14798 -6.615912 13.553408
822000000 -2.0710855 -4.5889039 -84.628212 68.198242 -84.608307 68.653938 -6.5593786 -14.070293
831500000 -2.0073752 -32.791599 -84.473862 41.16843 -84.543617 39.809994 -6.545599 -41.695602
841000000 -1.9759173 -60.339981 -84.415665 12.16687 -84.715584 11.204759 -6.562386 -69.477921
850500000 -2.0173945 -88.021233 -84.511093 -16.983084 -84.194855 -17.365112 -6.590713 -97.482765
860000000 -2.0558059 -116.38955 -84.209633 -45.83345 -84.040077 -44.114536 -6.6188011 -125.69064
869500000 -2.081459 -145.18008 -83.895294 -72.645477 -83.814445 -73.378906 -6.6411819 -154.05133
879000000 -2.1370974 -174.03781 -83.791168 -102.11758 -83.731804 -102.46124 -6.6535583 177.4828
888500000 -2.1866536 156.91525 -83.607361 -132.09599 -83.647003 -130.32803 -6.6516414 148.97285
898000000 -2.2124231 127.65729 -83.441505 -159.92982 -83.429382 -159.15134 -6.6280208 120.52649
907500000 -2.2283723 98.488052 -83.426796 171.64262 -83.51548 172.08194 -6.5721827 92.290047
917000000 -2.209784 69.644455 -83.42482 142.80771 -83.507751 142.69397 -6.4843946 64.401955
926500000 -2.1494527 41.491901 -83.124817 114.68913 -83.366585 115.63449 -6.3831282 36.936207
936000000 -2.0857117 14.103662 -83.169968 87.819466 -83.223289 87.777168 -6.294055 9.8651066
945500000 -2.0472991 -13.062241 -83.273323 60.253601 -83.175156 59.556206 -6.2358804 -16.935165
955000000 -2.0148695 -40.234978 -82.989471 29.321302 -82.989311 30.848871 -6.2180963 -43.647816
964500000 -1.9761984 -67.16983 -82.769104 3.0076461 -82.736618 2.6337092 -6.2412539 -70.47377
974000000 -1.9737848 -93.950264 -82.550255 -23.958941 -82.635941 -24.176903 -6.2984948 -97.555794
983500000 -2.0208862 -121.08805 -82.517609 -51.245335 -82.39299 -52.060009 -6.3769245 -124.9491
993000000 -2.0615621 -148.97971 -81.91568 -82.123047 -81.902176 -80.909615 -6.462646 -152.64186
1002500000 -2.0867651 -177.37099 -81.658943 -111.41347 -81.692505 -111.72819 -6.5451636 179.40044
1012000000 -2.1253459 154.40263 -81.962036 -141.40646 -81.747475 -140.50281 -6.6185069 151.23763
1021500000 -2.1666105 126.1143 -82.147888 -169.81615 -82.041008 -169.20988 -6.6752625 122.95776
1031000000 -2.1989369 97.163605 -81.708183 163.68132 -81.725494 162.5603 -6.7030554 94.683029
1040500000 -2.1840093 68.162155 -81.627487 135.64624 -81.527916 135.69902 -6.6946802 66.548866
1050000000 -2.1266038 40.192482 -81.552109 108.53864 -81.626305 109.27454 -6.6571479 38.68206
1059500000 -2.0846877 13.091495 -81.317421 79.548752 -81.368484 80.986351 -6.6123929 11.144611
1069000000 -2.0631044 -14.354688 -81.161316 51.343334 -81.326271 51.639004 -6.5832415 -16.105862
1078500000 -2.0383694 -42.139347 -81.142197 24.890678 -81.205589 25.702408 -6.5876336 -43.224224
1088000000 -2.0061705 -69.078217 -80.925125 -2.1089699 -81.029213 -2.9440932 -6.639452 -70.428444
1097500000 -2.0046005 -95.615135 -80.582771 -30.681763 -80.65387 -30.63538 -6.7370267 -97.914047
1107000000 -2.0665884 -123.27314 -80.224686 -59.560692 -80.264755 -59.563076 -6.8636713 -125.83699
1116500000 -2.1312349 -151.99623 -79.988419 -86.940514 -79.962425 -87.349815 -6.9958725 -154.24179
1126000000 -2.1607549 179.43658 -79.881218 -115.51679 -79.890755 -116.43857 -7.1138296 176.93471
1135500000 -2.2060599 151.02829 -79.723724 -144.38631 -79.455444 -145.25363 -7.2016835 147.83943
1145000000 -2.2808304 121.61687 -79.372353 -171.61705 -79.42675 -172.06671 -7.2471738 118.64899
1154500000 -2.3400753 91.379898 -79.182465 159.7879 -79.088478 159.13052 -7.2469106 89.53331
1164000000 -2.3310339 61.911385 -79.063805 129.58194 -79.065514 129.70915 -7.199244 60.654568
1173500000 -2.2817113 33.401642 -78.825638 101.43092 -78.898552 101.922 -7.1148114 32.113983
1183000000 -2.2665923 4.8582597 -78.578468 73.455185 -78.607132 73.500832 -7.0128393 3.9871991
1192500000 -2.260108 -23.782957 -78.605141 45.462807 -78.519295 45.382133 -6.9169755 -23.765423
1202000000 -2.2126515 -51.711525 -78.478188 17.078487 -78.522903 17.662718 -6.8489232 -51.255714
1211500000 -2.1711535 -78.877602 -78.163559 -9.2177811 -78.185387 -9.7051582 -6.8225679 -78.66655
1221000000 -2.2008066 -106.42027 -77.886292 -38.10548 -77.89975 -38.253258 -6.8408604 -106.19049
1230500000 -2.2769043 -134.83217 -77.775826 -64.53228 -77.816696 -64.237869 -6.8904147 -133.98105
1240000000 -2.3100779 -163.35471 -77.207138 -92.769676 -77.213577 -93.487984 -6.9491873 -162.12968
1249500000 -2.3169663 168.22105 -76.688972 -121.85809 -76.617752 -122.45036 -6.9978428 169.41457
1259000000 -2.3788822 139.27644 -76.506027 -152.20749 -76.450386 -152.70335 -7.0173035 140.78186
1268500000 -2.4531863 109.76492 -76.258156 178.74937 -76.183235 178.80849 -6.995811 112.16619
1278000000 -2.4654238 80.27713 -75.875076 148.42189 -75.980797 148.29999 -6.9337449 83.754982
1287500000 -2.4380977 51.210171 -75.898285 119.00536 -75.926552 118.44463 -6.8396935 55.685123
1297000000 -2.4010525 22.653761 -76.075203 90.558395 -76.07312 90.966537 -6.7260485 28.016005
1306500000 -2.3565514 -5.3070846 -76.280312 63.416237 -76.259979 63.060398 -6.6090784 0.73577482
1316000000 -2.3091311 -32.805847 -75.922333 39.163532 -75.902824 39.577988 -6.5087571 -26.227873
1325500000 -2.2604818 -60.062477 -74.942848 12.056131 -74.877739 12.475993 -6.4411736 -52.943027
1335000000 -2.2189567 -86.871758 -74.331337 -20.309225 -74.37072 -20.074957 -6.4139905 -79.596626
1344500000 -2.2129655 -113.32193 -74.398132 -48.869797 -74.409523 -49.033226 -6.4311962 -106.31879
1354000000 -2.2504401 -140.29962 -73.909485 -79.224548 -73.875618 -79.248337 -6.486814 -133.2709
1363500000 -2.2804461 -168.0452 -73.867874 -108.76558 -73.790619 -108.59074 -6.5685954 -160.54962
1373000000 -2.275224 164.36147 -73.458351 -137.11592 -73.474739 -136.80717 -6.6578293 171.82312
1382500000 -2.2971098 136.96236 -72.927048 -167.60608 -72.928093 -167.58495 -6.7351131 143.9054
1392000000 -2.3807135 108.65894 -72.561554 156.68356 -72.537918 156.65942 -6.7841492 115.84254
1401500000 -2.4221258 79.577705 -74.273399 129.5775 -74.239311 129.12766 -6.7848368 87.765236
1411000000 -2.3716655 51.115639 -74.231194 108.00863 -74.276947 108.7596 -6.761517 59.82185
1420500000 -2.3400588 23.562784 -72.975105 83.450897 -73.074898 83.528053 -6.7196751 32.169476
1430000000 -2.3536446 -4.1260295 -72.31266 51.806164 -72.370193 51.309147 -6.6694551 4.8179922
1439500000 -2.323689 -32.072365 -72.30352 21.901405 -72.370232 22.01358 -6.6286626 -22.33054
1449000000 -2.2359164 -59.057976 -72.139664 -4.5583029 -72.133789 -4.6985798 -6.6176891 -49.372116
1458500000 -2.1817598 -85.084969 -71.388451 -30.523228 -71.405388 -30.464537 -6.644094 -76.423965
1468000000 -2.2193301 -111.60536 -70.330452 -59.811638 -70.292641 -59.869114 -6.7083321 -103.59055
1477500000 -2.2703617 -139.09354 -69.549866 -93.084389 -69.558723 -92.795158 -6.8025899 -130.96909
1487000000 -2.2586334 -166.57681 -68.730019 -126.91516 -68.700203 -126.69967 -6.9158006 -158.63217
1496500000 -2.2652347 166.28172 -68.966255 -158.3287 -68.95195 -158.36269 -7.0332003 173.34685
1506000000 -2.3564768 138.42215 -68.261978 170.69606 -68.233994 170.77327 -7.1487708 145.00609
1515500000 -2.4436464 109.332 -68.181419 133.45152 -68.112206 133.66835 -7.2425327 116.47066
1525000000 -2.4522884 80.139923 -68.381432 109.75074 -68.387924 109.81476 -7.2866535 87.70697
1534500000 -2.4561851 51.488281 -67.419724 77.000122 -67.389046 76.695313 -7.3070698 58.943413
1544000000 -2.504683 22.542395 -66.49192 43.36977 -66.420219 43.296047 -7.291317 30.358097
1553500000 -2.5144324 -6.7248855 -66.014893 4.2333789 -65.989861 4.2458563 -7.2494655 2.1192331
1563000000 -2.4491198 -35.184528 -66.179115 -34.278038 -66.225784 -34.57082 -7.1899986 -25.794851
1572500000 -2.4037855 -62.797943 -66.964973 -70.414658 -66.933456 -70.393379 -7.1367121 -53.504021
1582000000 -2.4175832 -90.431656 -67.255463 -105.19913 -67.242188 -105.21597 -7.1077123 -81.114723
1591500000 -2.4292035 -118.23996 -68.046295 -140.86934 -68.070908 -140.96109 -7.1072397 -108.75633
1601000000 -2.4370096 -146.0583 -69.028793 -173.87738 -69.019524 -174.58772 -7.1297359 -136.55759
1610500000 -2.4769011 -174.11328 -69.988075 154.064 -69.94062 153.90477 -7.1649327 -164.57295
1620000000 -2.5124991 157.48087 -70.580307 122.90584 -70.625938 122.9446 -7.2044487 167.21541
1629500000 -2.5560582 128.81409 -71.463699 89.472664 -71.525894 89.419952 -7.2260523 138.90335
1639000000 -2.6519156 99.654358 -72.652504 57.795551 -72.576447 57.791275 -7.2261477 110.49397
1648500000 -2.7164087 69.864784 -73.82724 26.635757 -73.827347 26.783474 -7.2068648 82.021484
1658000000 -2.698396 40.221207 -75.041779 -3.277842 -74.998177 -3.0758512 -7.170939 53.571777
1667500000 -2.695478 11.200643 -76.380074 -32.203293 -76.309021 -32.4576 -7.113739 25.234287
1677000000 -2.7219348 -17.858795 -77.680473 -62.633053 -77.615364 -62.550137 -7.037334 -2.8651307
1686500000 -2.6713579 -46.852764 -79.768173 -93.626343 -79.796265 -92.421608 -6.9415159 -30.678526
1696000000 -2.5716395 -74.765366 -82.27356 -114.4901 -82.410164 -115.42436 -6.8437114 -58.178288
1705500000 -2.5642309 -101.90739 -84.163147 -134.1328 -84.135246 -137.41748 -6.7593188 -85.417389
1715000000 -2.6102324 -129.40399 -87.938866 -145.94705 -87.944962 -148.24883 -6.7048111 -112.51067
1724500000 -2.5735364 -157.24091 -87.097183 -149.70825 -86.829857 -149.68732 -6.687067 -139.59015
1734000000 -2.5264969 175.28833 -85.943535 -163.74069 -86.107376 -164.01169 -6.703825 -166.77104
1743500000 -2.5870805 147.91667 -85.242104 174.68919 -85.715973 174.43394 -6.7402973 165.89549
1753000000 -2.6657901 119.84473 -85.516129 156.7236 -85.305626 154.66536 -6.7778335 138.39828
1762500000 -2.6642148 91.166214 -84.947479 138.78041 -84.824982 141.26433 -6.805398 110.75625
1772000000 -2.6738122 62.535595 -83.552231 117.92593 -83.701027 120.17937 -6.8215652 83.000511
1781500000 -2.7446723 34.083832 -83.515114 98.508156 -83.485443 97.461067 -6.8289404 55.164501
1791000000 -2.7606242 5.4983606 -82.064934 81.569702 -81.830032 80.184349 -6.8283234 27.296326
1800500000 -2.6960604 -23.133751 -80.668205 58.121967 -80.584686 58.786743 -6.8155136 -0.54512328
1810000000 -2.6582327 -51.239868 -79.495979 31.777538 -79.513351 31.704136 -6.7856183 -28.288727
1819500000 -2.6613958 -78.625443 -79.496407 10.860003 -79.625511 9.4606485 -6.7400804 -55.867233
1829000000 -2.6312418 -105.67587 -77.228386 -2.1971173 -77.240211 -2.0935359 -6.6895218 -83.231064
1838500000 -2.5745711 -132.77507 -74.309044 -30.705816 -74.29998 -30.077066 -6.6515813 -110.3978
1848000000 -2.5808058 -159.92728 -71.79628 -64.455345 -71.908516 -64.011574 -6.6435709 -137.45624
1857500000 -2.6450088 172.97495 -70.337051 -99.682304 -70.350868 -100.02029 -6.6750574 -164.54808
1867000000 -2.6683738 145.7493 -69.296272 -136.59544 -69.309044 -136.8076 -6.7411113 168.19138
1876500000 -2.6627011 118.15435 -68.67572 -171.07912 -68.724854 -170.83859 -6.8270864 140.65211
1886000000 -2.7392967 90.129333 -67.847733 156.28419 -67.90712 156.0508 -6.9154758 112.81551
1895500000 -2.8786292 61.679935 -67.193398 120.62848 -67.163658 120.78463 -6.9884672 84.713348
1905000000 -2.9437013 32.982777 -66.808311 84.725311 -66.780083 84.909409 -7.0379114 56.394699
1914500000 -2.9348631 4.3729982 -66.761505 51.018154 -66.758415 51.054722 -7.0657096 27.929144
1924000000 -2.9756746 -24.207638 -66.292747 17.975937 -66.293037 17.90239 -7.0766521 -0.60662663
1933500000 -3.0357745 -52.854988 -66.382362 -19.381416 -66.326408 -19.259106 -7.0691271 -29.124552
1943000000 -2.995542 -81.014519 -66.831535 -53.23283 -66.84037 -53.135635 -7.0360594 -57.530144
1952500000 -2.9039419 -108.34514 -67.09053 -84.781036 -67.118324 -84.844582 -6.9783587 -85.734451
1962000000 -2.8969133 -135.63046 -67.869019 -121.11793 -67.815353 -121.54766 -6.9089866 -113.66808
1971500000 -2.9493928 -163.37851 -69.105942 -145.96115 -69.071098 -146.07082 -6.8478222 -141.32436
1981000000 -2.9288023 168.94374 -69.283951 -172.02769 -69.33345 -171.83717 -6.8153348 -168.79778
1990500000 -2.8794165 141.56564 -69.577896 163.39659 -69.592255 163.09315 -6.8238688 163.75493
2000000000 -2.9201875 113.81866 -69.333305 140.68324 -69.365074 140.53708 -6.871397 136.15924
