!Keysight Technologies,N5242B,MY48420967,A.15.65.19
!Date: Monday, December 19, 2022 14:07:00
!Correction: S11(C  2-Port  ) 
!S21(C  2-Port  ) 
!S12(C  2-Port  ) 
!S22(C  2-Port  ) 
!S2P File: Measurements: S11, S21, S12, S22:
# Hz S  dB   R 50
100000000 -1.4867028 40.70594 -110.70949 150.88136 -117.15737 157.1214 -1.3050718 29.160383
109500000 -1.3675816 11.237769 -109.94765 158.20866 -107.91579 133.37109 -1.2789588 -0.66967666
119000000 -1.244558 -16.908348 -107.92974 98.419243 -111.91548 98.484192 -1.2668971 -30.41264
128500000 -1.198786 -44.944962 -110.35857 35.738365 -111.37814 93.925125 -1.2771469 -60.172882
138000000 -1.2021633 -73.707581 -107.89133 53.915867 -109.11977 23.212696 -1.3196852 -90.0261
147500000 -1.232269 -102.60661 -107.70693 21.072584 -106.81619 14.628853 -1.4051148 -120.06444
157000000 -1.2962073 -131.50436 -109.79702 -25.14522 -108.513 -10.364511 -1.538084 -150.36546
166500000 -1.3976011 -161.13031 -106.05871 -48.197723 -105.86292 -65.385139 -1.7078209 179.06769
176000000 -1.5069501 168.69531 -104.51672 -67.784821 -106.59331 -89.730324 -1.8856192 148.37234
185500000 -1.590767 138.51985 -106.13522 -104.764 -104.43053 -110.4811 -2.0334051 117.81056
195000000 -1.639227 108.37852 -104.45213 -148.52361 -104.18085 -145.83656 -2.1227744 87.663223
204500000 -1.6231163 78.603065 -102.35362 -164.62862 -100.82525 -176.7534 -2.1521628 58.064777
214000000 -1.5616738 49.443546 -102.99278 160.77232 -102.346 154.75381 -2.1473296 28.927633
223500000 -1.5318745 20.587908 -102.93217 120.05524 -101.86449 136.25162 -2.1450677 0.0021224886
233000000 -1.4995307 -8.1447678 -101.15466 85.414894 -102.1718 100.92286 -2.17629 -29.008743
242500000 -1.4203963 -36.618256 -100.9329 70.165634 -98.933258 65.746101 -2.2548137 -58.326401
252000000 -1.3999927 -64.916267 -99.339111 38.863243 -99.636856 37.217419 -2.3750899 -88.021172
261500000 -1.4825058 -93.688873 -98.16597 1.2932036 -98.230423 17.61853 -2.5207336 -118.03928
271000000 -1.5657308 -123.34216 -98.685295 -27.957638 -101.01724 -20.105541 -2.675384 -148.27245
280500000 -1.6062489 -153.21786 -96.999496 -48.273655 -98.134995 -58.850029 -2.8307815 -178.62161
290000000 -1.688006 177.05511 -98.526772 -81.800102 -97.24173 -83.159416 -2.9811084 151.00249
299500000 -1.8269478 146.84686 -96.169151 -124.90599 -97.986252 -115.39333 -3.114265 120.71375
309000000 -1.8888539 116.1917 -96.802773 -144.04042 -97.438049 -141.4967 -3.2117991 90.655754
318500000 -1.8455777 86.122147 -96.92157 -174.31061 -96.958931 179.21645 -3.2596326 60.971378
328000000 -1.8260108 57.008408 -95.597336 151.55276 -96.545876 152.44553 -3.2637997 31.709583
337500000 -1.8416985 27.983368 -96.663582 122.00815 -96.496628 123.12603 -3.2533476 2.7659409
347000000 -1.8078995 -1.3487271 -95.90023 102.82827 -95.388153 89.846802 -3.2649369 -26.091019
356500000 -1.7456532 -30.251144 -95.096893 70.311958 -94.372787 69.178314 -3.3266697 -55.135719
366000000 -1.7507532 -58.72641 -94.503471 30.729422 -94.250313 38.386929 -3.4430645 -84.575806
375500000 -1.8324293 -87.77668 -93.069946 4.5546646 -93.234322 9.1704073 -3.5915432 -114.45454
385000000 -1.9001702 -117.75704 -93.628204 -19.958282 -93.310524 -24.685253 -3.7345593 -144.62477
394500000 -1.9416251 -147.98471 -93.257179 -55.297508 -93.739799 -58.899624 -3.8406785 -174.83217
404000000 -2.0254059 -177.94588 -92.729225 -86.391899 -93.156303 -83.902412 -3.9012072 155.1611
413500000 -2.1220653 151.95438 -92.403809 -115.50432 -93.78006 -110.13747 -3.926703 125.4982
423000000 -2.1632521 121.41887 -92.760269 -143.2942 -92.664772 -139.95882 -3.9311557 96.212227
432500000 -2.1510644 91.290245 -92.324448 -171.11617 -92.285706 -166.58693 -3.921308 67.289894
442000000 -2.1166937 62.227032 -92.624908 162.78531 -92.042564 165.10294 -3.8974688 38.716
451500000 -2.0824406 33.663258 -91.599884 140.16869 -92.284813 136.27472 -3.862895 10.469281
461000000 -2.0480428 4.9918499 -91.239204 115.35109 -91.040703 109.72244 -3.8303599 -17.532362
470500000 -2.0059955 -23.540981 -90.83709 90.414101 -90.998817 88.894157 -3.8224497 -45.469723
480000000 -1.9796321 -51.580494 -89.091446 64.162987 -89.769554 63.703053 -3.8589494 -73.569153
489500000 -1.9997349 -79.662399 -87.607956 37.455864 -87.515587 37.911491 -3.9445648 -102.02415
499000000 -2.0565147 -108.50709 -85.455574 7.0009632 -85.453773 8.2639418 -4.0595098 -130.89088
508500000 -2.110173 -137.86279 -83.251366 -33.364151 -83.009041 -31.934185 -4.1659074 -160.03937
518000000 -2.1489809 -167.08975 -82.279877 -79.812912 -82.389893 -78.025146 -4.2294908 170.81129
527500000 -2.1958561 163.67978 -83.041924 -121.65747 -83.178848 -121.76231 -4.2380538 141.93559
537000000 -2.2473996 134.17319 -84.140648 -158.69336 -84.215012 -157.84595 -4.2081537 113.48751
546500000 -2.2603188 104.84213 -84.921814 170.82089 -85.22261 171.26917 -4.1692171 85.450012
556000000 -2.2196834 76.185562 -86.059174 144.13414 -85.946991 142.24861 -4.1446304 57.686386
565500000 -2.1646593 48.125256 -86.252525 114.29883 -86.131531 112.92862 -4.1425552 30.051805
575000000 -2.1269188 20.366755 -86.56559 85.639908 -86.357475 85.778809 -4.1585398 2.463208
584500000 -2.1002703 -7.269484 -86.637825 58.981812 -86.510651 59.775311 -4.1832032 -25.101326
594000000 -2.0665171 -34.878426 -86.381165 32.142803 -86.409523 32.235558 -4.2133942 -52.707924
603500000 -2.0459497 -62.511799 -86.594513 4.1413531 -85.819458 2.3478565 -4.2633982 -80.486198
613000000 -2.0821204 -90.225517 -85.894943 -24.484667 -85.729965 -25.153181 -4.3481884 -108.56185
622500000 -2.1522629 -118.42647 -85.738495 -53.867771 -85.680359 -54.837467 -4.4645829 -137.04942
632000000 -2.2137799 -147.4698 -85.356094 -83.092613 -85.480751 -83.555748 -4.591291 -165.9705
641500000 -2.2558253 -176.80008 -85.56826 -117.07727 -85.481926 -116.90365 -4.6969094 164.84113
651000000 -2.3056951 154.13777 -86.050171 -145.78674 -86.615761 -144.73689 -4.7514119 135.68303
660500000 -2.3641419 125.06527 -86.007591 -169.61578 -86.531311 -170.88335 -4.7492161 106.83307
670000000 -2.3804142 95.633522 -86.270744 162.31477 -86.255051 160.18829 -4.7129726 78.426544
679500000 -2.33813 66.538582 -85.807709 133.93112 -85.857552 135.72289 -4.675858 50.394695
689000000 -2.2888551 38.52216 -85.505234 108.62946 -85.699913 107.23399 -4.6653843 22.544794
698500000 -2.2714357 10.963244 -85.383087 80.660881 -85.389374 78.949867 -4.6910172 -5.3292956
708000000 -2.2607284 -17.162117 -85.278831 51.821362 -85.110817 50.712692 -4.7443838 -33.364597
717500000 -2.2359998 -45.473087 -84.61528 22.61939 -84.5783 23.03676 -4.8097291 -61.622009
727000000 -2.2349272 -73.124847 -84.614777 -5.4720922 -84.446075 -6.4693966 -4.8769937 -90.112411
736500000 -2.3042219 -100.95827 -84.21859 -35.551598 -84.064888 -36.566837 -4.945385 -118.82663
746000000 -2.4100504 -130.20584 -84.070915 -64.815895 -83.666199 -62.937202 -5.0161548 -147.77403
755500000 -2.459296 -160.07764 -83.567963 -93.300293 -83.684769 -91.90786 -5.0848198 -176.95049
765000000 -2.4865284 170.67268 -83.454643 -122.44849 -83.687515 -122.41131 -5.1373563 153.72745
774500000 -2.5807655 141.37685 -83.570557 -151.7083 -83.346321 -151.64415 -5.1534142 124.44545
784000000 -2.6539207 111.10619 -83.178162 179.34528 -83.289032 179.5399 -5.1223211 95.432487
793500000 -2.6110399 81.041466 -83.276703 149.3687 -83.301933 150.66875 -5.0528331 66.859123
803000000 -2.5462623 52.524994 -83.096001 121.646 -83.340363 122.41288 -4.9704018 38.761444
812500000 -2.535188 24.561457 -83.104301 93.936447 -83.275261 92.367378 -4.9019809 11.026999
822000000 -2.5186191 -3.8749192 -82.806831 63.979961 -83.038284 66.236 -4.8642206 -16.535591
831500000 -2.4528153 -32.024014 -82.910454 35.716652 -82.983276 35.730774 -4.8588657 -44.119053
841000000 -2.4202511 -59.470833 -82.742493 8.0390387 -82.788948 6.5704136 -4.8761091 -71.852905
850500000 -2.4686625 -87.050888 -82.647041 -19.730753 -82.521378 -20.721992 -4.9023767 -99.78717
860000000 -2.5189412 -115.3347 -82.28231 -47.085976 -82.473984 -46.765366 -4.9285755 -127.90302
869500000 -2.551338 -144.03917 -82.324318 -76.141304 -82.284973 -75.845589 -4.9516959 -156.15752
879000000 -2.6117122 -172.80898 -82.248634 -105.39006 -82.394547 -105.364 -4.9710174 175.4973
888500000 -2.6685092 158.21431 -81.947861 -133.25542 -81.931046 -132.76346 -4.9831319 147.12366
898000000 -2.6990893 128.99385 -81.742172 -162.18889 -81.762756 -162.1138 -4.9790087 118.82652
907500000 -2.7135782 99.846733 -81.701859 170.38626 -81.764214 169.38628 -4.948945 90.732361
917000000 -2.6899626 71.009499 -81.727448 141.44458 -81.643646 140.92429 -4.8927169 62.951683
926500000 -2.6241999 42.843185 -81.424355 113.41999 -81.600998 113.81696 -4.8229876 35.538956
936000000 -2.5543177 15.45085 -81.289886 85.33992 -81.536758 85.326881 -4.7588167 8.461832
945500000 -2.5126498 -11.701817 -81.187172 57.322704 -81.278389 57.444363 -4.7167239 -18.394964
955000000 -2.4811456 -38.862228 -81.210892 29.26368 -81.12188 29.529726 -4.7053041 -45.198818
964500000 -2.4438031 -65.80069 -80.909599 2.1458879 -80.962639 1.813808 -4.7239308 -72.129433
974000000 -2.446243 -92.568916 -80.765701 -25.457956 -80.729469 -25.980104 -4.767396 -99.31205
983500000 -2.5036483 -119.67432 -80.518181 -53.951527 -80.38752 -54.037308 -4.8273172 -126.79095
993000000 -2.5580029 -147.5713 -79.994881 -82.961906 -79.951584 -83.104408 -4.8935976 -154.54611
1002500000 -2.5938435 -175.9968 -79.833466 -113.19048 -79.977364 -112.96038 -4.9583817 177.46327
1012000000 -2.6384165 155.74164 -80.026459 -141.00526 -80.074913 -141.52971 -5.0174766 149.3007
1021500000 -2.6890385 127.41815 -79.898354 -169.32431 -79.853317 -169.07755 -5.0629354 121.05334
1031000000 -2.7290282 98.406693 -79.781715 163.25638 -79.711861 163.53804 -5.0849094 92.834648
1040500000 -2.7129061 69.300148 -79.489998 135.47047 -79.64724 135.87814 -5.0779605 64.765991
1050000000 -2.6477644 41.255127 -79.502235 108.23466 -79.474808 106.87556 -5.0465541 36.949471
1059500000 -2.6007118 14.125832 -79.461845 78.036774 -79.569519 78.927643 -5.005621 9.4283895
1069000000 -2.5829856 -13.345295 -79.263481 52.874741 -79.388344 52.657043 -4.9741693 -17.852062
1078500000 -2.5600212 -41.154991 -78.855469 26.101685 -78.916252 25.369596 -4.9693031 -45.033573
1088000000 -2.5242052 -68.097908 -78.668495 -2.8564217 -78.799294 -2.631928 -5.0009995 -72.306084
1097500000 -2.5300269 -94.580482 -78.409172 -30.895353 -78.362732 -30.301554 -5.0660748 -99.842583
1107000000 -2.6113799 -122.1666 -78.05999 -58.85326 -78.159821 -58.68528 -5.1541381 -127.77029
1116500000 -2.6917164 -150.86542 -77.736496 -85.963379 -77.723572 -86.923721 -5.2491355 -156.11583
1126000000 -2.7276144 -179.39545 -77.540977 -115.98431 -77.608803 -115.74238 -5.3363438 175.1913
1135500000 -2.7840335 152.28291 -77.216469 -144.04788 -77.19603 -143.71219 -5.4039068 146.29486
1145000000 -2.8773546 122.94524 -76.858627 -172.18561 -76.977707 -172.62605 -5.4416709 117.34243
1154500000 -2.9423146 92.71981 -76.758545 158.06953 -76.780396 158.57314 -5.4468842 88.489433
1164000000 -2.9249456 63.259743 -76.780357 129.88272 -76.643921 129.89287 -5.4174423 59.855045
1173500000 -2.8698542 34.814087 -76.410385 101.80753 -76.52655 100.95119 -5.3602543 31.525368
1183000000 -2.8533845 6.3351984 -76.276573 74.086891 -76.308754 74.177208 -5.2869263 3.5475752
1192500000 -2.8424444 -22.257965 -76.12751 45.635052 -76.238533 45.895069 -5.2162752 -24.118301
1202000000 -2.7852244 -50.106163 -75.920143 17.501192 -76.018135 18.098324 -5.1666198 -51.569469
1211500000 -2.7410817 -77.157639 -75.575829 -9.9705248 -75.605209 -9.6175566 -5.1503553 -78.964073
1221000000 -2.7806046 -104.55545 -75.425247 -36.790833 -75.466873 -37.074238 -5.1697979 -106.46366
1230500000 -2.8668106 -132.83838 -74.972137 -64.045288 -74.928879 -64.267914 -5.2147284 -134.21422
1240000000 -2.9066565 -161.26765 -74.390617 -92.991829 -74.381104 -93.529045 -5.2724175 -162.28464
1249500000 -2.9227114 170.42345 -74.033554 -122.8409 -74.025024 -122.9769 -5.3227062 169.37587
1259000000 -2.9967337 141.59853 -73.791275 -151.6971 -73.768959 -152.0538 -5.3530045 140.88266
1268500000 -3.0805771 112.14063 -73.385628 178.95143 -73.290833 179.01042 -5.3542862 112.41098
1278000000 -3.0941908 82.65358 -73.118996 147.84509 -73.109612 147.93529 -5.3258343 84.122841
1287500000 -3.0628803 53.564533 -73.166641 118.53381 -73.241379 118.26398 -5.2702637 56.137447
1297000000 -3.0188735 24.966478 -73.377625 91.72702 -73.298592 92.047112 -5.1947432 28.504641
1306500000 -2.9639354 -3.036592 -72.925819 66.096237 -73.013954 66.091988 -5.1124048 1.1952126
1316000000 -2.9069836 -30.555347 -72.462456 39.457687 -72.443001 39.338734 -5.0406852 -25.806959
1325500000 -2.8531148 -57.839584 -71.728989 10.718691 -71.759918 10.457396 -4.9875822 -52.643204
1335000000 -2.8070617 -84.673004 -71.14724 -18.711847 -71.148636 -18.639309 -4.9705358 -79.412895
1344500000 -2.8001111 -111.09852 -70.562973 -50.620079 -70.559929 -50.381077 -4.9886341 -106.25283
1354000000 -2.8477523 -138.03535 -70.345322 -79.482742 -70.325439 -80.056999 -5.0383615 -133.30899
1363500000 -2.8916421 -165.79683 -69.735229 -108.42355 -69.731529 -108.57401 -5.1109543 -160.67087
1373000000 -2.8919671 166.56871 -68.781418 -140.03258 -68.807304 -140.20911 -5.1928177 171.65826
1382500000 -2.9220321 139.18797 -68.387184 -179.07333 -68.377914 -179.05061 -5.264782 143.79643
1392000000 -3.0229599 110.89046 -70.479858 145.53325 -70.431381 145.28528 -5.2952085 115.80134
1401500000 -3.0754585 81.688278 -70.810692 132.52824 -70.794846 132.38712 -5.3007607 87.675797
1411000000 -3.0190847 53.094929 -68.911682 108.64261 -68.880096 108.51498 -5.2934299 59.72987
1420500000 -2.9800115 25.480555 -67.538597 71.069443 -67.585678 70.982254 -5.2685833 32.094116
1430000000 -2.995569 -2.2785697 -68.298828 38.443687 -68.271744 38.094738 -5.2250495 4.708693
1439500000 -2.9619501 -30.341394 -68.087944 15.032302 -68.129074 15.280545 -5.1910667 -22.553078
1449000000 -2.8605185 -57.409401 -66.731163 -11.478889 -66.772263 -11.342559 -5.1846828 -49.706081
1458500000 -2.8020382 -83.424614 -64.915787 -44.284222 -64.93808 -44.442326 -5.2156849 -76.844887
1468000000 -2.8501294 -109.90451 -63.713497 -86.166504 -63.705933 -85.996002 -5.2798767 -103.98702
1477500000 -2.9153631 -137.39874 -64.037231 -126.1101 -64.036148 -126.04946 -5.3530135 -131.27335
1487000000 -2.9103889 -164.8768 -64.432396 -160.03687 -64.421638 -160.24303 -5.438343 -158.87856
1496500000 -2.9257503 168.04961 -64.036911 162.78105 -64.010338 162.61931 -5.5286703 173.31958
1506000000 -3.0395474 140.28371 -64.962852 122.72136 -64.970825 122.8016 -5.5837965 145.20674
1515500000 -3.1487472 111.2243 -66.700142 96.11763 -66.687782 96.221237 -5.6232939 116.66191
1525000000 -3.1637902 82.030357 -65.522232 65.202332 -65.542755 65.09536 -5.6652703 88.089615
1534500000 -3.1697595 53.432594 -66.069153 26.229597 -66.06086 26.293674 -5.6627116 59.569107
1544000000 -3.2271152 24.535992 -66.924561 -9.7159081 -66.958618 -9.5559473 -5.6314015 31.156073
1553500000 -3.2378573 -4.7486691 -68.188362 -42.984295 -68.193024 -43.059845 -5.5776844 2.9549317
1563000000 -3.158962 -33.204197 -69.474251 -73.244064 -69.474403 -72.983734 -5.5184655 -25.003597
1572500000 -3.1054502 -60.731155 -70.519257 -102.08779 -70.436577 -101.79993 -5.4681678 -52.758045
1582000000 -3.1226354 -88.266068 -71.362488 -130.4808 -71.36628 -130.59242 -5.443399 -80.413414
1591500000 -3.1383913 -116.0024 -72.259377 -158.60489 -72.265266 -158.82918 -5.4469237 -108.08576
1601000000 -3.1513557 -143.69894 -73.012367 174.83218 -72.942604 174.25717 -5.4766722 -135.86835
1610500000 -3.2024503 -171.61101 -73.426979 147.16238 -73.421158 147.35709 -5.5208921 -163.7951
1620000000 -3.2537806 160.07802 -74.059814 117.07765 -74.101425 117.08951 -5.5609055 168.15346
1629500000 -3.3109505 131.5347 -75.068649 88.240486 -75.149078 88.475662 -5.585834 139.96237
1639000000 -3.4206808 102.5014 -76.105843 61.989532 -76.173164 61.842083 -5.5968919 111.67871
1648500000 -3.5011616 72.733459 -77.033295 36.145824 -77.064209 36.647949 -5.5974064 83.349731
1658000000 -3.4853423 43.064022 -77.82547 10.548086 -77.869316 10.794931 -5.5877285 55.044743
1667500000 -3.4750669 14.04745 -78.449852 -14.859169 -78.474899 -14.597673 -5.563602 26.835392
1677000000 -3.4998271 -15.027787 -79.918938 -39.808773 -80.000488 -40.914646 -5.5202808 -1.1916037
1686500000 -3.4408674 -44.101776 -81.194107 -60.486843 -81.072311 -60.352718 -5.4602776 -28.968882
1696000000 -3.3221221 -72.063759 -81.698303 -80.678017 -81.738251 -78.959373 -5.3931913 -56.466286
1705500000 -3.3034658 -99.172615 -82.207748 -96.575378 -82.312202 -98.056198 -5.3345356 -83.731323
1715000000 -3.3530865 -126.65156 -81.614403 -112.00609 -81.675789 -113.13058 -5.2993393 -110.86834
1724500000 -3.3207483 -154.5118 -80.794357 -135.80736 -80.969246 -135.75598 -5.2957807 -138.00833
1734000000 -3.2720482 178.03639 -80.199287 -160.35794 -80.177505 -160.30675 -5.3210554 -165.24031
1743500000 -3.338346 150.72911 -80.32402 176.41298 -80.372925 175.36987 -5.362195 167.38483
1753000000 -3.4337394 122.68398 -80.091698 152.15695 -79.919785 152.07492 -5.4035687 139.86404
1762500000 -3.4464343 93.97876 -79.595512 127.75615 -79.58223 129.30008 -5.4347029 112.21799
1772000000 -3.4597337 65.326126 -78.967812 103.09815 -79.048683 104.0644 -5.4547935 84.467163
1781500000 -3.533102 36.836159 -78.80986 79.911705 -78.785637 79.956245 -5.4682174 56.630486
1791000000 -3.5559888 8.161788 -78.362915 54.658554 -78.185837 55.523201 -5.4773202 28.745729
1800500000 -3.4900374 -20.572575 -77.795532 31.466848 -77.715828 31.144444 -5.476872 0.87549675
1810000000 -3.4392016 -48.755596 -77.2938 6.3636327 -77.346146 6.8438468 -5.4595919 -26.909788
1819500000 -3.4318986 -76.187889 -77.312553 -14.986771 -77.247498 -15.225373 -5.4251571 -54.542614
1829000000 -3.4004307 -103.28621 -75.935135 -31.203449 -75.896797 -31.071869 -5.3839602 -81.980133
1838500000 -3.3472733 -130.40552 -73.471313 -58.290462 -73.532753 -58.09127 -5.352088 -109.23448
1848000000 -3.3572674 -157.50954 -71.381119 -89.318558 -71.388878 -89.594154 -5.344593 -136.3877
1857500000 -3.4313421 175.44543 -70.072456 -127.6627 -70.047379 -127.99417 -5.3678908 -163.56927
1867000000 -3.4759276 148.26112 -69.72834 -163.02632 -69.703575 -163.10571 -5.4197478 169.07877
1876500000 -3.4926517 120.77312 -69.314651 163.40283 -69.390213 163.67018 -5.4895716 141.48894
1886000000 -3.5901217 92.923195 -68.969391 131.31816 -69.049065 131.10808 -5.5593681 113.65556
1895500000 -3.7533262 64.634521 -68.691109 97.158028 -68.698883 97.041649 -5.6145644 85.600433
1905000000 -3.8368034 36.051346 -68.846634 62.04007 -68.792694 62.308578 -5.6508455 57.356792
1914500000 -3.8320498 7.5707021 -69.242661 30.531527 -69.324265 30.594213 -5.6720648 28.972965
1924000000 -3.8627546 -20.823784 -69.426254 -0.3154774 -69.443947 -0.2253523 -5.6820049 0.52317184
1933500000 -3.9044101 -49.381832 -69.669418 -31.135677 -69.660576 -31.061499 -5.6771455 -27.908964
1943000000 -3.8356786 -77.551102 -70.895882 -64.487816 -70.836624 -64.350021 -5.6520691 -56.228951
1952500000 -3.7121172 -104.88383 -71.327599 -87.242859 -71.35527 -87.189323 -5.6064634 -84.352158
1962000000 -3.683394 -132.13412 -72.447144 -109.07536 -72.444847 -108.87099 -5.5504413 -112.21984
1971500000 -3.7267716 -159.87961 -71.65062 -129.05548 -71.647995 -129.00888 -5.5010471 -139.8373
1981000000 -3.7065363 172.37294 -70.757782 -152.3826 -70.766815 -152.08932 -5.475771 -167.293
1990500000 -3.6605 144.99464 -69.472435 -177.25388 -69.493973 -177.64381 -5.4852886 165.27414
2000000000 -3.7145188 117.34795 -67.633934 153.02565 -67.643333 152.59662 -5.5278926 137.72258
