!Keysight Technologies,N5242B,MY48420967,A.15.65.19
!Date: Monday, December 19, 2022 10:10:44
!Correction: S11(C  2-Port  ) 
!S21(C  2-Port  ) 
!S12(C  2-Port  ) 
!S22(C  2-Port  ) 
!S2P File: Measurements: S11, S21, S12, S22:
# Hz S  dB   R 50
100000000 -1.293247 40.858826 -105.91119 142.34538 -110.74129 145.83107 -1.316685 31.230112
109500000 -1.1728686 11.468157 -107.77354 132.53021 -111.70594 167.82993 -1.3061687 1.6263638
119000000 -1.0433519 -16.673731 -116.06799 93.008652 -109.97567 117.84032 -1.3131783 -27.909166
128500000 -0.99300152 -44.716721 -110.41086 67.31488 -108.54685 75.027496 -1.3463284 -57.473072
138000000 -0.98854798 -73.512566 -106.92321 43.385715 -109.62892 44.576946 -1.4143168 -87.140411
147500000 -1.0193365 -102.43587 -111.48486 38.80629 -105.81883 39.940491 -1.5273091 -117.0097
157000000 -1.0793296 -131.42377 -112.79932 -12.760197 -109.44571 3.3198924 -1.6915928 -147.16112
166500000 -1.1818163 -161.10052 -106.08521 -63.274731 -105.70724 -33.657398 -1.8977135 -177.59734
176000000 -1.2917386 168.64198 -104.46078 -76.997185 -105.50574 -94.280594 -2.1156967 151.80757
185500000 -1.3803468 138.41647 -106.53564 -77.277061 -103.72488 -93.307152 -2.3057289 121.30457
195000000 -1.4367443 108.22992 -104.50267 -131.45854 -104.86611 -119.0589 -2.4376612 91.183159
204500000 -1.4282405 78.418472 -103.19396 -154.95422 -103.16795 -164.84509 -2.5075216 61.609974
214000000 -1.3738337 49.232517 -102.93943 -174.66258 -102.17991 160.21039 -2.5393021 32.53091
223500000 -1.3518279 20.344706 -104.05283 137.0128 -101.11948 140.43892 -2.572108 3.7184153
233000000 -1.3248124 -8.3919611 -101.71696 110.73279 -103.00383 117.6933 -2.6387279 -25.120134
242500000 -1.2485584 -36.889431 -100.11219 83.537155 -100.24174 89.156654 -2.753583 -54.218525
252000000 -1.2307976 -65.190102 -99.101311 51.182064 -99.749176 57.648804 -2.9113123 -83.673424
261500000 -1.3120419 -93.992744 -97.960907 9.890748 -99.2043 22.589706 -3.0951731 -113.46014
271000000 -1.3919935 -123.64848 -99.541794 -15.828522 -100.44914 3.7651091 -3.2888463 -143.48671
280500000 -1.4288473 -153.49785 -98.480972 -34.451283 -98.642014 -46.91135 -3.4826837 -173.65894
290000000 -1.5084101 176.76849 -99.576859 -81.685631 -98.243004 -63.788906 -3.6710551 156.1064
299500000 -1.6418988 146.57057 -99.185364 -100.73191 -97.899765 -101.5741 -3.8408294 125.90511
309000000 -1.6967502 115.9628 -97.971657 -138.65889 -100.66798 -132.37228 -3.9727385 95.877403
318500000 -1.6519556 85.949524 -97.976471 -151.86511 -98.268929 -160.61934 -4.0530891 66.191727
328000000 -1.6297158 56.851643 -97.180595 165.44316 -96.718941 170.83617 -4.0872316 36.935234
337500000 -1.6383479 27.852402 -96.62957 142.94339 -97.589706 150.96063 -4.1034732 8.036787
347000000 -1.5976994 -1.4258479 -96.207764 117.78328 -96.690292 105.07424 -4.1432972 -20.719938
356500000 -1.5300976 -30.30513 -96.267319 85.894005 -95.865265 84.431969 -4.2387652 -49.619606
366000000 -1.5281956 -58.784904 -97.053032 50.177963 -95.103386 54.713913 -4.3938379 -78.914917
375500000 -1.5974406 -87.829353 -94.746933 23.73501 -94.488503 31.340252 -4.5840545 -108.70897
385000000 -1.6547502 -117.80664 -94.401833 -4.3316665 -94.196877 -2.6338425 -4.7698359 -138.89542
394500000 -1.6894369 -148.03368 -93.627312 -36.957333 -94.319138 -34.463924 -4.9143167 -169.21902
404000000 -1.766131 -178.01842 -93.534904 -64.070549 -93.627487 -62.917217 -5.0024567 160.59067
413500000 -1.858183 151.8494 -94.018105 -94.09333 -93.706596 -90.76429 -5.0464101 130.71744
423000000 -1.8942287 121.31081 -93.790649 -125.43307 -93.400627 -124.56593 -5.0633383 101.21908
432500000 -1.8819563 91.163841 -93.647942 -153.79315 -92.950783 -149.55013 -5.0605841 72.096748
442000000 -1.8514081 62.066208 -93.013527 178.90337 -92.867271 -174.26363 -5.040267 43.351902
451500000 -1.8155029 33.456516 -92.10498 154.4106 -92.473572 148.04262 -5.0090413 14.983116
461000000 -1.7772042 4.7545338 -91.83551 130.23796 -91.622643 126.77061 -4.9806685 -13.077374
470500000 -1.7341715 -23.804319 -91.266022 100.13178 -91.044899 98.68972 -4.9811411 -41.004898
480000000 -1.7062525 -51.902473 -90.089699 72.287849 -89.984772 73.982124 -5.0332308 -69.037041
489500000 -1.7186477 -80.03421 -88.962776 48.294235 -89.075264 44.536999 -5.1397038 -97.411263
499000000 -1.7659293 -108.91011 -87.608772 14.237886 -87.353233 15.465506 -5.2773976 -126.23748
508500000 -1.8170401 -138.2937 -85.930984 -15.63362 -85.89373 -14.928167 -5.4050007 -155.42247
518000000 -1.8534766 -167.52744 -84.238487 -50.800484 -84.179054 -49.675632 -5.4834461 175.32054
527500000 -1.8922312 163.25529 -83.198563 -92.786057 -83.116653 -92.485687 -5.4957466 146.30782
537000000 -1.938426 133.76236 -83.221024 -135.89732 -82.872849 -136.1765 -5.4618502 117.74335
546500000 -1.9496254 104.42923 -83.891861 -175.19658 -83.757362 -174.61958 -5.419363 89.642235
556000000 -1.9097174 75.77494 -84.879639 149.72847 -84.934898 147.34534 -5.3937402 61.867374
565500000 -1.8555773 47.728298 -85.800812 119.07882 -85.669533 118.67203 -5.3936524 34.254543
575000000 -1.8172243 19.96331 -86.354134 87.69516 -86.273293 90.492691 -5.4170046 6.7041602
584500000 -1.7880058 -7.6836033 -86.784401 64.310684 -86.931564 61.661167 -5.455462 -20.806978
594000000 -1.7491426 -35.28981 -86.623352 35.509125 -86.827766 33.127666 -5.5050578 -48.33231
603500000 -1.7228996 -62.934258 -87.111443 6.7415199 -86.56543 7.6224937 -5.5809207 -75.996559
613000000 -1.7509328 -90.667244 -86.778648 -21.392086 -86.701454 -23.231922 -5.6986012 -103.94594
622500000 -1.8090301 -118.88316 -86.578377 -49.407169 -86.565239 -51.557941 -5.8522854 -132.33673
632000000 -1.8602369 -147.924 -86.371239 -77.364418 -86.429871 -81.874657 -6.0164657 -161.23666
641500000 -1.8936682 -177.23372 -86.173515 -114.29211 -86.12117 -115.12063 -6.1550965 169.49599
651000000 -1.9381461 153.71388 -86.795395 -145.4738 -87.080208 -141.20476 -6.2323318 140.17462
660500000 -1.9915938 124.66217 -87.378082 -167.34991 -87.688332 -169.60576 -6.2390585 111.13767
670000000 -2.0027812 95.262794 -87.662781 164.2256 -87.628502 166.07111 -6.2053175 82.578781
679500000 -1.961266 66.207741 -87.320999 137.7659 -87.138313 137.54054 -6.1707563 54.463589
689000000 -1.9152333 38.206512 -86.94944 110.47836 -87.416351 113.37211 -6.1660423 26.588615
698500000 -1.8949342 10.630765 -86.809151 83.991806 -86.823952 84.980019 -6.2043858 -1.2798018
708000000 -1.8754553 -17.496979 -86.682938 54.109268 -86.454918 55.776054 -6.2800679 -29.308432
717500000 -1.8456216 -45.805325 -86.341637 26.702156 -86.236046 28.220449 -6.3726878 -57.577274
727000000 -1.8408418 -73.494522 -85.778465 0.35671175 -85.884872 -0.18828167 -6.4680452 -86.107056
736500000 -1.8959824 -101.39427 -85.808868 -28.429031 -85.655258 -28.750978 -6.5655942 -114.88877
746000000 -1.9838507 -130.67067 -85.58622 -58.630619 -85.321457 -58.124714 -6.6645536 -143.93985
755500000 -2.0240042 -160.54842 -85.11969 -88.955757 -85.064323 -87.359077 -6.7549605 -173.27179
765000000 -2.0476849 170.14494 -84.930359 -118.62527 -84.991547 -117.62956 -6.8185797 157.18318
774500000 -2.1328247 140.79634 -85.094719 -147.49887 -84.777855 -146.4117 -6.8328524 127.62181
784000000 -2.19699 110.52551 -84.741272 -177.3443 -84.957138 -175.8455 -6.7854171 98.316406
793500000 -2.160136 80.457283 -84.654739 153.64154 -84.756577 154.48305 -6.6891246 69.492455
803000000 -2.1045971 51.898678 -84.839111 126.05368 -84.814262 125.38359 -6.5780187 41.216652
812500000 -2.0932891 23.874037 -84.719398 96.46386 -84.726807 97.997856 -6.4850564 13.375683
822000000 -2.075021 -4.6031694 -84.581299 67.327065 -84.401497 68.014755 -6.4300437 -14.246925
831500000 -2.0114288 -32.805 -84.306732 39.888184 -84.234909 40.335613 -6.41679 -41.872471
841000000 -1.9799759 -60.35339 -84.287819 11.504465 -84.167061 11.795109 -6.4332871 -69.654999
850500000 -2.0214295 -88.034622 -84.252289 -16.493774 -83.927849 -17.835491 -6.4611297 -97.657532
860000000 -2.0601227 -116.40289 -84.042137 -45.562096 -83.972717 -45.701248 -6.4887824 -125.86115
869500000 -2.0858543 -145.1944 -83.778732 -71.917923 -83.74855 -71.298477 -6.5107312 -154.21613
879000000 -2.1414719 -174.05319 -83.695099 -101.7721 -83.463181 -102.4058 -6.5233378 177.32582
888500000 -2.1911106 156.8998 -83.582039 -131.40781 -83.461128 -131.49699 -6.5224228 148.82486
898000000 -2.2170401 127.64143 -83.125679 -158.84335 -83.31842 -159.37483 -6.4999843 120.38911
907500000 -2.232986 98.470688 -83.391403 172.30711 -83.397293 172.0076 -6.445775 92.162643
917000000 -2.2142794 69.626678 -83.312935 143.39629 -83.18721 143.44156 -6.3603506 64.282242
926500000 -2.1539683 41.47385 -83.07061 114.96652 -83.368607 116.40833 -6.2613392 36.819847
936000000 -2.0902901 14.084245 -83.119003 87.529419 -83.097771 88.017853 -6.1739707 9.7480717
945500000 -2.0516815 -13.081822 -83.099808 59.911068 -82.939117 59.59293 -6.1169043 -17.0571
955000000 -2.0193417 -40.254852 -82.921577 30.413074 -82.88736 30.148907 -6.0996437 -43.777817
964500000 -1.9807005 -67.190468 -82.726517 2.6055055 -82.604485 3.7268023 -6.1223993 -70.612015
974000000 -1.978335 -93.971138 -82.446953 -23.139683 -82.413132 -24.553284 -6.1782913 -97.701363
983500000 -2.0254929 -121.10849 -82.300636 -51.078186 -82.335442 -52.050564 -6.2548795 -125.10042
993000000 -2.0663266 -149.00127 -81.760185 -81.612778 -81.607552 -80.95829 -6.3389058 -152.79584
1002500000 -2.0916493 -177.39383 -81.394508 -110.84496 -81.281548 -111.55773 -6.4198828 179.24615
1012000000 -2.1301036 154.38043 -81.66922 -140.75835 -81.748474 -141.17474 -6.4921875 151.08647
1021500000 -2.1715543 126.09267 -81.857246 -168.68517 -81.61644 -169.52866 -6.5479336 122.81195
1031000000 -2.2038136 97.141739 -81.532341 164.01808 -81.646217 164.60391 -6.5751777 94.544693
1040500000 -2.1889117 68.140266 -81.422997 136.28014 -81.439987 136.34033 -6.5669622 66.418251
1050000000 -2.1313868 40.172062 -81.455139 108.99573 -81.276756 109.30845 -6.5301352 38.557377
1059500000 -2.0893905 13.071743 -81.134926 79.857414 -81.108681 79.657639 -6.4858623 11.021982
1069000000 -2.0677695 -14.374181 -80.962669 52.164368 -81.064819 52.658581 -6.4567156 -16.231342
1078500000 -2.0430715 -42.157234 -80.824753 25.075544 -80.884399 25.962328 -6.4608345 -43.355816
1088000000 -2.0108547 -69.095512 -80.656754 -2.1902344 -80.819931 -2.5630348 -6.5112853 -70.567238
1097500000 -2.0092447 -95.630684 -80.260658 -30.808012 -80.326431 -30.416407 -6.6063571 -98.05864
1107000000 -2.0714719 -123.28769 -80.044945 -59.265362 -80.064796 -58.522167 -6.7297568 -125.98386
1116500000 -2.1363006 -152.00999 -79.813744 -86.405884 -79.735344 -87.209625 -6.859046 -154.38597
1126000000 -2.1657665 179.42302 -79.678741 -114.90823 -79.694672 -115.40741 -6.9746609 176.79884
1135500000 -2.2111006 151.01596 -79.367523 -143.73253 -79.285797 -144.11722 -7.0609241 147.71642
1145000000 -2.2860982 121.60566 -79.123329 -171.25354 -79.031113 -172.08508 -7.1058021 118.54289
1154500000 -2.3454266 91.368027 -78.786148 159.72292 -78.754585 159.50905 -7.1058135 89.444931
1164000000 -2.3362453 61.899094 -78.724442 130.16307 -78.741196 129.81183 -7.0593877 60.583321
1173500000 -2.2868419 33.391327 -78.548073 102.43588 -78.514671 102.9427 -6.9771709 32.056232
1183000000 -2.2717974 4.8477278 -78.355431 73.467796 -78.410042 73.692146 -6.8776956 3.9381108
1192500000 -2.2653461 -23.794439 -78.307426 45.624607 -78.429497 45.999428 -6.7837481 -23.812471
1202000000 -2.2177582 -51.722378 -78.155563 17.368217 -78.12767 18.329565 -6.7170167 -51.304543
1211500000 -2.1762986 -78.888458 -77.825264 -9.3868599 -77.914116 -10.001378 -6.6911678 -78.719398
1221000000 -2.206116 -106.43164 -77.605827 -37.801956 -77.62352 -38.00106 -6.7092676 -106.24658
1230500000 -2.2823768 -134.84401 -77.554825 -63.879524 -77.502533 -63.672199 -6.758203 -134.03773
1240000000 -2.3156295 -163.36746 -76.890869 -92.715401 -76.943977 -92.565666 -6.8164973 -162.18246
1249500000 -2.3226256 168.20708 -76.466003 -121.88418 -76.355026 -122.18176 -6.8650155 169.36891
1259000000 -2.3846729 139.26263 -76.147011 -151.47647 -76.054565 -152.32217 -6.8847175 140.74652
1268500000 -2.4591055 109.74961 -75.933548 179.57777 -75.960793 179.2029 -6.8645506 112.14108
1278000000 -2.4713583 80.2603 -75.622459 149.06102 -75.580414 148.62442 -6.804882 83.738777
1287500000 -2.4439178 51.192493 -75.57663 119.31811 -75.645912 119.14783 -6.7134323 55.676029
1297000000 -2.4068108 22.635681 -75.745331 91.139946 -75.665474 91.205872 -6.6025681 28.010321
1306500000 -2.3622351 -5.3257856 -75.937881 63.464123 -75.858192 63.481876 -6.4882593 0.72904104
1316000000 -2.3146985 -32.825218 -75.450233 39.537842 -75.542206 39.787254 -6.3901396 -26.240343
1325500000 -2.2660015 -60.081608 -74.591522 12.959524 -74.590019 12.306139 -6.3239384 -52.961697
1335000000 -2.2244716 -86.891052 -73.91082 -19.057796 -74.0532 -19.577894 -6.2970133 -79.625465
1344500000 -2.2185719 -113.34124 -74.027924 -47.863403 -73.938995 -47.294304 -6.313776 -106.35778
1354000000 -2.2560301 -140.31865 -73.500107 -77.58242 -73.539551 -78.486305 -6.368546 -133.31837
1363500000 -2.2862377 -168.0645 -73.309105 -107.94686 -73.334145 -107.66851 -6.4493294 -160.60352
1373000000 -2.2810388 164.34186 -72.93811 -136.9082 -72.925224 -136.29677 -6.5377831 171.76666
1382500000 -2.302953 136.94324 -72.382874 -167.06261 -72.408371 -166.77997 -6.6144128 143.85139
1392000000 -2.3867435 108.64082 -72.032974 156.75394 -71.986885 156.52394 -6.6633277 115.79933
1401500000 -2.4282558 79.558372 -73.738823 130.17784 -73.747246 130.73511 -6.6630859 87.728081
1411000000 -2.3776312 51.097145 -73.736618 109.93548 -73.685738 110.66385 -6.6404605 59.78492
1420500000 -2.3459091 23.545908 -72.373825 85.416809 -72.403572 85.121429 -6.5997863 32.132629
1430000000 -2.3595891 -4.1430974 -71.427689 54.066364 -71.447479 54.409798 -6.550622 4.7788711
1439500000 -2.3295991 -32.089363 -71.308151 22.808971 -71.270058 22.903887 -6.5111022 -22.375526
1449000000 -2.2416036 -59.073841 -71.075722 -5.0408015 -71.066223 -4.8000951 -6.5005088 -49.422642
1458500000 -2.1874332 -85.098869 -70.364441 -31.068304 -70.378044 -31.100325 -6.5264306 -76.485664
1468000000 -2.2252221 -111.61874 -69.203964 -60.901497 -69.21965 -60.67057 -6.5907636 -103.66228
1477500000 -2.2764747 -139.10661 -68.398453 -94.826805 -68.402473 -94.677292 -6.685183 -131.0433
1487000000 -2.2647302 -166.59015 -67.530144 -129.11916 -67.513153 -129.04317 -6.7980852 -158.69963
1496500000 -2.2714393 166.26971 -67.7929 -162.18991 -67.7696 -162.00296 -6.9151292 173.28304
1506000000 -2.3629677 138.41078 -67.125313 165.92943 -67.097931 166.0596 -7.0322661 144.96516
1515500000 -2.4503825 109.32056 -67.280716 127.49485 -67.231827 127.63211 -7.1235962 116.48113
1525000000 -2.4589732 80.127708 -67.417999 105.27122 -67.425812 105.46313 -7.1652803 87.71917
1534500000 -2.4629166 51.476334 -66.390396 71.02951 -66.355049 70.99881 -7.1872835 58.992229
1544000000 -2.511534 22.530302 -65.366264 35.640202 -65.35244 35.793102 -7.1733031 30.448431
1553500000 -2.5212984 -6.7381902 -65.183472 -5.4198351 -65.177849 -5.4129958 -7.1283331 2.2630985
1563000000 -2.4557834 -35.198986 -65.774384 -44.482269 -65.761711 -44.766609 -7.0616999 -25.634373
1572500000 -2.4103012 -62.812038 -66.837311 -79.820381 -66.80397 -80.097298 -7.0032434 -53.356911
1582000000 -2.4241529 -90.446465 -67.313782 -113.97794 -67.30883 -114.16727 -6.9700575 -80.991684
1591500000 -2.4359245 -118.25638 -68.354813 -148.61143 -68.371971 -149.18672 -6.9668694 -108.66459
1601000000 -2.4438803 -146.07539 -69.435028 179.20154 -69.433907 179.12492 -6.9891534 -136.49417
1610500000 -2.4837341 -174.13121 -70.495514 148.67009 -70.445084 148.73642 -7.0256958 -164.52614
1620000000 -2.5195024 157.46091 -71.013908 118.57758 -71.079536 118.81023 -7.0665126 167.26691
1629500000 -2.5633605 128.7937 -71.932739 86.35611 -71.931656 86.12619 -7.0878391 138.95721
1639000000 -2.6593003 99.632835 -73.107536 55.814632 -73.071114 55.717018 -7.0884562 110.54464
1648500000 -2.7238765 69.841331 -74.29039 25.671495 -74.20787 26.264517 -7.0710793 82.072433
1658000000 -2.7058973 40.196407 -75.257805 -2.6895218 -75.316269 -2.8246236 -7.0375009 53.626999
1667500000 -2.7029512 11.174895 -76.554886 -31.267569 -76.576759 -31.081551 -6.9832768 25.295788
1677000000 -2.7293797 -17.885466 -77.59404 -60.927475 -77.579567 -61.094723 -6.9093337 -2.800534
1686500000 -2.6785839 -46.879795 -79.553345 -90.962715 -79.714668 -90.888367 -6.8165174 -30.614988
1696000000 -2.5787804 -74.791641 -81.751633 -111.27484 -81.89476 -112.28401 -6.7212706 -58.116474
1705500000 -2.5713265 -101.93298 -83.354477 -132.39992 -83.425293 -133.01025 -6.6390681 -85.360046
1715000000 -2.6173797 -129.43019 -85.838432 -146.01013 -85.84124 -145.9595 -6.5861974 -112.45918
1724500000 -2.5807471 -157.26663 -85.62252 -155.6786 -85.473854 -155.84909 -6.5694885 -139.54597
1734000000 -2.5336907 175.263 -84.742241 -170.54402 -85.193626 -171.45004 -6.5865345 -166.73132
1743500000 -2.5943968 147.89198 -84.264915 164.72922 -84.468643 163.68869 -6.6229548 165.93213
1753000000 -2.673208 119.82101 -84.743622 145.39546 -84.476471 144.80994 -6.6606212 138.43423
1762500000 -2.6718788 91.142815 -84.333321 127.47088 -84.227188 129.0528 -6.6882534 110.79401
1772000000 -2.6815915 62.512424 -83.513916 108.30006 -83.580772 109.46204 -6.7044792 83.040848
1781500000 -2.7524781 34.061649 -83.560471 86.624512 -83.617622 87.815323 -6.7121358 55.207924
1791000000 -2.7684231 5.4767628 -82.662964 70.62236 -82.443085 71.40992 -6.7118106 27.341745
1800500000 -2.7038577 -23.155718 -81.24279 48.402596 -81.182495 49.545837 -6.6998267 -0.49756056
1810000000 -2.6659727 -51.261196 -80.052315 22.971319 -80.31897 23.958521 -6.6707792 -28.23971
1819500000 -2.6691403 -78.644897 -80.501976 4.1297226 -80.503937 1.7862527 -6.6262665 -55.817371
1829000000 -2.6389537 -105.69472 -78.152756 -7.2677746 -78.288841 -7.9334211 -6.5765758 -83.182587
1838500000 -2.5824738 -132.79407 -75.123505 -34.193405 -75.185204 -33.988262 -6.5392871 -110.35376
1848000000 -2.588764 -159.94461 -72.41404 -67.623634 -72.49144 -67.584244 -6.5313663 -137.41725
1857500000 -2.6531513 172.95804 -71.027725 -103.70063 -71.032791 -103.92654 -6.5620232 -164.51447
1867000000 -2.6768 145.73262 -69.9412 -139.73843 -69.954033 -139.95152 -6.6269984 168.2195
1876500000 -2.6713943 118.1392 -69.231255 -174.02896 -69.27282 -173.92168 -6.7118378 140.67807
1886000000 -2.748323 90.115288 -68.449104 152.94983 -68.454483 152.84119 -6.7988501 112.84441
1895500000 -2.8877845 61.665791 -67.780876 117.66948 -67.747299 117.46539 -6.8705707 84.748306
1905000000 -2.9527118 32.968407 -67.40728 81.699158 -67.341194 82.106422 -6.9189677 56.436207
1914500000 -2.9437339 4.3591423 -67.389114 48.092369 -67.364647 48.202442 -6.9464312 27.977615
1924000000 -2.9841938 -24.22349 -66.931602 15.073728 -66.918701 15.133876 -6.9574223 -0.55069882
1933500000 -3.0434151 -52.87397 -66.993919 -22.427416 -66.99527 -21.988749 -6.9501753 -29.061377
1943000000 -3.0026252 -81.037155 -67.56958 -56.041149 -67.555962 -55.877098 -6.9181137 -57.460545
1952500000 -2.9108958 -108.3736 -67.877052 -87.037498 -67.891724 -87.064529 -6.8618517 -85.660156
1962000000 -2.9038494 -135.66635 -68.742622 -123.69139 -68.764763 -123.8938 -6.7941408 -113.59166
1971500000 -2.9564838 -163.41953 -70.145752 -146.04906 -70.11557 -146.1803 -6.7341328 -141.24866
1981000000 -2.9364181 168.89688 -70.184959 -170.46611 -70.193291 -170.31198 -6.7022815 -168.72554
1990500000 -2.8877323 141.51291 -70.232513 165.46391 -70.270348 164.90092 -6.7110162 163.82288
2000000000 -2.9294527 113.76176 -69.880051 142.63579 -69.834427 142.23819 -6.757988 136.22589
