!Keysight Technologies,N5242B,MY48420967,A.15.65.19
!Date: Monday, December 19, 2022 08:58:38
!Correction: S11(C  2-Port  ) 
!S21(C  2-Port  ) 
!S12(C  2-Port  ) 
!S22(C  2-Port  ) 
!S2P File: Measurements: S11, S21, S12, S22:
# Hz S  dB   R 50
100000000 -1.2895892 40.847538 -108.88136 165.0303 -112.88952 141.08221 -1.3363518 31.429361
109500000 -1.1701261 11.463078 -108.71371 154.88048 -109.52242 138.3412 -1.3281549 1.8460424
119000000 -1.0392588 -16.680412 -110.83326 95.797943 -111.64774 133.13295 -1.3384453 -27.667904
128500000 -0.98965812 -44.72084 -108.41666 74.014244 -108.99651 101.4566 -1.3759229 -57.204967
138000000 -0.98575562 -73.51091 -106.46052 50.352489 -112.94032 45.310951 -1.4481211 -86.841789
147500000 -1.0155077 -102.43714 -110.21768 33.440292 -108.25053 30.372427 -1.5646685 -116.68266
157000000 -1.0757195 -131.42047 -107.49781 -19.542347 -109.44732 -1.6032732 -1.7326196 -146.80846
166500000 -1.1784568 -161.09355 -106.3891 -37.382366 -110.12207 -56.273941 -1.9431608 -177.21754
176000000 -1.2881969 168.64642 -106.74616 -56.390862 -108.02345 -47.171352 -2.165834 152.21577
185500000 -1.376204 138.42712 -106.23987 -85.440315 -104.68879 -89.081825 -2.3605714 121.7344
195000000 -1.4332776 108.24513 -104.42012 -127.78971 -104.8323 -132.59985 -2.497752 91.626572
204500000 -1.4248413 78.433388 -104.47438 -169.16417 -103.78241 -155.0311 -2.5727293 62.063889
214000000 -1.3697077 49.248043 -103.4365 172.1011 -103.06884 162.30542 -2.6088421 32.99781
223500000 -1.3485048 20.368002 -104.14936 152.61548 -102.40201 144.36989 -2.645746 4.2040858
233000000 -1.321456 -8.3691435 -102.08619 108.85803 -102.96279 109.84287 -2.7172115 -24.607338
242500000 -1.2449034 -36.869881 -98.90789 82.921478 -102.08304 83.16185 -2.8375018 -53.671612
252000000 -1.2273484 -65.161781 -98.517776 42.892288 -100.65051 55.767651 -3.0011528 -83.090569
261500000 -1.3086129 -93.96505 -98.32869 15.917287 -100.19822 24.965494 -3.1910856 -112.84674
271000000 -1.3885074 -123.62394 -99.456268 -19.776979 -99.807167 -1.3056042 -3.3910744 -142.8511
280500000 -1.4248208 -153.4659 -98.690804 -36.424198 -97.467232 -51.171558 -3.5910931 -173.00523
290000000 -1.5047628 176.79852 -99.363716 -70.407166 -99.741776 -64.304924 -3.7856109 156.7776
299500000 -1.6382709 146.59789 -99.652397 -94.539001 -98.394684 -100.65109 -3.9609699 126.58714
309000000 -1.6922865 115.99373 -97.207489 -130.02393 -98.563889 -124.06902 -4.0979695 96.55912
318500000 -1.6481633 85.983284 -98.985962 -147.7962 -97.308044 -166.47626 -4.1838026 66.86834
328000000 -1.6259053 56.880371 -97.759148 162.56754 -97.14534 175.83386 -4.2229028 37.610092
337500000 -1.6340214 27.880009 -97.098846 141.42421 -96.873161 134.10121 -4.2427669 8.7163773
347000000 -1.593411 -1.3903977 -96.115395 120.7553 -96.090538 112.24577 -4.2864552 -20.025986
356500000 -1.5259041 -30.275179 -96.438492 81.80629 -95.219337 81.388229 -4.3872786 -48.900188
366000000 -1.5238087 -58.758389 -94.63282 46.371376 -95.82869 49.32655 -4.5486259 -78.166458
375500000 -1.592145 -87.797997 -94.121605 20.963047 -95.564034 17.778183 -4.7449145 -107.94154
385000000 -1.6498612 -117.78063 -94.724907 -2.9861152 -94.563774 -5.1958704 -4.9372835 -138.12546
394500000 -1.6842703 -148.00812 -94.657875 -34.824093 -94.103737 -33.179497 -5.0878258 -168.46045
404000000 -1.759976 -177.9933 -93.712433 -66.986259 -94.027725 -66.856186 -5.1796536 161.32977
413500000 -1.8530356 151.86955 -94.396622 -98.321014 -93.864334 -91.206879 -5.2258935 131.43532
423000000 -1.888724 121.3289 -93.126831 -121.39663 -93.66124 -125.92414 -5.2451148 101.91537
432500000 -1.8756282 91.181396 -93.988487 -149.61641 -92.780693 -154.3112 -5.2438149 72.769501
442000000 -1.8462096 62.083981 -93.026672 176.95241 -93.282341 -178.49382 -5.2242131 44.00473
451500000 -1.8103647 33.468166 -92.766251 153.29614 -92.736153 150.26074 -5.1937966 15.623986
461000000 -1.7715611 4.7656884 -91.79705 125.80273 -92.466927 122.36545 -5.1664538 -12.441341
470500000 -1.7288293 -23.788107 -91.684464 99.969521 -91.501511 96.34687 -5.1684389 -40.363213
480000000 -1.7017471 -51.891499 -90.768211 70.650475 -90.925644 71.082642 -5.2240953 -68.379318
489500000 -1.71381 -80.025459 -90.090248 45.968708 -89.958618 43.757759 -5.3352509 -96.735291
499000000 -1.7608131 -108.8986 -88.556541 15.107415 -88.673622 13.896003 -5.477664 -125.55405
508500000 -1.8133372 -138.2841 -87.268631 -14.406219 -87.275192 -13.923862 -5.6100798 -154.74539
518000000 -1.8505923 -167.52043 -85.374771 -44.924423 -85.636436 -44.661228 -5.692071 175.98007
527500000 -1.8903362 163.27185 -84.288025 -82.654427 -84.044388 -83.359718 -5.7053394 146.94324
537000000 -1.9374481 133.79825 -83.099846 -123.56195 -83.038513 -123.02798 -5.6705389 118.35949
546500000 -1.9465157 104.47072 -83.314308 -166.03853 -83.350372 -165.14012 -5.6281514 90.249443
556000000 -1.9050291 75.815826 -84.392433 154.32561 -84.415298 154.17279 -5.6032081 62.474758
565500000 -1.850819 47.772118 -85.144188 122.75111 -85.083199 122.88394 -5.6032486 34.864861
575000000 -1.8124633 20.002253 -85.79705 89.605812 -85.868958 91.690506 -5.6277533 7.3194833
584500000 -1.7826918 -7.6450601 -86.189178 62.307247 -86.44577 62.086163 -5.6687155 -20.183559
594000000 -1.7436532 -35.245457 -86.819984 34.9786 -86.601471 34.276676 -5.7213054 -47.694672
603500000 -1.7177619 -62.892456 -87.164726 5.63445 -86.524796 5.5710468 -5.801446 -75.337776
613000000 -1.7453513 -90.626549 -86.670525 -21.197283 -86.851402 -21.540169 -5.9250207 -103.26239
622500000 -1.8028567 -118.8398 -86.350136 -49.678272 -86.579262 -50.974945 -6.0852547 -131.6353
632000000 -1.8549008 -147.8786 -86.982895 -77.643364 -86.669365 -80.031273 -6.2556744 -160.53253
641500000 -1.8875544 -177.18806 -86.380409 -114.73624 -86.256622 -114.79492 -6.3999057 170.18559
651000000 -1.9315261 153.75842 -86.937126 -143.35129 -87.342995 -143.38651 -6.4809575 140.83784
660500000 -1.9856013 124.71047 -87.741959 -166.14648 -88.159439 -165.4563 -6.488903 111.77077
670000000 -1.9964222 95.306564 -87.9981 165.46805 -87.421104 164.48581 -6.455554 83.189987
679500000 -1.9544129 66.25132 -87.615196 137.31546 -87.553719 139.4156 -6.4215703 55.066265
689000000 -1.9086311 38.251892 -87.508705 110.76981 -87.413338 111.26623 -6.4175611 27.190916
698500000 -1.8887931 10.670096 -86.982216 85.271965 -86.986557 84.502129 -6.4574409 -0.67462337
708000000 -1.868422 -17.459593 -86.883965 53.770336 -86.783913 53.000389 -6.5371118 -28.69714
717500000 -1.8384132 -45.765099 -86.485909 25.419073 -86.272896 27.119198 -6.6347699 -56.962059
727000000 -1.8343382 -73.456665 -86.111107 0.7415176 -86.130577 -1.2104527 -6.7350001 -85.49276
736500000 -1.8887335 -101.36375 -85.979233 -28.724077 -85.959488 -31.087404 -6.8380713 -114.28268
746000000 -1.9760622 -130.63918 -85.852829 -57.420036 -85.457161 -60.422825 -6.9430828 -143.34793
755500000 -2.016398 -160.51376 -85.493126 -88.115517 -85.450142 -87.434479 -7.0378642 -172.70346
765000000 -2.0401151 170.17007 -85.247841 -116.7995 -85.494743 -117.78542 -7.103683 157.71541
774500000 -2.1249695 140.82108 -85.097061 -146.73296 -85.174873 -147.6256 -7.1181421 128.10921
784000000 -2.188772 110.55363 -84.960716 -177.40909 -84.964943 -175.68987 -7.0685329 98.755791
793500000 -2.1524193 80.479637 -84.903267 153.46532 -85.053505 155.64433 -6.9677687 69.893036
803000000 -2.0967109 51.92112 -84.953293 125.91403 -84.966759 125.69331 -6.8521619 41.592972
812500000 -2.0852907 23.896721 -85.049141 97.565186 -84.791893 97.571281 -6.7549734 13.740328
822000000 -2.0676887 -4.5816355 -84.655914 69.145737 -84.80098 69.663246 -6.6968598 -13.88462
831500000 -2.003334 -32.783398 -84.529388 40.607483 -84.632156 39.987282 -6.6824508 -41.508831
841000000 -1.9717876 -60.33128 -84.418884 11.232357 -84.578262 11.332157 -6.6995821 -69.290764
850500000 -2.0138297 -88.011925 -84.637039 -17.339643 -84.479202 -17.779768 -6.7283845 -97.297974
860000000 -2.0516233 -116.38192 -84.47641 -45.405926 -84.227409 -44.857582 -6.7571874 -125.51127
869500000 -2.077023 -145.17053 -83.975723 -73.202217 -84.112106 -72.376801 -6.7798877 -153.87825
879000000 -2.1330748 -174.0258 -84.036186 -101.86047 -83.917885 -103.50095 -6.7917628 177.64937
888500000 -2.1825585 156.92409 -83.8274 -131.95734 -83.912643 -130.86598 -6.7887549 149.12932
898000000 -2.2077854 127.66871 -83.632072 -159.53792 -83.799118 -159.30016 -6.7639537 120.67171
907500000 -2.223896 98.501869 -83.764977 171.73013 -83.785454 172.45757 -6.7065878 92.423866
917000000 -2.2059116 69.657471 -83.628235 142.47585 -83.654495 142.97144 -6.6163416 64.528183
926500000 -2.1449883 41.504112 -83.317139 114.22673 -83.518639 115.13401 -6.5123572 37.058483
936000000 -2.0814214 14.116817 -83.419777 87.805923 -83.48571 87.766327 -6.4215035 9.9876347
945500000 -2.0434809 -13.047364 -83.313194 59.046776 -83.407738 59.455601 -6.3621225 -16.807436
955000000 -2.0105548 -40.224758 -83.03083 30.832075 -83.117447 29.944359 -6.3438931 -43.51128
964500000 -1.9719392 -67.158134 -82.971184 2.1378605 -82.985191 4.2672701 -6.3674092 -70.327797
974000000 -1.9697438 -93.936707 -82.723061 -23.923519 -82.748642 -24.082096 -6.4262881 -97.402031
983500000 -2.0167339 -121.08029 -82.74263 -52.795982 -82.632767 -52.548225 -6.5067296 -124.78989
993000000 -2.0571616 -148.96996 -82.169746 -81.565163 -82.072433 -81.325203 -6.5943995 -152.47893
1002500000 -2.082546 -177.35907 -81.920876 -111.54678 -81.726929 -111.26428 -6.6783524 179.5641
1012000000 -2.1216311 154.41188 -81.968086 -141.96243 -82.05909 -142.25548 -6.7529039 151.3974
1021500000 -2.1623333 126.12263 -82.252388 -169.44997 -82.291382 -169.35376 -6.8106637 123.11082
1031000000 -2.1947424 97.172691 -82.048851 163.3278 -82.023163 164.22247 -6.8392911 94.828613
1040500000 -2.1803248 68.173157 -81.811119 135.0898 -81.715889 135.98575 -6.8305469 66.686974
1050000000 -2.1222737 40.199814 -81.74382 109.3328 -81.838158 108.15779 -6.791965 38.814049
1059500000 -2.080797 13.098362 -81.681839 79.19136 -81.622169 79.63665 -6.7466478 11.274364
1069000000 -2.0592256 -14.345706 -81.471092 51.166439 -81.583427 51.539848 -6.7176032 -15.973873
1078500000 -2.033962 -42.135166 -81.248016 25.047049 -81.409622 25.315418 -6.7224703 -43.085224
1088000000 -2.0020185 -69.073814 -81.163788 -2.3463273 -81.013908 -3.4469445 -6.775435 -70.281258
1097500000 -2.0004976 -95.609016 -80.914749 -31.878382 -80.780319 -31.307699 -6.8758831 -97.760933
1107000000 -2.0621867 -123.27248 -80.520546 -58.897152 -80.414726 -60.366844 -7.0058441 -125.68098
1116500000 -2.1264036 -151.99448 -80.460838 -87.449814 -80.038597 -88.04673 -7.1410499 -154.08797
1126000000 -2.1560812 179.44049 -80.258469 -116.06975 -80.081177 -116.29305 -7.2615047 177.07956
1135500000 -2.2015684 151.02913 -79.907646 -144.79221 -79.860367 -144.49986 -7.3512983 147.96895
1145000000 -2.2756679 121.61506 -79.648689 -172.72984 -79.64254 -173.03851 -7.397747 118.76044
1154500000 -2.3349555 91.382545 -79.569702 158.94676 -79.418068 159.11028 -7.3971171 89.625153
1164000000 -2.3261456 61.9165 -79.363564 128.51987 -79.399231 129.16606 -7.3476458 60.727467
1173500000 -2.2767169 33.401314 -79.074677 102.00526 -79.17701 101.19327 -7.2606287 32.17284
1183000000 -2.2616546 4.8623629 -78.880974 73.491867 -79.026276 74.168427 -7.1562376 4.0378442
1192500000 -2.2548771 -23.775045 -78.973404 44.635719 -78.82547 45.182175 -7.0586009 -23.715702
1202000000 -2.2078574 -51.709053 -78.850571 16.476923 -78.966362 17.448997 -6.9889503 -51.203011
1211500000 -2.1664758 -78.872276 -78.502823 -10.911983 -78.610497 -10.636958 -6.9617653 -78.611824
1221000000 -2.195466 -106.41267 -78.268173 -38.850327 -78.343369 -39.227768 -6.9803405 -106.13447
1230500000 -2.2717555 -134.82706 -78.323395 -64.659348 -78.191261 -64.706436 -7.0304642 -133.92554
1240000000 -2.304919 -163.34666 -77.630753 -93.810822 -77.508133 -93.117653 -7.0896254 -162.07544
1249500000 -2.3114855 168.23048 -77.141968 -122.14603 -77.01416 -122.13142 -7.1385007 169.46236
1259000000 -2.3735058 139.284 -76.811386 -152.60815 -76.883827 -152.90558 -7.1579132 140.81883
1268500000 -2.4475987 109.77234 -76.59095 178.53777 -76.558861 178.32239 -7.1352906 112.18986
1278000000 -2.4597075 80.287971 -76.307076 147.965 -76.345146 147.95905 -7.0705838 83.766724
1287500000 -2.4326377 51.220123 -76.446037 118.32901 -76.390083 118.01669 -6.9732814 55.689308
1297000000 -2.3957605 22.662323 -76.53418 90.322586 -76.5644 90.532715 -6.8563995 28.017897
1306500000 -2.3510311 -5.2975049 -76.786987 62.739655 -76.806961 62.715733 -6.7364287 0.74120098
1316000000 -2.3039002 -32.797302 -76.418396 38.831696 -76.352882 38.358772 -6.6341357 -26.215244
1325500000 -2.2554784 -60.05521 -75.428047 12.358506 -75.408989 12.022328 -6.5656657 -52.924946
1335000000 -2.2135878 -86.865181 -74.886757 -20.265162 -74.860054 -20.280758 -6.5382676 -79.569298
1344500000 -2.2078362 -113.31711 -74.990463 -49.318012 -75.019325 -49.27018 -6.5555978 -106.2823
1354000000 -2.2453237 -140.29623 -74.462151 -79.585274 -74.583519 -79.912598 -6.6116757 -133.22577
1363500000 -2.2749357 -168.04387 -74.489944 -109.0641 -74.414406 -109.30809 -6.6941953 -160.49663
1373000000 -2.2698302 164.36339 -74.223793 -137.89888 -74.189156 -137.34627 -6.7846861 171.88118
1382500000 -2.2917402 136.96242 -73.716888 -167.16554 -73.790344 -166.92548 -6.8629885 143.96237
1392000000 -2.3752141 108.65402 -73.357254 158.63306 -73.328499 158.33734 -6.9125242 115.88543
1401500000 -2.4164333 79.575485 -74.784782 130.4837 -74.644165 130.88272 -6.9143901 87.799072
1411000000 -2.3658876 51.11409 -74.868629 108.92548 -74.806358 109.44376 -6.8897247 59.853203
1420500000 -2.334928 23.558023 -73.842987 84.640076 -73.757751 85.277855 -6.8458176 32.201984
1430000000 -2.3482428 -4.1294227 -72.912956 54.148735 -72.883369 54.198795 -6.7940955 4.8529754
1439500000 -2.318249 -32.075947 -72.84903 22.860224 -72.839394 23.43177 -6.7529035 -22.287758
1449000000 -2.2309217 -59.061077 -72.727554 -4.6537924 -72.695023 -4.3051891 -6.7423134 -49.320778
1458500000 -2.1766181 -85.089333 -72.192459 -30.668037 -72.215515 -30.753027 -6.7697001 -76.363808
1468000000 -2.2142255 -111.61018 -71.211403 -58.851692 -71.226151 -59.367508 -6.8340249 -103.52451
1477500000 -2.264967 -139.09631 -70.532478 -91.260574 -70.530891 -91.138634 -6.9277329 -130.90141
1487000000 -2.2528975 -166.58154 -69.600609 -123.88902 -69.675636 -123.84914 -7.0411201 -158.56892
1496500000 -2.2598753 166.27911 -69.988762 -156.90643 -70.001381 -157.15218 -7.1593204 173.41216
1506000000 -2.3505907 138.42049 -69.513008 174.05644 -69.471321 173.9339 -7.2743506 145.05653
1515500000 -2.437428 109.32903 -69.300087 138.60321 -69.24807 138.7307 -7.3698955 116.47388
1525000000 -2.4459531 80.141182 -69.472794 115.01779 -69.492363 115.03106 -7.4167504 87.699982
1534500000 -2.449775 51.491512 -68.527695 83.408699 -68.480606 83.469955 -7.4343648 58.901585
1544000000 -2.4982316 22.545876 -67.545868 51.312477 -67.489342 51.214539 -7.4147048 30.27899
1553500000 -2.5077472 -6.7193503 -66.857193 13.723641 -66.850594 13.838624 -7.3726015 1.9874895
1563000000 -2.4428272 -35.176804 -66.740456 -23.68998 -66.7351 -24.137402 -7.318501 -25.961887
1572500000 -2.3974442 -62.789925 -67.225029 -59.930599 -67.197266 -60.044964 -7.2719607 -53.679817
1582000000 -2.411222 -90.425636 -67.216003 -95.045532 -67.199837 -95.242233 -7.2503934 -81.284081
1591500000 -2.4230731 -118.22973 -67.737434 -131.71588 -67.770401 -132.02669 -7.2558794 -108.90294
1601000000 -2.4302828 -146.04836 -68.53421 -166.73741 -68.549446 -167.00713 -7.2803936 -136.66832
1610500000 -2.470444 -174.10632 -69.383408 159.20905 -69.410156 159.01723 -7.3142228 -164.65207
1620000000 -2.5059762 157.49332 -70.179871 126.63634 -70.254822 126.80936 -7.3516965 167.14085
1629500000 -2.5488815 128.82483 -71.075424 93.335411 -71.159622 93.150131 -7.3746328 138.83151
1639000000 -2.6451535 99.661942 -72.16996 61.054501 -72.136314 60.946037 -7.3757033 110.4305
1648500000 -2.7094195 69.87767 -73.38546 28.247009 -73.37812 28.786076 -7.3542194 81.959641
1658000000 -2.6910276 40.231606 -74.547142 -3.0828764 -74.599167 -2.7067256 -7.3149161 53.503345
1667500000 -2.6885245 11.210088 -76.173706 -33.71225 -76.140976 -33.531322 -7.2532449 25.160072
1677000000 -2.7149904 -17.847122 -77.637695 -65.65168 -77.500694 -65.327087 -7.1737599 -2.9389863
1686500000 -2.6644645 -46.843945 -79.807999 -98.682411 -79.893272 -97.114311 -7.0746212 -30.744864
1696000000 -2.5649064 -74.759346 -83.159836 -120.97795 -83.098114 -121.16087 -6.9744568 -58.23946
1705500000 -2.5575054 -101.9006 -85.481514 -140.8761 -85.517731 -142.44414 -6.8882718 -85.475601
1715000000 -2.6036267 -129.39905 -91.207359 -152.83815 -90.774727 -150.28082 -6.8320069 -112.56783
1724500000 -2.5667963 -157.24014 -89.750793 -141.49884 -89.746696 -138.34279 -6.8123322 -139.644
1734000000 -2.5194619 175.28957 -87.659073 -146.02335 -88.007561 -147.42377 -6.827795 -166.81874
1743500000 -2.5799665 147.91808 -86.558891 -166.94118 -86.819115 -170.37416 -6.863977 165.85555
1753000000 -2.6588175 119.84222 -85.740547 177.2937 -85.96402 175.24907 -6.9018774 138.36362
1762500000 -2.6566606 91.163582 -84.623619 157.82489 -84.19091 156.27431 -6.930016 110.72045
1772000000 -2.6661177 62.533314 -82.69706 134.44937 -82.984085 135.22818 -6.9466391 82.955879
1781500000 -2.7373967 34.08128 -82.516449 112.23576 -82.397957 111.40855 -6.9538217 55.111076
1791000000 -2.7527661 5.4955015 -80.819565 92.768066 -80.84996 92.375275 -6.9516788 27.238241
1800500000 -2.688277 -23.135345 -79.219826 68.097633 -79.163963 68.358086 -6.9372749 -0.60195935
1810000000 -2.6508265 -51.23938 -78.060402 39.576 -78.142242 38.930412 -6.9063244 -28.342024
1819500000 -2.6537008 -78.628754 -78.11657 16.174604 -78.128296 16.177376 -6.8605728 -55.918327
1829000000 -2.6236362 -105.67672 -75.90712 1.3052349 -75.872925 0.26291174 -6.8100028 -83.2817
1838500000 -2.5670147 -132.77086 -73.25602 -27.560497 -73.289749 -28.04674 -6.771769 -110.44911
1848000000 -2.5729043 -159.92871 -70.871376 -62.29261 -70.956192 -62.103668 -6.7632442 -137.50627
1857500000 -2.6371083 172.97554 -69.628716 -97.889305 -69.635368 -97.974838 -6.7945147 -164.59247
1867000000 -2.6601315 145.75497 -68.622055 -133.90971 -68.586868 -133.89505 -6.861289 168.15558
1876500000 -2.6544933 118.15741 -67.921028 -168.38364 -67.938004 -168.06027 -6.948782 140.6228
1886000000 -2.7305532 90.132751 -67.118584 158.77071 -67.153847 158.29614 -7.0393958 112.78589
1895500000 -2.8695524 61.685688 -66.509018 123.01266 -66.471031 123.13284 -7.1146512 84.675362
1905000000 -2.9351902 32.988632 -66.08857 87.116478 -66.064125 87.255348 -7.1649542 56.343613
1914500000 -2.9261432 4.379261 -66.027382 53.531635 -66.008636 53.597786 -7.1921577 27.86664
1924000000 -2.9670811 -24.197151 -65.500641 19.765202 -65.526245 19.805979 -7.2022362 -0.67618573
1933500000 -3.0285397 -52.840511 -65.594955 -17.532785 -65.564606 -17.560137 -7.1940527 -29.197317
1943000000 -2.9888599 -81.000778 -66.035446 -51.563972 -66.028694 -51.496216 -7.1606545 -57.604389
1952500000 -2.8970056 -108.32324 -66.24633 -83.820496 -66.269791 -83.892204 -7.1021523 -85.813347
1962000000 -2.8904126 -135.59932 -67.029625 -120.28556 -66.98539 -120.53852 -7.0316262 -113.75529
1971500000 -2.9432211 -163.34465 -68.240578 -146.12831 -68.21299 -146.04021 -6.9689693 -141.4164
1981000000 -2.9209678 168.98137 -68.448257 -172.42282 -68.495392 -172.48828 -6.9349899 -168.88808
1990500000 -2.8704953 141.60896 -68.78875 161.83946 -68.83802 161.86836 -6.9427619 163.67236
2000000000 -2.9112456 113.86435 -68.707016 138.44318 -68.724762 138.52339 -6.9906068 136.08351
