!Keysight Technologies,N5242B,MY48420967,A.15.65.19
!Date: Monday, December 19, 2022 11:42:22
!Correction: S11(C  2-Port  ) 
!S21(C  2-Port  ) 
!S12(C  2-Port  ) 
!S22(C  2-Port  ) 
!S2P File: Measurements: S11, S21, S12, S22:
# Hz S  dB   R 50
100000000 -1.3771522 40.909332 -107.56258 147.57458 -112.57146 140.00792 -1.2561533 30.162167
109500000 -1.2559974 11.480615 -109.41894 138.15062 -111.17648 150.49577 -1.2334086 0.4433946
119000000 -1.1271816 -16.679167 -112.5467 113.49664 -109.6558 140.12732 -1.2269611 -29.210188
128500000 -1.0777053 -44.74044 -109.38073 67.857735 -110.69331 107.78819 -1.2452055 -58.898415
138000000 -1.0740905 -73.54409 -107.75242 40.248734 -110.15111 52.798374 -1.2971501 -88.696121
147500000 -1.1060236 -102.48759 -108.20337 31.06131 -105.68376 14.298611 -1.3932388 -118.69795
157000000 -1.165229 -131.47203 -111.18431 -34.544964 -108.13065 -1.0883608 -1.538916 -148.97929
166500000 -1.2679063 -161.15901 -105.17771 -41.577206 -106.91576 -78.082687 -1.7240016 -179.53703
176000000 -1.3754759 168.58925 -104.42616 -60.321964 -106.26875 -99.854187 -1.9191601 149.7688
185500000 -1.4613335 138.36176 -107.1603 -88.219124 -105.46087 -102.95829 -2.0854158 119.19685
195000000 -1.5134237 108.17802 -103.89017 -141.74347 -103.63698 -140.85741 -2.1934357 89.03186
204500000 -1.4997683 78.374832 -104.30379 -163.80199 -101.88744 -176.00868 -2.2402987 59.421623
214000000 -1.4412025 49.200275 -101.53785 172.9283 -102.39486 173.04814 -2.2508855 30.29097
223500000 -1.4140989 20.324474 -103.58778 136.8652 -101.53412 146.76665 -2.2625344 1.3969541
233000000 -1.3846029 -8.4013262 -101.3249 105.35504 -101.00333 101.53501 -2.3070729 -27.554258
242500000 -1.3048936 -36.883961 -100.49493 75.032166 -100.15073 70.59758 -2.3989646 -56.787643
252000000 -1.2856729 -65.17363 -101.8587 57.810497 -98.507957 45.570457 -2.5324373 -86.384537
261500000 -1.3660582 -93.964371 -99.08831 5.9227481 -100.99113 10.008445 -2.6911147 -116.30357
271000000 -1.4461448 -123.61357 -97.64782 -23.77726 -99.429764 -13.406188 -2.8589997 -146.44522
280500000 -1.4835449 -153.46465 -98.353592 -50.201481 -98.4627 -43.401127 -3.0277565 -176.70937
290000000 -1.5630069 176.80119 -99.067894 -73.105759 -98.135803 -81.111961 -3.1910009 152.98923
299500000 -1.698073 146.59767 -98.842896 -109.42273 -96.99572 -109.9421 -3.336617 122.75392
309000000 -1.7542665 115.97144 -97.259521 -136.30937 -97.38813 -141.96858 -3.4464128 92.727654
318500000 -1.7099794 85.94223 -98.034851 -161.51996 -96.6884 -165.37347 -3.5061264 63.060188
328000000 -1.6885567 56.82909 -96.797951 166.93178 -97.033379 165.4631 -3.5208857 33.813351
337500000 -1.6994514 27.813698 -96.560699 132.5696 -97.102402 132.02281 -3.5197065 4.8935857
347000000 -1.660501 -1.4895409 -95.931313 109.202 -95.220787 100.84338 -3.540586 -23.927391
356500000 -1.5949807 -30.382393 -95.747581 80.051003 -95.431709 77.663223 -3.6132982 -52.926449
366000000 -1.5958165 -58.873718 -94.646065 47.054176 -95.023041 43.134109 -3.742451 -82.32579
375500000 -1.668903 -87.93676 -93.153145 16.794785 -94.344086 13.17075 -3.904994 -112.19196
385000000 -1.7293156 -117.92846 -93.70742 -11.917082 -94.760979 -14.342796 -4.0624542 -142.39293
394500000 -1.7661198 -148.1691 -94.187889 -36.737644 -93.125343 -44.009705 -4.1816015 -172.67104
404000000 -1.8451505 -178.16286 -93.380295 -74.639015 -93.172867 -68.909363 -4.2516742 157.22641
413500000 -1.9379323 151.69647 -92.673691 -102.04948 -93.791153 -103.73042 -4.2832308 127.456
423000000 -1.9747094 121.14872 -92.797516 -129.51704 -93.108826 -128.14026 -4.2913551 98.05928
432500000 -1.9617947 90.999168 -93.039848 -158.69586 -92.361412 -155.34866 -4.2837272 69.033096
442000000 -1.9294221 61.902851 -92.202705 177.42688 -92.904663 176.55388 -4.2610593 40.369762
451500000 -1.8931293 33.29884 -92.111755 150.22133 -92.152 148.79153 -4.2267237 12.053988
461000000 -1.8551861 4.6026483 -91.703346 126.828 -91.79882 126.7717 -4.1944704 -15.993256
470500000 -1.8119297 -23.950686 -90.581306 101.03429 -90.461914 101.13405 -4.1881084 -43.949532
480000000 -1.7843385 -52.035091 -88.92662 75.971703 -89.003754 77.393814 -4.2284832 -72.044426
489500000 -1.7987059 -80.15287 -87.209656 51.4244 -86.851852 52.154636 -4.319581 -100.48563
499000000 -1.8481841 -109.01308 -84.518105 19.944164 -84.572029 19.673943 -4.4404836 -129.34637
508500000 -1.8980585 -138.37436 -82.034409 -21.177839 -82.199188 -21.208967 -4.5522037 -158.50981
518000000 -1.9301964 -167.6096 -80.692062 -71.531189 -80.71891 -71.695808 -4.6191292 172.30714
527500000 -1.9702063 163.144 -81.71991 -119.07125 -81.696991 -119.48866 -4.6282153 143.39159
537000000 -2.019819 133.64427 -83.271156 -156.91089 -83.178001 -156.4016 -4.5971084 114.91198
546500000 -2.0328836 104.32296 -84.310219 171.34953 -84.489662 171.77927 -4.5570717 86.858459
556000000 -1.9929413 75.681702 -85.6717 143.50583 -85.571091 141.6868 -4.532198 59.095425
565500000 -1.9383023 47.644798 -86.079971 113.19617 -85.819443 114.43737 -4.5310097 31.471941
575000000 -1.9001734 19.891842 -86.36599 84.815628 -86.351097 87.029205 -4.5495439 3.8984013
584500000 -1.8718368 -7.7465034 -86.386772 59.949055 -86.698555 59.417599 -4.578959 -23.646828
594000000 -1.8342735 -35.349003 -86.638725 32.061386 -86.568184 32.983707 -4.6159339 -51.225441
603500000 -1.8096893 -62.984993 -86.64222 5.8303118 -86.479065 4.2253551 -4.6747751 -78.966827
613000000 -1.840553 -90.711342 -86.424797 -22.701986 -86.32135 -22.529295 -4.7704043 -107.00343
622500000 -1.9022681 -118.92623 -85.925835 -50.861862 -86.101578 -53.824936 -4.8988614 -135.46118
632000000 -1.9564112 -147.96918 -86.050522 -77.884644 -85.812164 -81.126671 -5.0376506 -164.37877
641500000 -1.9925271 -177.284 -85.763321 -117.05 -85.783638 -115.6181 -5.1537709 166.40511
651000000 -2.0390041 153.65825 -85.816917 -144.19257 -86.671783 -145.83385 -5.2156734 137.19083
660500000 -2.0941522 124.59369 -86.631645 -167.05795 -86.86187 -167.97052 -5.2169137 108.27697
670000000 -2.1069152 95.180588 -86.709625 164.75441 -86.542213 163.42662 -5.1823144 79.813744
679500000 -2.0654469 66.110214 -86.310684 137.69069 -86.305649 138.25053 -5.146647 51.74416
689000000 -2.0189846 38.095421 -85.867561 110.96703 -86.148064 109.82516 -5.1386194 23.872448
698500000 -1.9999038 10.508648 -85.843483 84.552032 -85.612953 82.491966 -5.1687107 -4.0154929
708000000 -1.9830828 -17.635773 -85.557747 53.015411 -85.171944 52.96912 -5.2290149 -32.065456
717500000 -1.9548932 -45.959934 -85.176559 24.178083 -84.989861 26.296858 -5.3026013 -60.343063
727000000 -1.9517095 -73.659782 -84.963875 -2.132405 -84.850784 -2.6514804 -5.3783531 -88.862396
736500000 -2.0112059 -101.5696 -84.471451 -32.555088 -84.325142 -31.177544 -5.4552217 -117.61731
746000000 -2.1035597 -130.86476 -84.34243 -61.296734 -84.243904 -61.854706 -5.5339484 -146.61758
755500000 -2.1455734 -160.75848 -84.113632 -91.254448 -84.283348 -88.871574 -5.6083579 -175.86081
765000000 -2.1701837 169.93495 -84.054962 -119.09129 -83.988564 -118.48196 -5.6628976 154.73048
774500000 -2.257055 140.58464 -83.854286 -148.4884 -83.727829 -149.33669 -5.676496 125.34505
784000000 -2.3218307 110.30939 -83.64978 -177.91939 -83.591866 -178.00681 -5.6389046 96.225632
793500000 -2.2818987 80.252129 -83.376938 152.86044 -83.564438 153.08755 -5.5603175 67.559853
803000000 -2.223469 51.71587 -83.452415 125.02268 -83.683487 124.43287 -5.4682503 39.389736
812500000 -2.2112596 23.718216 -83.56958 95.607239 -83.63324 95.523979 -5.3915415 11.602509
822000000 -2.1922305 -4.7304735 -83.203247 66.623871 -83.379799 67.670929 -5.3479834 -16.001316
831500000 -2.1278474 -32.898392 -83.199158 39.619606 -83.192574 39.597237 -5.3395133 -43.621616
841000000 -2.096189 -60.402859 -83.14241 9.2148466 -82.978783 9.1533556 -5.3552589 -71.393661
850500000 -2.1389036 -88.041252 -83.035843 -19.094864 -82.961945 -18.864395 -5.3804402 -99.37178
860000000 -2.1802633 -116.36843 -82.904984 -45.659267 -82.869942 -46.391277 -5.4056339 -127.53639
869500000 -2.2079158 -145.1203 -82.510857 -72.445625 -82.516891 -73.459213 -5.4266906 -155.84056
879000000 -2.264776 -173.94095 -82.476326 -102.05781 -82.420609 -103.37212 -5.4422817 175.76282
888500000 -2.3158953 157.04759 -82.2174 -131.7924 -82.308228 -132.14969 -5.4487576 147.33659
898000000 -2.3429899 127.81374 -81.945435 -159.42958 -82.156036 -159.66737 -5.4371238 118.98663
907500000 -2.3587768 98.660187 -82.027901 172.53687 -82.199333 170.90344 -5.3977981 90.846329
917000000 -2.3388863 69.825745 -82.0289 142.4108 -82.002625 142.9888 -5.3312902 63.033741
926500000 -2.2773473 41.676407 -81.72657 113.76649 -81.893463 114.914 -5.2515659 35.606018
936000000 -2.2123816 14.289044 -81.674553 87.722542 -81.885063 86.913101 -5.1792974 8.530057
945500000 -2.173548 -12.877775 -81.806 59.350327 -81.643219 59.128101 -5.1321592 -18.311527
955000000 -2.1420124 -40.054958 -81.578323 30.3412 -81.467438 30.287283 -5.118772 -45.0895
964500000 -2.1041291 -66.999603 -81.21312 2.1196241 -81.253815 3.8829033 -5.1381516 -71.989258
974000000 -2.1035593 -93.789223 -81.082481 -24.077591 -81.050827 -23.633303 -5.1844726 -99.140617
983500000 -2.1541913 -120.93678 -80.740166 -52.75404 -80.733521 -51.916935 -5.2484865 -126.5885
993000000 -2.1990745 -148.85229 -80.244698 -82.281784 -80.115768 -82.139763 -5.3192201 -154.31425
1002500000 -2.227262 -177.27115 -80.091484 -111.68729 -80.138023 -111.16933 -5.3881283 177.71844
1012000000 -2.2674665 154.4769 -80.230247 -141.10655 -80.188042 -141.10228 -5.4509182 149.57126
1021500000 -2.311832 126.1575 -80.360596 -168.38222 -80.252495 -169.38295 -5.4995947 121.33163
1031000000 -2.3460121 97.171066 -80.086311 164.02972 -80.139214 163.68466 -5.5231423 93.116226
1040500000 -2.3301442 68.131073 -79.950462 135.88641 -80.048096 136.40833 -5.516233 65.046082
1050000000 -2.2706223 40.134838 -79.77562 107.93845 -79.894608 107.46816 -5.4841495 37.227871
1059500000 -2.2275071 13.013512 -79.745575 80.199722 -79.676277 79.878021 -5.4434648 9.7077827
1069000000 -2.2068186 -14.453115 -79.632034 52.248123 -79.677826 52.67746 -5.4143934 -17.563576
1078500000 -2.1824298 -42.249584 -79.296959 26.913988 -79.387794 26.149986 -5.4142513 -44.732552
1088000000 -2.1495142 -69.196175 -79.181625 -1.8148261 -79.022156 -2.1004231 -5.4532733 -71.998192
1097500000 -2.150393 -95.733765 -78.679077 -30.17415 -78.685867 -30.113096 -5.5284281 -99.537376
1107000000 -2.2176313 -123.38773 -78.433937 -58.279491 -78.136696 -57.731506 -5.6277232 -127.48536
1116500000 -2.2861845 -152.11362 -78.110405 -86.225998 -78.117905 -86.670822 -5.7336206 -155.87003
1126000000 -2.3171716 179.32335 -77.859543 -115.57522 -77.787254 -115.26988 -5.8295846 175.37589
1135500000 -2.3650882 150.93251 -77.67334 -143.58141 -77.685562 -143.29112 -5.9031014 146.39626
1145000000 -2.4440157 121.53938 -77.181847 -171.72662 -77.312241 -171.67252 -5.9427695 117.35449
1154500000 -2.5037026 91.314407 -77.000656 158.62981 -76.933418 158.77156 -5.9461446 88.40255
1164000000 -2.4913623 61.864704 -77.07769 129.30695 -77.229271 130.30009 -5.9102483 59.677994
1173500000 -2.4397662 33.390247 -76.901123 102.15594 -76.884674 101.53768 -5.8447762 31.262817
1183000000 -2.423748 4.8820863 -76.644341 74.064285 -76.712975 74.273621 -5.763257 3.218895
1192500000 -2.4156039 -23.725801 -76.549591 46.335854 -76.596794 45.993244 -5.685153 -24.4995
1202000000 -2.3655505 -51.611885 -76.293648 18.335003 -76.335983 18.379276 -5.6299005 -51.993362
1211500000 -2.3234074 -78.732025 -75.973633 -8.989563 -76.044319 -8.7520742 -5.6099458 -79.428474
1221000000 -2.3557508 -106.22367 -75.681953 -37.257084 -75.696587 -37.311954 -5.6279106 -106.97367
1230500000 -2.4344597 -134.58823 -75.338898 -62.72934 -75.336571 -63.153854 -5.6724181 -134.76483
1240000000 -2.4695745 -163.07652 -74.776306 -92.246208 -74.710159 -92.372498 -5.7274013 -162.88766
1249500000 -2.4789538 168.53827 -74.25808 -122.0732 -74.260567 -122.22367 -5.7749534 168.72005
1259000000 -2.5438962 139.6356 -73.980873 -151.52318 -73.98568 -151.4295 -5.7983899 140.17459
1268500000 -2.6207623 110.1456 -73.668823 179.50145 -73.609589 179.52701 -5.7900138 111.65445
1278000000 -2.6336524 80.662613 -73.308609 148.57214 -73.298813 148.62662 -5.749301 83.330498
1287500000 -2.605022 51.595684 -73.385025 118.6171 -73.321434 118.2594 -5.6802273 55.326103
1297000000 -2.5661578 23.034668 -73.389236 91.003181 -73.404289 91.317894 -5.592061 27.689995
1306500000 -2.5196786 -4.9386168 -73.438751 64.961754 -73.489677 65.419365 -5.4986477 0.40520918
1316000000 -2.470438 -32.450336 -72.779472 39.339714 -72.837402 39.540661 -5.4194751 -26.595215
1325500000 -2.4206831 -59.721405 -71.944664 11.512918 -72.008682 11.405058 -5.3615775 -53.366631
1335000000 -2.3786247 -86.546303 -71.46328 -19.180309 -71.463486 -19.220068 -5.3402095 -80.106728
1344500000 -2.3737934 -113.01037 -70.829216 -48.077133 -70.87236 -47.80727 -5.3565559 -106.91579
1354000000 -2.4147007 -140.00282 -70.342705 -78.035072 -70.333694 -78.478691 -5.4065194 -133.94514
1363500000 -2.4484782 -167.77689 -69.884102 -107.72446 -69.842766 -107.92314 -5.4804249 -161.28104
1373000000 -2.4453075 164.59566 -68.935646 -138.31085 -68.914787 -138.336 -5.5633407 171.0647
1382500000 -2.470314 137.172 -68.020096 -174.79451 -68.02755 -175.05811 -5.6386213 143.1873
1392000000 -2.5587542 108.83862 -68.766747 141.54459 -68.770882 141.36176 -5.6784778 115.24744
1401500000 -2.6020873 79.703644 -70.962715 123.8386 -70.8871 124.02363 -5.6735225 87.160614
1411000000 -2.5496311 51.195293 -69.807648 105.86317 -69.852959 106.24634 -5.6598272 59.217903
1420500000 -2.5161996 23.612446 -67.694786 75.077225 -67.682457 74.97271 -5.633172 31.574923
1430000000 -2.5301228 -4.1079698 -67.358131 33.952724 -67.39856 34.028831 -5.594285 4.247016
1439500000 -2.498137 -32.088261 -68.481468 7.0669889 -68.452812 7.1246881 -5.5569229 -22.940605
1449000000 -2.4067202 -59.093693 -67.746521 -15.146154 -67.768372 -15.235496 -5.5497756 -50.055214
1458500000 -2.3521094 -85.121735 -65.787117 -43.109818 -65.824852 -43.284134 -5.5826788 -77.183647
1468000000 -2.3928947 -111.64076 -64.0895 -81.810081 -64.080803 -81.962242 -5.653986 -104.33353
1477500000 -2.4474323 -139.13411 -63.632385 -124.28551 -63.638824 -124.15285 -5.7412028 -131.5892
1487000000 -2.4373271 -166.61171 -64.377678 -164.21468 -64.369026 -164.37381 -5.8268342 -159.1517
1496500000 -2.4464946 166.26273 -64.263649 164.0986 -64.275948 164.15997 -5.9300647 172.9666
1506000000 -2.5435455 138.42699 -64.61911 123.52193 -64.623703 123.66949 -6.0016656 144.86656
1515500000 -2.6352677 109.35368 -66.549278 89.758873 -66.57074 90.036827 -6.0417876 116.34544
1525000000 -2.6450353 80.178162 -65.822899 66.124146 -65.84314 66.164261 -6.0883837 87.643608
1534500000 -2.6490939 51.560387 -66.018944 27.436737 -66.000412 27.667393 -6.0910711 59.064274
1544000000 -2.6987572 22.650438 -66.522057 -8.9454374 -66.517868 -8.6756477 -6.0609932 30.607458
1553500000 -2.7076726 -6.5913067 -67.679306 -43.82505 -67.698891 -44.001438 -6.0048347 2.3640299
1563000000 -2.6387725 -35.019741 -68.981239 -75.442894 -68.942131 -75.596069 -5.942606 -25.643465
1572500000 -2.591574 -62.586288 -70.176842 -104.63052 -70.12484 -104.33286 -5.8925729 -53.446579
1582000000 -2.6059771 -90.170433 -70.887054 -133.40379 -70.932365 -133.54376 -5.8673205 -81.161804
1591500000 -2.6189992 -117.93961 -71.841255 -161.46407 -71.855804 -161.98993 -5.8711481 -108.89705
1601000000 -2.6293666 -145.71368 -72.662506 172.06628 -72.579582 171.31651 -5.9002652 -136.75082
1610500000 -2.6722832 -173.72295 -72.960419 144.51599 -72.994423 144.44644 -5.9424577 -164.75745
1620000000 -2.7118349 157.90186 -73.38176 113.52393 -73.433899 113.52028 -5.9819155 167.10292
1629500000 -2.7600753 129.27046 -74.353165 83.550133 -74.384613 83.733002 -6.0046277 138.83554
1639000000 -2.8602359 100.13545 -75.481773 55.813694 -75.451309 56.139042 -6.010982 110.4739
1648500000 -2.9286239 70.340805 -76.353951 28.99386 -76.373833 29.211704 -6.0042901 82.067223
1658000000 -2.911077 40.683762 -77.17231 2.1528542 -77.234077 2.5169199 -5.9847131 53.693649
1667500000 -2.9070075 11.649338 -78.31282 -22.808578 -78.250076 -23.339363 -5.9487085 25.430756
1677000000 -2.9333057 -17.437799 -79.358635 -50.054214 -79.178345 -49.123745 -5.8933425 -2.6219952
1686500000 -2.8800392 -46.471947 -80.679657 -71.999046 -80.549377 -72.047546 -5.8215427 -30.412914
1696000000 -2.7758813 -74.416328 -81.134598 -90.719223 -81.33593 -91.44355 -5.7447004 -57.912682
1705500000 -2.7667384 -101.57911 -82.03418 -112.61815 -81.855202 -114.23215 -5.6780334 -85.175201
1715000000 -2.813982 -129.10796 -82.541847 -127.74523 -82.408257 -128.46779 -5.636529 -112.30688
1724500000 -2.7784719 -156.98357 -81.762093 -149.61522 -81.706856 -147.98856 -5.6272445 -139.43579
1734000000 -2.7316766 175.51967 -81.077316 -170.43138 -81.25779 -170.90372 -5.6477008 -166.65562
1743500000 -2.7947423 148.12695 -81.018883 163.85054 -81.053596 162.98605 -5.6849523 165.98616
1753000000 -2.8776801 120.02364 -81.062317 141.34555 -80.955482 141.26787 -5.7228861 138.48268
1762500000 -2.8792763 91.309364 -80.769897 118.24503 -80.670288 119.15067 -5.7508225 110.85068
1772000000 -2.8898578 62.653286 -80.246948 95.012672 -80.343582 95.521896 -5.7674994 83.113159
1781500000 -2.9608657 34.175716 -80.295982 71.838593 -80.115089 71.484161 -5.7767539 55.296066
1791000000 -2.9773452 5.5583906 -79.546295 49.146229 -79.417252 49.64521 -5.780684 27.44281
1800500000 -2.9114079 -23.096004 -79.14576 23.916199 -79.070824 25.504457 -5.774755 -0.38530508
1810000000 -2.8702722 -51.206779 -78.642952 0.35801515 -78.553459 0.072796635 -5.752728 -28.120371
1819500000 -2.8709073 -78.5886 -78.644638 -21.772568 -78.702728 -22.815836 -5.7153497 -55.699375
1829000000 -2.8400967 -105.6362 -77.722305 -38.002079 -77.638458 -37.971275 -5.6723914 -83.084152
1838500000 -2.7847614 -132.72217 -75.342216 -61.394775 -75.300323 -61.305607 -5.6398954 -110.28841
1848000000 -2.793668 -159.84108 -73.537117 -89.012833 -73.590477 -89.013992 -5.6327648 -137.39961
1857500000 -2.8613074 173.09337 -71.239304 -121.46702 -71.267334 -121.3793 -5.6597838 -164.54181
1867000000 -2.8902192 145.89795 -70.351761 -161.14508 -70.393112 -160.68901 -5.7154498 168.14963
1876500000 -2.8908911 118.35882 -69.990562 164.8629 -70.02002 165.15575 -5.7902427 140.58366
1886000000 -2.9739044 90.405594 -69.390205 133.0334 -69.439423 132.67961 -5.8659868 112.75691
1895500000 -3.1184425 62.020107 -68.940445 97.895836 -68.908577 97.730042 -5.9267139 84.692886
1905000000 -3.1853309 33.380283 -68.837349 61.80645 -68.787781 62.001377 -5.9669776 56.427944
1914500000 -3.1748807 4.8337622 -69.212227 28.694769 -69.245087 28.841928 -5.9903393 28.018803
1924000000 -3.2112505 -23.687914 -69.24572 -2.3405187 -69.197426 -2.2833245 -6.0011077 -0.45939422
1933500000 -3.2635827 -52.310478 -69.672096 -37.156429 -69.674141 -36.868641 -5.996767 -28.919226
1943000000 -3.2142501 -80.466904 -70.50248 -68.205475 -70.550301 -67.888 -5.9713216 -57.271221
1952500000 -3.1146672 -107.80196 -70.945747 -94.338783 -71.037361 -94.501938 -5.9247284 -85.431908
1962000000 -3.103363 -135.09682 -72.232162 -127.04228 -72.099144 -127.53235 -5.8672047 -113.34084
1971500000 -3.1548462 -162.86522 -72.911255 -144.92645 -72.901619 -145.08525 -5.8161197 -140.99994
1981000000 -3.1359954 169.41966 -72.653419 -166.48735 -72.721504 -166.14432 -5.7901697 -168.49614
1990500000 -3.0904217 142.01831 -72.174034 172.97893 -72.232681 172.56068 -5.8001933 164.02702
2000000000 -3.1381581 114.26411 -70.804649 151.24582 -70.832581 151.32175 -5.8443537 136.41873
