!Keysight Technologies,N5242B,MY48420967,A.15.65.19
!Date: Monday, December 19, 2022 10:54:48
!Correction: S11(C  2-Port  ) 
!S21(C  2-Port  ) 
!S12(C  2-Port  ) 
!S22(C  2-Port  ) 
!S2P File: Measurements: S11, S21, S12, S22:
# Hz S  dB   R 50
100000000 -1.3412259 40.895321 -109.27995 148.82037 -109.90987 117.87352 -1.2639376 30.518362
109500000 -1.2204764 11.480564 -108.98221 156.63268 -106.65658 131.76173 -1.2439282 0.83884394
119000000 -1.0912836 -16.675116 -115.35248 78.911858 -108.79449 133.28398 -1.2408369 -28.777035
128500000 -1.0415906 -44.732639 -110.4037 56.848011 -109.13333 61.028664 -1.263067 -58.427727
138000000 -1.0375432 -73.537254 -108.34761 53.089329 -109.70596 68.164047 -1.3195133 -88.188583
147500000 -1.0694528 -102.47509 -108.06504 28.7178 -104.74969 22.677185 -1.4204893 -118.15569
157000000 -1.1289566 -131.46588 -106.86764 -10.771185 -108.10294 -16.049574 -1.5718247 -148.40533
166500000 -1.2318878 -161.1519 -107.52531 -32.074825 -108.31345 -29.907818 -1.7634721 -178.93526
176000000 -1.3404623 168.58943 -103.40952 -54.293633 -106.43661 -69.390495 -1.9659187 150.39116
185500000 -1.4275364 138.36012 -108.09881 -85.784935 -103.18568 -100.22207 -2.1398489 119.83057
195000000 -1.4814065 108.17326 -105.85047 -134.16226 -103.85548 -135.94722 -2.2554266 89.670158
204500000 -1.4698323 78.365913 -102.28398 -159.25288 -102.92794 -167.39854 -2.3094544 60.06321
214000000 -1.4129031 49.187084 -102.97158 171.70882 -103.14409 166.98128 -2.3264751 30.941545
223500000 -1.3878356 20.306248 -102.33259 138.45673 -100.78893 143.58192 -2.3442905 2.0664172
233000000 -1.359234 -8.4204693 -100.99973 101.64729 -103.19015 116.15128 -2.3949666 -26.85581
242500000 -1.2808927 -36.906963 -100.71334 79.26236 -100.2745 79.050514 -2.4930882 -56.051907
252000000 -1.262205 -65.197121 -101.33574 63.540089 -99.386742 43.492912 -2.6330051 -85.608192
261500000 -1.3427825 -93.989426 -99.404343 7.0184932 -100.52605 20.404865 -2.7980907 -115.4885
271000000 -1.4227254 -123.63701 -97.680481 -18.30888 -103.34026 3.999218 -2.9725037 -145.59523
280500000 -1.4597617 -153.48245 -97.850922 -32.35397 -98.590431 -42.119873 -3.1476176 -175.83003
290000000 -1.5393531 176.78574 -99.896851 -70.147835 -97.987518 -75.221931 -3.3171744 153.89111
299500000 -1.6739041 146.58763 -99.158218 -102.0999 -98.056992 -102.31644 -3.4690621 123.66843
309000000 -1.729917 115.97128 -97.150627 -138.17542 -98.121284 -128.6179 -3.5850799 93.644829
318500000 -1.6858965 85.950371 -98.207123 -159.90536 -98.128418 -168.33948 -3.6509106 63.974918
328000000 -1.6646998 56.844334 -97.182587 164.14703 -96.429985 163.78857 -3.6714272 34.728149
337500000 -1.6752044 27.835354 -96.296089 138.96219 -95.743744 139.46596 -3.6755428 5.8166466
347000000 -1.6361269 -1.4576268 -95.258293 112.07127 -96.247337 103.15314 -3.7022395 -22.984419
356500000 -1.5701541 -30.345865 -94.359741 84.062302 -94.728889 79.994812 -3.7815602 -51.954514
366000000 -1.5702101 -58.834023 -95.081497 53.656048 -93.736458 50.2327 -3.9182823 -81.324059
375500000 -1.641966 -87.891296 -93.966156 17.232771 -93.622551 22.761566 -4.0887108 -111.1694
385000000 -1.7012124 -117.88068 -94.134239 -9.0339851 -93.945732 -8.6742258 -4.2539721 -141.36743
394500000 -1.7371657 -148.11913 -94.440506 -40.749332 -93.374947 -37.587238 -4.3798122 -171.66032
404000000 -1.8149996 -178.1133 -93.204308 -72.681618 -93.630043 -65.221992 -4.45471 158.21031
413500000 -1.9073414 151.74474 -93.200455 -96.410278 -93.069366 -92.78186 -4.4892735 128.40816
423000000 -1.9433329 121.19678 -93.134888 -129.36958 -93.032242 -125.6684 -4.4992042 98.979004
432500000 -1.9301084 91.045448 -93.313324 -151.16885 -92.301079 -150.83046 -4.4924498 69.921471
442000000 -1.8980117 61.946175 -93.136406 178.63832 -92.628525 -178.6506 -4.4700613 41.230911
451500000 -1.8613406 33.338699 -91.841667 156.22171 -92.277336 152.13124 -4.4359775 12.896689
461000000 -1.8228402 4.6394029 -91.12809 128.09016 -90.664154 127.53162 -4.4040875 -15.158216
470500000 -1.7792567 -23.915266 -90.446968 104.16882 -90.726387 102.74449 -4.398982 -43.110069
480000000 -1.7512161 -52.002907 -88.907684 78.94828 -89.142418 79.145348 -4.4418478 -71.190529
489500000 -1.764468 -80.122154 -87.357101 53.595596 -87.301689 50.893299 -4.5362859 -99.615463
499000000 -1.8126185 -108.98254 -85.003426 20.494585 -84.609558 19.382912 -4.6611581 -128.46718
508500000 -1.8623016 -138.34348 -82.457588 -19.435707 -82.329407 -18.936323 -4.7764869 -157.63609
518000000 -1.8942827 -167.57146 -80.776474 -68.687546 -81.010246 -68.087143 -4.8458328 173.16243
527500000 -1.9328537 163.18808 -81.735336 -116.27587 -81.658531 -115.99966 -4.8555093 144.22342
537000000 -1.9819574 133.69054 -83.195671 -155.24971 -83.168823 -154.06607 -4.8237114 115.72299
546500000 -1.995011 104.37253 -84.43531 172.6853 -84.563263 172.90283 -4.7829008 87.658249
556000000 -1.955482 75.733742 -85.713905 142.9299 -85.715958 143.45273 -4.7576809 59.893166
565500000 -1.9011774 47.7001 -86.215141 115.75681 -85.919228 114.20335 -4.7569728 32.273182
575000000 -1.8630894 19.947962 -86.558403 84.940094 -86.519035 84.461288 -4.7768331 4.7063336
584500000 -1.8345736 -7.6893682 -86.709381 60.665749 -86.895515 59.834629 -4.8087473 -22.829519
594000000 -1.7965354 -35.289997 -86.710556 34.046883 -86.550385 32.448299 -4.8492422 -50.393177
603500000 -1.7714078 -62.92738 -87.038078 4.2374558 -86.288628 3.5499127 -4.912807 -78.11422
613000000 -1.8013048 -90.654861 -86.588882 -22.226969 -86.358566 -22.775505 -5.014297 -106.12801
622500000 -1.8616923 -118.86957 -86.047577 -49.78603 -86.508446 -53.423191 -5.1495171 -134.56923
632000000 -1.914867 -147.91278 -86.04998 -77.560463 -85.946068 -79.456032 -5.2951555 -163.48265
641500000 -1.9501145 -177.22772 -85.735146 -116.95744 -85.832169 -115.45287 -5.4171829 167.28615
651000000 -1.996029 153.71263 -86.212135 -144.22446 -86.153351 -145.15689 -5.4831796 138.04185
660500000 -2.0507982 124.64822 -86.779709 -166.7767 -86.993408 -167.0862 -5.485981 109.09443
670000000 -2.0631328 95.235039 -86.897301 163.40561 -86.769653 162.82735 -5.4517789 80.603546
679500000 -2.0218241 66.164207 -86.591255 138.22485 -86.4907 138.22139 -5.4163589 52.519684
689000000 -1.9757137 38.14819 -86.323997 111.15594 -86.279228 111.0527 -5.4092808 24.644634
698500000 -1.9561899 10.558972 -85.75222 84.159782 -86.099701 83.780586 -5.4416518 -3.2409348
708000000 -1.9384062 -17.584988 -85.71389 55.214088 -85.689804 54.038757 -5.5057554 -31.286976
717500000 -1.9094571 -45.908813 -85.393806 24.277506 -85.26664 27.311493 -5.5840597 -59.563068
727000000 -1.9056015 -73.610207 -85.042084 -2.5883327 -85.06974 -2.5135546 -5.6647182 -88.08564
736500000 -1.963226 -101.5211 -84.95887 -28.936865 -84.975098 -31.444883 -5.7466631 -116.8484
746000000 -2.0535564 -130.81326 -84.609993 -60.290878 -84.591026 -60.369114 -5.8301606 -145.8618
755500000 -2.0944953 -160.70363 -84.229637 -89.540794 -84.134918 -89.214989 -5.9083252 -175.12807
765000000 -2.1184914 169.98824 -84.103287 -118.22696 -84.151718 -119.15085 -5.9648609 155.42871
774500000 -2.2043564 140.63838 -84.112907 -148.09607 -83.979164 -147.91101 -5.9782028 125.99915
784000000 -2.2684958 110.36614 -83.875862 -178.06055 -84.091698 -176.80774 -5.9378791 96.832123
793500000 -2.2294855 80.308052 -83.776733 153.63724 -84.070808 154.67767 -5.8546524 68.12429
803000000 -2.1719611 51.767078 -83.787834 125.74922 -84.018776 123.09236 -5.7574487 39.925396
812500000 -2.159786 23.763502 -83.725212 96.104164 -83.819763 95.786606 -5.6763864 12.122017
822000000 -2.1408167 -4.6910267 -83.661636 67.206184 -83.634857 66.93161 -5.6298265 -15.488695
831500000 -2.0764263 -32.865906 -83.412994 39.34877 -83.56337 39.644363 -5.6200037 -43.112751
841000000 -2.0446317 -60.381325 -83.467995 10.938406 -83.312981 9.6730137 -5.6355686 -70.889565
850500000 -2.0866215 -88.029396 -83.283249 -18.448103 -83.032684 -18.736399 -5.661283 -98.875694
860000000 -2.1265404 -116.36475 -83.099014 -44.884636 -83.195351 -44.935715 -5.6867561 -127.0519
869500000 -2.1532569 -145.1246 -82.918854 -72.097672 -82.798363 -73.13089 -5.7076893 -155.37108
879000000 -2.2094371 -173.95206 -82.741142 -102.45592 -82.667572 -103.65897 -5.7222948 176.21489
888500000 -2.2598705 157.02988 -82.595177 -130.69226 -82.552147 -130.32367 -5.7266307 147.76833
898000000 -2.2865448 127.79411 -82.2351 -159.67442 -82.314606 -159.74918 -5.7119408 119.39551
907500000 -2.3025298 98.638954 -82.364166 171.73584 -82.335892 171.42438 -5.6685424 91.231544
917000000 -2.2832963 69.805336 -82.309875 142.37425 -82.403564 143.28012 -5.597055 63.400234
926500000 -2.2225323 41.657337 -82.162903 115.39401 -82.212181 114.89477 -5.51232 35.961723
936000000 -2.1582808 14.269983 -82.137199 87.666222 -82.236229 87.302574 -5.435997 8.8851528
945500000 -2.1197832 -12.89671 -81.936119 59.983978 -82.17984 59.560925 -5.3861585 -17.948332
955000000 -2.088073 -40.072937 -81.856972 30.205273 -81.878532 30.954151 -5.3718224 -44.712349
964500000 -2.0500267 -67.016068 -81.523972 3.6629925 -81.427971 3.3880875 -5.3919377 -71.595238
974000000 -2.0488207 -93.805313 -81.183495 -23.918537 -81.260101 -23.632553 -5.4404936 -98.730515
983500000 -2.098069 -120.95302 -81.155655 -51.592823 -81.118668 -52.077049 -5.5074887 -126.16478
993000000 -2.141408 -148.86339 -80.66713 -81.010399 -80.573601 -81.377625 -5.5814285 -153.88141
1002500000 -2.1684203 -177.27794 -80.378479 -111.23103 -80.253586 -111.48858 -5.6533008 178.15544
1012000000 -2.2081428 154.47273 -80.516212 -140.44606 -80.385231 -141.76224 -5.7184973 150.00691
1021500000 -2.2512877 126.15895 -80.636894 -169.4953 -80.663078 -168.15392 -5.7689505 121.76072
1031000000 -2.2847321 97.177658 -80.359047 163.97296 -80.648514 163.65901 -5.7933407 93.534103
1040500000 -2.2693422 68.144653 -80.212509 136.58983 -80.324158 136.04674 -5.7861667 65.451324
1050000000 -2.2106259 40.151886 -80.183586 108.71328 -80.292717 108.73596 -5.7530956 37.622742
1059500000 -2.1679516 13.031147 -79.890472 79.894791 -79.965813 80.870911 -5.7115836 10.098548
1069000000 -2.1468334 -14.43464 -79.838959 52.019363 -80.017197 50.628078 -5.6827564 -17.168385
1078500000 -2.1221766 -42.232006 -79.805641 25.422167 -79.874771 25.404938 -5.6836505 -44.326344
1088000000 -2.0894775 -69.180046 -79.575104 -1.5188825 -79.561325 -1.6016636 -5.725925 -71.579895
1097500000 -2.0891261 -95.721069 -79.158821 -28.918211 -79.237106 -29.899727 -5.8060966 -99.10743
1107000000 -2.1540735 -123.38032 -78.771255 -58.298424 -78.734283 -59.310249 -5.9113841 -127.05026
1116500000 -2.2207632 -152.10617 -78.583527 -86.115669 -78.498482 -86.672005 -6.0232573 -155.44023
1126000000 -2.2508543 179.3297 -78.424026 -114.54826 -78.2556 -115.1759 -6.1242528 175.78975
1135500000 -2.2974648 150.93372 -78.0877 -143.38727 -77.975479 -143.83456 -6.200963 146.78268
1145000000 -2.3743384 121.53737 -77.746414 -171.46266 -77.734261 -171.08069 -6.2419381 117.70753
1154500000 -2.4335444 91.313553 -77.450829 159.28737 -77.598373 159.0291 -6.2443681 88.716492
1164000000 -2.4223664 61.864277 -77.527168 130.08105 -77.532913 130.02528 -6.2056756 59.956097
1173500000 -2.3715649 33.385025 -77.207161 102.34309 -77.308296 102.60764 -6.1359792 31.509623
1183000000 -2.3557687 4.8721228 -77.051872 73.846863 -77.026482 73.674591 -6.050036 3.4440994
1192500000 -2.34828 -23.739569 -76.951477 46.099739 -77.057594 46.490532 -5.9677467 -24.285288
1202000000 -2.2992084 -51.632645 -76.726891 18.193003 -76.782387 18.855537 -5.9094048 -51.781464
1211500000 -2.2572846 -78.76107 -76.468369 -8.9949274 -76.522697 -8.2061424 -5.8877907 -79.213463
1221000000 -2.2883701 -106.26347 -76.127831 -36.78318 -76.185883 -36.789993 -5.9053373 -106.75637
1230500000 -2.3658812 -134.63696 -75.880219 -63.008614 -75.929443 -62.794655 -5.950871 -134.54979
1240000000 -2.4002564 -163.1295 -75.238617 -91.430763 -75.196724 -91.620934 -6.0062938 -162.67834
1249500000 -2.4086602 168.47757 -74.680916 -121.56301 -74.707161 -120.95317 -6.0538979 168.91481
1259000000 -2.4723523 139.56532 -74.450874 -151.79126 -74.392838 -151.63437 -6.0758958 140.35065
1268500000 -2.5483317 110.07209 -74.176636 179.87413 -74.138092 179.62865 -6.0641851 111.80936
1278000000 -2.5612316 80.59008 -73.733192 149.65179 -73.722305 149.5943 -6.0185499 83.465988
1287500000 -2.5335219 51.523132 -73.804405 119.158 -73.772629 119.7006 -5.9436483 55.446671
1297000000 -2.4956033 22.961866 -73.927757 91.519157 -73.824272 91.27594 -5.8495016 27.801899
1306500000 -2.4502082 -5.0108171 -73.96833 64.830009 -74.051941 64.293587 -5.7507272 0.5178225
1316000000 -2.4018853 -32.522579 -73.389023 39.784714 -73.424217 40.233856 -5.6663036 -26.479128
1325500000 -2.352767 -59.793934 -72.589966 12.538447 -72.591904 11.940217 -5.6066651 -53.232796
1335000000 -2.3110015 -86.619614 -72.061897 -19.191277 -72.033875 -19.197704 -5.5832691 -79.955902
1344500000 -2.3057346 -113.08594 -71.562553 -47.195957 -71.530769 -46.971016 -5.5993476 -106.74612
1354000000 -2.3453071 -140.0802 -71.03981 -77.288017 -71.114456 -77.465172 -5.6501937 -133.75896
1363500000 -2.37762 -167.85101 -70.627037 -106.60619 -70.580444 -107.01421 -5.7255235 -161.08212
1373000000 -2.3736248 164.52562 -69.75341 -137.00072 -69.753746 -136.91602 -5.8094192 171.26973
1382500000 -2.3974051 137.10214 -68.902435 -171.75397 -68.901192 -172.14186 -5.8842902 143.37714
1392000000 -2.4838307 108.77117 -69.081108 145.42284 -69.055878 145.56276 -5.9287086 115.40773
1401500000 -2.5263865 79.648254 -71.51944 124.30241 -71.412575 124.68618 -5.9237695 87.338188
1411000000 -2.4747121 51.149986 -70.793175 106.90242 -70.769661 106.64013 -5.9070382 59.396656
1420500000 -2.442014 23.57111 -68.761436 77.932152 -68.779823 77.972961 -5.8761959 31.746784
1430000000 -2.4557528 -4.1439061 -68.217773 38.416367 -68.215599 38.612446 -5.8354802 4.4084964
1439500000 -2.4244401 -32.115993 -69.280525 10.93971 -69.233978 11.024236 -5.7973371 -22.767286
1449000000 -2.3344529 -59.117596 -68.710663 -11.654952 -68.715401 -11.394642 -5.7884707 -49.866165
1458500000 -2.2798541 -85.147964 -66.965233 -37.618084 -67.001915 -37.823277 -5.8178439 -76.989174
1468000000 -2.3191192 -111.67025 -65.17218 -73.115608 -65.201492 -73.25634 -5.8874516 -104.17471
1477500000 -2.3720548 -139.16206 -64.357002 -113.50089 -64.373192 -113.58088 -5.9818964 -131.48715
1487000000 -2.3610249 -166.63943 -64.567413 -154.11687 -64.552132 -154.05424 -6.0796351 -159.05231
1496500000 -2.3687804 166.23184 -64.411224 175.20071 -64.456825 175.30266 -6.1914935 173.01711
1506000000 -2.4632206 138.39276 -64.175476 134.09399 -64.190002 134.29442 -6.2828236 144.93599
1515500000 -2.5526364 109.3213 -65.943916 95.954834 -65.926666 96.393433 -6.3260899 116.49299
1525000000 -2.5616384 80.150467 -65.571045 74.459724 -65.597549 74.494781 -6.3708987 87.740952
1534500000 -2.5653284 51.53196 -65.38887 35.660652 -65.383858 35.784172 -6.3791556 59.157814
1544000000 -2.6142769 22.622227 -65.593643 -2.266686 -65.59906 -1.8916646 -6.3503461 30.718441
1553500000 -2.6233578 -6.6139531 -66.695129 -39.449894 -66.707077 -39.276421 -6.2895174 2.4897032
1563000000 -2.555985 -35.040524 -68.033951 -72.277374 -68.002831 -72.471611 -6.2221761 -25.517242
1572500000 -2.5095904 -62.612152 -69.22728 -102.61426 -69.180717 -102.34997 -6.1690474 -53.321609
1582000000 -2.5236263 -90.202736 -69.993942 -132.04301 -70.062065 -132.06075 -6.1411982 -81.036438
1591500000 -2.5361581 -117.97496 -71.026031 -161.31165 -71.029587 -161.68312 -6.143662 -108.77254
1601000000 -2.5455453 -145.75523 -71.953995 171.2043 -71.933365 171.22641 -6.1719785 -136.63263
1610500000 -2.587312 -173.77307 -72.396133 144.15076 -72.383316 144.46622 -6.2138886 -164.65376
1620000000 -2.6254184 157.84732 -72.700432 113.63506 -72.730965 113.8656 -6.2542453 167.18839
1629500000 -2.6719191 129.20645 -73.640778 82.611061 -73.628319 82.112373 -6.2764716 138.90492
1639000000 -2.7706914 100.06355 -74.727028 53.813354 -74.756157 54.243847 -6.2813487 110.52427
1648500000 -2.8378208 70.267624 -75.723862 25.952499 -75.702499 27.004848 -6.2721996 82.095413
1658000000 -2.8206346 40.608109 -76.672966 -1.031289 -76.627495 -1.1136489 -6.2492571 53.700054
1667500000 -2.8174505 11.568006 -77.761246 -26.92556 -77.712952 -26.912687 -6.2089577 25.416271
1677000000 -2.8441691 -17.522318 -78.700279 -54.400093 -78.617523 -53.371941 -6.1488452 -2.650245
1686500000 -2.792393 -46.556679 -80.160309 -79.208344 -80.106079 -78.93071 -6.0717063 -30.452255
1696000000 -2.6902514 -74.506073 -81.156136 -97.825897 -81.214951 -97.848427 -5.990047 -57.956272
1705500000 -2.6818655 -101.67827 -81.890823 -119.92472 -81.950241 -121.54659 -5.9193101 -85.217697
1715000000 -2.7286143 -129.2114 -83.180573 -134.77 -83.05426 -136.01556 -5.8747754 -112.34348
1724500000 -2.692657 -157.08763 -82.345802 -153.14122 -82.26622 -154.29231 -5.8632751 -139.46385
1734000000 -2.6457622 175.40988 -81.719749 -174.90955 -81.997086 -175.18869 -5.8825045 -166.67593
1743500000 -2.7076297 148.01089 -81.612015 159.9408 -81.562019 158.06236 -5.9191332 165.97047
1753000000 -2.7886918 119.90723 -81.806831 136.69434 -81.666451 137.56717 -5.9566455 138.46843
1762500000 -2.7888198 91.196808 -81.629272 114.46722 -81.607117 115.39863 -5.9842129 110.83588
1772000000 -2.7987559 62.543293 -81.20015 92.363312 -81.225777 92.102852 -6.0003195 83.096619
1781500000 -2.8694952 34.0718 -81.265305 69.785965 -80.982422 68.701012 -6.00878 55.278641
1791000000 -2.8853788 5.4664392 -80.740547 47.822334 -80.639069 48.015911 -6.0114946 27.426291
1800500000 -2.8198056 -23.177856 -80.09761 24.679987 -80.027122 25.668449 -6.0037808 -0.40117595
1810000000 -2.7799642 -51.281887 -79.47364 0.34646806 -79.598137 1.1190529 -5.9799089 -28.134359
1819500000 -2.7815616 -78.657845 -79.754555 -20.63979 -79.580124 -21.250586 -5.9405708 -55.709869
1829000000 -2.7509325 -105.69824 -78.92189 -35.034157 -78.779778 -34.850853 -5.8959627 -83.08625
1838500000 -2.6950469 -132.77989 -76.431412 -56.554855 -76.42012 -56.605377 -5.8623085 -110.27932
1848000000 -2.7027698 -159.9008 -74.019646 -82.035126 -74.154381 -82.58432 -5.8551159 -137.3754
1857500000 -2.7689528 173.03326 -71.541847 -116.42634 -71.56572 -116.5988 -5.8828468 -164.50162
1867000000 -2.7954597 145.83948 -70.636185 -156.68488 -70.605568 -156.51266 -5.9406495 168.20206
1876500000 -2.7933829 118.29298 -70.183525 169.41728 -70.2201 169.62447 -6.0181208 140.6443
1886000000 -2.8734396 90.327637 -69.597481 136.76341 -69.640251 136.91772 -6.0968413 112.81768
1895500000 -3.0152781 61.932316 -69.1241 101.73267 -69.067444 101.58051 -6.1602669 84.748154
1905000000 -3.0806854 33.285553 -68.918663 65.866722 -68.895966 66.340744 -6.2026234 56.473537
1914500000 -3.0699573 4.7265897 -69.217598 32.678974 -69.210747 32.889507 -6.2272463 28.053802
1924000000 -3.1070471 -23.811598 -69.146698 1.7194725 -69.10247 1.3238193 -6.2383866 -0.43628022
1933500000 -3.1617091 -52.441353 -69.509354 -33.778614 -69.482132 -33.623825 -6.2336855 -28.908899
1943000000 -3.1158743 -80.600319 -70.316971 -65.205902 -70.260811 -64.699142 -6.2068315 -57.274292
1952500000 -3.019665 -107.93919 -70.720451 -92.35952 -70.682541 -92.336021 -6.1580839 -85.447006
1962000000 -3.0103455 -135.23691 -71.655914 -126.66241 -71.57296 -126.87236 -6.0982366 -113.3641
1971500000 -3.0633171 -163.00385 -72.758072 -144.74542 -72.673523 -144.8428 -6.0450144 -141.02539
1981000000 -3.0454204 169.28999 -72.563263 -166.2952 -72.540977 -166.56873 -6.0177541 -168.52034
1990500000 -2.9999802 141.89188 -72.190269 172.2961 -72.165474 172.06503 -6.0274653 164.00586
2000000000 -3.0464447 114.13567 -71.020744 150.4122 -70.982613 150.49275 -6.0722327 136.39648
