!Keysight Technologies,N5242B,MY48420967,A.15.65.19
!Date: Saturday, December 17, 2022 01:45:39
!Correction: S11(C  2-Port  ) 
!S21(C  2-Port  ) 
!S12(C  2-Port  ) 
!S22(C  2-Port  ) 
!S2P File: Measurements: S11, S21, S12, S22:
# Hz S  dB   R 50
100000000 -0.39815289 -101.53252 -116.43555 107.51673 -118.29656 103.35029 -0.41290006 -97.973671
109500000 -0.46983811 -127.97878 -112.43215 -60.657413 -116.49447 44.090248 -0.48435649 -124.69569
119000000 -0.61724454 -155.62625 -121.35673 -45.073132 -114.49544 -124.78029 -0.57185704 -151.57268
128500000 -0.74916142 175.86662 -121.66028 -122.14378 -121.32405 -120.76198 -0.67005348 -178.56343
138000000 -0.83627486 147.729 -123.03944 -94.160187 -122.69801 -5.1330295 -0.77162439 154.37236
147500000 -0.90306699 119.85872 -114.5638 -172.47462 -117.62164 -8.0584984 -0.86623877 127.2952
157000000 -0.9473837 91.695068 -121.4435 126.69668 -123.3011 99.536804 -0.94002283 100.31294
166500000 -0.95352042 63.832558 -115.37319 -71.738503 -116.73983 35.08144 -0.97809863 73.564583
176000000 -0.91759944 36.713615 -116.55945 -29.657501 -118.15336 -178.52457 -0.97343004 47.145267
185500000 -0.86661732 9.8953829 -123.41053 -29.13619 -126.05513 175.11046 -0.93126184 21.048765
195000000 -0.81407094 -16.719858 -117.13251 154.84555 -113.4151 -9.0429096 -0.87042809 -4.8633022
204500000 -0.78118396 -43.199768 -115.23502 161.35829 -119.64983 -50.324104 -0.81727219 -30.822666
214000000 -0.80728686 -69.937691 -122.31804 139.09883 -121.96234 116.61124 -0.79500049 -57.050346
223500000 -0.8458786 -97.017715 -122.23563 6.3073807 -124.73475 -5.0636139 -0.81690913 -83.66642
233000000 -0.86657214 -124.30055 -118.03836 -149.9837 -117.53196 -106.04436 -0.87896538 -110.66222
242500000 -0.95239371 -151.8076 -113.19543 72.577675 -113.85168 119.38044 -0.96359116 -137.91241
252000000 -1.0883036 -179.81689 -111.5711 -171.88416 -114.70202 -86.668365 -1.0495721 -165.25362
261500000 -1.1592622 151.70271 -110.3284 -146.06664 -129.65146 -149.20265 -1.1246465 167.44319
271000000 -1.1710442 123.58704 -132.69954 -63.777328 -110.33485 -91.804443 -1.1858839 140.25136
280500000 -1.2044438 96.114342 -114.05791 -25.255295 -111.37728 -122.04017 -1.234861 113.21989
290000000 -1.2475995 68.609337 -123.22613 -165.49406 -122.54089 23.08194 -1.269088 86.398094
299500000 -1.2184567 41.074657 -120.01125 -27.845232 -116.07024 20.718307 -1.2791958 59.830223
309000000 -1.1342975 14.212355 -113.64759 -123.44089 -121.83625 -112.73565 -1.2587907 33.519596
318500000 -1.1031587 -11.979767 -110.88708 -88.374329 -125.20386 31.980585 -1.2124674 7.4171271
328000000 -1.11799 -38.376797 -119.82412 -141.96565 -115.90443 -79.5606 -1.1570901 -18.610971
337500000 -1.1108564 -65.472252 -111.68432 156.45897 -118.32646 150.04034 -1.1180168 -44.754044
347000000 -1.1036906 -92.579475 -115.28969 100.4427 -117.29889 78.005371 -1.1161731 -71.175354
356500000 -1.1478636 -119.38067 -116.19058 -117.97047 -117.1926 54.632854 -1.1589928 -97.958229
366000000 -1.2364887 -146.69963 -124.80584 -46.089115 -123.50869 -33.972183 -1.2346222 -125.0626
375500000 -1.3106754 -174.87749 -125.72166 25.175261 -130.89958 -38.015686 -1.3180299 -152.33876
385000000 -1.3409308 156.93576 -118.62662 -84.801689 -121.09286 32.017235 -1.3848411 -179.59358
394500000 -1.3697751 129.47833 -126.28024 32.617912 -122.42504 169.76595 -1.4236598 153.33
404000000 -1.4045296 102.38252 -117.86203 -133.51555 -119.25416 22.513748 -1.4391086 126.51309
413500000 -1.4058504 74.997681 -117.57674 94.170166 -120.48883 157.66736 -1.4413186 99.970428
423000000 -1.3702059 47.805401 -112.69485 -33.117722 -124.16873 153.48213 -1.4365302 73.677963
432500000 -1.3175505 21.622578 -115.06931 15.687599 -129.39058 137.48952 -1.4232521 47.597809
442000000 -1.2736386 -4.0888906 -113.16277 -142.92319 -115.34784 -17.261951 -1.3979657 21.69783
451500000 -1.258451 -30.297686 -118.24564 -136.94907 -119.58625 47.760319 -1.3615582 -4.0680218
461000000 -1.2508525 -56.895241 -119.29688 -125.24313 -120.08807 -31.821367 -1.3219066 -29.788313
470500000 -1.2421319 -83.228142 -121.4949 63.60799 -115.81076 133.93715 -1.2955369 -55.616962
480000000 -1.2631772 -109.51253 -113.5695 15.409981 -121.1049 96.737312 -1.2989711 -81.711113
489500000 -1.3251113 -136.55013 -114.32738 -73.258759 -113.27989 -20.725039 -1.3405565 -108.16281
499000000 -1.3877548 -164.24992 -126.30471 -131.68976 -119.35428 -53.20763 -1.4112004 -134.93196
508500000 -1.4199684 168.20874 -117.04579 -119.76541 -118.68906 90.771477 -1.4854906 -161.86212
518000000 -1.4434829 141.00139 -115.64406 -74.085655 -116.92281 95.412285 -1.5372357 171.26009
527500000 -1.473433 113.70499 -118.13576 -83.767006 -122.76033 147.29761 -1.5530094 144.59436
537000000 -1.4850996 86.432739 -119.49836 133.63812 -125.21001 11.522244 -1.5397605 118.21909
546500000 -1.4579155 59.691525 -114.67918 169.56633 -117.42248 -49.392776 -1.5155777 92.11779
556000000 -1.4064246 33.484383 -120.8011 -51.795788 -121.551 -8.8368778 -1.4956014 66.216187
565500000 -1.3657888 7.4658818 -128.99904 -95.095177 -119.81155 104.03719 -1.4858266 40.433151
575000000 -1.3473916 -18.529982 -125.68623 48.681335 -120.2212 12.311962 -1.4798332 14.721329
584500000 -1.3322282 -44.65123 -114.18649 149.45491 -116.26344 114.82006 -1.4686513 -10.959282
594000000 -1.3204387 -71.041992 -117.48133 -159.44145 -117.85992 -80.929016 -1.4518687 -36.656761
603500000 -1.3326317 -97.562859 -120.11828 -173.02263 -119.66232 99.518753 -1.4351903 -62.437035
613000000 -1.3780563 -124.30181 -119.40642 124.92997 -124.67162 5.048933 -1.4308993 -88.449097
622500000 -1.4413013 -151.63898 -119.95866 7.4462852 -121.99836 -95.189575 -1.4562954 -114.80627
632000000 -1.4790894 -179.6638 -120.37876 40.083992 -116.8851 33.77219 -1.512574 -141.50729
641500000 -1.5102952 152.3324 -120.65633 166.0918 -110.85999 -48.402267 -1.5837905 -168.45712
651000000 -1.5439978 124.90151 -111.98396 177.05357 -122.60316 170.27776 -1.6428967 164.51199
660500000 -1.5707657 97.409317 -123.37698 -100.91338 -121.15591 75.363373 -1.6715336 137.59225
670000000 -1.5713905 69.648819 -122.86043 -33.429897 -124.75549 -171.07729 -1.6678345 110.9276
679500000 -1.5271701 42.469898 -115.40646 52.727837 -117.68734 -96.582947 -1.6442497 84.566727
689000000 -1.4825441 16.300623 -124.76392 128.56062 -116.77343 -69.818527 -1.6167322 58.444912
698500000 -1.4717878 -9.756525 -115.44278 -112.51368 -117.04827 -31.640312 -1.5982589 32.433784
708000000 -1.4651641 -36.63308 -121.50155 -85.110809 -121.92653 -31.853973 -1.5934983 6.4168563
717500000 -1.4503783 -63.638409 -120.75295 -61.711369 -126.82317 -115.27811 -1.5981115 -19.675758
727000000 -1.4560742 -89.903206 -119.11079 35.935574 -122.235 51.217346 -1.6059952 -45.888229
736500000 -1.5126209 -116.56938 -118.15613 136.9695 -120.69389 -53.938324 -1.6149755 -72.244652
746000000 -1.6003512 -144.74516 -117.74061 116.8867 -122.3478 18.073845 -1.629333 -98.787537
755500000 -1.6365672 -173.20071 -125.57333 -32.085266 -120.79443 -72.450195 -1.6559005 -125.57542
765000000 -1.6488523 159.15244 -120.33614 -57.558231 -118.02444 39.511311 -1.6997252 -152.63802
774500000 -1.7261144 131.35095 -131.92029 60.323151 -123.26593 -132.37973 -1.7555093 -179.92163
784000000 -1.7900572 102.64146 -117.05551 -171.09856 -115.80067 57.758793 -1.807731 152.70689
793500000 -1.7550048 74.302124 -115.3046 115.57354 -115.62947 3.9469483 -1.8392335 125.41237
803000000 -1.7063521 47.457649 -118.43222 -124.88166 -118.73581 9.4322109 -1.8440434 98.337784
812500000 -1.7044863 21.017738 -115.39153 2.5766478 -123.91133 10.344201 -1.8288457 71.559746
822000000 -1.6971018 -5.9939404 -118.39568 -0.27346751 -119.88369 113.41505 -1.8074588 45.058872
831500000 -1.6456084 -32.774319 -115.65783 24.541704 -120.65042 -87.732101 -1.7914748 18.75539
841000000 -1.6150993 -58.873993 -123.0776 132.58661 -119.19572 10.23525 -1.7857617 -7.4603543
850500000 -1.6519669 -85.105392 -120.611 -167.14372 -116.77868 15.618601 -1.7870877 -33.69907
860000000 -1.6933916 -112.01427 -118.74992 92.674538 -112.62583 -26.097822 -1.7920505 -60.038784
869500000 -1.7165905 -139.31439 -117.24872 11.628034 -124.30003 31.942554 -1.8000348 -86.522583
879000000 -1.7660875 -166.67159 -116.34795 -8.9957695 -116.16264 70.847107 -1.8142408 -113.16737
888500000 -1.8237171 165.73613 -114.47216 -122.14356 -115.64135 -68.153519 -1.8393975 -139.98654
898000000 -1.8646711 137.82706 -118.71843 -67.935127 -121.6179 73.785217 -1.876338 -166.96577
907500000 -1.8925102 109.93183 -116.53442 -19.53833 -121.84335 -69.75705 -1.9183745 165.94566
917000000 -1.8968681 82.246201 -130.62975 -42.000683 -119.17783 -60.729748 -1.9548608 138.83177
926500000 -1.8703365 55.051033 -118.51079 119.40302 -117.9902 79.980423 -1.9766053 111.81518
936000000 -1.8203305 28.554811 -129.08868 54.534428 -122.66908 -171.83597 -1.9799825 85.03669
945500000 -1.7811085 2.4013174 -120.80492 -107.0655 -126.78642 -62.785046 -1.9656134 58.58181
955000000 -1.7580032 -23.678257 -122.61987 -33.448036 -115.93559 23.065115 -1.939878 32.437313
964500000 -1.7221564 -49.639042 -128.10176 -104.13765 -113.52467 -40.923218 -1.9137999 6.5232902
974000000 -1.705897 -75.373848 -123.11093 -101.93407 -117.79864 59.042717 -1.8950872 -19.25042
983500000 -1.7273159 -101.03645 -125.23065 91.02285 -121.51341 -31.43038 -1.8831643 -44.989525
993000000 -1.7533555 -127.34821 -114.04298 121.55829 -126.75424 -108.64322 -1.8762127 -70.804085
1002500000 -1.7865834 -154.4183 -122.22771 105.02136 -114.36844 -127.34332 -1.8766849 -96.768852
1012000000 -1.8183494 178.57047 -117.87451 -21.890409 -123.00116 0.15324935 -1.8903834 -122.9109
1021500000 -1.8484222 151.68381 -118.35774 31.147278 -120.64939 -99.071434 -1.9173138 -149.22496
1031000000 -1.8966702 124.16761 -122.29589 99.492935 -128.58421 129.19945 -1.9544138 -175.70917
1040500000 -1.9249282 96.02655 -115.06805 176.2865 -118.54559 -110.22865 -1.9949598 157.65202
1050000000 -1.8988072 68.505768 -118.7625 -129.49492 -121.58391 60.924156 -2.0314982 130.92415
1059500000 -1.8507755 42.181709 -125.83002 -60.823914 -125.45259 -67.287285 -2.0555565 104.23351
1069000000 -1.8209151 15.870927 -118.57129 104.43145 -118.007 56.407894 -2.0597796 77.723976
1078500000 -1.8083889 -11.034573 -129.86351 74.173515 -121.78338 42.47435 -2.0426848 51.486439
1088000000 -1.7710038 -37.288563 -118.91312 -177.16991 -127.9593 -101.25494 -2.0123968 25.534069
1097500000 -1.7177945 -62.482536 -118.41903 -148.15367 -122.61108 -142.99933 -1.9804795 -0.18245618
1107000000 -1.7228653 -88.047073 -115.1968 -76.350502 -123.44936 -139.2384 -1.9554219 -25.762098
1116500000 -1.776646 -114.77879 -137.03227 52.398804 -119.36479 15.56881 -1.9404531 -51.329044
1126000000 -1.7997119 -141.7352 -122.09677 -36.182781 -119.30806 120.44743 -1.936039 -77.01577
1135500000 -1.8048354 -168.19788 -124.47221 -115.38116 -113.24189 57.636223 -1.9430668 -102.91766
1145000000 -1.8509122 164.86681 -117.2087 -95.388145 -142.10774 -116.89497 -1.9624889 -129.08034
1154500000 -1.9359311 136.53516 -123.18604 -53.840466 -134.11092 -179.74629 -1.995177 -155.50264
1164000000 -1.9893383 107.91209 -121.02953 -64.816696 -120.06621 -73.248779 -2.0384526 177.84622
1173500000 -1.9717463 80.227547 -119.32278 86.708862 -119.84048 -21.36973 -2.0858233 151.01431
1183000000 -1.9533201 52.807995 -120.27943 146.73901 -113.1786 177.0226 -2.1280799 124.07941
1192500000 -1.9727117 24.922459 -124.11275 132.76967 -128.24554 -82.46682 -2.1554291 97.137794
1202000000 -1.9544632 -2.6510773 -117.32864 -35.139412 -123.47049 -132.31514 -2.1614127 70.297905
1211500000 -1.8828212 -29.133623 -116.75085 -8.0405779 -111.68859 -28.934984 -2.1472974 43.653458
1221000000 -1.8488252 -55.205536 -120.77869 36.872448 -111.38596 -55.781136 -2.120878 17.254936
1230500000 -1.884657 -81.808029 -118.21746 -159.70467 -132.72615 81.960541 -2.0906065 -8.9102478
1240000000 -1.9166284 -108.71735 -118.49213 172.77286 -112.28207 81.289406 -2.0645683 -34.931625
1249500000 -1.9120387 -135.3887 -116.56557 -72.481186 -120.65608 -92.507271 -2.0487556 -60.945232
1259000000 -1.9325843 -162.23773 -122.82601 -56.908764 -120.42966 -56.519379 -2.0487478 -87.082298
1268500000 -2.005425 170.17436 -117.69983 -23.095621 -114.3477 -45.006863 -2.0655885 -113.43516
1278000000 -2.0776942 142.06989 -129.85121 53.875469 -118.91369 -10.611719 -2.0975232 -140.04614
1287500000 -2.1233916 113.74377 -120.60477 170.51653 -117.75324 -82.886749 -2.1412537 -166.92155
1297000000 -2.1565762 85.268517 -113.86074 -116.10345 -120.37263 9.0060015 -2.1918008 165.98645
1306500000 -2.1656277 57.048195 -113.86253 -19.006487 -116.61905 -51.087975 -2.2408311 138.76765
1316000000 -2.1458876 29.349894 -123.04162 -1.4567763 -115.84868 -62.93811 -2.2781277 111.52731
1325500000 -2.124032 1.8444231 -119.79953 64.322662 -114.51384 -49.497566 -2.2946978 84.363701
1335000000 -2.0940018 -25.37525 -122.53536 -120.50922 -117.7299 -157.48732 -2.2886121 57.358414
1344500000 -2.0413337 -51.726318 -120.59666 -112.292 -120.84903 14.834307 -2.2652819 30.573761
1354000000 -2.0157688 -77.570755 -126.70428 -69.768555 -115.32671 -100.64053 -2.2356496 4.0475869
1363500000 -2.0437784 -103.89146 -125.13713 82.073036 -119.40228 -161.58736 -2.2080584 -22.221424
1373000000 -2.0571465 -130.58902 -136.34465 -94.83049 -117.42022 -88.745667 -2.1868739 -48.304207
1382500000 -2.0322819 -156.7899 -115.35149 116.23464 -111.73119 -41.583355 -2.1756167 -74.334175
1392000000 -2.0532794 177.1179 -120.83344 -37.072662 -126.62398 121.97115 -2.1791747 -100.44014
1401500000 -2.1474562 149.87253 -115.07156 -98.124542 -121.66045 -176.19669 -2.1994474 -126.70935
1411000000 -2.2104197 121.73914 -134.31009 124.859 -116.74122 -55.952915 -2.2331913 -153.18494
1420500000 -2.1909471 94.158684 -117.40445 72.047745 -122.32413 -119.81156 -2.2751679 -179.86591
1430000000 -2.1903963 67.097008 -117.00607 154.9558 -116.91459 21.086916 -2.318917 153.30551
1439500000 -2.2413599 39.469097 -119.98455 -170.64163 -124.81381 88.206703 -2.3562999 126.42866
1449000000 -2.2297792 11.575091 -120.07211 16.499918 -119.63123 -166.24594 -2.3789878 99.601868
1458500000 -2.1308603 -15.102353 -122.54186 24.827763 -120.52887 -72.017807 -2.3815484 72.897118
1468000000 -2.0602756 -40.615524 -120.16134 74.82637 -109.40811 -81.437737 -2.3652263 46.353733
1477500000 -2.0748441 -66.506134 -119.79492 48.752609 -116.69265 -44.244919 -2.3381619 19.985491
1487000000 -2.087646 -92.970352 -122.84122 145.51657 -111.87144 -170.39009 -2.3110297 -6.199163
1496500000 -2.0282199 -118.77075 -125.26732 -161.714 -124.29641 -53.885021 -2.291127 -32.196308
1506000000 -1.9934667 -143.93834 -114.32584 -103.1872 -131.42648 -158.3882 -2.2790656 -58.032566
1515500000 -2.0561874 -169.81216 -122.01398 70.182022 -119.25154 -56.131027 -2.2734997 -83.793137
1525000000 -2.1173112 163.28505 -116.17757 48.524784 -116.53176 -101.43209 -2.2746491 -109.5761
1534500000 -2.1122649 136.39378 -119.56486 -172.17494 -123.71563 -39.516891 -2.2854383 -135.47717
1544000000 -2.1312933 109.72459 -116.04388 -178.82512 -117.64906 69.325554 -2.308883 -161.55423
1553500000 -2.2070694 82.333832 -114.13054 -34.933857 -124.60442 132.18947 -2.3432798 172.1795
1563000000 -2.2402861 54.304256 -117.87673 -113.61738 -115.04565 -58.775261 -2.3819532 145.7451
1572500000 -2.1984539 26.770668 -111.27251 105.70282 -117.40453 -142.24527 -2.416369 119.19438
1582000000 -2.1634736 -0.1161752 -119.02523 86.899193 -128.42924 4.318078 -2.4384518 92.611794
1591500000 -2.1538486 -26.88472 -124.35789 -93.264236 -135.39403 39.050522 -2.4422708 66.073608
1601000000 -2.1263056 -53.445297 -120.28505 -121.59377 -112.73067 179.37671 -2.4279923 39.620865
1610500000 -2.1001337 -79.624893 -122.99501 -69.608017 -117.35255 -153.18044 -2.4042802 13.261214
1620000000 -2.0936382 -105.73009 -115.77225 125.8133 -112.45055 -96.953499 -2.382767 -13.005625
1629500000 -2.0738237 -131.84911 -119.72032 -158.00015 -134.98512 -89.232529 -2.3706012 -39.169228
1639000000 -2.0621901 -157.82185 -115.75395 161.9745 -122.54254 -102.24696 -2.3669481 -65.236977
1648500000 -2.1109967 175.87021 -122.07221 -6.0470529 -118.8675 -141.70291 -2.367121 -91.244965
1658000000 -2.1789787 148.72426 -116.09636 -14.375485 -120.57606 159.39462 -2.3682046 -117.24349
1667500000 -2.198818 121.3008 -114.95573 -0.23550242 -123.88417 176.43767 -2.3712213 -143.29692
1677000000 -2.2230949 94.003372 -126.86152 -116.6478 -129.58141 -98.665131 -2.3802266 -169.4745
1686500000 -2.3064981 66.167984 -124.23074 -175.81062 -135.46468 -26.366968 -2.4009466 164.16338
1696000000 -2.3452308 37.675205 -113.55596 157.60785 -115.33981 -52.029472 -2.4351177 137.60336
1705500000 -2.2915041 9.5374613 -122.10302 -119.5341 -119.4819 -69.676315 -2.4766731 110.88916
1715000000 -2.2810504 -17.756927 -115.49465 36.012566 -121.37865 -169.99886 -2.5113831 84.088081
1724500000 -2.325526 -44.879433 -117.35837 64.980186 -119.69846 -84.748718 -2.5268855 57.257908
1734000000 -2.3021147 -72.265404 -115.12758 172.2258 -115.09094 -73.917717 -2.5220122 30.440552
1743500000 -2.2392855 -99.2145 -114.64239 -79.326973 -118.70351 -152.68671 -2.5055444 3.684902
1753000000 -2.2345893 -125.39478 -114.10013 -37.410107 -116.58775 167.66229 -2.4875016 -22.966038
1762500000 -2.2627089 -151.67302 -115.96985 170.82095 -119.38749 97.528938 -2.4731898 -49.50359
1772000000 -2.2605109 -178.53186 -115.87058 116.20697 -120.90398 -47.104771 -2.4648795 -75.946281
1781500000 -2.2555711 154.44858 -113.67884 140.21674 -121.24072 -18.326397 -2.4623899 -102.30769
1791000000 -2.3183889 127.50005 -111.40073 -2.3010087 -127.27605 44.594738 -2.4631324 -128.58995
1800500000 -2.3977828 100.32542 -114.70091 -109.16837 -121.96569 -134.16231 -2.4643161 -154.8287
1810000000 -2.4096644 72.448311 -111.55924 -15.740146 -112.25754 -149.86418 -2.4686923 178.89363
1819500000 -2.4220154 44.127331 -134.71037 7.9632478 -124.62582 65.232025 -2.485311 152.49779
1829000000 -2.472177 16.198151 -115.06357 160.42229 -128.53658 -47.589672 -2.5194271 125.94843
1838500000 -2.4747071 -11.33287 -118.48893 -178.88817 -112.79469 16.007952 -2.5640748 99.258049
1848000000 -2.4238136 -38.807091 -117.46185 85.705048 -124.77017 -139.88632 -2.6034811 72.450294
1857500000 -2.3946142 -66.031303 -111.88148 -9.6106157 -118.23093 -132.94922 -2.6242976 45.56673
1867000000 -2.4072833 -92.844757 -118.5638 27.182461 -122.58379 164.17886 -2.6240592 18.680204
1876500000 -2.3992274 -119.25909 -115.71058 -177.35503 -117.61389 -145.54437 -2.6081765 -8.1215515
1886000000 -2.3248415 -145.40213 -117.30952 177.3531 -138.04312 16.413637 -2.5862737 -34.778545
1895500000 -2.2743387 -171.60162 -136.3694 143.26341 -123.10872 -0.21087667 -2.5675197 -61.271095
1905000000 -2.3254282 162.07794 -112.37257 -1.6390438 -126.87066 -119.16279 -2.5572903 -87.607414
1914500000 -2.372297 135.6893 -119.64182 3.9819312 -126.23165 -152.17494 -2.5543172 -113.79469
1924000000 -2.349504 109.13083 -128.73175 33.04776 -117.47166 -51.641376 -2.5527732 -139.85733
1933500000 -2.3604965 82.284477 -117.16928 -102.55657 -112.68651 -20.292324 -2.550597 -165.83557
1943000000 -2.4467447 54.866482 -107.97827 -80.020714 -129.13176 -139.53232 -2.5515606 168.20923
1952500000 -2.5067747 27.02552 -117.32798 -75.5261 -113.68452 -148.75928 -2.5634353 142.21178
1962000000 -2.4691639 -0.42015785 -119.09405 72.561028 -115.27101 -106.65357 -2.5912807 116.09888
1971500000 -2.4170465 -27.440447 -116.68629 63.19112 -131.02559 160.8586 -2.6337717 89.811699
1981000000 -2.4470551 -54.654514 -119.45163 40.227592 -113.63136 -102.53716 -2.6806819 63.33054
1990500000 -2.4722497 -81.88179 -118.28555 -24.587469 -120.32865 39.968563 -2.7172289 36.690948
2000000000 -2.3954549 -108.44338 -114.10295 -30.379425 -115.47336 -149.48772 -2.7308919 9.9636145
