!Keysight Technologies,N5242B,MY48420967,A.15.65.19
!Date: Friday, December 16, 2022 23:47:31
!Correction: S11(C  2-Port  ) 
!S21(C  2-Port  ) 
!S12(C  2-Port  ) 
!S22(C  2-Port  ) 
!S2P File: Measurements: S11, S21, S12, S22:
# Hz S  dB   R 50
100000000 -0.36976784 -101.42142 -120.40075 104.08311 -119.3803 62.757584 -0.37856078 -97.836639
109500000 -0.44011644 -127.90617 -116.92635 -142.71877 -120.71194 43.580288 -0.45052049 -124.6009
119000000 -0.58776987 -155.59001 -117.79574 -115.67581 -119.39945 135.33887 -0.53862607 -151.5172
128500000 -0.71969885 175.87256 -125.83148 -69.275902 -129.75647 -111.8677 -0.63685048 -178.54253
138000000 -0.80636483 147.70354 -118.84527 110.15381 -126.84521 31.470404 -0.73783821 154.36324
147500000 -0.8735404 119.81248 -114.15047 61.023869 -115.82053 27.754351 -0.8317374 127.26238
157000000 -0.91772509 91.631851 -115.67863 -132.42567 -118.97704 129.70557 -0.90509945 100.26574
166500000 -0.92349023 63.755356 -121.16438 -155.01324 -122.1571 170.33333 -0.94276798 73.511772
176000000 -0.88719523 36.632771 -120.34171 7.2186117 -128.45578 69.737587 -0.93754959 47.090099
185500000 -0.83595508 9.8106213 -130.98193 -136.83881 -131.32076 -53.682838 -0.89457387 20.992596
195000000 -0.78258294 -16.809641 -122.48499 -153.8261 -117.69997 94.361023 -0.83249897 -4.9202447
204500000 -0.74816924 -43.294647 -116.50097 -160.24968 -117.29446 14.172272 -0.77743024 -30.880829
214000000 -0.77330458 -70.035835 -117.04313 -150.63983 -116.19921 127.89329 -0.75278366 -57.11092
223500000 -0.809964 -97.120193 -117.2338 27.803312 -117.54136 17.309925 -0.77233315 -83.731239
233000000 -0.8283968 -124.41267 -122.03445 9.2141981 -113.45863 -37.852791 -0.83248925 -110.73102
242500000 -0.91256291 -151.92404 -125.61211 -68.528725 -115.09234 10.884716 -0.91545945 -137.98543
252000000 -1.0459583 -179.94218 -113.26633 172.73387 -117.00484 38.900902 -0.9996739 -165.33327
261500000 -1.1147605 151.56903 -111.90308 -129.12383 -111.2803 101.27647 -1.0730398 167.35429
271000000 -1.1249886 123.45379 -147.3349 -53.642086 -130.60043 90.815071 -1.1326401 140.15385
280500000 -1.1570039 95.973274 -108.50372 61.772362 -116.86189 -107.41936 -1.1802171 113.11559
290000000 -1.1988143 68.458389 -108.17268 42.764172 -133.86856 76.108047 -1.2132286 86.289116
299500000 -1.1678553 40.922298 -122.54015 40.062317 -114.2972 -42.565048 -1.2222153 59.718777
309000000 -1.0832069 14.054326 -120.40413 -69.515373 -115.10149 96.863419 -1.200651 33.401932
318500000 -1.0514609 -12.150898 -111.90426 -57.34536 -119.30654 174.66534 -1.1532756 7.2908506
328000000 -1.0642917 -38.564098 -119.7213 11.521401 -126.81261 153.49182 -1.0963255 -18.749226
337500000 -1.0557595 -65.672478 -121.4583 12.826936 -115.15343 -36.831123 -1.0552609 -44.90913
347000000 -1.0476969 -92.797546 -126.01396 177.40909 -119.59515 148.26848 -1.0516061 -71.352615
356500000 -1.0908855 -119.62224 -116.99448 -90.973351 -113.11033 154.39255 -1.0930904 -98.15844
366000000 -1.1778148 -146.95953 -113.82462 -72.291229 -118.32561 19.901489 -1.1675444 -125.2853
375500000 -1.2507243 -175.15862 -117.67609 -46.700668 -120.8769 108.13604 -1.250008 -152.5851
385000000 -1.2808862 156.63583 -131.83936 53.826485 -122.5868 130.78903 -1.3161501 -179.86426
394500000 -1.3094497 129.16623 -117.23647 136.90752 -124.3534 11.172185 -1.3545746 153.035
404000000 -1.3441746 102.05392 -114.33753 -175.5876 -118.90353 48.220333 -1.369719 126.1955
413500000 -1.3454158 74.653503 -122.89279 131.25479 -116.44564 77.922371 -1.3715287 99.630211
423000000 -1.3094826 47.450794 -116.03303 -19.175926 -115.21134 -163.10779 -1.366567 73.314934
432500000 -1.2576878 21.256983 -120.50052 17.149805 -116.80398 148.68036 -1.3532547 47.214226
442000000 -1.2139759 -4.4726067 -124.52933 138.10564 -122.97415 -44.442451 -1.3277705 21.29604
451500000 -1.1975724 -30.705723 -119.2536 -64.403267 -113.60532 -4.8775291 -1.2906524 -4.4880133
461000000 -1.1895224 -57.319221 -121.4903 -157.38634 -114.207 41.176044 -1.2499825 -30.228615
470500000 -1.1807237 -83.670189 -112.86419 43.960201 -126.55355 -47.193436 -1.2226187 -56.079018
480000000 -1.2010918 -109.98067 -111.73683 65.494797 -120.95889 -5.1117024 -1.2252278 -82.19297
489500000 -1.2613611 -137.04002 -114.5742 61.437988 -135.57693 -76.476074 -1.2659245 -108.66006
499000000 -1.3231498 -164.75516 -115.33151 80.105774 -114.92107 -106.40535 -1.3357725 -135.4395
508500000 -1.3553352 167.69539 -114.99097 -89.476738 -111.68465 74.510406 -1.4093906 -162.37311
518000000 -1.3780211 140.48325 -117.22042 4.9003372 -118.31175 80.080391 -1.4605947 170.75209
527500000 -1.40791 113.18526 -121.09331 104.02979 -120.88018 134.71875 -1.476017 144.09296
537000000 -1.4199332 85.916367 -114.7916 59.309818 -118.03721 -157.30203 -1.4627297 117.72437
546500000 -1.392718 59.180706 -124.8886 143.5461 -116.03992 -26.483549 -1.4388396 91.628258
556000000 -1.3416834 32.981403 -124.40659 -60.460972 -118.17861 -23.731268 -1.4195029 65.730247
565500000 -1.3015455 6.9629178 -115.24083 -107.38269 -117.64465 61.635033 -1.4102933 39.951164
575000000 -1.2832878 -19.037525 -122.44374 2.1671841 -119.86837 139.02528 -1.4039984 14.242568
584500000 -1.2671628 -45.160282 -122.20166 174.71948 -118.51327 -177.55034 -1.3919257 -11.440145
594000000 -1.2552156 -71.558136 -130.02652 -164.61259 -119.3177 92.34285 -1.374516 -37.146084
603500000 -1.2674012 -98.08609 -115.02621 162.03119 -123.20952 -47.585075 -1.3571573 -62.933273
613000000 -1.3108426 -124.83801 -122.86374 130.68697 -115.44898 33.435394 -1.3515826 -88.954865
622500000 -1.37307 -152.1862 -113.87872 -18.371817 -121.89593 153.31143 -1.3757997 -115.32574
632000000 -1.4090661 179.78355 -119.6802 66.541603 -127.65796 -100.87537 -1.4314927 -142.03696
641500000 -1.4396883 151.77199 -126.68704 134.15797 -117.09686 -38.440468 -1.5019623 -168.98926
651000000 -1.4733291 124.34483 -117.27925 167.4229 -121.58662 -128.11102 -1.5601289 163.98265
660500000 -1.4993913 96.848625 -124.56815 -136.73586 -116.31886 104.2399 -1.5881333 137.0681
670000000 -1.4998502 69.083916 -123.10345 -91.577248 -122.16357 -6.6178331 -1.5843338 110.41003
679500000 -1.4559852 41.912125 -120.03288 24.866713 -138.07491 -112.21436 -1.5609257 84.05645
689000000 -1.4119782 15.739796 -122.02319 25.147182 -120.4766 -97.7043 -1.5333294 57.939484
698500000 -1.4010055 -10.337627 -124.46144 141.73846 -112.94852 -41.689178 -1.5145018 31.927765
708000000 -1.3926127 -37.234394 -115.46477 -99.808479 -112.80888 11.952007 -1.5094134 5.905232
717500000 -1.3774551 -64.256783 -118.49955 -155.66968 -116.48402 98.640854 -1.5132993 -20.19656
727000000 -1.383238 -90.545929 -114.62697 50.102642 -123.61395 -164.20882 -1.5201399 -46.421688
736500000 -1.4373991 -117.25625 -114.19107 111.46458 -122.11256 -61.567051 -1.5277904 -72.79644
746000000 -1.5225092 -145.47237 -120.42682 112.14812 -122.77273 -38.560204 -1.5408152 -99.362045
755500000 -1.5576483 -173.95012 -122.09212 59.769382 -117.37588 28.83674 -1.5662038 -126.17538
765000000 -1.5692482 158.3748 -119.09542 -77.331886 -118.43219 -8.6001196 -1.6086967 -153.26419
774500000 -1.645008 130.54106 -124.61166 31.367302 -120.85506 111.93646 -1.6631221 179.42503
784000000 -1.7072617 101.81161 -116.15848 85.516426 -116.8293 165.60733 -1.7142105 152.02728
793500000 -1.6724763 73.46656 -110.65566 148.90413 -127.97463 18.867834 -1.7450631 124.70856
803000000 -1.6248775 46.617123 -123.74815 -177.24431 -128.26894 -9.8054142 -1.7495303 97.612633
812500000 -1.6230907 20.15711 -114.24489 -13.335142 -116.36398 -53.01062 -1.7341279 70.813599
822000000 -1.6153599 -6.8777194 -115.31367 -13.454329 -118.86801 62.574986 -1.7125045 44.289089
831500000 -1.563795 -33.675137 -119.46875 -125.63137 -136.34897 91.322182 -1.6963321 17.956837
841000000 -1.5340788 -59.799774 -118.89818 -154.99998 -119.83489 -55.786259 -1.6904114 -8.2914257
850500000 -1.5709516 -86.067986 -113.70243 -161.93912 -116.86432 -49.952385 -1.6912394 -34.565639
860000000 -1.6105158 -113.02164 -115.75864 -128.89301 -118.35187 4.055923 -1.6953199 -60.944221
869500000 -1.6325252 -140.35841 -118.00944 22.995979 -124.86563 58.901913 -1.7022784 -87.468636
879000000 -1.6814725 -167.7462 -121.99344 -27.282402 -121.61337 -160.9326 -1.7155706 -114.15549
888500000 -1.7378094 164.62791 -124.49873 169.42535 -131.35382 31.729006 -1.7397237 -141.01358
898000000 -1.777431 136.69844 -117.24624 -125.37544 -121.12936 -97.268845 -1.7758925 -168.02821
907500000 -1.8045719 108.79822 -113.83801 -87.119614 -117.68781 -77.701164 -1.8170519 164.85159
917000000 -1.8090858 81.112747 -122.72063 41.29092 -117.29825 42.823364 -1.8529483 137.71187
926500000 -1.7829958 53.929413 -122.81343 30.636271 -129.58423 19.912104 -1.8745492 110.67767
936000000 -1.7337154 27.44791 -129.71466 130.14731 -122.39648 -48.92313 -1.8781997 83.888931
945500000 -1.6959549 1.2963926 -116.48098 -136.39622 -118.05292 40.756332 -1.8640579 57.429749
955000000 -1.6735178 -24.782005 -117.07262 -43.019333 -125.73107 -56.180637 -1.8383294 31.28031
964500000 -1.6375382 -50.740871 -115.81535 -57.620255 -117.50356 -61.885258 -1.8123018 5.3558049
974000000 -1.622633 -76.479675 -120.83547 40.429207 -123.96418 123.55041 -1.794035 -20.431059
983500000 -1.6439514 -102.15493 -116.20786 153.22644 -130.29124 150.28609 -1.7822489 -46.183418
993000000 -1.6675879 -128.49304 -120.01865 155.03983 -115.11204 -54.664909 -1.7747042 -72.012131
1002500000 -1.7001179 -155.57747 -120.01823 -73.271385 -121.36039 43.315689 -1.7743096 -97.99324
1012000000 -1.7310314 177.41187 -112.48885 -20.540354 -113.37707 36.073116 -1.7872854 -124.14954
1021500000 -1.7594523 150.51337 -114.66837 30.258551 -145.65002 18.221941 -1.8137554 -150.47253
1031000000 -1.806496 122.99146 -114.56664 80.320114 -119.7406 157.03226 -1.8500556 -176.95804
1040500000 -1.8334395 94.865913 -120.93549 -178.22786 -119.55355 133.72337 -1.889679 156.41011
1050000000 -1.8078603 67.37439 -134.50931 -66.937607 -120.61263 56.746956 -1.9252129 129.69733
1059500000 -1.7612014 41.079449 -115.26699 -7.9477224 -124.79182 4.1916595 -1.9486592 103.03028
1069000000 -1.7315227 14.779036 -124.52251 -26.994442 -120.23807 130.9541 -1.9527783 76.551521
1078500000 -1.7196603 -12.119617 -114.45271 3.4347706 -129.95493 141.39418 -1.9358858 50.348618
1088000000 -1.6837119 -38.349773 -131.24442 94.471786 -125.20412 -166.76118 -1.9059296 24.429588
1097500000 -1.6312155 -63.536243 -116.45933 -124.78281 -116.34562 -27.660595 -1.8743041 -1.2601418
1107000000 -1.6363186 -89.128647 -117.1001 -59.182079 -123.15356 16.767046 -1.8493961 -26.821226
1116500000 -1.6886204 -115.88688 -130.83502 -0.74538392 -114.05242 54.393364 -1.8344113 -52.377987
1126000000 -1.7101164 -142.85539 -115.25659 47.822666 -116.24139 62.73225 -1.829708 -78.059586
1135500000 -1.7148879 -169.33852 -114.99705 14.423638 -120.17691 160.16228 -1.8359592 -103.96194
1145000000 -1.7589788 163.68404 -124.12959 -74.616676 -124.5494 79.840553 -1.8544382 -130.12892
1154500000 -1.8409849 135.31477 -119.7518 -97.109825 -121.04435 42.076912 -1.8863062 -156.55772
1164000000 -1.8931249 106.68797 -121.05578 -1.1784167 -116.95873 -163.52565 -1.9286141 176.7859
1173500000 -1.8749461 79.004997 -114.589 -148.75754 -115.45007 -17.557993 -1.9748338 149.95186
1183000000 -1.8561723 51.569344 -116.62185 117.57565 -122.7606 128.75067 -2.0158494 123.01496
1192500000 -1.8755186 23.673824 -116.05916 178.12367 -132.49484 123.58344 -2.0422537 96.071648
1202000000 -1.8577455 -3.8977573 -122.94629 -23.333239 -109.31727 -70.308815 -2.0479541 69.230934
1211500000 -1.7874237 -30.38575 -115.76286 -44.042336 -123.14843 -64.151276 -2.0340307 42.582825
1221000000 -1.7547655 -56.487473 -135.30734 106.56785 -120.33059 43.267387 -2.0079248 16.173958
1230500000 -1.7908797 -83.134659 -122.08121 52.637264 -120.84129 18.995039 -1.9780252 -10.009741
1240000000 -1.8219794 -110.08973 -117.59421 169.17764 -116.82434 -53.616489 -1.9520918 -36.059971
1249500000 -1.8167633 -136.81026 -116.83218 -123.07519 -118.87251 42.204666 -1.9361809 -62.11208
1259000000 -1.8367534 -163.72618 -119.7957 -148.65866 -116.21561 -51.256359 -1.9359711 -88.299149
1268500000 -1.9079888 168.60852 -121.95474 27.408815 -118.38441 -86.865524 -1.9526428 -114.71008
1278000000 -1.9781855 140.43954 -127.70201 44.906609 -125.76171 -66.542152 -1.9843571 -141.38503
1287500000 -2.0217557 112.0658 -119.9838 -142.5899 -114.16943 110.01879 -2.027411 -168.3259
1297000000 -2.0535839 83.552399 -116.38424 177.54996 -125.93298 166.18915 -2.0766773 164.51605
1306500000 -2.0622735 55.315987 -123.25021 124.5688 -118.57248 -60.348164 -2.124244 137.23497
1316000000 -2.0422595 27.611519 -122.13674 -11.321466 -117.04343 -54.079689 -2.1603181 109.94083
1325500000 -2.0211384 0.094529599 -114.93212 36.094135 -127.89801 -74.064522 -2.176125 82.734459
1335000000 -1.9927042 -27.121811 -115.55098 108.15044 -127.27882 143.95938 -2.1695182 55.692974
1344500000 -1.9415097 -53.465286 -118.02371 -135.97025 -128.68755 12.828318 -2.1460567 28.871647
1354000000 -1.9178838 -79.332283 -116.45858 -107.46778 -118.29511 -174.05588 -2.1169705 2.3063552
1363500000 -1.9466596 -105.69065 -116.42416 48.513668 -110.43097 -63.439419 -2.0902286 -24.001696
1373000000 -1.958551 -132.40883 -117.36146 53.547062 -114.67522 -10.813495 -2.0692286 -50.123089
1382500000 -1.933785 -158.62871 -119.63499 151.7115 -134.41441 108.66491 -2.0574601 -76.196922
1392000000 -1.9553472 175.23543 -124.87659 108.43961 -116.3264 45.585106 -2.0605342 -102.3524
1401500000 -2.0466373 147.93376 -115.53458 -10.887411 -117.69895 179.37285 -2.0810418 -128.67233
1411000000 -2.106128 119.78473 -123.9048 -55.622276 -129.00912 -48.485981 -2.115025 -155.19359
1420500000 -2.085556 92.228821 -125.87431 -80.093407 -122.04641 104.32897 -2.1563342 178.08852
1430000000 -2.0843251 65.172829 -116.09104 -175.83044 -118.67187 -107.01971 -2.1986415 151.23148
1439500000 -2.1342111 37.551567 -115.71648 152.99329 -117.90274 117.94764 -2.2340641 124.34048
1449000000 -2.1207919 9.7145004 -118.88345 -59.031967 -119.44662 -171.28633 -2.2548413 97.514565
1458500000 -2.0232589 -16.895292 -118.19167 -32.50491 -117.27785 -41.780636 -2.256058 70.823502
1468000000 -1.9565071 -42.369858 -119.54886 41.35635 -121.11017 -58.422119 -2.2390773 44.302132
1477500000 -1.9717867 -68.24543 -118.24069 -155.70285 -123.98108 -77.455948 -2.211956 17.958187
1487000000 -1.9839455 -94.688202 -118.50951 -85.079773 -132.15013 2.236438 -2.1852059 -8.2020741
1496500000 -1.9260066 -120.45289 -114.43578 -139.44548 -130.80443 -25.568598 -2.1656923 -34.175289
1506000000 -1.8924429 -145.61324 -121.40044 170.84569 -124.61417 143.61246 -2.1540279 -59.989075
1515500000 -1.954553 -171.51454 -125.32983 134.26268 -115.28922 -81.947495 -2.1488187 -85.728447
1525000000 -2.013572 161.57326 -124.26978 -41.822159 -123.83817 -92.214317 -2.1503794 -111.49282
1534500000 -2.006602 134.69034 -132.83852 -4.4220705 -118.20309 168.37151 -2.1612961 -137.37915
1544000000 -2.0252743 108.01209 -126.80035 -152.52583 -120.2369 -162.6176 -2.1846259 -163.4449
1553500000 -2.0992715 80.610703 -120.64326 -128.95473 -117.75052 175.11179 -2.218291 170.30231
1563000000 -2.1294973 52.596817 -118.30394 44.593693 -115.67904 -40.460316 -2.2553923 143.88817
1572500000 -2.0876763 25.097506 -112.77259 121.73511 -114.73885 -51.496685 -2.2878239 117.36686
1582000000 -2.0541198 -1.7621357 -116.54775 161.81227 -118.99826 -110.09741 -2.3080449 90.820305
1591500000 -2.0449693 -28.512754 -116.55811 -138.422 -122.12396 -36.65781 -2.3109324 64.322411
1601000000 -2.018295 -55.055073 -117.58353 -72.154228 -114.87661 -179.06201 -2.2967122 37.909615
1610500000 -1.9934455 -81.227982 -117.97662 -70.421326 -114.77808 -78.896461 -2.2735121 11.586201
1620000000 -1.9874549 -107.3429 -119.5507 121.72392 -140.84692 -157.88449 -2.2522328 -14.650336
1629500000 -1.9678408 -133.4799 -118.28598 178.31407 -122.18941 -93.724892 -2.2400312 -40.789749
1639000000 -1.9570543 -159.48637 -111.34893 -170.94473 -117.26774 69.532494 -2.2363214 -66.838165
1648500000 -2.0054903 174.14688 -136.56364 74.71521 -128.92982 128.30661 -2.236995 -92.831734
1658000000 -2.0713167 146.93594 -124.41228 111.66112 -121.2336 -168.76888 -2.238858 -118.82293
1667500000 -2.0894272 119.46352 -127.67928 -9.9070759 -129.27493 -100.69293 -2.2425728 -144.88039
1677000000 -2.1127892 92.108406 -115.51836 -163.02969 -116.85766 -23.120663 -2.2515602 -171.07648
1686500000 -2.1943898 64.202972 -113.5092 158.96518 -120.07075 38.307693 -2.2718167 162.53021
1696000000 -2.2300084 35.671425 -116.18822 -154.60469 -114.39413 5.2860069 -2.3050299 135.93289
1705500000 -2.175703 7.520175 -117.9588 17.565033 -116.0024 -51.462349 -2.3455791 109.18191
1715000000 -2.1685259 -19.79549 -113.49815 43.583748 -116.60432 -167.87019 -2.3792071 82.347771
1724500000 -2.2131073 -46.947029 -118.03495 113.81978 -118.7487 26.098494 -2.3935595 55.482056
1734000000 -2.1878667 -74.361603 -116.41895 -164.19073 -114.65975 -50.450512 -2.3879325 28.621052
1743500000 -2.128027 -101.32982 -117.87682 -118.96701 -127.33709 -53.302937 -2.37169 1.814173
1753000000 -2.1262696 -127.54242 -116.07793 -50.503471 -117.28312 -128.05002 -2.35431 -24.888519
1762500000 -2.1535382 -153.88985 -128.12355 -87.762138 -120.2588 -73.449066 -2.3401794 -51.475235
1772000000 -2.150749 179.18054 -117.0033 166.7 -118.73087 66.259247 -2.3314085 -77.971138
1781500000 -2.1464779 152.10005 -110.58627 142.68114 -113.72009 -30.405954 -2.3290668 -104.39339
1791000000 -2.2096317 125.07527 -133.17924 -22.204592 -118.60938 -66.612144 -2.3310008 -130.74284
1800500000 -2.285989 97.826576 -112.32651 -43.085747 -115.64167 -145.41936 -2.3335664 -157.05238
1810000000 -2.2930949 69.883308 -126.76424 -149.70074 -123.62422 143.49089 -2.3381395 176.59106
1819500000 -2.3049886 41.517017 -131.18546 98.049774 -116.72005 -168.94432 -2.3539989 150.1051
1829000000 -2.3545072 13.587571 -115.65432 116.59595 -114.75374 -52.457455 -2.3872392 123.46249
1838500000 -2.3531623 -13.933069 -112.83302 -167.15302 -115.04597 21.931297 -2.4310987 96.688393
1848000000 -2.3020587 -41.395916 -119.83706 -42.854969 -118.47045 119.88798 -2.4691269 69.811104
1857500000 -2.275317 -68.594604 -117.52267 -8.2198601 -121.70365 116.79028 -2.4878488 42.869385
1867000000 -2.2884576 -95.375877 -114.05324 4.9743738 -124.18621 -0.17052975 -2.4854679 15.932294
1876500000 -2.2801638 -121.75756 -120.24302 -115.61552 -116.82607 -69.254143 -2.4684181 -10.910441
1886000000 -2.20594 -147.8786 -117.90161 -118.10785 -122.18405 179.36302 -2.4461975 -37.594753
1895500000 -2.1572449 -174.08315 -125.91933 -112.76221 -121.84189 149.62335 -2.4280286 -64.10183
1905000000 -2.2106562 159.5919 -110.74225 73.566292 -117.9276 -59.28083 -2.4186122 -90.444374
1914500000 -2.2555263 133.20923 -112.18039 87.866524 -119.25235 -122.42419 -2.416755 -116.63551
1924000000 -2.2297974 106.64048 -121.74274 85.454926 -123.55514 -69.842628 -2.4163983 -142.70285
1933500000 -2.2414515 79.779152 -114.84558 -106.20116 -135.47641 141.16983 -2.4150357 -168.68796
1943000000 -2.3262937 52.361427 -113.61498 -95.37249 -126.90504 -40.021019 -2.415976 165.34834
1952500000 -2.3820174 24.546377 -128.39856 -162.42485 -124.25919 -171.13069 -2.4271855 139.34247
1962000000 -2.3423591 -2.8407702 -116.72578 3.6140833 -122.4123 107.82575 -2.4540968 113.2242
1971500000 -2.2910392 -29.812237 -112.60483 130.49655 -120.40122 -91.466919 -2.4953735 86.93811
1981000000 -2.3227243 -56.993984 -127.4974 89.855705 -122.33231 155.47133 -2.540957 60.46632
1990500000 -2.3469014 -84.158585 -115.59566 -113.11575 -121.04396 40.979286 -2.5755482 33.846603
2000000000 -2.2695029 -110.64445 -126.45591 -53.598999 -125.29047 63.711098 -2.5869443 7.1515698
