!Keysight Technologies,N5242B,MY48420967,A.15.65.19
!Date: Saturday, December 17, 2022 04:17:20
!Correction: S11(C  2-Port  ) 
!S21(C  2-Port  ) 
!S12(C  2-Port  ) 
!S22(C  2-Port  ) 
!S2P File: Measurements: S11, S21, S12, S22:
# Hz S  dB   R 50
100000000 -0.41384357 -101.56751 -114.36378 117.90082 -115.11438 70.673149 -0.43091851 -98.009689
109500000 -0.48614046 -127.97653 -117.27029 -20.284151 -117.5589 102.0784 -0.5017876 -124.6911
119000000 -0.63294572 -155.58429 -112.5089 -98.500931 -124.13507 71.289612 -0.58853489 -151.52902
128500000 -0.76467192 175.94601 -120.32937 -40.01247 -121.33167 -49.237488 -0.68656313 -178.48328
138000000 -0.85205394 147.84738 -123.35431 22.228025 -121.64497 -48.427307 -0.78857046 154.48611
147500000 -0.91867846 120.00824 -111.24998 110.46446 -117.74739 -2.9298027 -0.88375264 127.43628
157000000 -0.96327478 91.871956 -115.69137 -14.773918 -113.36002 30.896965 -0.95808309 100.47257
166500000 -0.96988672 64.031921 -112.37537 3.0347285 -117.67139 19.655844 -0.99678349 73.73468
176000000 -0.93458241 36.925858 -121.16414 39.795547 -126.36263 123.96889 -0.99280924 47.321098
185500000 -0.88401282 10.118467 -113.91376 46.996368 -119.47676 -29.383677 -0.95130694 21.228706
195000000 -0.83205563 -16.488707 -126.50967 129.08147 -127.73454 -129.23155 -0.8913489 -4.6805429
204500000 -0.80022794 -42.963673 -120.34388 146.88295 -119.6087 -23.479424 -0.83945167 -30.637896
214000000 -0.8270005 -69.69957 -116.69105 -101.60524 -114.31366 131.01825 -0.81876689 -56.863125
223500000 -0.86682624 -96.778732 -115.38744 -75.546234 -114.74387 -27.59207 -0.84213048 -83.477715
233000000 -0.88900107 -124.06023 -115.12099 -33.200874 -124.99895 113.88294 -0.90520722 -110.47247
242500000 -0.97593611 -151.57045 -127.71226 -2.6967227 -114.31363 65.337845 -0.99093306 -137.72289
252000000 -1.1136632 -179.58258 -114.06544 -68.066277 -114.78239 41.690514 -1.0780314 -165.06239
261500000 -1.1864363 151.93407 -112.18176 -80.454941 -111.50784 119.96834 -1.1544293 167.63895
271000000 -1.199337 123.80973 -118.40983 -23.833292 -115.96162 154.07805 -1.2167634 140.45287
280500000 -1.2335352 96.335487 -116.32545 -107.57088 -110.58213 -49.724709 -1.2667307 113.42587
290000000 -1.2777278 68.833374 -117.51379 49.29665 -110.24791 8.7813015 -1.301899 86.607277
299500000 -1.2499224 41.299824 -108.2874 -140.00084 -124.52977 21.555334 -1.3128637 60.042896
309000000 -1.1659633 14.443919 -125.46067 -132.93259 -117.80999 91.943054 -1.2933017 33.739204
318500000 -1.1350263 -11.731661 -118.02391 -77.317245 -112.70397 63.274471 -1.2476091 7.6462297
328000000 -1.1509653 -38.105747 -120.16586 172.94586 -114.33376 90.624191 -1.1931293 -18.369278
337500000 -1.1446381 -65.178162 -115.59655 111.3391 -112.99564 86.557678 -1.1550506 -44.494686
347000000 -1.1376785 -92.257713 -113.18392 79.021858 -117.5087 90.053825 -1.1540416 -70.896202
356500000 -1.1822098 -119.02471 -131.67871 -164.91481 -118.40337 142.72383 -1.1974458 -97.659462
366000000 -1.2718346 -146.30945 -117.59793 -146.32689 -127.13108 -43.724319 -1.2735099 -124.74455
375500000 -1.3469348 -174.45352 -117.61289 29.780376 -113.8362 -131.46924 -1.357393 -152.00246
385000000 -1.3774036 157.38625 -120.04958 163.40506 -124.26219 149.45697 -1.4246447 -179.23985
394500000 -1.4067414 129.94824 -116.09906 156.94337 -124.8186 -37.404991 -1.4638141 153.70006
404000000 -1.4418154 102.873 -118.43774 -139.52499 -114.90175 25.00407 -1.4796574 126.89848
413500000 -1.4436749 75.505783 -130.35551 -177.08437 -116.08521 48.640549 -1.4821934 100.37029
423000000 -1.4086264 48.322903 -128.58672 -144.66866 -116.00498 100.97877 -1.477514 74.092728
432500000 -1.355651 22.144873 -124.07599 -96.511024 -115.60574 -43.227612 -1.4642501 48.026913
442000000 -1.311622 -3.553077 -119.4745 126.58617 -121.96039 -33.375248 -1.4391345 22.141331
451500000 -1.2969129 -29.743904 -117.39407 -105.07547 -122.74805 -83.469833 -1.4031547 -3.607866
461000000 -1.2897936 -56.330837 -112.86246 -98.844063 -118.57706 -96.139275 -1.3640814 -29.308096
470500000 -1.2809126 -82.653534 -124.67948 -104.96803 -114.836 -76.531113 -1.3381191 -55.115269
480000000 -1.301965 -108.91969 -116.14977 15.985244 -125.49168 -179.81161 -1.3418907 -81.18676
489500000 -1.3648703 -135.93918 -120.90954 84.381111 -128.31339 -32.97295 -1.3837196 -107.61674
499000000 -1.4281402 -163.6295 -114.63777 138.91557 -121.31972 32.347004 -1.454708 -134.36758
508500000 -1.460465 168.83333 -115.41046 -68.060028 -113.27853 30.148729 -1.5294784 -161.28502
518000000 -1.4844546 141.63008 -129.17308 18.13689 -114.25446 -160.24026 -1.5817903 171.84428
527500000 -1.5145917 114.33603 -118.15218 10.302693 -114.22996 -157.12555 -1.5983045 145.18185
537000000 -1.5264416 87.062592 -117.20403 109.49387 -115.92912 -43.240372 -1.5855545 118.80949
546500000 -1.4992027 60.319561 -115.9222 60.170708 -119.3936 -0.76925802 -1.5612714 92.711449
556000000 -1.4475704 34.111897 -113.93182 -91.671547 -127.1888 21.415627 -1.5408994 66.81179
565500000 -1.4064884 8.1018686 -110.87839 -65.671631 -119.35094 7.1244078 -1.5308418 41.030964
575000000 -1.3877156 -17.880718 -119.88023 -74.506241 -121.18166 -64.981781 -1.5251465 15.321205
584500000 -1.3731897 -43.988434 -120.46177 63.978043 -122.34982 -152.97821 -1.5149571 -10.351213
594000000 -1.3611875 -70.358253 -125.47039 178.2047 -116.42983 -13.701617 -1.4985107 -36.035637
603500000 -1.3727823 -96.861137 -116.18244 -129.02609 -133.52831 -29.640951 -1.4819633 -61.804783
613000000 -1.4197167 -123.57349 -114.27567 -36.567379 -119.37405 -35.002693 -1.4786174 -87.802078
622500000 -1.483392 -150.88571 -114.72639 -26.802832 -120.67832 63.31918 -1.5045416 -114.13836
632000000 -1.5231212 -178.89372 -120.27786 7.3349977 -124.55922 66.713051 -1.5607333 -140.82079
641500000 -1.5548379 153.11848 -116.94444 -131.04489 -129.73578 25.037796 -1.6321155 -167.75941
651000000 -1.5887293 125.6889 -114.32267 148.85599 -124.86533 23.386013 -1.6919215 165.21544
660500000 -1.6166319 98.204758 -123.84074 -108.66924 -119.64822 130.0983 -1.7216265 138.29907
670000000 -1.617553 70.447113 -114.95657 44.458374 -124.38445 76.719147 -1.7183965 111.6366
679500000 -1.5735559 43.257683 -123.90036 96.91098 -116.23582 -124.20852 -1.6948093 85.276955
689000000 -1.5285393 17.087429 -122.83419 22.692726 -140.3132 114.04772 -1.667204 59.157166
698500000 -1.5175167 -8.9539938 -120.94714 -110.70607 -121.58802 28.427273 -1.6488678 33.152142
708000000 -1.5121619 -35.813309 -116.72953 -105.22057 -120.46986 -36.791294 -1.6444496 7.1458387
717500000 -1.4974439 -62.805325 -121.06507 -62.495132 -125.15405 -178.05222 -1.6494263 -18.932907
727000000 -1.5022981 -89.049629 -123.19254 12.959766 -126.97243 79.93277 -1.6579309 -45.129799
736500000 -1.5599355 -115.67353 -113.71875 148.7048 -118.26804 -114.21896 -1.667546 -71.468674
746000000 -1.6493787 -143.80519 -124.30967 -46.277615 -117.69197 6.4266696 -1.6825532 -97.991722
755500000 -1.6864065 -172.23903 -116.13992 -131.81316 -117.08207 22.224487 -1.7098041 -124.75884
765000000 -1.6989331 160.13907 -125.32261 -168.93481 -126.58305 60.908131 -1.754367 -151.80196
774500000 -1.7769781 132.3748 -126.05852 -36.809128 -119.38263 63.551655 -1.8110659 -179.06763
784000000 -1.8427564 103.68934 -113.62469 159.33003 -122.50763 51.215649 -1.8641387 153.5761
793500000 -1.8083521 75.353729 -113.88371 126.12598 -113.20387 -20.234884 -1.8964077 126.29221
803000000 -1.7589706 48.514938 -127.99222 -102.11095 -118.81853 15.023456 -1.9017149 99.224037
812500000 -1.7568319 22.098173 -118.19633 -27.533092 -120.5466 -39.420551 -1.8869213 72.453003
822000000 -1.7500036 -4.8878641 -121.0621 -41.093502 -130.32436 3.566879 -1.8657959 45.96294
831500000 -1.6986598 -31.649561 -128.45117 36.228474 -116.04115 -49.897163 -1.8497893 19.674906
841000000 -1.6669737 -57.724018 -114.75918 150.7186 -115.34001 -88.303528 -1.8440504 -6.5214686
850500000 -1.7034363 -83.915146 -120.56162 -28.899382 -123.6273 -108.69157 -1.8455943 -32.735931
860000000 -1.7461032 -110.77737 -133.53844 156.40553 -117.82986 52.141861 -1.8510704 -59.047333
869500000 -1.7698485 -138.03996 -116.61483 60.526257 -138.3744 70.391045 -1.8595016 -85.499268
879000000 -1.819757 -165.36789 -117.46023 23.429071 -116.90052 49.13102 -1.8741462 -112.11147
888500000 -1.878453 167.07033 -117.88026 -160.17525 -143.72867 179.79602 -1.8995624 -138.89835
898000000 -1.9206842 139.17871 -126.105 -136.12408 -112.95525 -71.45108 -1.9369079 -165.84846
907500000 -1.9497223 111.28282 -127.96349 -92.523468 -118.34568 4.0402789 -1.9795884 167.08759
917000000 -1.9546971 83.587486 -120.93049 -15.841815 -134.36418 -93.607323 -2.0167801 139.99382
926500000 -1.9281996 56.3703 -124.88913 109.49728 -127.92228 155.99596 -2.0390339 112.99217
936000000 -1.8780968 29.850727 -115.90276 36.710003 -120.37262 25.908302 -2.0424781 86.220924
945500000 -1.8378638 3.6862979 -118.72314 -179.3918 -120.60654 -76.100975 -2.0281126 59.768501
955000000 -1.8138832 -22.402859 -115.99778 -95.853813 -118.40041 -8.2457762 -2.0027919 33.627193
964500000 -1.7780676 -48.370483 -115.94842 -24.789 -116.50385 -41.132858 -1.9769697 7.7235789
974000000 -1.7602967 -74.102264 -118.65221 141.8969 -114.49708 -40.81683 -1.9578611 -18.03558
983500000 -1.7811054 -99.753334 -119.34413 86.6856 -138.71661 -41.69997 -1.9456874 -43.758968
993000000 -1.8088012 -126.03374 -119.30333 -148.64249 -116.83838 -89.729691 -1.9390199 -69.555336
1002500000 -1.8421178 -153.08185 -120.33957 -123.78997 -122.0218 -24.279623 -1.9399391 -95.497208
1012000000 -1.8747158 179.9142 -114.01425 -36.875851 -118.7463 2.128798 -1.9537711 -121.61533
1021500000 -1.9058127 153.05011 -113.85844 -6.4439926 -113.57326 64.924156 -1.980794 -147.9102
1031000000 -1.954955 125.55238 -123.0095 108.47703 -120.90015 121.52248 -2.0181241 -174.38022
1040500000 -1.9851103 97.40786 -116.9244 179.6152 -123.24084 -48.758461 -2.0593736 158.98976
1050000000 -1.959116 69.863434 -123.9856 -167.15654 -121.51122 -129.88467 -2.0969031 132.26517
1059500000 -1.910303 43.516315 -123.87093 21.367914 -118.21782 -4.4821596 -2.1216683 105.57043
1069000000 -1.8805308 17.204136 -118.28024 4.4774518 -121.79395 107.11026 -2.1263587 79.048897
1078500000 -1.8676444 -9.7037048 -117.17161 51.295151 -113.59616 -178.37704 -2.1094999 52.794674
1088000000 -1.8294141 -35.981007 -123.24738 -94.080574 -115.33749 113.00114 -2.0792999 26.82663
1097500000 -1.7752329 -61.177452 -117.91657 -157.61444 -119.64329 -31.582041 -2.0472548 1.1002773
1107000000 -1.7794111 -86.708443 -119.48469 -76.535248 -115.46746 -91.415764 -2.0219536 -24.481571
1116500000 -1.8339386 -113.40724 -119.34372 -45.537758 -111.87759 7.7751136 -2.0066364 -50.043854
1126000000 -1.8582002 -140.34732 -115.22533 88.246552 -117.95676 61.039482 -2.0021744 -75.720596
1135500000 -1.863194 -166.78554 -127.32211 -34.593323 -129.42087 43.224979 -2.009383 -101.60748
1145000000 -1.910121 166.32758 -124.34363 73.643234 -117.10871 -82.828003 -2.0290761 -127.75131
1154500000 -1.9971409 138.04039 -119.75446 -65.7127 -118.23837 -156.88684 -2.0620127 -154.15424
1164000000 -2.0523376 109.42339 -134.83194 11.430134 -117.31326 0.099591359 -2.1056802 179.21146
1173500000 -2.0356877 81.734192 -121.92294 133.3994 -115.75467 10.016393 -2.1539547 152.39328
1183000000 -2.0175796 54.328831 -113.59058 152.66685 -121.41572 -98.400543 -2.1973314 125.46803
1192500000 -2.0372462 26.454096 -119.69153 156.49609 -115.91064 -158.85663 -2.2257478 98.532257
1202000000 -2.0191996 -1.1291364 -123.88739 37.912457 -120.73997 -123.31978 -2.2324109 71.695724
1211500000 -1.9467775 -27.614298 -120.02358 -30.60821 -122.24325 -85.026672 -2.2186961 45.053333
1221000000 -1.9109674 -53.658413 -123.20641 39.29113 -118.89786 -74.080215 -2.1922159 18.659212
1230500000 -1.9456899 -80.217094 -117.86708 128.59489 -115.50274 -161.26463 -2.1617079 -7.4955745
1240000000 -1.9783534 -107.0826 -113.0175 177.31534 -122.33099 -129.39951 -2.135469 -33.498405
1249500000 -1.9737477 -133.70328 -118.36586 -146.32922 -125.15565 -96.955612 -2.1195264 -59.483524
1259000000 -1.9937125 -160.48492 -117.06501 -27.944635 -112.73354 -27.615643 -2.1193075 -85.583206
1268500000 -2.0672078 172.00793 -111.78087 52.225086 -113.64334 -57.410698 -2.1357744 -111.8923
1278000000 -2.1410179 143.97154 -119.10307 -39.685913 -113.96657 113.16503 -2.1674206 -138.45728
1287500000 -2.1887779 115.69387 -124.64909 -27.199978 -120.37788 119.57677 -2.2114792 -165.28624
1297000000 -2.223763 87.255325 -114.91743 -128.9521 -113.37109 -12.197063 -2.2629449 167.66676
1306500000 -2.2339056 59.047874 -128.38501 -164.37566 -114.22779 -133.9355 -2.3132591 140.48892
1316000000 -2.2150674 31.349537 -114.33483 47.16629 -120.60224 -66.492325 -2.35162 113.28066
1325500000 -2.1933405 3.8467309 -117.29801 26.002035 -116.867 23.453379 -2.3693175 86.138206
1335000000 -2.1625054 -23.386286 -126.99742 91.881836 -120.67907 -102.08058 -2.3642981 59.147232
1344500000 -2.1086977 -49.756565 -118.24364 -99.191628 -113.93886 164.64737 -2.3416181 32.377258
1354000000 -2.0812588 -75.585907 -117.34771 -83.204796 -123.54488 -5.9003601 -2.3117487 5.8686485
1363500000 -2.1081409 -101.875 -117.91437 46.308048 -118.5056 17.551273 -2.2833712 -20.381945
1373000000 -2.1225832 -128.55608 -123.83908 79.634377 -119.75032 80.66539 -2.261699 -46.443878
1382500000 -2.0974128 -154.7417 -111.72849 135.78809 -116.64259 -15.43062 -2.2507703 -72.444954
1392000000 -2.1166258 179.21056 -119.4174 101.79334 -115.55103 -127.03915 -2.254379 -98.512039
1401500000 -2.2127225 152.02715 -115.35273 -20.103758 -116.2606 -117.90981 -2.2740815 -124.73857
1411000000 -2.2788796 123.91832 -114.48965 45.96611 -117.62313 -105.43586 -2.3073332 -151.17543
1420500000 -2.2610018 96.318649 -121.75724 68.752075 -132.6075 -36.058498 -2.349777 -177.8213
1430000000 -2.2609923 69.258766 -127.50546 64.023911 -116.12 32.833782 -2.3948033 155.38068
1439500000 -2.3130722 41.635174 -120.52895 157.50056 -114.90634 135.95215 -2.4336989 128.52536
1449000000 -2.304405 13.694296 -133.91579 -153.02321 -120.35471 -132.88446 -2.4578273 101.70746
1458500000 -2.2053916 -13.048052 -138.9641 -29.531788 -116.40361 51.339344 -2.4616745 75.000427
1468000000 -2.1311519 -38.594952 -123.34412 -83.673737 -113.10073 12.112577 -2.4463558 48.448853
1477500000 -2.1444573 -64.48938 -124.71438 72.050064 -114.67751 17.75421 -2.4197738 22.071199
1487000000 -2.1581199 -90.963509 -115.13274 -176.75592 -118.97491 45.055241 -2.3924878 -4.1222053
1496500000 -2.0975475 -116.7925 -113.65648 -83.924583 -118.21922 105.05502 -2.3720584 -30.12776
1506000000 -2.0608509 -141.95738 -129.97821 -165.34433 -119.77613 -136.63197 -2.3594978 -55.970955
1515500000 -2.1226692 -167.78645 -120.55575 -13.995412 -122.02857 -84.416725 -2.3534212 -81.734573
1525000000 -2.185446 165.33737 -116.87381 110.48591 -121.84051 -97.467316 -2.3541539 -107.51608
1534500000 -2.1822724 138.44911 -123.94868 -89.744781 -130.89626 -107.56139 -2.3644729 -133.40958
1544000000 -2.2007923 111.80083 -117.77787 -126.85306 -120.28696 -25.765425 -2.387588 -159.4758
1553500000 -2.2776465 84.434685 -119.75779 -89.236244 -118.98404 -139.41998 -2.4221668 174.26779
1563000000 -2.3146691 56.397652 -119.39781 103.59644 -140.24199 89.648254 -2.4618771 147.83763
1572500000 -2.2738202 28.829891 -115.11643 125.55957 -121.01819 -50.980087 -2.497895 121.28434
1582000000 -2.2378526 1.9105784 -119.63606 173.95155 -117.75013 164.07719 -2.5216551 94.691498
1591500000 -2.2281947 -24.882162 -119.86531 -114.912 -127.02734 -57.637249 -2.5265913 68.138062
1601000000 -2.2002041 -51.46764 -115.02378 -30.166529 -133.13376 -153.70421 -2.5128367 41.666447
1610500000 -2.172682 -77.662872 -117.53476 -70.550743 -128.76044 -75.6782 -2.4892588 15.289648
1620000000 -2.1657181 -103.76752 -122.11569 142.68878 -125.20245 -33.915722 -2.467628 -10.992735
1629500000 -2.1453192 -129.87514 -120.15746 18.264151 -123.44318 -80.163055 -2.4554725 -37.16938
1639000000 -2.1317534 -155.82133 -118.7535 113.85935 -126.27306 143.22147 -2.4515359 -63.246964
1648500000 -2.1798301 177.92714 -114.68537 -63.753979 -117.25184 -152.76866 -2.4512305 -89.261185
1658000000 -2.2490606 150.84656 -114.94063 -20.451075 -114.65047 -147.94945 -2.4516706 -115.26128
1667500000 -2.2699819 123.46879 -123.92997 94.372505 -122.84075 -102.78307 -2.4541044 -141.30902
1677000000 -2.2947052 96.226273 -126.12398 154.5947 -118.83794 -10.735501 -2.4628608 -167.47037
1686500000 -2.3791914 68.462936 -115.95075 -135.73422 -119.52316 47.330917 -2.4837401 166.19225
1696000000 -2.4214838 40.007446 -112.3504 -162.33244 -120.97142 38.970234 -2.5181811 139.66035
1705500000 -2.3693788 11.875195 -122.41047 35.78109 -123.27171 -50.469597 -2.5603545 112.96948
1715000000 -2.3560126 -15.408155 -116.91606 75.975227 -114.84834 -88.723236 -2.5960822 86.186188
1724500000 -2.4006579 -42.509743 -118.44081 113.92107 -118.83197 -29.382368 -2.6131923 59.371544
1734000000 -2.3798258 -69.875229 -124.25401 106.24824 -127.87825 -0.47313458 -2.6095595 32.574093
1743500000 -2.3146937 -96.816093 -114.90269 -88.979515 -121.06155 -19.270613 -2.5933812 5.8413391
1753000000 -2.3069589 -122.97736 -119.54108 -142.43703 -121.97501 -177.55975 -2.5748057 -20.789103
1762500000 -2.3355985 -149.1935 -130.02766 81.241196 -119.88366 -64.560104 -2.5603461 -47.30788
1772000000 -2.3334105 -175.98447 -111.63779 63.166485 -112.59062 -104.29598 -2.5522625 -73.728806
1781500000 -2.3274624 157.0504 -113.18871 109.22079 -124.75719 -15.274473 -2.5497527 -100.05997
1791000000 -2.3894739 130.17226 -126.77026 -22.056831 -115.66278 59.86256 -2.5495753 -126.30646
1800500000 -2.4708905 103.07272 -112.92916 -20.963102 -117.21653 -179.05333 -2.5496633 -152.505
1810000000 -2.4873145 75.265251 -131.69388 -129.12648 -122.01133 -146.36253 -2.5536535 -178.73465
1819500000 -2.5004709 46.990364 -122.21806 171.08679 -118.28553 2.7802331 -2.5705876 154.92859
1829000000 -2.5514376 19.061071 -117.11713 143.89404 -122.04655 -63.312912 -2.6049752 128.44354
1838500000 -2.5585876 -8.4803991 -121.34219 -118.60987 -115.63017 -101.93175 -2.6498528 101.81283
1848000000 -2.5087175 -35.962406 -116.2365 -2.6202321 -125.80782 -73.915787 -2.6903503 75.054489
1857500000 -2.4772282 -63.21394 -125.29052 47.417774 -119.1458 -103.90442 -2.7132452 48.212498
1867000000 -2.4898024 -90.058205 -129.38914 -28.905302 -116.77184 -138.47693 -2.7152293 21.362083
1876500000 -2.48227 -116.49883 -129.35345 162.19827 -123.18225 -111.03356 -2.700774 -5.4112048
1886000000 -2.4077005 -142.65816 -127.7485 136.27409 -115.21838 -35.520302 -2.6790748 -32.049702
1895500000 -2.3547418 -168.84364 -112.03922 -135.63394 -117.19117 -39.68029 -2.6600106 -58.534012
1905000000 -2.4024339 164.8566 -116.87783 -7.254355 -118.79202 -72.883904 -2.6490543 -84.86541
1914500000 -2.4507701 138.4785 -114.69868 51.288555 -118.34637 -107.29829 -2.6452816 -111.04727
1924000000 -2.4303045 111.94825 -115.80671 92.642792 -117.24928 -151.52887 -2.6428018 -137.10025
1933500000 -2.4393072 85.140503 -130.36378 -118.93141 -122.95991 -85.460083 -2.6398833 -163.06479
1943000000 -2.5261407 57.748203 -116.94214 -88.49894 -130.72812 -85.594765 -2.6403825 170.99867
1952500000 -2.5909033 29.904819 -120.05213 -88.677437 -122.42379 -67.252586 -2.6521273 145.02336
1962000000 -2.5561454 2.4188607 -112.98648 -18.294643 -122.44031 -45.945503 -2.6800721 118.93451
1971500000 -2.5032067 -24.636404 -124.08213 110.28176 -123.93376 -50.11718 -2.7230284 92.670479
1981000000 -2.5318699 -51.869556 -120.25593 130.18503 -122.96906 149.53409 -2.7710857 66.207047
1990500000 -2.5587044 -79.150024 -118.05752 41.781727 -115.82538 22.690611 -2.8094876 39.576469
2000000000 -2.4836731 -105.78432 -109.27791 -52.937202 -123.05929 -63.209877 -2.825767 12.846438
