!Keysight Technologies,N5242B,MY48420967,A.15.65.19
!Date: Friday, December 16, 2022 21:06:19
!Correction: S11(C  2-Port  ) 
!S21(C  2-Port  ) 
!S12(C  2-Port  ) 
!S22(C  2-Port  ) 
!S2P File: Measurements: S11, S21, S12, S22:
# Hz S  dB   R 50
100000000 -0.29101354 -101.19254 -116.39354 118.73803 -118.51113 129.2384 -0.30415732 -97.534378
109500000 -0.3624773 -127.76507 -122.37632 -71.106789 -122.85025 127.24735 -0.37808883 -124.37604
119000000 -0.5109396 -155.52802 -117.35478 -33.510086 -138.64188 57.612709 -0.46859571 -151.36699
128500000 -0.64457333 175.86946 -118.26247 -110.73187 -119.70134 4.0010595 -0.56926692 -178.46042
138000000 -0.73304844 147.65337 -132.99257 112.3795 -119.01531 70.73761 -0.67254633 154.38802
147500000 -0.80079722 119.73071 -118.001 102.28452 -122.29983 100.3661 -0.76814955 127.24421
157000000 -0.84486908 91.537857 -126.54977 -136.8074 -128.58925 116.21119 -0.84228694 100.2206
166500000 -0.85011727 63.666496 -120.0053 16.200226 -115.25273 15.922949 -0.87984335 73.455406
176000000 -0.81258219 36.559029 -113.94312 -72.25795 -124.76283 38.121399 -0.87346035 47.036503
185500000 -0.75908196 9.7591801 -125.76236 -64.779007 -126.55202 -179.23285 -0.82836169 20.95281
195000000 -0.70232564 -16.836807 -121.43056 107.4597 -120.62186 -22.35371 -0.76315713 -4.9385262
204500000 -0.66361141 -43.299976 -117.81536 -146.32074 -116.79961 11.340515 -0.70389152 -30.871721
214000000 -0.68314654 -70.020584 -118.76741 -85.220985 -117.39153 99.260559 -0.67411304 -57.070908
223500000 -0.71347904 -97.086227 -127.53958 -49.765614 -115.03517 -1.2110074 -0.68776423 -83.657349
233000000 -0.72548336 -124.36586 -113.64545 4.2602129 -121.35384 45.125656 -0.74140739 -110.62186
242500000 -0.80265844 -151.87416 -132.21573 -19.783674 -120.12757 -19.341923 -0.81786215 -137.84148
252000000 -0.92903954 -179.89046 -115.09342 -174.94902 -106.65736 59.934418 -0.89608055 -165.15691
261500000 -0.99225813 151.62448 -111.49483 -124.49332 -111.55099 4.6688128 -0.96439523 167.55975
271000000 -0.99864757 123.50441 -111.56863 -100.71387 -133.70326 94.12178 -1.0198194 140.38422
280500000 -1.027208 96.010635 -115.02908 15.278804 -129.80174 43.436314 -1.0638433 113.36455
290000000 -1.0652808 68.485451 -116.37489 68.059395 -115.2867 -54.061745 -1.0937546 86.547852
299500000 -1.0317903 40.938358 -122.69457 -147.46541 -115.93761 -62.071655 -1.1003647 59.976402
309000000 -0.94585079 14.048969 -124.76507 -81.175789 -115.75906 31.793486 -1.0770112 33.652031
318500000 -0.91179967 -12.186753 -115.19759 -103.88366 -113.7279 141.04993 -1.0274854 7.5262566
328000000 -0.92076075 -38.631062 -117.79486 172.97612 -116.68693 -161.1449 -0.9679842 -18.538767
337500000 -0.90842915 -65.772423 -123.26749 100.54883 -116.4552 -70.257988 -0.92408007 -44.733032
347000000 -0.89814216 -92.937965 -114.23884 41.255302 -117.79608 32.203709 -0.91744208 -71.219948
356500000 -0.93897069 -119.80787 -111.37028 -132.58047 -114.96748 92.061821 -0.95624346 -98.076767
366000000 -1.0223353 -147.19218 -120.81403 98.598541 -118.68939 46.888535 -1.0289122 -125.25787
375500000 -1.0927309 -175.43456 -117.81017 -25.627689 -114.68493 24.237007 -1.110725 -152.61258
385000000 -1.1233659 156.32181 -124.44421 -176.46484 -124.16951 -44.021793 -1.1773012 -179.94403
394500000 -1.1536466 128.81479 -116.48709 127.16867 -122.11775 -87.231865 -1.2168484 152.90695
404000000 -1.1889254 101.66485 -122.15411 -50.975468 -126.2298 34.989853 -1.2334474 126.02171
413500000 -1.1906575 74.231232 -131.91209 -82.173851 -120.90794 -133.80209 -1.2367345 99.412773
423000000 -1.1568599 47.003777 -112.09896 9.1033287 -126.82179 -60.639526 -1.2330557 73.057213
432500000 -1.1075947 20.785135 -116.23251 105.8017 -114.0966 -86.736183 -1.220786 46.919594
442000000 -1.0641648 -4.976048 -113.52893 33.870712 -120.22284 -40.343861 -1.1958128 20.970339
451500000 -1.0464777 -31.241142 -119.42183 -110.80029 -121.24436 25.417835 -1.1585594 -4.8408089
461000000 -1.0375432 -57.880581 -115.52307 -111.65324 -121.52169 85.076874 -1.1170435 -30.605606
470500000 -1.0282223 -84.25293 -132.12244 39.420372 -120.1731 -95.441734 -1.088275 -56.479401
480000000 -1.046677 -110.58773 -111.63707 40.870323 -120.81327 -124.67738 -1.0892026 -82.61441
489500000 -1.1039116 -137.66801 -127.15807 -129.16193 -117.65921 -171.56047 -1.1279942 -109.09652
499000000 -1.1634829 -165.39084 -114.48624 120.3661 -116.8569 -55.75061 -1.1959281 -135.88188
508500000 -1.1951444 167.06512 -124.55043 98.667671 -119.60564 40.052643 -1.2679385 -162.81122
518000000 -1.2175014 139.86194 -134.38887 -170.00471 -116.41029 63.323704 -1.3180218 170.32837
527500000 -1.2469206 112.57384 -126.04443 -89.619751 -121.31332 76.143974 -1.3331416 143.69028
537000000 -1.2596233 85.323631 -132.41992 -76.744797 -118.04089 -162.78648 -1.3199736 117.34445
546500000 -1.2333409 58.608536 -114.43538 89.467697 -123.25281 -19.097099 -1.2962064 91.269386
556000000 -1.1831778 32.420868 -127.73196 -164.09077 -116.05011 55.820721 -1.2765291 65.388649
565500000 -1.1431603 6.4084425 -121.76026 -3.8068445 -122.10564 41.345661 -1.2664843 39.620941
575000000 -1.1233981 -19.593994 -122.20956 -30.564951 -113.44119 178.56381 -1.2595891 13.918525
584500000 -1.1056412 -45.724998 -119.53925 4.5736241 -117.03931 -20.762362 -1.2471017 -11.756084
594000000 -1.0910386 -72.131142 -116.12984 126.77657 -115.98534 64.311028 -1.2281164 -37.453053
603500000 -1.1002463 -98.680077 -117.93827 -148.01671 -119.35583 -3.6052339 -1.2085679 -63.242599
613000000 -1.1412891 -125.44988 -122.78654 153.86604 -129.96101 -23.73258 -1.2013419 -89.271492
622500000 -1.1985724 -152.81699 -119.82879 -63.408451 -124.69219 30.527374 -1.2233971 -115.64868
632000000 -1.2326992 179.13907 -115.53789 17.096693 -120.95387 98.564163 -1.2761675 -142.36972
641500000 -1.2623923 151.13245 -125.98073 101.78519 -134.51933 -15.443235 -1.3444442 -169.33328
651000000 -1.2956607 123.70025 -117.64314 123.02544 -130.95137 102.381 -1.4016374 163.63188
660500000 -1.3211983 96.203178 -118.07728 -139.66618 -120.09892 45.130726 -1.429651 136.71631
670000000 -1.320852 68.440094 -112.876 -40.779861 -117.3928 66.763748 -1.4262985 110.05844
679500000 -1.2791781 41.26804 -126.16505 168.31313 -131.79192 168.55977 -1.4032363 83.701454
689000000 -1.2369689 15.087948 -126.71836 120.45144 -131.33331 116.50448 -1.3756596 57.573803
698500000 -1.2237298 -11.016811 -122.30912 69.973961 -130.12953 14.293597 -1.356609 31.547407
708000000 -1.2126026 -37.94854 -122.73527 177.7079 -118.18414 34.747486 -1.3507731 5.5083013
717500000 -1.1967177 -64.997795 -119.65087 -149.59552 -118.20414 -34.860081 -1.3533205 -20.609331
727000000 -1.2005961 -91.329803 -118.05544 105.7925 -119.83372 45.357571 -1.3583045 -46.850956
736500000 -1.2496369 -118.10453 -117.4155 112.99012 -120.83064 -135.03203 -1.3635346 -73.244629
746000000 -1.3288052 -146.37602 -123.81179 -178.78136 -112.39661 -77.844032 -1.3741522 -99.831451
755500000 -1.3610811 -174.88928 -116.309 -48.668743 -127.18696 -28.062441 -1.3969911 -126.66884
765000000 -1.3720815 157.39584 -118.05281 -63.274956 -130.20905 -29.074551 -1.4371353 -153.78046
774500000 -1.4448199 129.51648 -128.72067 78.466583 -122.29916 -36.881809 -1.4896182 178.88921
784000000 -1.5039059 100.75797 -131.80692 106.97385 -113.76857 -92.864296 -1.5393251 151.4771
793500000 -1.471333 72.410667 -117.97263 156.35971 -129.24675 -156.17412 -1.5695461 124.14869
803000000 -1.4272983 45.553181 -129.25247 11.536756 -125.74114 -130.85226 -1.5741067 97.043762
812500000 -1.4254181 19.06217 -115.05489 -3.2310019 -120.65925 175.15906 -1.5592463 70.233215
822000000 -1.4167557 -8.0014 -116.28638 33.56435 -121.45623 14.077533 -1.5381612 43.692574
831500000 -1.3660681 -34.819363 -126.40441 7.3182292 -116.51202 64.089539 -1.5219326 17.338442
841000000 -1.3371135 -60.983356 -114.90511 126.54419 -114.25105 -111.68462 -1.5154195 -8.9370422
850500000 -1.3720851 -87.30854 -115.9731 -100.7644 -128.36847 -0.085501775 -1.5150595 -35.243103
860000000 -1.4079078 -114.31565 -122.56033 83.839867 -128.25351 45.464821 -1.5176361 -61.656898
869500000 -1.4271804 -141.70422 -122.06279 26.262842 -132.99069 125.46425 -1.5229473 -88.219048
879000000 -1.4745082 -169.14352 -114.99593 1.7434995 -119.51767 -132.24608 -1.5342857 -114.94579
888500000 -1.5283741 163.18697 -131.13644 -32.324379 -124.51362 -150.54848 -1.5566372 -141.84648
898000000 -1.5662491 135.22359 -125.03661 -52.970467 -126.30333 -26.666523 -1.5912607 -168.90474
907500000 -1.5936654 107.30258 -122.804 -103.842 -121.77187 -32.887989 -1.6317129 163.93628
917000000 -1.5995071 79.612694 -113.67636 -18.941467 -128.54407 30.41666 -1.6673925 136.76727
926500000 -1.5756769 52.433846 -122.97696 89.348167 -123.39391 67.09005 -1.6892208 109.71184
936000000 -1.5297519 25.95266 -122.68743 49.549084 -129.2491 73.86161 -1.6932722 82.905533
945500000 -1.4941292 -0.206081 -113.13084 112.84912 -119.53622 -66.387749 -1.6802341 56.42757
955000000 -1.4723709 -26.301603 -118.77097 -35.699631 -118.87093 -44.528782 -1.6561692 30.259647
964500000 -1.4380854 -52.276276 -128.71445 -30.633121 -114.85977 -5.2993398 -1.6315132 4.3194728
974000000 -1.4237432 -78.033005 -132.73184 -143.77763 -119.98381 90.385719 -1.6133392 -21.484934
983500000 -1.4432364 -103.7474 -112.51987 128.53671 -123.80556 128.55748 -1.6008666 -47.260204
993000000 -1.4638411 -130.12476 -115.96002 88.18737 -125.61521 169.88493 -1.5926687 -73.112221
1002500000 -1.4926269 -157.23329 -118.70045 27.053871 -114.75978 -60.538864 -1.5911752 -99.111244
1012000000 -1.5220332 175.74629 -122.31894 -38.301704 -118.70071 -61.123829 -1.6024776 -125.28285
1021500000 -1.5478982 148.84581 -125.98053 45.272057 -128.01534 113.88032 -1.6268777 -151.61975
1031000000 -1.5905513 121.31691 -119.74687 172.92448 -118.5837 -0.012015112 -1.6615237 -178.11343
1040500000 -1.6162136 93.218391 -112.37719 170.34621 -120.56597 -111.90883 -1.6999779 155.2562
1050000000 -1.5926526 65.787636 -113.57108 -118.32854 -120.67949 -41.799664 -1.7345451 128.55814
1059500000 -1.5484232 39.534031 -127.19125 169.03568 -113.69193 -88.262726 -1.7572773 101.9167
1069000000 -1.5192444 13.246886 -119.93473 64.714348 -110.77763 -33.741905 -1.7612367 75.467674
1078500000 -1.507816 -13.631604 -118.57778 26.309891 -124.12032 159.96179 -1.7450337 49.294456
1088000000 -1.4746591 -39.830967 -116.28636 174.63107 -120.30499 -7.6781425 -1.7162604 23.402504
1097500000 -1.4237026 -65.014755 -115.89393 -103.2156 -119.34572 -101.93489 -1.6856661 -2.2653193
1107000000 -1.4259684 -90.648468 -117.40345 -58.815456 -114.66799 -61.152134 -1.660967 -27.811199
1116500000 -1.4739873 -117.45274 -118.56207 60.245972 -132.08763 27.935291 -1.6451906 -53.360203
1126000000 -1.4931551 -144.44487 -117.50344 93.91819 -115.20666 -100.41411 -1.6387978 -79.042564
1135500000 -1.4950353 -170.96344 -119.67691 -168.22055 -121.12239 71.561852 -1.6429034 -104.95199
1145000000 -1.5335869 161.98701 -122.69466 -178.61275 -120.51901 -42.920555 -1.6592746 -131.13019
1154500000 -1.6103016 133.55809 -114.27792 -127.04488 -127.45408 150.13441 -1.6890161 -157.57164
1164000000 -1.6604149 104.92359 -114.8592 -10.949041 -116.67702 -22.168396 -1.7293481 175.75832
1173500000 -1.6424904 77.23806 -128.24515 -52.057777 -120.57851 -25.959793 -1.773729 148.91092
1183000000 -1.6241915 49.774624 -118.12251 124.16429 -112.64038 108.35241 -1.8133026 121.96413
1192500000 -1.6437984 21.859354 -128.81767 153.32225 -121.91407 -13.187641 -1.8389821 95.01503
1202000000 -1.6283884 -5.7084308 -119.6909 -88.377556 -115.78469 -109.93085 -1.8446323 68.170845
1211500000 -1.5623366 -32.204273 -117.81012 -40.193737 -116.43759 66.606697 -1.8311936 41.519196
1221000000 -1.5314656 -58.355785 -141.59988 137.05803 -116.80012 -50.260246 -1.8060919 15.101316
1230500000 -1.5667109 -85.076248 -112.64941 161.0305 -121.67727 82.256226 -1.7769859 -11.100792
1240000000 -1.5968715 -112.08891 -129.81227 -29.973667 -137.60341 -8.7220001 -1.7515152 -37.179142
1249500000 -1.5897635 -138.87624 -128.63295 176.82304 -119.82895 -75.096436 -1.7353715 -63.268822
1259000000 -1.607008 -165.89484 -126.86768 -56.468964 -119.23714 -41.417389 -1.7340168 -89.499329
1268500000 -1.6746706 166.33861 -116.17412 4.9249501 -130.2408 73.272072 -1.748865 -115.95965
1278000000 -1.7401807 138.09131 -121.92223 -60.913219 -117.10441 -97.464241 -1.7784277 -142.68777
1287500000 -1.7804149 109.65113 -114.04565 -151.96191 -128.53937 112.53823 -1.8198498 -169.68114
1297000000 -1.8109759 81.101212 -114.95032 -149.07196 -114.79469 2.2370231 -1.8679115 163.11464
1306500000 -1.8196007 52.857277 -121.05208 161.22382 -117.39895 -12.964769 -1.914396 135.79744
1316000000 -1.8013475 25.147789 -121.21655 60.24987 -111.43561 4.0534501 -1.9491765 108.47412
1325500000 -1.7826203 -2.3708665 -116.47523 111.03401 -112.70207 -31.118879 -1.9641703 81.242538
1335000000 -1.7571318 -29.575068 -123.18722 108.68263 -121.41225 154.5197 -1.9579777 54.179577
1344500000 -1.7104242 -55.912556 -117.93804 -138.15146 -128.32916 128.84935 -1.9360766 27.342747
1354000000 -1.6892494 -81.808258 -118.5347 -103.0571 -120.25012 -56.060013 -1.9085938 0.76364195
1363500000 -1.7166033 -108.22153 -115.40985 -90.692978 -116.58456 -79.907928 -1.8828064 -25.565481
1373000000 -1.7274392 -134.97272 -120.22153 179.39682 -116.1245 23.387152 -1.86262 -51.719807
1382500000 -1.702439 -161.21782 -119.99276 169.97354 -116.34188 -67.683945 -1.8518332 -77.832169
1392000000 -1.7216823 172.56926 -126.15861 74.923515 -117.00136 68.202454 -1.8550358 -104.02834
1401500000 -1.808266 145.18427 -117.4379 168.92014 -114.22047 -94.846825 -1.8743044 -130.39017
1411000000 -1.8620456 117.02361 -133.44716 -139.54688 -120.22276 -27.029566 -1.9062607 -156.95714
1420500000 -1.8404518 89.488701 -125.25855 -7.4218245 -117.77775 77.017136 -1.9458742 176.28242
1430000000 -1.8403102 62.439411 -117.27438 129.29317 -124.97055 32.800877 -1.9867456 149.39604
1439500000 -1.887189 34.830364 -118.92339 153.14594 -117.95234 -147.85078 -2.0207908 122.48906
1449000000 -1.873805 7.0625005 -130.71136 10.609294 -117.8466 -83.18277 -2.0399673 95.656532
1458500000 -1.7818158 -19.446026 -114.74652 19.146549 -113.49904 -69.11956 -2.0402975 68.964195
1468000000 -1.7195395 -44.884216 -114.3459 45.970421 -130.00842 -32.668137 -2.0235562 42.445099
1477500000 -1.7361146 -70.765251 -119.6299 -31.611847 -116.68924 -100.50499 -1.9975702 16.106749
1487000000 -1.7475123 -97.175926 -120.09304 -158.61673 -108.95947 -43.202526 -1.9720676 -10.046195
1496500000 -1.690518 -122.90786 -116.33492 -131.88351 -124.13783 156.87422 -1.9531502 -36.01601
1506000000 -1.6586518 -148.09248 -122.42362 127.38311 -124.70567 -176.70145 -1.9417336 -61.831161
1515500000 -1.716938 -174.04811 -123.62538 31.309052 -125.38553 -8.9413624 -1.9362888 -87.57798
1525000000 -1.7696091 159.00487 -115.34382 25.988216 -121.77627 102.86378 -1.9371234 -113.35252
1534500000 -1.7603941 132.11073 -119.71893 -52.105652 -125.82503 87.631447 -1.9467722 -139.24985
1544000000 -1.7767396 105.40013 -116.78447 -123.1534 -117.5882 61.081493 -1.9682016 -165.32668
1553500000 -1.845306 77.957306 -120.59779 -44.774902 -126.06503 -44.94862 -1.9996586 168.41173
1563000000 -1.8720037 49.955326 -118.3159 71.532951 -119.40958 -8.0375204 -2.0346649 141.99565
1572500000 -1.830615 22.500345 -112.2448 146.74957 -130.24539 -71.743248 -2.0650883 115.48358
1582000000 -1.7994004 -4.3361216 -122.80033 84.021477 -119.97009 -112.56599 -2.0835533 88.956955
1591500000 -1.792539 -31.069668 -128.01811 -55.475147 -132.97797 -98.181587 -2.0848207 62.486504
1601000000 -1.7674555 -57.589226 -113.47898 -41.435902 -127.26114 84.744873 -2.0696931 36.101593
1610500000 -1.7443544 -83.761642 -115.57091 -13.77134 -119.18311 -91.03817 -2.0464544 9.8040686
1620000000 -1.7395699 -109.89232 -124.53777 -43.984413 -126.34589 -20.983906 -2.0259266 -16.409678
1629500000 -1.7197202 -136.05276 -120.25569 115.58782 -124.43473 -55.936478 -2.0146933 -42.529995
1639000000 -1.7083147 -162.11736 -120.25172 119.16801 -119.74389 -76.00898 -2.0114765 -68.562904
1648500000 -1.7549404 171.42912 -117.44765 140.28752 -119.96774 -171.86664 -2.0118957 -94.547882
1658000000 -1.8152759 144.13927 -120.73666 3.8205774 -124.77969 -138.94545 -2.0128775 -120.53995
1667500000 -1.8287255 116.59892 -117.99402 34.46106 -121.92884 44.004543 -2.0153964 -146.60799
1677000000 -1.8504983 89.168686 -125.92885 103.95667 -116.35374 -55.740894 -2.0233037 -172.82219
1686500000 -1.9272256 61.189816 -121.77449 162.43155 -123.65361 -88.190666 -2.0423658 160.76288
1696000000 -1.9572805 32.621777 -124.32206 33.923279 -116.71354 -60.263615 -2.0740802 134.1427
1705500000 -1.9054534 4.475389 -123.58689 -48.435833 -124.44984 -109.79001 -2.1127381 107.36982
1715000000 -1.90333 -22.845226 -118.58353 66.575943 -127.94479 146.79205 -2.1446269 80.514877
1724500000 -1.9484698 -50.02824 -120.72921 155.30315 -117.81816 -75.25251 -2.1581328 53.6311
1734000000 -1.9232615 -77.458183 -123.79558 44.029072 -111.75616 -45.194523 -2.1522596 26.755398
1743500000 -1.8675609 -104.43356 -116.62679 -70.173248 -123.6745 -92.764351 -2.1360588 -0.066857882
1753000000 -1.8707495 -130.6974 -123.43063 50.961491 -120.29528 -154.43001 -2.1189995 -26.793293
1762500000 -1.8978237 -157.12775 -134.68315 46.202011 -116.31395 -106.81223 -2.1062326 -53.412476
1772000000 -1.8912704 175.85098 -116.09032 63.021042 -121.20963 99.454079 -2.0995553 -79.942291
1781500000 -1.888468 148.67207 -119.00594 94.092041 -121.23886 27.449232 -2.0989785 -106.39791
1791000000 -1.9530121 121.55691 -117.22488 -47.772972 -112.54935 -32.055058 -2.1016703 -132.78743
1800500000 -2.0223751 94.20771 -117.05376 -81.048347 -115.60777 -34.846016 -2.1044316 -159.14998
1810000000 -2.0237257 66.169716 -116.43182 -7.6266766 -115.34824 -150.68651 -2.1096592 174.4315
1819500000 -2.0358841 37.768116 -115.88963 60.34304 -123.64883 -98.530312 -2.1262498 147.88287
1829000000 -2.0848083 9.8434076 -124.00849 -103.47619 -124.59383 -90.931686 -2.159008 121.18138
1838500000 -2.0818253 -17.653124 -115.61211 65.149506 -119.47205 -42.883396 -2.2010376 94.349152
1848000000 -2.0308056 -45.081642 -125.02532 -61.389133 -120.57621 134.42012 -2.2370501 67.417427
1857500000 -2.008152 -72.248985 -118.63092 26.392515 -113.60017 143.40097 -2.2546186 40.429653
1867000000 -2.0259097 -98.982086 -124.35318 34.958763 -121.84982 -168.1965 -2.2519901 13.45926
1876500000 -2.0166161 -125.30792 -114.32393 121.66332 -149.15053 -67.804749 -2.2350731 -13.409016
1886000000 -1.9418514 -151.41385 -116.83015 -139.40747 -115.44486 12.90031 -2.2132778 -40.118813
1895500000 -1.8974795 -177.6311 -115.51381 -145.47113 -132.63635 -173.70525 -2.196151 -66.652618
1905000000 -1.9515692 156.03023 -115.05267 22.313169 -116.54823 101.74427 -2.1883752 -93.020103
1914500000 -1.9913903 129.62814 -122.51147 15.837568 -112.17999 -123.26263 -2.1880305 -119.23146
1924000000 -1.9618256 103.03789 -119.6231 41.732277 -119.65763 -83.513123 -2.1883914 -145.31772
1933500000 -1.9708949 76.13662 -119.38896 55.792824 -114.43288 -77.816666 -2.1871476 -171.32591
1943000000 -2.0524218 48.681168 -121.47006 -78.098022 -118.16953 -38.016048 -2.1879618 162.67944
1952500000 -2.1025968 20.896763 -125.73174 -154.54008 -123.28511 101.17037 -2.1988473 136.63698
1962000000 -2.058955 -6.4271436 -117.17937 -3.0821302 -135.20351 75.045441 -2.2248175 110.48181
1971500000 -2.0099807 -33.372112 -112.964 92.140251 -129.60095 -102.2624 -2.2637548 84.163589
1981000000 -2.0442908 -60.525837 -120.81394 169.76723 -119.23749 -74.14286 -2.3056927 57.66901
1990500000 -2.0664828 -87.621338 -114.54763 -130.74492 -124.48078 0.20913795 -2.336201 31.039778
2000000000 -1.9902506 -114.03085 -124.88803 -59.48761 -118.68027 55.350719 -2.3441494 4.3485603
