!Keysight Technologies,N5242B,MY48420967,A.15.65.19
!Date: Friday, December 16, 2022 21:56:52
!Correction: S11(C  2-Port  ) 
!S21(C  2-Port  ) 
!S12(C  2-Port  ) 
!S22(C  2-Port  ) 
!S2P File: Measurements: S11, S21, S12, S22:
# Hz S  dB   R 50
100000000 -0.30686596 -101.26414 -121.80704 137.4856 -114.64516 32.313492 -0.31749192 -97.595192
109500000 -0.37810662 -127.82505 -114.02888 -74.571747 -118.92436 124.78014 -0.39085227 -124.4257
119000000 -0.52607048 -155.57686 -114.73004 -25.677092 -124.96703 70.506729 -0.48068294 -151.4057
128500000 -0.65902054 175.83011 -117.84612 17.72208 -127.83701 -69.031136 -0.58073545 -178.4886
138000000 -0.74676746 147.62367 -130.73 176.21909 -124.06316 92.552422 -0.68340617 154.36885
147500000 -0.81380337 119.70909 -114.52172 95.724777 -114.89751 31.365759 -0.77849573 127.23249
157000000 -0.85737324 91.521866 -130.45238 98.574753 -110.91726 54.768997 -0.85227031 100.21367
166500000 -0.86225045 63.655048 -114.68839 -46.130974 -121.27787 53.171474 -0.88965964 73.450417
176000000 -0.82454449 36.549904 -115.60548 -24.428944 -117.02941 -139.64333 -0.88334846 47.031391
185500000 -0.77112907 9.7506285 -119.83523 3.9055462 -122.56281 35.074554 -0.83856267 20.945833
195000000 -0.7147944 -16.846832 -135.4705 80.896034 -117.63864 35.767521 -0.77389848 -4.9487724
204500000 -0.67676342 -43.31144 -121.216 -165.05661 -118.04277 77.879799 -0.71539593 -30.887041
214000000 -0.69717938 -70.035599 -120.87145 -99.034714 -112.47795 62.363651 -0.68662953 -57.092125
223500000 -0.72878522 -97.106483 -119.24063 27.581404 -123.04557 -107.72327 -0.70146364 -83.6856
233000000 -0.74210632 -124.39072 -115.72147 -13.489416 -120.56051 -48.532528 -0.75639594 -110.65742
242500000 -0.82066679 -151.90393 -119.30637 150.59695 -116.27895 59.178131 -0.83414984 -137.88486
252000000 -0.94861734 -179.9254 -113.47047 153.19374 -115.6767 91.629181 -0.91368252 -165.20717
261500000 -1.013078 151.5834 -118.46633 -125.00764 -116.65941 46.012005 -0.98309582 167.50356
271000000 -1.0204217 123.4578 -109.49866 -100.60612 -122.74998 2.5393341 -1.0394163 140.32243
280500000 -1.0498879 95.961662 -126.22293 17.739939 -122.21554 14.28476 -1.0841962 113.29784
290000000 -1.088727 68.433998 -123.56116 118.75859 -113.21648 -33.636684 -1.1148077 86.478043
299500000 -1.0559636 40.885284 -117.92831 176.01471 -115.29925 2.7946527 -1.1219438 59.906826
309000000 -0.97034019 13.99784 -111.2166 -143.09334 -110.1993 18.697258 -1.0988712 33.583439
318500000 -0.93687892 -12.235006 -124.32051 -91.132439 -120.2746 -63.73835 -1.0497208 7.4593163
328000000 -0.94660687 -38.675587 -115.92755 29.058409 -118.36879 -105.44303 -0.99070668 -18.60136
337500000 -0.93495101 -65.812271 -116.36108 171.20392 -117.5715 -28.857635 -0.94731963 -44.790413
347000000 -0.92521608 -92.971657 -113.75894 125.20541 -115.34437 40.794243 -0.94113958 -71.270157
356500000 -0.96652132 -119.83408 -125.96859 -67.246346 -112.2444 66.314682 -0.98041338 -98.118889
366000000 -1.050441 -147.21173 -118.18352 -111.06959 -113.22028 -170.88853 -1.0533545 -125.29175
375500000 -1.1212217 -175.44756 -120.04238 8.6864843 -117.21398 163.80911 -1.1350609 -152.63774
385000000 -1.1514894 156.31499 -119.70191 18.197819 -117.96348 -108.87369 -1.2014081 -179.96063
394500000 -1.18134 128.81369 -113.32899 125.31022 -129.50197 -70.840378 -1.2406013 152.89752
404000000 -1.2163516 101.66891 -115.87321 -132.69987 -130.44991 -44.026009 -1.2567341 126.01949
413500000 -1.217748 74.239067 -122.82926 -0.19909465 -115.87191 102.14091 -1.2596143 99.416565
423000000 -1.1834294 47.013863 -119.99857 32.637089 -119.8613 119.53056 -1.255554 73.066528
432500000 -1.1334398 20.798573 -120.68022 36.045536 -126.58533 -18.066952 -1.2429779 46.934086
442000000 -1.0898274 -4.9602027 -119.37785 -46.11718 -120.73722 -64.561699 -1.2177742 20.988312
451500000 -1.0723051 -31.2239 -122.40316 -71.644104 -116.25713 -3.6180093 -1.1804971 -4.8197727
461000000 -1.0633426 -57.861866 -124.25386 -30.120758 -116.82105 102.39959 -1.1390407 -30.582718
470500000 -1.0540791 -84.233482 -113.45483 55.447887 -120.73286 -135.1853 -1.1105535 -56.45496
480000000 -1.07284 -110.56782 -117.42496 73.951393 -118.28579 121.73447 -1.1117404 -82.588913
489500000 -1.130545 -137.64928 -114.1592 25.511871 -115.01354 -107.41254 -1.1509448 -109.07111
499000000 -1.1904243 -165.37392 -114.61073 -132.31706 -117.53099 -78.167091 -1.2192857 -135.85776
508500000 -1.2220273 167.07921 -115.52746 -146.07211 -116.48083 64.503281 -1.291532 -162.78966
518000000 -1.2444559 139.8732 -114.90284 -29.495459 -121.86119 119.86697 -1.3418217 170.34555
527500000 -1.2739129 112.58224 -118.24609 93.666084 -117.16412 160.85129 -1.3570197 143.70264
537000000 -1.2863252 85.328827 -114.90056 132.38826 -125.98849 144.36127 -1.3438734 117.35202
546500000 -1.2598184 58.611092 -116.05368 -38.026752 -120.83436 13.307602 -1.3201258 91.272545
556000000 -1.2094948 32.422226 -139.05219 124.07388 -120.96743 6.0483336 -1.3005689 65.38842
565500000 -1.169488 6.4085293 -117.17393 -79.864662 -124.51221 44.788799 -1.2907319 39.617828
575000000 -1.1500605 -19.593679 -124.60754 17.664431 -120.30318 96.040619 -1.2840652 13.914069
584500000 -1.1325907 -45.723587 -130.88622 86.808487 -124.9981 -134.11905 -1.2716982 -11.76224
594000000 -1.1184713 -72.127892 -128.07796 -142.69928 -114.43645 -50.987556 -1.2530979 -37.460979
603500000 -1.1282765 -98.673767 -125.24163 -150.7977 -116.60199 -9.7813759 -1.2339839 -63.250416
613000000 -1.1698725 -125.44083 -118.59951 -88.696671 -126.17045 46.771862 -1.2270889 -89.278976
622500000 -1.228026 -152.80487 -132.14137 40.055099 -120.53846 76.997169 -1.2496052 -115.65568
632000000 -1.2624078 179.15381 -120.0304 6.7507606 -121.46354 -140.01161 -1.302937 -142.37427
641500000 -1.2923291 151.14845 -117.79173 -168.00722 -112.12491 -67.459267 -1.371604 -169.33574
651000000 -1.3256912 123.7188 -117.33921 -151.03714 -118.45155 -53.867722 -1.428861 163.63139
660500000 -1.351225 96.222343 -117.46744 -106.49487 -120.85424 -29.687359 -1.4568474 136.71684
670000000 -1.3510395 68.46003 -114.47792 47.713898 -124.1375 94.988647 -1.4533617 110.06059
679500000 -1.3090507 41.288822 -124.00932 144.37117 -118.83131 -20.546938 -1.4301709 83.705521
689000000 -1.2666403 15.109615 -119.64993 -128.9119 -131.29269 -60.481033 -1.4025823 57.581024
698500000 -1.2538655 -10.993277 -117.36906 -107.13551 -117.86416 -9.7194452 -1.3835508 31.557871
708000000 -1.2432964 -37.923065 -114.91454 -151.95953 -116.08395 -14.96312 -1.3777828 5.521728
717500000 -1.2276391 -64.971672 -124.47749 -102.5442 -121.18315 -51.191528 -1.3805652 -20.593309
727000000 -1.2320422 -91.301323 -116.91228 -159.84843 -130.24521 117.64531 -1.3858666 -46.832981
736500000 -1.2821119 -118.0728 -113.72251 97.555473 -122.72922 16.524685 -1.3915573 -73.224304
746000000 -1.362289 -146.34406 -118.87663 154.13559 -125.85164 -113.13583 -1.4024664 -99.808815
755500000 -1.394992 -174.85747 -117.38749 -128.29808 -127.616 88.068268 -1.4257654 -126.6432
765000000 -1.4061284 157.42937 -118.23023 -27.057436 -116.10909 47.371071 -1.4662567 -153.75275
774500000 -1.479327 129.55125 -143.68713 -15.631986 -121.02232 59.919605 -1.5190982 178.9189
784000000 -1.5386267 100.79382 -118.22059 59.473198 -120.4304 171.89948 -1.5689673 151.50778
793500000 -1.5053555 72.446213 -113.5213 117.60401 -119.43171 -45.709511 -1.5992366 124.1796
803000000 -1.460633 45.590626 -126.74356 -37.971458 -116.2964 -21.374981 -1.6036803 97.075333
812500000 -1.4587355 19.104639 -119.20162 -54.510929 -117.36043 -103.66403 -1.5886192 70.265991
822000000 -1.4500042 -7.9544821 -119.6396 2.9429111 -121.44991 52.110527 -1.5674083 43.726921
831500000 -1.3991299 -34.767216 -124.54491 170.65791 -122.4819 -0.774266 -1.5511931 17.375927
841000000 -1.3700732 -60.923012 -123.10917 179.36058 -121.47378 -121.23034 -1.5447879 -8.8965197
850500000 -1.4054056 -87.239655 -118.26167 -132.70738 -121.20692 -39.200817 -1.5446841 -35.199116
860000000 -1.4418334 -114.23865 -129.37309 173.68158 -114.29818 6.3875294 -1.5475174 -61.608601
869500000 -1.4615449 -141.61966 -116.64764 46.736614 -122.18703 0.30329794 -1.5530646 -88.166595
879000000 -1.5090755 -169.05072 -116.521 68.127571 -120.33795 166.52177 -1.5647532 -114.88867
888500000 -1.563343 163.28622 -114.35418 -39.568192 -129.59059 -162.41545 -1.5874408 -141.78444
898000000 -1.6014069 135.32741 -115.45226 -142.09796 -134.67831 -87.521713 -1.6222914 -168.83658
907500000 -1.6286886 107.41007 -125.52902 -79.480728 -121.62545 -48.599693 -1.6628749 164.00964
917000000 -1.6341236 79.72084 -126.616 -162.91408 -113.65647 0.47759154 -1.6986146 136.84381
926500000 -1.6099105 52.54121 -116.32596 69.917419 -125.91652 150.97545 -1.7203081 109.79104
936000000 -1.5632781 26.059425 -118.10149 102.58208 -123.25895 -6.1622944 -1.7242604 82.987068
945500000 -1.5272768 -0.099787161 -125.74657 -133.9763 -119.60252 -107.89215 -1.7108895 56.511551
955000000 -1.5055158 -26.194471 -117.857 -46.908424 -125.34126 -116.87186 -1.6865355 30.346691
964500000 -1.4709418 -52.169853 -118.34594 -24.566378 -118.55737 -14.948578 -1.6617503 4.4082012
974000000 -1.4566613 -77.926765 -116.12592 19.545557 -118.72127 43.061596 -1.6435258 -21.394289
983500000 -1.4765654 -103.63931 -121.94034 144.96588 -117.5404 170.4563 -1.6312735 -47.166687
993000000 -1.4977728 -130.01569 -139.61905 37.042599 -114.30906 -60.656521 -1.6232524 -73.01696
1002500000 -1.5272175 -157.12457 -116.00504 -140.60748 -120.98514 156.47699 -1.6219503 -99.014992
1012000000 -1.5569021 175.85411 -115.33051 -67.543938 -121.22835 -12.934606 -1.6335933 -125.18609
1021500000 -1.5832322 148.95174 -123.91148 16.288368 -114.08315 -12.216569 -1.6583328 -151.52203
1031000000 -1.6265851 121.42124 -133.50467 133.69533 -120.88107 18.775717 -1.693257 -178.01553
1040500000 -1.6523093 93.318077 -123.44941 150.68047 -124.54548 29.177099 -1.7319566 155.35257
1050000000 -1.6283861 65.881187 -129.61061 92.886238 -128.21922 43.12598 -1.7667154 128.6514
1059500000 -1.5836936 39.623756 -114.94903 0.62394869 -125.41372 14.773973 -1.7895432 102.00523
1069000000 -1.5545539 13.33506 -116.68152 39.0504 -113.75506 3.7398834 -1.7934164 75.551643
1078500000 -1.5431124 -13.545501 -117.32081 13.283219 -132.37517 17.107996 -1.7770097 49.374245
1088000000 -1.5095263 -39.747269 -120.74689 -119.64997 -118.71941 0.79093784 -1.748004 23.478313
1097500000 -1.4585565 -64.931282 -115.0949 -155.23709 -126.41371 53.411839 -1.7173386 -2.1922426
1107000000 -1.4614383 -90.561699 -123.24572 -124.46796 -115.06413 -18.657843 -1.6926626 -27.740257
1116500000 -1.5104443 -117.3625 -124.28931 65.799797 -115.78052 43.265827 -1.6770092 -53.290695
1126000000 -1.530059 -144.3528 -112.51167 66.657143 -114.30981 143.04582 -1.6710141 -78.974037
1135500000 -1.5325409 -170.8692 -125.95504 -52.258732 -119.31474 48.224102 -1.6756006 -104.88364
1145000000 -1.5721735 162.08739 -125.89101 82.0737 -120.85424 8.8171797 -1.6923981 -131.06081
1154500000 -1.6497754 133.66278 -124.43758 -75.375771 -115.93882 -9.9981413 -1.7225193 -157.50095
1164000000 -1.6999794 105.02835 -118.3291 -102.55163 -122.10052 -127.56103 -1.7631161 175.83134
1173500000 -1.681757 77.344055 -120.66673 -75.011398 -125.96846 -35.36137 -1.8078249 148.98622
1183000000 -1.6633605 49.88377 -117.41473 131.12862 -116.98985 -154.30435 -1.8477138 122.04129
1192500000 -1.6828262 21.970493 -122.07186 44.020893 -120.34998 -147.46574 -1.8733938 95.09362
1202000000 -1.6667727 -5.5951633 -118.27784 -163.18307 -113.29086 -47.796391 -1.8789856 68.251007
1211500000 -1.5999359 -32.087818 -113.84728 -24.448526 -125.16199 19.671637 -1.8653715 41.600948
1221000000 -1.5689684 -58.233017 -136.16893 -112.70763 -120.94106 -54.566723 -1.839946 15.186099
1230500000 -1.6044453 -84.944496 -123.46245 128.02431 -117.9652 69.307205 -1.8106771 -11.012315
1240000000 -1.6346304 -111.95023 -114.63617 164.12584 -124.43221 -89.943382 -1.7852041 -37.085758
1249500000 -1.6277711 -138.72993 -116.82513 -123.10588 -114.7489 -131.9173 -1.7691758 -63.169697
1259000000 -1.6455907 -165.73697 -120.12981 41.247547 -132.54816 -131.94997 -1.7680613 -89.394394
1268500000 -1.7139482 166.50763 -115.22819 -2.0157943 -118.39258 -137.61203 -1.7832162 -115.84822
1278000000 -1.7800666 138.26852 -121.22668 -45.55793 -118.96655 -44.622349 -1.8131247 -142.56985
1287500000 -1.8206643 109.83569 -112.57939 160.23059 -116.05993 -105.02739 -1.854793 -169.55711
1297000000 -1.851127 81.289925 -117.52142 -160.60501 -114.17655 42.007523 -1.9031029 163.24413
1306500000 -1.8595726 53.047878 -119.91807 -82.999947 -115.92385 -113.63681 -1.9496368 135.93031
1316000000 -1.8407373 25.340616 -114.91611 79.901871 -122.79415 -57.959839 -1.9846336 108.60994
1325500000 -1.8215336 -2.1769013 -118.5731 -23.652687 -114.0426 19.388706 -1.9996536 81.380409
1335000000 -1.7954719 -29.380062 -117.5744 168.85963 -111.1088 9.4280949 -1.9932431 54.318207
1344500000 -1.7480899 -55.717045 -135.72432 -150.8187 -124.55753 -105.44876 -1.9709886 27.482063
1354000000 -1.7267904 -81.609062 -127.37286 -168.33067 -117.80842 -39.718174 -1.943128 0.90372944
1363500000 -1.7544414 -108.01646 -116.93309 73.792175 -118.71719 116.93468 -1.9172622 -25.423752
1373000000 -1.7654582 -134.76495 -125.15633 75.38166 -124.91954 30.825665 -1.8969129 -51.574928
1382500000 -1.7406561 -161.00798 -113.13136 138.95232 -117.4208 149.72931 -1.8860787 -77.684113
1392000000 -1.7605565 172.78578 -120.87479 -105.12611 -122.51805 -26.20006 -1.8893534 -103.87706
1401500000 -1.8481445 145.4071 -127.84307 -49.126102 -121.65922 -122.59403 -1.9088765 -130.23611
1411000000 -1.9025525 117.24435 -113.98527 -30.915113 -127.71595 121.65612 -1.941179 -156.79852
1420500000 -1.8808893 89.706093 -127.58157 156.89418 -124.76979 -17.390774 -1.9811264 176.44484
1430000000 -1.8807719 62.654202 -117.29321 150.29189 -133.98108 -27.083481 -2.0222607 149.56128
1439500000 -1.9280463 35.041302 -115.95083 -170.90303 -116.30686 4.2209229 -2.0564308 122.65512
1449000000 -1.9141989 7.2650356 -127.34965 116.70926 -115.05277 -78.03904 -2.0758383 95.822594
1458500000 -1.8212588 -19.253923 -119.11561 -95.782616 -117.14607 -79.956017 -2.0762217 69.130035
1468000000 -1.7584382 -44.695488 -113.8002 20.592655 -112.35071 -52.347958 -2.0592723 42.611183
1477500000 -1.7750782 -70.577148 -126.73035 130.52534 -131.84419 -126.94191 -2.0329564 16.272898
1487000000 -1.7865288 -96.992073 -124.90983 -100.01958 -124.33063 -160.00168 -2.0071788 -9.8799381
1496500000 -1.7293011 -122.72737 -130.0295 139.3448 -112.93761 108.19395 -1.9883186 -35.848656
1506000000 -1.6975652 -147.90898 -119.7092 -109.86316 -114.51062 -44.798759 -1.9768929 -61.662491
1515500000 -1.7567656 -173.86081 -118.3632 84.406258 -126.4147 -53.535439 -1.9716171 -87.406769
1525000000 -1.8103919 159.19437 -117.43178 48.508457 -122.51814 -41.223377 -1.9726529 -113.17904
1534500000 -1.8015474 132.30078 -125.83845 -28.579651 -129.96156 124.61458 -1.9825903 -139.07465
1544000000 -1.818478 105.59325 -125.19413 -80.239594 -134.92546 96.063858 -2.0043652 -165.14821
1553500000 -1.8878843 78.15345 -121.96276 -61.586525 -120.16956 146.88173 -2.0362234 168.59282
1563000000 -1.9149185 50.149548 -127.95033 -170.74359 -117.74129 -175.89615 -2.0715587 142.17834
1572500000 -1.8732288 22.689945 -113.52971 115.96293 -115.0179 -13.865489 -2.1023333 115.66629
1582000000 -1.8416479 -4.1482282 -114.53788 155.57774 -113.98557 -81.626152 -2.1210594 89.138023
1591500000 -1.8344563 -30.882517 -117.91661 -84.615562 -117.9837 -127.37315 -2.1225743 62.664669
1601000000 -1.8091015 -57.405117 -114.96784 -68.909126 -118.40361 -156.49199 -2.1074941 36.277107
1610500000 -1.7857476 -83.57711 -120.55048 -50.415531 -134.12984 -98.93821 -2.0841951 9.9777355
1620000000 -1.780805 -109.70638 -120.64084 70.784447 -117.31221 -28.313341 -2.0635889 -16.237679
1629500000 -1.7610736 -135.86594 -123.86586 158.4108 -124.23264 -143.53778 -2.0523124 -42.359455
1639000000 -1.7501062 -161.92455 -128.44365 -77.512131 -127.88175 51.908005 -2.0491235 -68.393867
1648500000 -1.7971426 171.62897 -118.67059 -132.88818 -114.81316 -95.798813 -2.0496273 -94.380394
1658000000 -1.8584598 144.34454 -116.31097 -35.403866 -130.04997 147.76443 -2.050792 -120.37274
1667500000 -1.8725921 116.81036 -120.93437 58.351734 -134.40604 178.54056 -2.0535448 -146.44049
1677000000 -1.8946255 89.387306 -122.59651 126.55954 -120.2872 -126.52982 -2.0617046 -172.65285
1686500000 -1.9720949 61.414356 -108.68895 -159.46768 -124.70709 -31.909367 -2.0810289 160.93344
1696000000 -2.0026238 32.849754 -118.70187 -150.34509 -118.47972 130.29947 -2.1130903 134.31578
1705500000 -1.9501081 4.7048731 -127.8923 -34.863792 -118.2921 -91.798615 -2.1520803 107.54366
1715000000 -1.9472497 -22.612495 -113.14386 61.35635 -116.39201 -61.945358 -2.1842051 80.68914
1724500000 -1.9921553 -49.79031 -116.24796 79.617439 -113.51965 5.4328218 -2.1976879 53.80595
1734000000 -1.9666311 -77.216621 -123.94032 -99.419701 -125.66907 -136.09927 -2.1917381 26.930723
1743500000 -1.9103291 -104.18806 -117.9502 6.6464458 -115.46371 75.655571 -2.175442 0.10935005
1753000000 -1.9129215 -130.44342 -117.09853 -26.349758 -116.83848 133.97905 -2.1581964 -26.61446
1762500000 -1.9401124 -156.86397 -124.17511 10.576833 -116.45825 150.5788 -2.1452589 -53.229851
1772000000 -1.9342816 176.12451 -115.68478 120.62948 -124.68283 -93.978104 -2.1383328 -79.75573
1781500000 -1.9314396 148.95714 -112.44663 -148.63446 -125.95584 165.08943 -2.1374562 -106.20789
1791000000 -1.9960856 121.85149 -112.9849 -50.645061 -120.35082 -97.439217 -2.1400223 -132.59232
1800500000 -2.0664279 94.511223 -114.40367 -36.372746 -125.2289 34.830441 -2.1426973 -158.94884
1810000000 -2.0684822 66.481407 -118.22858 -50.845207 -120.96934 134.33253 -2.1478429 174.64
1819500000 -2.0805788 38.081535 -118.65171 39.756268 -118.78291 -160.41072 -2.1643648 148.09909
1829000000 -2.1294556 10.155884 -122.00973 114.00718 -121.16647 120.95007 -2.1972864 121.40373
1838500000 -2.1263819 -17.344957 -119.1501 114.21713 -122.82212 -139.58308 -2.2395587 94.577225
1848000000 -2.0750871 -44.778416 -133.39885 62.352348 -119.89741 -74.022835 -2.2757852 67.650246
1857500000 -2.0518451 -71.948425 -114.89974 -36.541729 -121.81738 -96.640442 -2.2933583 40.666759
1867000000 -2.0689619 -98.686676 -124.65714 118.57939 -130.97267 173.50597 -2.2906461 13.699782
1876500000 -2.0596182 -125.02022 -121.41807 -113.18201 -120.11694 -81.050613 -2.2734818 -13.166372
1886000000 -1.9849381 -151.12852 -123.36803 -140.14853 -123.3441 -22.549904 -2.2516232 -39.872627
1895500000 -1.9402596 -177.34491 -116.85097 -159.37146 -115.86426 -153.09073 -2.2343698 -66.404381
1905000000 -1.9945427 156.3166 -115.62484 53.899052 -116.98642 -169.11169 -2.2264545 -92.770058
1914500000 -2.0351727 129.91431 -116.18935 13.478311 -115.06482 -80.256073 -2.2257588 -118.97992
1924000000 -2.0061984 103.32427 -119.82668 48.422783 -122.46028 -87.35083 -2.2259593 -145.06474
1933500000 -2.0160129 76.424896 -116.61487 -74.753151 -121.60336 -33.06675 -2.2246466 -171.07123
1943000000 -2.0981865 48.971302 -116.8252 -109.65366 -121.8119 -88.836548 -2.2255812 162.93704
1952500000 -2.1489568 21.18154 -113.40051 -106.71426 -112.6718 119.29741 -2.2366471 136.89819
1962000000 -2.1055319 -6.1500678 -134.50273 94.066452 -115.46598 142.6147 -2.2628229 110.74693
1971500000 -2.056381 -33.097607 -120.86509 58.292027 -122.81488 -117.80621 -2.3023241 84.430855
1981000000 -2.0903597 -60.254734 -129.93227 82.750526 -121.76261 -112.45126 -2.3447807 57.938385
1990500000 -2.1125922 -87.357933 -116.52909 -103.96182 -122.86217 -81.725739 -2.3758307 31.309759
2000000000 -2.0359724 -113.77521 -122.40005 -20.414602 -122.83931 -47.249378 -2.384093 4.6180415
