!Keysight Technologies,N5242B,MY48420967,A.15.65.19
!Date: Friday, December 16, 2022 18:44:38
!Correction: S11(C  2-Port  ) 
!S21(C  2-Port  ) 
!S12(C  2-Port  ) 
!S22(C  2-Port  ) 
!S2P File: Measurements: S11, S21, S12, S22:
# Hz S  dB   R 50
100000000 -0.26325858 -101.04858 -115.70323 129.28258 -114.40312 116.58002 -0.29616535 -97.479866
109500000 -0.33602583 -127.62772 -120.29892 58.497681 -121.86034 -109.89362 -0.36966693 -124.325
119000000 -0.48386571 -155.39987 -121.99498 -169.27681 -122.07048 16.748503 -0.45985934 -151.32254
128500000 -0.61841053 175.98547 -118.04751 -46.63356 -118.83603 -17.261616 -0.56107402 -178.42319
138000000 -0.7093237 147.76077 -118.8157 103.85995 -116.75735 4.8098855 -0.66539365 154.42091
147500000 -0.77811795 119.82005 -114.42742 150.72559 -125.16397 131.79893 -0.76175416 127.27322
157000000 -0.82338876 91.613152 -138.80472 -169.12761 -115.82143 28.643433 -0.83625889 100.24249
166500000 -0.83034289 63.732067 -122.55028 -53.773346 -126.77357 -102.64945 -0.87403834 73.468689
176000000 -0.79419297 36.607227 -115.22336 -28.414736 -121.96104 14.751879 -0.86790633 47.044823
185500000 -0.74079609 9.7958937 -123.2061 -2.2114677 -118.90348 68.8274 -0.82276928 20.959833
195000000 -0.68438488 -16.806662 -127.03379 109.96057 -124.84335 -78.215935 -0.75743842 -4.9322333
204500000 -0.64611316 -43.278107 -124.4474 -153.19458 -127.42802 161.95294 -0.69831413 -30.867022
214000000 -0.66435343 -70.007629 -120.34234 -78.860733 -119.55865 140.2668 -0.66892761 -57.067165
223500000 -0.69388688 -97.074471 -118.21568 161.65273 -124.63712 -163.07245 -0.68234622 -83.653694
233000000 -0.70528746 -124.35105 -114.80105 8.2751713 -127.0832 -144.26657 -0.73522294 -110.61883
242500000 -0.78070152 -151.86546 -127.64713 -77.362389 -123.8446 -68.882126 -0.81098598 -137.83939
252000000 -0.90547186 -179.87691 -114.29296 171.57375 -125.24052 -100.80716 -0.8888858 -165.15202
261500000 -0.96713287 151.64879 -110.69373 -101.50459 -128.38692 28.103327 -0.9568916 167.57057
271000000 -0.97250801 123.52864 -110.75313 96.615997 -110.76397 -103.47919 -1.0118459 140.39851
280500000 -0.99954325 96.043411 -117.10581 82.376709 -118.04529 -169.8428 -1.0555015 113.37762
290000000 -1.0358033 68.529289 -120.02293 56.034515 -107.68834 -40.47467 -1.0853975 86.560074
299500000 -1.0018926 40.98819 -123.28948 107.09565 -121.02297 100.87329 -1.0916846 59.991302
309000000 -0.91435254 14.105412 -112.98818 -142.14052 -122.1825 141.30368 -1.0674025 33.670181
318500000 -0.87876505 -12.122123 -123.66161 7.6686034 -127.0549 103.67676 -1.0171196 7.5447135
328000000 -0.88654941 -38.558613 -117.60013 -29.07645 -120.26707 -145.87776 -0.95742857 -18.520203
337500000 -0.87202543 -65.698128 -118.00924 101.38358 -115.23324 107.36722 -0.91352314 -44.713501
347000000 -0.86024803 -92.856651 -121.69559 169.438 -118.00029 -26.082325 -0.90650767 -71.198372
356500000 -0.89970863 -119.71951 -118.40496 110.82123 -119.31659 -150.81033 -0.94454652 -98.055748
366000000 -0.98167813 -147.10663 -118.35601 2.4571733 -119.10149 125.77428 -1.0166587 -125.23907
375500000 -1.050773 -175.34247 -123.22893 45.985668 -123.01369 -129.21214 -1.0983458 -152.59233
385000000 -1.0807974 156.41805 -116.89059 47.614647 -121.10916 16.297371 -1.1647695 -179.92053
394500000 -1.1122603 128.90393 -117.66096 -21.127192 -118.13628 0.38580859 -1.2042429 152.9313
404000000 -1.1474584 101.75276 -113.46111 -160.84131 -116.76655 -1.562579 -1.2210873 126.04376
413500000 -1.148941 74.316811 -117.75491 76.111603 -114.4685 24.290079 -1.2249522 99.433167
423000000 -1.1172595 47.082863 -117.1908 23.137291 -122.24189 -159.01965 -1.2215242 73.078148
432500000 -1.0685925 20.855223 -111.74533 -59.33535 -117.64233 -104.64828 -1.2089463 46.940727
442000000 -1.0251559 -4.9141202 -118.31551 -60.476982 -121.99243 -135.46437 -1.183753 20.988197
451500000 -1.0081085 -31.184673 -119.40699 177.17973 -115.03847 57.561855 -1.1468263 -4.8264198
461000000 -0.99936795 -57.835461 -118.41753 -162.45166 -116.86255 -148.32323 -1.1058406 -30.59325
470500000 -0.99001247 -84.216553 -115.27967 -13.302643 -126.08493 72.852745 -1.0772386 -56.468571
480000000 -1.0083824 -110.55473 -115.22651 102.54305 -119.84983 -171.46706 -1.0778841 -82.606705
489500000 -1.0657452 -137.64429 -119.87914 -31.048279 -118.7481 -118.19461 -1.1163489 -109.09328
499000000 -1.1250359 -165.37102 -129.72409 -63.08569 -117.48807 -6.3159423 -1.1842406 -135.88199
508500000 -1.1566528 167.08467 -116.79167 -89.174065 -119.45589 46.194626 -1.2562729 -162.81177
518000000 -1.1803643 139.87895 -122.76411 -130.29572 -116.55286 92.707443 -1.3065317 170.32716
527500000 -1.2098328 112.58972 -115.75857 110.96756 -117.3298 14.670649 -1.3220297 143.6879
537000000 -1.2225363 85.340927 -117.34903 89.609825 -115.65841 72.166519 -1.3090644 117.34234
546500000 -1.197691 58.631279 -125.37128 -172.94353 -118.77905 55.095638 -1.2852709 91.267738
556000000 -1.1478664 32.44297 -122.43561 -109.44246 -119.93813 17.371712 -1.265465 65.385872
565500000 -1.1074401 6.4309211 -115.04855 -46.429218 -127.59245 -78.064644 -1.2554566 39.618835
575000000 -1.0875857 -19.565706 -115.71876 -45.163136 -128.84523 -142.60982 -1.2487212 13.919243
584500000 -1.0695988 -45.697815 -118.32425 116.54494 -121.04726 -101.06831 -1.2360483 -11.753179
594000000 -1.0539385 -72.104134 -121.86412 -119.51785 -121.26791 -12.136388 -1.2169751 -37.450241
603500000 -1.0618314 -98.647644 -117.80477 -146.42046 -120.93913 53.208057 -1.1972238 -63.23922
613000000 -1.1021887 -125.41726 -116.6825 -41.353657 -119.56165 127.85349 -1.1894281 -89.268578
622500000 -1.1580226 -152.78349 -118.99342 -40.584915 -116.87083 93.003448 -1.2110827 -115.64777
632000000 -1.1899922 179.17546 -117.13771 68.529709 -118.09055 -73.356857 -1.2636851 -142.36931
641500000 -1.2200423 151.17123 -117.68169 -144.64693 -118.14056 164.97237 -1.3319995 -169.3329
651000000 -1.2529148 123.739 -115.97434 -141.69406 -118.80279 4.8950415 -1.3892235 163.63196
660500000 -1.277229 96.241165 -116.98443 -73.91687 -113.96592 69.032188 -1.417259 136.71658
670000000 -1.2771233 68.485123 -121.31333 -57.25441 -118.38147 -9.2891254 -1.4136852 110.05852
679500000 -1.2360817 41.31432 -114.89336 62.475517 -120.91055 98.189705 -1.3903484 83.699295
689000000 -1.1935143 15.132662 -115.60165 19.568789 -123.83165 -84.423065 -1.3629298 57.571323
698500000 -1.1793242 -10.966922 -120.69245 -139.81316 -120.69453 73.079681 -1.3439333 31.546185
708000000 -1.167902 -37.895626 -116.90378 -115.11816 -132.45926 153.53734 -1.3378098 5.5090418
717500000 -1.1512818 -64.946121 -122.36851 11.115159 -126.75601 -134.26497 -1.3400433 -20.609066
727000000 -1.1541831 -91.277634 -118.77649 21.468353 -117.67265 93.178703 -1.3447546 -46.85104
736500000 -1.2022698 -118.04809 -114.87066 102.95881 -117.94688 -70.956429 -1.3499348 -73.242889
746000000 -1.2797838 -146.32042 -120.92313 17.135838 -120.13189 5.1825233 -1.360078 -99.826912
755500000 -1.311643 -174.8344 -116.66125 -108.99934 -111.04969 -35.158947 -1.3825271 -126.66232
765000000 -1.3229431 157.45358 -122.12899 -73.572876 -118.51489 -59.909462 -1.4224471 -153.77493
774500000 -1.3954417 129.5661 -124.34299 -18.507792 -118.11215 -36.5336 -1.4750437 178.89442
784000000 -1.4545679 100.80424 -115.96645 134.6386 -127.71045 -61.477638 -1.5248853 151.48363
793500000 -1.4229583 72.456512 -112.22627 145.91873 -118.68339 -177.61607 -1.5549453 124.15601
803000000 -1.380783 45.586594 -121.9351 -150.32813 -113.11731 -36.942574 -1.5593827 97.049171
812500000 -1.379353 19.084431 -116.92382 -18.77899 -118.27552 -32.001888 -1.5446622 70.236885
822000000 -1.3701339 -7.9869075 -111.39804 28.016649 -133.98123 86.545647 -1.5238844 43.694309
831500000 -1.3207556 -34.815716 -122.31922 19.364143 -126.78442 84.547249 -1.5077965 17.338335
841000000 -1.2920185 -60.994205 -116.1825 166.43901 -126.86945 -23.295507 -1.5012325 -8.9410048
850500000 -1.3258033 -87.333542 -113.9605 -134.06761 -124.60188 -52.871979 -1.5008558 -35.250885
860000000 -1.3612249 -114.34898 -139.29311 -87.279076 -117.33232 -3.9411464 -1.5033925 -61.667526
869500000 -1.3802017 -141.74953 -130.40094 -74.9813 -119.95265 10.143778 -1.5083625 -88.232033
879000000 -1.4266185 -169.20091 -115.34699 35.542072 -121.50031 63.292263 -1.5195184 -114.96203
888500000 -1.4798809 163.12592 -115.57658 128.68077 -121.22935 -133.15964 -1.5420508 -141.86679
898000000 -1.5178537 135.15639 -118.28211 -109.12366 -112.92525 -23.545597 -1.5770159 -168.92673
907500000 -1.5451976 107.2305 -134.08244 -92.827423 -129.6362 29.026741 -1.6173565 163.91342
917000000 -1.5510144 79.541969 -120.41244 -56.382366 -120.70433 97.323448 -1.6528243 136.74171
926500000 -1.5285172 52.365742 -122.74886 48.598324 -121.51271 -7.9277239 -1.6745911 109.68308
936000000 -1.483125 25.885283 -119.07671 138.89873 -118.55416 133.16167 -1.6789981 82.875465
945500000 -1.4471911 -0.27412197 -137.48007 167.31981 -116.03233 -42.563354 -1.6661873 56.398315
955000000 -1.4261878 -26.364733 -116.14249 -127.67077 -116.69993 -22.785583 -1.6421255 30.230417
964500000 -1.3916911 -52.338543 -115.19827 -56.085999 -117.32854 73.344543 -1.6174839 4.2877183
974000000 -1.3766664 -78.096725 -118.34615 113.46646 -116.45502 46.300102 -1.599411 -21.519442
983500000 -1.3954242 -103.80392 -122.39613 159.86343 -121.4104 -140.13596 -1.5868626 -47.295227
993000000 -1.4148052 -130.18005 -117.54156 152.65265 -121.4202 116.06001 -1.5783668 -73.148697
1002500000 -1.4424778 -157.28835 -128.18074 -116.01156 -114.81477 -32.310078 -1.5766393 -99.15033
1012000000 -1.470542 175.69991 -132.62018 58.50219 -112.00044 -31.527594 -1.5881191 -125.32303
1021500000 -1.496141 148.80414 -121.31757 23.502058 -117.12453 78.160553 -1.6125627 -151.65747
1031000000 -1.5378934 121.28023 -119.39471 138.11307 -117.34432 -10.921013 -1.6467766 -178.15009
1040500000 -1.5627272 93.188797 -117.93362 159.81483 -122.12965 70.52597 -1.6848003 155.21951
1050000000 -1.5407518 65.76963 -115.60534 129.48779 -119.39974 12.18712 -1.7193068 128.52095
1059500000 -1.497324 39.522381 -123.82079 156.25262 -120.09277 -70.811462 -1.7423074 101.88094
1069000000 -1.4675653 13.235815 -114.74323 40.95105 -123.08115 95.635437 -1.746357 75.436737
1078500000 -1.4567294 -13.634413 -120.76033 57.049587 -120.61385 27.026276 -1.7299688 49.267769
1088000000 -1.4243091 -39.829048 -115.12617 -157.78943 -119.86279 -136.31363 -1.7011362 23.378323
1097500000 -1.3734188 -65.017487 -116.58857 -125.59528 -115.50332 -83.295021 -1.6705037 -2.2864456
1107000000 -1.3744116 -90.649284 -124.04703 -140.72833 -114.58113 -58.579357 -1.6457233 -27.829565
1116500000 -1.4214598 -117.45223 -121.84656 -29.628439 -109.32671 -13.147383 -1.6298285 -53.37706
1126000000 -1.4401345 -144.44817 -123.61614 16.825857 -113.90215 -5.4738941 -1.623404 -79.058243
1135500000 -1.4410777 -170.97011 -126.51009 -98.243996 -129.79614 -10.874972 -1.6275911 -104.96561
1145000000 -1.4783008 161.97946 -130.37257 -1.9656668 -119.97281 94.17215 -1.6435671 -131.14047
1154500000 -1.553833 133.54503 -114.98287 -91.806778 -115.34509 -72.984932 -1.6727065 -157.58038
1164000000 -1.603936 104.90372 -124.46213 -13.590937 -122.29404 60.760483 -1.7125591 175.74821
1173500000 -1.5868063 77.219261 -119.94796 123.75045 -115.91232 53.954918 -1.757112 148.89975
1183000000 -1.5684915 49.74831 -115.48446 140.29269 -114.73169 -53.907364 -1.7970808 121.95287
1192500000 -1.5885338 21.821327 -115.16381 144.21069 -123.23123 -99.204514 -1.8228788 95.004158
1202000000 -1.574286 -5.746141 -121.84255 -83.518982 -119.41489 -71.859589 -1.828324 68.158524
1211500000 -1.508985 -32.248928 -123.61996 -33.710964 -126.72983 89.923653 -1.8149339 41.502914
1221000000 -1.4785538 -58.417747 -121.63122 158.62572 -116.22242 137.74092 -1.7898817 15.081634
1230500000 -1.5132462 -85.146065 -118.71199 171.39749 -119.802 133.92111 -1.7610363 -11.122098
1240000000 -1.5428934 -112.16647 -117.30843 141.06549 -116.95883 -11.400022 -1.735639 -37.202122
1249500000 -1.5358932 -138.9686 -122.50149 109.93515 -121.00642 -131.655 -1.719601 -63.294529
1259000000 -1.5519669 -165.99976 -125.73592 143.81909 -120.98587 -144.98149 -1.718242 -89.529213
1268500000 -1.618363 166.22395 -113.7972 79.285919 -119.73985 -2.9038196 -1.7330086 -115.99298
1278000000 -1.6834478 137.96436 -123.56551 -35.87738 -126.29834 -48.4473 -1.7622145 -142.72394
1287500000 -1.7234261 109.51266 -121.23864 168.82368 -120.32874 110.77624 -1.8033139 -169.71889
1297000000 -1.7536165 80.957581 -117.5116 -152.90932 -117.70188 -24.493137 -1.8512487 163.07607
1306500000 -1.7630564 52.708641 -130.12674 148.43343 -125.10861 -39.486286 -1.8978738 135.75772
1316000000 -1.7457197 24.992922 -116.86672 64.988312 -127.09635 75.881783 -1.9330392 108.43306
1325500000 -1.727378 -2.5296826 -119.31853 80.425804 -113.12283 85.943756 -1.9483887 81.199829
1335000000 -1.7030128 -29.734898 -121.67258 -173.05939 -117.2093 -146.77338 -1.942179 54.136074
1344500000 -1.6573178 -56.07523 -114.82196 -111.85596 -121.45182 -84.608192 -1.9199148 27.298004
1354000000 -1.6360877 -81.977142 -117.57944 -80.281937 -117.25283 -99.883751 -1.8922163 0.71736902
1363500000 -1.6631457 -108.39263 -121.92019 129.49471 -118.67392 23.641512 -1.866859 -25.612499
1373000000 -1.6735696 -135.14586 -118.26355 56.133007 -123.18501 -174.04185 -1.8472583 -51.766819
1382500000 -1.6481978 -161.39427 -132.98524 122.22744 -115.98874 54.813568 -1.8367079 -77.880531
1392000000 -1.6664795 172.394 -125.07202 -60.952778 -122.29933 158.88382 -1.8397657 -104.07983
1401500000 -1.7513273 145.00819 -115.11466 -29.16571 -116.60067 145.00983 -1.8584551 -130.44666
1411000000 -1.8044071 116.85007 -114.38949 39.639942 -128.63013 -16.699522 -1.8899822 -157.01559
1420500000 -1.782645 89.326996 -122.34208 147.59979 -119.48448 -65.944649 -1.9293641 176.22495
1430000000 -1.7821743 62.283684 -118.23537 155.424 -123.23983 -67.110909 -1.9702209 149.34113
1439500000 -1.829007 34.681499 -122.30154 -137.21095 -117.99274 110.64808 -2.0043674 122.43394
1449000000 -1.8158394 6.929976 -117.80813 153.55772 -129.72891 -25.097326 -2.0240951 95.600273
1458500000 -1.7253937 -19.565035 -131.46449 141.71239 -116.89083 -138.33781 -2.0245192 68.907425
1468000000 -1.6639422 -44.995903 -114.7449 25.62582 -115.59281 -5.8727126 -2.0072718 42.389061
1477500000 -1.6799695 -70.871971 -124.59129 136.92296 -117.03473 -53.508335 -1.980549 16.051607
1487000000 -1.6915084 -97.271194 -116.9377 137.61696 -111.37207 125.74046 -1.9548787 -10.101142
1496500000 -1.6347814 -122.99406 -115.37115 -147.04951 -110.21627 90.249611 -1.936797 -36.068592
1506000000 -1.6023293 -148.17857 -129.65343 79.100807 -114.80266 -121.02737 -1.926051 -61.880722
1515500000 -1.659168 -174.12955 -115.02654 93.074638 -123.43565 63.663273 -1.9207757 -87.626305
1525000000 -1.7104292 158.93289 -117.34215 66.480408 -113.6393 -16.289118 -1.9210343 -113.40355
1534500000 -1.7008157 132.04207 -127.21612 -142.92595 -124.47655 111.60848 -1.9299837 -139.30479
1544000000 -1.7163254 105.33325 -117.94279 -81.78421 -127.46805 -42.047703 -1.9509676 -165.38213
1553500000 -1.7837541 77.894569 -118.10852 -68.326324 -126.65804 -152.78336 -1.9822156 168.35965
1563000000 -1.8100522 49.898697 -125.23112 42.105888 -119.56794 13.823104 -2.0173035 141.946
1572500000 -1.7694881 22.444328 -118.56461 132.37192 -114.71765 -37.597813 -2.0480349 115.43372
1582000000 -1.7393651 -4.3916583 -117.81371 136.83188 -114.56873 -54.802807 -2.0666578 88.903481
1591500000 -1.732433 -31.126303 -121.16498 -51.729881 -127.83966 71.062759 -2.0676999 62.429043
1601000000 -1.7080365 -57.65427 -123.21779 -123.48421 -124.77306 -118.04164 -2.0520246 36.042278
1610500000 -1.6860194 -83.83004 -116.39453 -33.494133 -118.26437 -138.66098 -2.028326 9.7447577
1620000000 -1.6806731 -109.97063 -116.85602 51.511398 -125.41193 -125.75253 -2.0079584 -16.466373
1629500000 -1.660805 -136.14987 -115.12682 -111.39584 -120.99229 -144.99947 -1.9971695 -42.58329
1639000000 -1.6494007 -162.22479 -117.85849 -121.63589 -117.41862 -116.57395 -1.994378 -68.616776
1648500000 -1.6944082 171.30347 -125.02105 -131.27754 -115.74733 -161.10287 -1.9948566 -94.604156
1658000000 -1.7539459 143.99069 -119.51575 -134.14821 -122.7464 140.52997 -1.995577 -120.59949
1667500000 -1.7668515 116.43604 -126.40625 -153.03053 -119.26059 -117.25549 -1.9975061 -146.66846
1677000000 -1.7875253 88.986443 -121.05894 -127.50741 -120.97198 -90.522629 -2.0049376 -172.87923
1686500000 -1.863588 60.986214 -121.8843 -176.35628 -116.49821 13.926406 -2.0238202 160.70792
1696000000 -1.8932891 32.408806 -120.16093 -101.13177 -114.34525 -59.624477 -2.0559385 134.08911
1705500000 -1.8421388 4.2547774 -120.02612 51.836117 -120.18614 100.69212 -2.0950429 107.31447
1715000000 -1.8411245 -23.077913 -116.54385 65.623711 -120.56874 -83.206902 -2.1269817 80.456017
1724500000 -1.8864005 -50.267185 -139.46294 13.065885 -116.01042 -50.292511 -2.1398649 53.56826
1734000000 -1.8614011 -77.695686 -113.88274 -138.58052 -126.36895 -77.343536 -2.133543 26.690928
1743500000 -1.8069282 -104.67403 -118.4472 169.71457 -124.6527 177.72791 -2.1172702 -0.12968792
1753000000 -1.8104939 -130.94067 -128.12332 -152.81201 -123.7008 -166.95149 -2.1006732 -26.853537
1762500000 -1.8366688 -157.37001 -122.74724 -38.595028 -121.13985 -133.43083 -2.0884421 -53.472118
1772000000 -1.8299206 175.60979 -113.86021 105.43501 -127.78596 -148.80264 -2.0822198 -80.005928
1781500000 -1.8266178 148.43144 -117.77406 154.97783 -133.98944 -113.53432 -2.0817575 -106.46755
1791000000 -1.8902198 121.31555 -120.05102 -11.841226 -120.15149 58.977585 -2.084075 -132.85966
1800500000 -1.9589778 93.972481 -113.91863 -113.73064 -129.93738 -168.99019 -2.0860782 -159.22073
1810000000 -1.9589213 65.939857 -122.85492 94.244492 -126.14393 -103.51756 -2.09074 174.36322
1819500000 -1.970776 37.540398 -125.57148 -50.629536 -136.17496 -160.05923 -2.1074336 147.81572
1829000000 -2.0208149 9.6300335 -114.05364 174.13435 -131.91743 -129.25937 -2.1409476 121.11341
1838500000 -2.0180171 -17.858292 -112.83005 124.60057 -116.70674 15.050889 -2.1834817 94.279266
1848000000 -1.9674209 -45.283451 -119.89453 -96.58522 -142.23369 -141.11571 -2.2192924 67.345467
1857500000 -1.9456818 -72.439552 -108.84352 2.6544819 -116.87487 -155.50667 -2.2362287 40.357742
1867000000 -1.9644388 -99.167679 -120.23515 39.158272 -124.40782 94.235275 -2.2331419 13.389057
1876500000 -1.9557732 -125.49305 -125.81684 147.66881 -122.30579 -40.597076 -2.2163062 -13.475583
1886000000 -1.8804897 -151.59203 -121.92863 155.81769 -121.10274 -89.798691 -2.1953278 -40.182377
1895500000 -1.8363532 -177.80962 -119.54568 -32.143578 -118.99249 66.851013 -2.1792126 -66.716202
1905000000 -1.8904462 155.84612 -116.04194 39.397636 -118.64357 101.18884 -2.1718726 -93.085258
1914500000 -1.9288365 129.44403 -113.51665 38.41201 -117.2219 -173.21472 -2.170984 -119.29984
1924000000 -1.8982228 102.85677 -123.34804 143.56256 -121.48688 -43.414608 -2.17061 -145.3889
1933500000 -1.9068872 75.951019 -116.84908 134.49535 -117.3856 -79.879967 -2.1690361 -171.39745
1943000000 -1.9869468 48.491966 -125.5424 140.05017 -121.27416 123.18499 -2.1701765 162.61058
1952500000 -2.036288 20.716749 -124.39783 -134.91835 -120.90825 166.09019 -2.1814656 136.57013
1962000000 -1.9933803 -6.6013556 -121.691 50.117931 -119.28773 -119.98887 -2.2076142 110.41211
1971500000 -1.9445689 -33.546623 -111.8951 95.203209 -119.08439 -159.27823 -2.2465014 84.086311
1981000000 -1.9780529 -60.697323 -114.95934 -174.59723 -115.1973 32.145721 -2.2881877 57.586418
1990500000 -2.0015945 -87.784554 -112.1963 -139.96896 -120.22281 -61.284203 -2.3180435 30.956656
2000000000 -1.926401 -114.18866 -124.56345 -150.58194 -126.21729 -1.8854791 -2.3253915 4.2688961
