!Keysight Technologies,N5242B,MY48420967,A.15.65.19
!Date: Friday, December 16, 2022 19:11:40
!Correction: S11(C  2-Port  ) 
!S21(C  2-Port  ) 
!S12(C  2-Port  ) 
!S22(C  2-Port  ) 
!S2P File: Measurements: S11, S21, S12, S22:
# Hz S  dB   R 50
100000000 -0.26177335 -101.04545 -118.21675 141.75594 -115.24563 30.034098 -0.29197249 -97.460762
109500000 -0.33423233 -127.62701 -120.68964 -61.914906 -121.3348 99.404533 -0.36569256 -124.30695
119000000 -0.48248941 -155.40045 -111.48923 -75.553596 -121.89561 124.96326 -0.45615181 -151.30432
128500000 -0.61712879 175.98474 -133.33498 165.72478 -119.16775 -12.023912 -0.55732709 -178.40439
138000000 -0.70782715 147.75809 -125.40445 11.117334 -118.12609 -56.230263 -0.66147304 154.439
147500000 -0.77678567 119.81866 -115.99617 142.79584 -123.00798 64.129425 -0.75780761 127.29043
157000000 -0.82211608 91.612053 -124.52083 -94.859222 -120.34554 83.774399 -0.83242404 100.26
166500000 -0.8289212 63.730202 -118.99075 -81.211586 -124.60137 91.230095 -0.87038255 73.487267
176000000 -0.792615 36.608025 -115.52115 -8.2530241 -125.45822 132.65813 -0.86431032 47.063656
185500000 -0.73932827 9.7977171 -123.30564 -29.75116 -119.76702 -0.39793587 -0.81931049 20.9778
195000000 -0.68278062 -16.80492 -118.18312 -149.96851 -133.67749 66.626961 -0.75404727 -4.9149909
204500000 -0.64409685 -43.275158 -118.97556 -170.96358 -120.98185 32.801353 -0.69485188 -30.850164
214000000 -0.66236001 -70.002548 -121.60757 -73.3088 -156.89534 -108.7953 -0.66510701 -57.050865
223500000 -0.69166309 -97.0681 -125.89734 58.619347 -126.97784 -162.50029 -0.67840332 -83.638191
233000000 -0.70263362 -124.34488 -124.04903 -120.85208 -120.91044 -55.224529 -0.73131543 -110.60385
242500000 -0.77790797 -151.85629 -116.64885 100.5797 -117.06952 103.16029 -0.80707425 -137.82445
252000000 -0.90245485 -179.86726 -108.27273 -160.92114 -118.20647 4.3614869 -0.88486773 -165.13785
261500000 -0.96386647 151.65752 -115.74001 173.64838 -119.0247 144.83167 -0.95273668 167.58258
271000000 -0.96903211 123.54008 -114.10635 -106.04791 -115.59427 -146.72427 -1.0076635 140.40892
280500000 -0.99600333 96.053886 -114.92674 2.4713333 -119.91838 -172.30602 -1.0511931 113.38873
290000000 -1.032328 68.538765 -112.82762 100.89383 -110.73569 -90.439842 -1.0809073 86.571846
299500000 -0.99813092 40.998062 -121.72095 66.795769 -130.17996 -179.18927 -1.0871431 60.002583
309000000 -0.91079038 14.114158 -115.7871 -133.51031 -117.53235 101.36936 -1.0629994 33.680393
318500000 -0.87520063 -12.115936 -115.44801 -83.27446 -112.8446 -87.767899 -1.0126805 7.5551872
328000000 -0.88276005 -38.554718 -117.90158 38.576183 -116.92767 160.70767 -0.95280182 -18.509003
337500000 -0.8684485 -65.694023 -131.63443 70.196106 -112.29541 -36.707752 -0.90859663 -44.702801
347000000 -0.85670221 -92.856041 -114.14125 133.15054 -119.16167 -9.9722919 -0.90139771 -71.188774
356500000 -0.89619255 -119.72314 -121.40961 84.846054 -114.51459 116.00956 -0.93938518 -98.046616
366000000 -0.97808141 -147.11006 -114.97119 -122.44798 -123.34632 28.821657 -1.011422 -125.229
375500000 -1.0472574 -175.34926 -118.29744 -40.122353 -118.42924 81.638931 -1.09287 -152.58298
385000000 -1.077503 156.40814 -116.79623 101.89876 -128.64517 41.515324 -1.1592206 -179.91226
394500000 -1.1088065 128.89458 -120.43469 152.22566 -123.38943 -106.62065 -1.1987641 152.93979
404000000 -1.1441071 101.74126 -119.8175 -170.797 -115.62418 22.471848 -1.2155253 126.05304
413500000 -1.1459463 74.305099 -123.83112 -31.023932 -118.37889 -70.845207 -1.2191614 99.442703
423000000 -1.113899 47.071022 -115.21247 -145.36115 -114.35409 -164.59259 -1.215669 73.086868
432500000 -1.0654429 20.844362 -117.10886 25.359938 -123.20676 -164.99072 -1.2032949 46.949329
442000000 -1.0222118 -4.9250178 -119.59758 103.26422 -114.08351 27.696507 -1.1781842 20.997732
451500000 -1.0048249 -31.196138 -116.32597 -133.2986 -116.24783 -58.510685 -1.141217 -4.8157587
461000000 -0.9960444 -57.844791 -125.06372 -133.99631 -114.06383 46.360752 -1.0999818 -30.58222
470500000 -0.98674154 -84.224289 -117.95495 -0.81624418 -115.38166 102.83797 -1.0711915 -56.45779
480000000 -1.005079 -110.56315 -115.9603 168.30469 -119.98133 95.596329 -1.0718045 -82.595932
489500000 -1.0621047 -137.65045 -130.52798 27.443171 -119.26958 135.09018 -1.1103275 -109.08186
499000000 -1.1214167 -165.37604 -116.8764 -12.737984 -118.1574 -138.53606 -1.1780976 -135.86908
508500000 -1.1531794 167.07957 -115.0118 -127.54285 -129.37973 -132.48155 -1.2500356 -162.79886
518000000 -1.176492 139.87532 -126.42953 -74.63903 -123.94535 77.054169 -1.3003076 170.34032
527500000 -1.2060688 112.5869 -119.76683 -173.16216 -117.18619 -30.958082 -1.315833 143.70137
537000000 -1.218919 85.338737 -124.33061 119.82449 -117.0896 -113.22619 -1.3028947 117.35585
546500000 -1.1937751 58.627926 -117.46108 17.996429 -124.82484 152.76625 -1.2792121 91.280991
556000000 -1.1440142 32.440361 -119.33588 153.3465 -113.94122 -46.980495 -1.2594168 65.39933
565500000 -1.1036209 6.4278107 -118.03642 -37.24366 -123.23602 -14.922005 -1.2494509 39.632015
575000000 -1.0837805 -19.571079 -133.21548 99.476273 -118.94406 81.425644 -1.242674 13.931617
584500000 -1.0656222 -45.702991 -126.72072 -167.58502 -121.19973 58.933216 -1.2300309 -11.741347
594000000 -1.0499492 -72.109779 -134.2766 60.053879 -119.94877 -6.4908214 -1.2109208 -37.43866
603500000 -1.0579649 -98.655502 -117.92669 -166.56862 -117.62385 55.303101 -1.1911169 -63.2281
613000000 -1.0980054 -125.42622 -115.40434 32.853619 -122.99338 -37.306507 -1.183272 -89.257553
622500000 -1.1538755 -152.79288 -122.25598 124.2739 -120.26804 75.926727 -1.2048585 -115.63634
632000000 -1.1861291 179.16525 -120.87181 73.479988 -120.46102 138.42258 -1.2573289 -142.3577
641500000 -1.2159153 151.15948 -119.25993 -102.46518 -123.06311 -154.20979 -1.3254668 -169.32101
651000000 -1.2488869 123.72747 -128.40396 -155.25883 -117.23418 -29.856058 -1.3826674 163.64462
660500000 -1.2734547 96.230431 -116.81655 -113.71285 -119.36023 71.525078 -1.4106566 136.72902
670000000 -1.2731948 68.473343 -121.41106 -41.026394 -118.08447 43.987747 -1.4071763 110.07164
679500000 -1.2321181 41.302937 -115.43278 10.712859 -120.79674 -28.100988 -1.3839267 83.713501
689000000 -1.1896515 15.122671 -120.96774 98.624275 -122.47285 -57.734833 -1.3563666 57.585632
698500000 -1.1755852 -10.97857 -123.23761 -74.99501 -119.09875 -36.070141 -1.3372544 31.560034
708000000 -1.1638751 -37.907921 -122.70222 -111.68447 -117.82197 -28.350689 -1.3311793 5.521996
717500000 -1.1472864 -64.957497 -122.58923 124.57228 -122.9845 107.19233 -1.3334385 -20.595776
727000000 -1.1503206 -91.288757 -115.4525 21.110746 -119.30535 83.543594 -1.33808 -46.838039
736500000 -1.1980563 -118.06105 -114.71437 107.32411 -115.34492 -104.99329 -1.3431045 -73.230759
746000000 -1.2755324 -146.33287 -121.36039 135.28223 -138.88403 -173.14799 -1.3531327 -99.816353
755500000 -1.3073603 -174.84625 -116.50266 -134.2558 -121.79843 -30.076172 -1.3754265 -126.65292
765000000 -1.3185383 157.43961 -121.07006 -10.072426 -118.03597 -118.55993 -1.4152763 -153.7655
774500000 -1.3909293 129.55359 -120.3564 -27.909414 -117.40099 74.350327 -1.4677398 178.90382
784000000 -1.4499861 100.792 -132.69902 145.48041 -119.33824 -173.1058 -1.5174415 151.49149
793500000 -1.4186099 72.442749 -115.55632 125.04963 -126.93152 -105.90995 -1.5475922 124.16224
803000000 -1.376241 45.57391 -117.96178 167.91829 -116.69653 -18.019464 -1.5521038 97.055573
812500000 -1.3747923 19.071779 -131.26418 48.9813 -123.55719 -132.33669 -1.5373626 70.242523
822000000 -1.3658034 -8.0007401 -114.50816 10.590617 -118.78662 2.3917873 -1.5164464 43.699852
831500000 -1.3161936 -34.830727 -120.66191 -68.155327 -119.84161 70.807831 -1.5004027 17.34292
841000000 -1.2874271 -61.009983 -121.06549 141.46666 -117.24775 -113.09026 -1.4938695 -8.9366302
850500000 -1.3214054 -87.350586 -114.41501 179.15895 -117.29285 -53.624893 -1.49351 -35.246864
860000000 -1.3566238 -114.36873 -123.46741 -1.648237 -116.08745 68.914474 -1.4959145 -61.664391
869500000 -1.3755211 -141.77074 -114.6013 25.788692 -136.75743 -79.769867 -1.5008544 -88.229881
879000000 -1.4220549 -169.22348 -126.60403 41.369789 -114.87711 -98.421402 -1.5119745 -114.96073
888500000 -1.475257 163.10007 -130.86436 -35.857761 -118.08633 -142.41646 -1.5342425 -141.86563
898000000 -1.5131406 135.12885 -118.28154 -105.26057 -113.9688 -98.831505 -1.5689468 -168.92619
907500000 -1.540578 107.2025 -114.79255 -108.04116 -117.01368 -34.076557 -1.6093622 163.91307
917000000 -1.5465745 79.512314 -126.77757 101.79365 -131.29048 -128.89709 -1.6449395 136.74123
926500000 -1.5239654 52.335274 -114.59093 73.75544 -127.74511 -23.495506 -1.6667811 109.68237
936000000 -1.4786268 25.854931 -116.8353 112.29983 -123.47417 -27.189657 -1.6711799 82.874336
945500000 -1.4430556 -0.30413753 -118.73772 -167.88617 -118.60823 -51.132763 -1.6583158 56.396786
955000000 -1.4218168 -26.396048 -116.26984 -121.03277 -122.22501 -19.041761 -1.6343589 30.228758
964500000 -1.3873996 -52.369438 -119.68279 -51.330418 -124.43298 -62.501797 -1.6097548 4.2868161
974000000 -1.3725193 -78.126427 -122.74724 147.00404 -123.52031 -37.2108 -1.5916535 -21.519943
983500000 -1.3912243 -103.83469 -124.07531 -173.56531 -121.99046 -66.286697 -1.5791711 -47.295815
993000000 -1.4105315 -130.21071 -117.95949 105.23502 -122.33662 -143.14691 -1.5705773 -73.149033
1002500000 -1.4381784 -157.31734 -122.81057 -119.22068 -119.354 -81.826797 -1.5688109 -99.149841
1012000000 -1.4664806 175.67082 -122.44141 -15.655868 -118.76933 -110.30281 -1.5799937 -125.32242
1021500000 -1.4917305 148.77603 -119.50172 51.638046 -124.54899 -66.168854 -1.6042397 -151.65714
1031000000 -1.5334178 121.25339 -121.55383 -83.808167 -116.4167 -116.48644 -1.6385162 -178.14897
1040500000 -1.5583879 93.163879 -112.02591 -163.72644 -117.16151 152.95409 -1.6765655 155.22113
1050000000 -1.5362297 65.745186 -125.55467 172.34943 -119.85201 -64.721565 -1.7110902 128.52382
1059500000 -1.4928229 39.499256 -128.98892 84.22831 -122.88364 -80.121429 -1.7340118 101.8846
1069000000 -1.4632159 13.215156 -117.22829 -19.940405 -114.25819 22.39879 -1.7380253 75.440155
1078500000 -1.4521887 -13.656058 -118.06315 -9.7000628 -127.71402 66.105095 -1.7217585 49.271049
1088000000 -1.4198068 -39.850109 -122.09859 -48.400509 -118.8756 -156.87123 -1.6929619 23.38196
1097500000 -1.3688846 -65.035706 -116.05024 -119.98405 -114.12772 -133.96689 -1.6624339 -2.2825267
1107000000 -1.3698205 -90.668503 -118.09734 -114.80264 -114.16234 -49.062836 -1.6376978 -27.825769
1116500000 -1.416751 -117.47241 -122.69109 -59.220417 -117.07452 15.261163 -1.6216781 -53.373127
1126000000 -1.4351987 -144.4671 -112.62692 97.626999 -111.62917 -10.479669 -1.6150986 -79.054626
1135500000 -1.4362139 -170.98897 -115.90352 89.50161 -114.16709 175.90263 -1.6190895 -104.96288
1145000000 -1.4731797 161.959 -126.94241 -95.404083 -117.05531 -150.4436 -1.6349707 -131.13853
1154500000 -1.5485201 133.5238 -119.75522 -102.562 -112.23043 -65.017883 -1.6640956 -157.57991
1164000000 -1.5986583 104.88425 -117.48824 22.052507 -113.61707 -3.2614839 -1.7039382 175.75
1173500000 -1.5814819 77.19809 -119.48668 104.36217 -114.97847 80.533417 -1.7482699 148.90129
1183000000 -1.5632421 49.726963 -116.48122 135.80818 -115.59655 -42.176632 -1.78807 121.95382
1192500000 -1.5832963 21.800508 -117.44236 105.98603 -120.06908 -54.55669 -1.8138584 95.00425
1202000000 -1.5690546 -5.7692728 -131.96333 58.582397 -117.13598 -168.80031 -1.8194283 68.158554
1211500000 -1.5039964 -32.273819 -118.11195 -92.468735 -121.2157 -92.794235 -1.8060515 41.503025
1221000000 -1.4734974 -58.441967 -118.51383 -82.700676 -123.05272 -18.620401 -1.781004 15.082397
1230500000 -1.50815 -85.173218 -119.48072 91.73008 -117.614 72.376305 -1.7521352 -11.121774
1240000000 -1.5379734 -112.19683 -117.53761 -94.815155 -120.56012 -20.150967 -1.7267573 -37.203224
1249500000 -1.5307921 -139.00061 -121.27972 -173.87292 -114.26522 -40.396412 -1.7106721 -63.297031
1259000000 -1.5469186 -166.03484 -125.8701 -60.287292 -123.90736 116.49448 -1.7092342 -89.532555
1268500000 -1.6133035 166.18475 -119.56902 36.540279 -115.48238 45.012169 -1.7238688 -115.99763
1278000000 -1.6782084 137.92271 -118.69214 -9.9384432 -117.48734 -157.62999 -1.7530318 -142.72987
1287500000 -1.718109 109.46875 -115.95082 -173.90239 -117.66817 82.551903 -1.7940674 -169.72673
1297000000 -1.7484713 80.91111 -119.51566 -86.489807 -123.60547 20.978462 -1.8420082 163.06644
1306500000 -1.7578732 52.660526 -123.32112 -165.4211 -117.87951 -65.123711 -1.88852 135.74663
1316000000 -1.7405417 24.945147 -115.36504 21.321222 -124.7282 24.48885 -1.9236122 108.42049
1325500000 -1.7223431 -2.5785367 -112.95831 4.6189713 -128.49883 21.688213 -1.9389079 81.186378
1335000000 -1.698016 -29.78433 -120.77962 49.581329 -129.66438 141.73676 -1.9327984 54.121365
1344500000 -1.652404 -56.12426 -115.06429 -119.31028 -122.11497 -21.132053 -1.910784 27.282721
1354000000 -1.6312969 -82.026283 -116.91809 -75.989006 -123.74538 37.228619 -1.8833072 0.70156914
1363500000 -1.6582714 -108.4433 -129.62845 -19.071827 -115.73511 -49.02903 -1.8578515 -25.628883
1373000000 -1.6686354 -135.19659 -120.30141 104.80692 -123.85636 -3.4169614 -1.8380947 -51.784355
1382500000 -1.6433202 -161.44414 -119.5601 107.41703 -119.63141 -21.577946 -1.8275062 -77.899521
1392000000 -1.6615908 172.34196 -126.84592 57.379326 -118.42198 -163.80829 -1.8304659 -104.09936
1401500000 -1.7463098 144.95508 -112.33177 -54.306702 -125.97974 -130.89429 -1.84925 -130.46614
1411000000 -1.7992094 116.79823 -119.80037 -68.811378 -114.6992 24.842236 -1.8807875 -157.0358
1420500000 -1.7775363 89.276421 -122.39426 49.501595 -122.26773 -58.291985 -1.9201365 176.20395
1430000000 -1.7771308 62.234192 -112.18003 122.43754 -115.33223 -174.57706 -1.9609225 149.31882
1439500000 -1.8237987 34.633041 -127.05602 81.773178 -120.84599 62.13995 -1.9950753 122.41191
1449000000 -1.8107312 6.8837962 -124.14581 -118.05751 -122.78942 11.985176 -2.0145469 95.57843
1458500000 -1.7203307 -19.608452 -125.0495 95.272606 -121.34143 -79.55397 -2.0149395 68.886185
1468000000 -1.658882 -45.037762 -117.38835 26.981712 -111.4263 -21.925465 -1.9978809 42.368111
1477500000 -1.675017 -70.911957 -119.71027 -36.146915 -118.37061 18.281689 -1.9714003 16.031273
1487000000 -1.6864656 -97.309708 -122.39575 -116.90365 -114.8959 10.331371 -1.945743 -10.120472
1496500000 -1.6297437 -123.03107 -116.45415 -121.94303 -115.5502 169.22794 -1.9274234 -36.087708
1506000000 -1.597325 -148.21332 -120.12342 41.866199 -125.11388 -51.626942 -1.9165007 -61.900887
1515500000 -1.6540141 -174.16435 -122.78352 74.339294 -119.45752 -52.262661 -1.9111663 -87.646622
1525000000 -1.7052406 158.89793 -111.93771 38.827198 -119.47066 -89.759888 -1.9114971 -113.42301
1534500000 -1.6954454 132.00873 -120.18865 -38.594627 -128.69218 76.519463 -1.9205308 -139.32288
1544000000 -1.7109097 105.30017 -115.25452 7.1759796 -122.04307 -113.37505 -1.941498 -165.39972
1553500000 -1.7782441 77.861702 -109.08309 -100.28691 -124.48438 -102.15188 -1.9726121 168.34155
1563000000 -1.8045212 49.865578 -124.95514 126.56728 -118.06528 -55.315269 -2.0075405 141.9276
1572500000 -1.7639457 22.413092 -115.67072 147.51848 -113.79312 -41.952248 -2.0380325 115.41628
1582000000 -1.7337625 -4.4233446 -117.3655 102.55587 -117.4518 0.65970737 -2.0564845 88.888763
1591500000 -1.7271341 -31.158852 -118.13631 65.340096 -120.26665 -82.766029 -2.0575528 62.416454
1601000000 -1.7026757 -57.68581 -113.27108 -55.401436 -119.97926 -171.49673 -2.0420108 36.031162
1610500000 -1.6805019 -83.863335 -121.26985 -55.935753 -136.2769 63.386269 -2.0184567 9.7350035
1620000000 -1.6754689 -110.00542 -120.61175 94.87635 -123.14026 95.629799 -1.9979917 -16.47641
1629500000 -1.6554786 -136.18398 -120.85715 150.92499 -117.33703 -55.686367 -1.9870924 -42.593956
1639000000 -1.6438894 -162.26291 -120.8361 -150.94655 -119.82607 76.834984 -1.9842014 -68.627197
1648500000 -1.6890359 171.26222 -117.72 -65.767067 -115.70601 -133.94301 -1.9846164 -94.614059
1658000000 -1.7482738 143.94855 -114.40984 5.6114969 -126.26281 -124.86755 -1.9853805 -120.60874
1667500000 -1.7611001 116.39058 -122.43178 7.6590037 -115.99463 -108.94377 -1.9874046 -146.67751
1677000000 -1.7818381 88.938393 -117.3308 170.00084 -117.81741 18.632433 -1.9948401 -172.89078
1686500000 -1.8577435 60.935642 -123.62354 -174.73686 -113.6904 -57.52557 -2.0136802 160.69484
1696000000 -1.8873781 32.356415 -118.97976 -108.95504 -126.51566 69.644897 -2.0455031 134.07397
1705500000 -1.8362682 4.2005014 -121.1804 122.2646 -120.59361 -141.65582 -2.0844305 107.2991
1715000000 -1.8353521 -23.133469 -131.30359 41.662842 -119.58354 -120.33277 -2.1162596 80.440331
1724500000 -1.8807085 -50.324005 -128.4536 -139.45793 -115.86653 -91.690041 -2.1292796 53.553135
1734000000 -1.8556786 -77.755089 -120.61114 -157.39297 -119.82048 -23.720053 -2.1231143 26.674879
1743500000 -1.8012581 -104.7345 -119.6843 -79.997658 -121.11435 145.40622 -2.1069446 -0.14797157
1753000000 -1.8049523 -131.00214 -122.95837 -112.22395 -119.21607 -71.050888 -2.0902424 -26.873688
1762500000 -1.8312223 -157.43518 -118.63248 68.889717 -116.97131 -153.12541 -2.0779626 -53.494003
1772000000 -1.8242694 175.54251 -116.80225 61.590118 -121.31858 -20.733559 -2.0717347 -80.028336
1781500000 -1.8210225 148.36143 -133.358 -157.73917 -118.20209 -7.3040943 -2.0712285 -106.49059
1791000000 -1.8847773 121.24403 -110.28295 -63.886948 -119.42525 112.13251 -2.073766 -132.88391
1800500000 -1.953245 93.89872 -112.60499 -44.055313 -117.39882 23.547422 -2.07604 -159.24747
1810000000 -1.9531952 65.86483 -111.59842 -94.538063 -113.34995 -138.2133 -2.0808177 174.33354
1819500000 -1.9651425 37.466003 -120.15641 120.12589 -117.70354 -158.50018 -2.0974796 147.78394
1829000000 -2.0150437 9.5552826 -116.91345 157.299 -123.09921 -80.547333 -2.130697 121.0792
1838500000 -2.0122089 -17.930651 -114.92701 176.28978 -121.48372 94.018219 -2.1730492 94.243484
1848000000 -1.9616303 -45.352356 -122.36285 -49.714027 -141.14928 135.64172 -2.2089157 67.307594
1857500000 -1.9400326 -72.508263 -116.24118 10.875841 -117.69852 -167.73318 -2.2259929 40.318848
1867000000 -1.9587847 -99.233543 -117.12816 34.047672 -116.52408 -89.751381 -2.2230513 13.348513
1876500000 -1.9501592 -125.55471 -121.44475 79.469925 -130.99646 -99.514389 -2.2062485 -13.517925
1886000000 -1.8750298 -151.65331 -114.18454 165.24272 -118.96692 50.377544 -2.1851614 -40.226223
1895500000 -1.8306892 -177.86977 -122.45145 142.31366 -119.03606 63.272823 -2.1688428 -66.760841
1905000000 -1.884802 155.78787 -124.95103 -46.470486 -126.08344 -15.146189 -2.1614492 -93.130295
1914500000 -1.9232632 129.38777 -120.38761 -0.44222325 -128.50677 -112.4105 -2.1608689 -119.34476
1924000000 -1.8925138 102.80032 -127.09619 15.244227 -122.5565 -139.10849 -2.1607571 -145.43381
1933500000 -1.9009529 75.895836 -128.50992 -170.25751 -118.72488 -54.562973 -2.1593213 -171.44321
1943000000 -1.981073 48.439362 -110.25102 -109.08201 -132.67706 128.39235 -2.1602705 162.56348
1952500000 -2.0303817 20.664438 -116.41078 -18.552111 -123.07275 -98.929642 -2.171401 136.52155
1962000000 -1.9872131 -6.6509466 -114.63952 47.365562 -118.80773 -143.39578 -2.1973288 110.36395
1971500000 -1.9384686 -33.59428 -125.35169 -71.343666 -121.66063 -59.458458 -2.236135 84.039795
1981000000 -1.9722807 -60.745041 -115.88393 96.698036 -111.80547 -94.637054 -2.2777162 57.541012
1990500000 -1.9955434 -87.831238 -113.01982 -84.489395 -114.17462 6.4084535 -2.307611 30.911295
2000000000 -1.9202435 -114.23344 -119.54285 -124.90295 -119.15381 -80.916664 -2.314992 4.2228007
