!Keysight Technologies,N5242B,MY48420967,A.15.65.19
!Date: Friday, December 16, 2022 19:51:13
!Correction: S11(C  2-Port  ) 
!S21(C  2-Port  ) 
!S12(C  2-Port  ) 
!S22(C  2-Port  ) 
!S2P File: Measurements: S11, S21, S12, S22:
# Hz S  dB   R 50
100000000 -0.26054564 -101.04832 -117.69309 78.279083 -119.40672 34.615776 -0.28868267 -97.443214
109500000 -0.3329764 -127.63131 -114.58333 -140.78711 -114.51088 90.211708 -0.36247084 -124.29002
119000000 -0.48144582 -155.40538 -122.39037 -12.803049 -136.09233 -20.038452 -0.45295683 -151.28792
128500000 -0.61630768 175.97858 -121.31068 3.964247 -129.63412 -151.75002 -0.55415154 -178.38829
138000000 -0.70689523 147.75087 -134.5831 91.044037 -122.99594 57.118828 -0.65828186 154.4545
147500000 -0.77593911 119.81279 -115.31149 142.57864 -119.09824 25.973545 -0.75468564 127.30552
157000000 -0.82128721 91.607285 -118.21478 164.51599 -113.24174 88.372871 -0.82942283 100.2759
166500000 -0.82804251 63.725502 -117.22488 26.699549 -120.74381 -11.605793 -0.86742991 73.503822
176000000 -0.7915948 36.605263 -114.71399 -47.901417 -131.33441 -54.64262 -0.86142874 47.079887
185500000 -0.73828983 9.7966375 -125.74974 -121.47723 -124.89938 -31.489101 -0.81648517 20.993532
195000000 -0.68158054 -16.805079 -118.18426 -162.50183 -121.51517 54.688576 -0.75127143 -4.899961
204500000 -0.64266014 -43.273621 -129.65862 92.057404 -119.62029 -19.729561 -0.69197971 -30.835466
214000000 -0.66090757 -69.999458 -118.33243 -19.302887 -116.1547 -88.269348 -0.66206872 -57.036732
223500000 -0.68999755 -97.06543 -122.14252 -2.7786658 -116.93488 95.112335 -0.67525023 -83.624275
233000000 -0.70067424 -124.34254 -111.40037 10.814545 -115.59731 37.09623 -0.72805482 -110.59064
242500000 -0.77576613 -151.8528 -114.68844 97.604759 -126.95847 17.241852 -0.80373949 -137.81165
252000000 -0.9001835 -179.86317 -119.89561 109.87939 -121.1004 165.84824 -0.8814286 -165.12592
261500000 -0.96139193 151.66084 -115.14619 -113.90546 -121.22452 -57.409843 -0.94917512 167.59341
271000000 -0.96636152 123.54359 -124.13226 -35.914932 -116.28488 70.34903 -1.0039451 140.41937
280500000 -0.99325532 96.057274 -114.04945 56.773888 -114.04998 -136.00226 -1.0474637 113.39928
290000000 -1.0294634 68.541092 -116.73745 -149.37631 -129.56364 -147.01756 -1.0770262 86.582237
299500000 -0.9951182 41.000523 -121.04944 -8.5882711 -116.44827 95.114441 -1.0831394 60.012821
309000000 -0.9077428 14.115954 -115.71782 -143.58984 -126.96632 105.09574 -1.0589696 33.690708
318500000 -0.8722403 -12.115666 -120.35503 -56.377296 -114.69949 95.22422 -1.0086594 7.5649343
328000000 -0.87958753 -38.555248 -118.93658 -44.771343 -120.5639 50.412758 -0.94861925 -18.499516
337500000 -0.86525232 -65.695389 -117.52558 6.3642678 -117.95855 55.910728 -0.90411657 -44.693623
347000000 -0.85352194 -92.85936 -111.64671 137.92035 -119.93339 53.102837 -0.89674652 -71.180176
356500000 -0.89295965 -119.72877 -112.36259 -115.28094 -111.37453 64.878624 -0.93458885 -98.038071
366000000 -0.97476274 -147.11639 -118.36449 -103.92046 -118.29079 70.798271 -1.0065149 -125.22089
375500000 -1.0439901 -175.35712 -119.07622 -46.440594 -113.94331 -131.45781 -1.087833 -152.57578
385000000 -1.0743116 156.39838 -123.02859 26.353266 -118.83308 -63.15609 -1.1541065 -179.90619
394500000 -1.1055628 128.88393 -110.66264 165.78792 -122.63868 -100.22599 -1.1935525 152.94504
404000000 -1.1409268 101.72983 -116.73943 -154.06615 -120.61856 -22.018051 -1.2103239 126.0582
413500000 -1.1429144 74.292763 -118.13691 -117.59608 -117.75567 51.38385 -1.2139447 99.447639
423000000 -1.1107647 47.058624 -114.9958 10.622964 -140.79483 -34.516979 -1.2104683 73.091393
432500000 -1.0624561 20.832483 -119.90275 104.04636 -115.31162 -62.569309 -1.1980662 46.953541
442000000 -1.0192343 -4.9364295 -124.20539 0.42521316 -120.62525 173.31662 -1.1730372 21.002264
451500000 -1.0018365 -31.207674 -120.10887 -129.35292 -116.1925 -15.585565 -1.1358854 -4.8114176
461000000 -0.9931196 -57.855125 -116.68861 -112.35789 -117.8212 34.886181 -1.0945063 -30.578089
470500000 -0.98384935 -84.234978 -113.53099 48.077583 -126.02164 -65.530991 -1.065694 -56.452724
480000000 -1.0020827 -110.57437 -139.74626 75.276138 -121.05286 -43.166325 -1.0661913 -82.58989
489500000 -1.0590796 -137.66144 -118.78448 64.38591 -116.04168 -34.105228 -1.104623 -109.07481
499000000 -1.1184391 -165.38689 -117.68231 -53.656013 -118.15225 -88.680801 -1.1723149 -135.86259
508500000 -1.1503332 167.06819 -114.29227 -104.62154 -123.88686 -4.5841675 -1.2442222 -162.79178
518000000 -1.1735313 139.86343 -127.36658 92.61171 -129.08089 -116.28389 -1.2945383 170.3485
527500000 -1.2031019 112.57471 -119.76293 -6.6458588 -129.79175 167.46725 -1.309884 143.7101
537000000 -1.2161404 85.325485 -119.64581 142.89914 -120.7063 -134.07933 -1.2970015 117.365
546500000 -1.1908928 58.613441 -127.4211 111.19627 -116.22746 -75.199768 -1.273403 91.289825
556000000 -1.1411341 32.425362 -122.26862 -28.692448 -116.75811 55.030277 -1.2536958 65.408623
565500000 -1.1009647 6.4118242 -113.76611 -59.691845 -132.96437 -3.760108 -1.2437855 39.640511
575000000 -1.0810037 -19.5888 -117.32172 21.944733 -122.18073 105.45905 -1.2368786 13.939461
584500000 -1.0626998 -45.721233 -120.52079 -174.53595 -121.93281 -43.920574 -1.2242059 -11.734286
594000000 -1.0471579 -72.128708 -121.44728 -162.07536 -122.94815 -22.816025 -1.2050281 -37.431683
603500000 -1.0551589 -98.676598 -124.62955 108.59719 -127.54987 3.4656918 -1.1851305 -63.221004
613000000 -1.0951178 -125.44788 -125.21319 -35.963154 -122.99606 0.84387851 -1.1772082 -89.250534
622500000 -1.1508877 -152.81459 -125.92885 22.000357 -122.65181 142.53282 -1.1986976 -115.62964
632000000 -1.1831809 179.14339 -117.69196 -80.549156 -119.94614 -154.18918 -1.2510695 -142.35149
641500000 -1.212862 151.13829 -118.7067 96.810509 -123.81886 -124.60843 -1.3191637 -169.31488
651000000 -1.24578 123.70795 -114.45091 -158.18439 -119.90525 -16.812931 -1.3762178 163.6512
660500000 -1.2703531 96.211952 -117.01952 -132.77336 -112.02448 34.604565 -1.4042001 136.73662
670000000 -1.2700766 68.455437 -127.55856 -91.491882 -119.91299 2.9452009 -1.4007206 110.07928
679500000 -1.2289239 41.286816 -116.31569 62.762348 -119.91407 175.74377 -1.3776343 83.721466
689000000 -1.1865485 15.107205 -126.94505 135.16098 -118.3238 36.318386 -1.3501757 57.593475
698500000 -1.1724559 -10.993236 -128.95955 -164.8936 -117.13783 6.5881224 -1.3310267 31.567465
708000000 -1.1604956 -37.921429 -114.11472 -104.80287 -113.79109 -4.012886 -1.3248299 5.5287786
717500000 -1.1439384 -64.970093 -119.91897 147.58052 -116.81183 55.265732 -1.3269538 -20.589941
727000000 -1.147014 -91.301758 -124.91524 108.54278 -131.10745 -148.6765 -1.3314888 -46.832497
736500000 -1.1944242 -118.0751 -133.65492 -117.65872 -121.36384 161.42491 -1.3364894 -73.226273
746000000 -1.271795 -146.34703 -116.78389 140.76147 -122.84843 -62.528416 -1.3464293 -99.812965
755500000 -1.3036667 -174.86009 -113.10345 -88.320671 -116.38782 -39.765007 -1.3686625 -126.65086
765000000 -1.3147511 157.42473 -128.55762 -68.81221 -116.85854 7.7465606 -1.408335 -153.76457
774500000 -1.3870016 129.53879 -124.56213 -23.15423 -123.68991 -109.08594 -1.4606487 178.90303
784000000 -1.4460498 100.77737 -120.86862 141.24629 -135.10904 84.088425 -1.510254 151.49001
793500000 -1.4146621 72.426979 -119.2863 122.46334 -122.70189 22.383223 -1.5403783 124.16044
803000000 -1.3723464 45.557701 -126.16946 13.551225 -113.06461 -6.3368025 -1.5449741 97.053894
812500000 -1.3708131 19.054895 -115.17248 -35.617851 -119.40617 19.683914 -1.5302924 70.240959
822000000 -1.3620349 -8.0183249 -114.93853 -17.472782 -118.71564 41.715687 -1.5094116 43.696995
831500000 -1.312295 -34.849503 -116.49563 41.531883 -113.9593 -177.16714 -1.4933161 17.339205
841000000 -1.2835863 -61.030003 -115.76193 167.63181 -117.23787 -99.161026 -1.4866682 -8.9402924
850500000 -1.3176105 -87.372749 -137.20595 156.09933 -124.95485 -1.1742507 -1.48621 -35.250797
860000000 -1.352757 -114.39376 -125.53741 58.901463 -123.81793 -0.35617739 -1.4885087 -61.668503
869500000 -1.3716022 -141.79883 -120.10559 19.095558 -117.97534 48.84787 -1.4934263 -88.235107
879000000 -1.4182295 -169.25322 -115.08984 26.43025 -116.03462 -37.498516 -1.5045003 -114.96677
888500000 -1.471535 163.06688 -127.04537 20.947937 -139.02917 49.807625 -1.5267698 -141.8723
898000000 -1.5092909 135.09399 -113.16956 -144.15154 -125.72443 107.66637 -1.5612769 -168.93431
907500000 -1.5367892 107.16579 -118.57055 -75.147087 -117.61097 40.102642 -1.6015792 163.90398
917000000 -1.5428975 79.474396 -119.10484 -67.724823 -113.10857 33.747097 -1.6371261 136.7316
926500000 -1.5203118 52.296028 -119.85424 87.182678 -117.77135 78.199516 -1.6590114 109.67306
936000000 -1.4750745 25.815195 -118.11283 110.92088 -125.11478 -128.3589 -1.6634433 82.865456
945500000 -1.4395921 -0.34415078 -117.59159 -66.766106 -123.95229 -154.7028 -1.6507295 56.387093
955000000 -1.4183253 -26.436621 -117.26042 -67.578362 -118.55847 -39.005367 -1.6268637 30.218475
964500000 -1.3839093 -52.409843 -114.54035 -41.095703 -115.89201 -12.991016 -1.6022586 4.2761965
974000000 -1.3692169 -78.166519 -119.97014 -120.29523 -119.00239 22.143343 -1.5840918 -21.530062
983500000 -1.3879101 -103.87639 -129.51352 131.15681 -119.4426 91.459099 -1.5715117 -47.306385
993000000 -1.4070349 -130.25243 -115.47153 -177.62021 -127.88025 -150.50975 -1.5630025 -73.15937
1002500000 -1.4347119 -157.35823 -114.55994 -60.19577 -114.76179 -93.556602 -1.561179 -99.160126
1012000000 -1.4630462 175.62975 -119.36969 -79.52253 -119.08336 -44.282207 -1.5722746 -125.33189
1021500000 -1.4881984 148.73569 -118.91984 -100.02159 -115.39245 -45.362854 -1.5964609 -151.66779
1031000000 -1.5298293 121.21349 -114.49895 156.7749 -121.9338 51.503517 -1.6306257 -178.15987
1040500000 -1.554902 93.12516 -116.03032 147.55658 -134.91255 -97.240013 -1.6686456 155.21144
1050000000 -1.5326186 65.707794 -120.3079 155.49699 -115.13792 -122.71181 -1.7031431 128.51494
1059500000 -1.4891353 39.463459 -125.13238 63.207413 -118.91666 26.895596 -1.7260027 101.87652
1069000000 -1.4595805 13.180673 -119.4605 5.2194495 -113.64698 -6.5484376 -1.730145 75.432579
1078500000 -1.4484853 -13.689848 -119.16489 -10.689103 -116.22619 38.083149 -1.7139374 49.263821
1088000000 -1.4161093 -39.882351 -133.29984 -119.59624 -111.72788 -149.11198 -1.6852181 23.375122
1097500000 -1.365155 -65.066315 -116.61655 -28.980278 -121.46131 85.819473 -1.6546787 -2.2895734
1107000000 -1.3660699 -90.699493 -139.71809 -62.922729 -128.32352 59.814358 -1.6299291 -27.833515
1116500000 -1.4127719 -117.50327 -117.96335 17.04578 -127.88313 -17.75878 -1.6138533 -53.380787
1126000000 -1.4311663 -144.49611 -123.40169 111.73091 -124.17973 -79.038094 -1.6073022 -79.062836
1135500000 -1.4320629 -171.01694 -149.33989 90.402283 -119.36518 3.9938416 -1.6111313 -104.97138
1145000000 -1.468901 161.93068 -117.80002 -101.20288 -118.729 -82.720993 -1.6268618 -131.14879
1154500000 -1.544086 133.49684 -118.41218 -98.704704 -121.6081 -15.237394 -1.655889 -157.59073
1164000000 -1.5941892 104.85973 -122.09142 75.664688 -114.60376 15.319226 -1.6957016 175.73863
1173500000 -1.5770788 77.174461 -126.19839 93.81366 -115.49274 37.670982 -1.739879 148.88948
1183000000 -1.5587659 49.703743 -120.80622 -178.04173 -120.58689 -4.2180271 -1.7796022 121.94231
1192500000 -1.5788479 21.778763 -115.18593 -166.91139 -120.76826 -99.583183 -1.805272 94.992691
1202000000 -1.5647358 -5.7909813 -120.20062 -111.06387 -116.88264 -64.170815 -1.810917 68.146744
1211500000 -1.4996918 -32.295807 -117.20905 -16.46349 -125.91409 -98.361053 -1.7976493 41.491779
1221000000 -1.4692583 -58.464706 -117.09276 12.090761 -119.19866 68.524467 -1.7726718 15.070734
1230500000 -1.5040494 -85.198746 -120.20831 129.23015 -127.93815 -177.58118 -1.743749 -11.1342
1240000000 -1.5337627 -112.22484 -115.82662 -176.76482 -115.06409 -21.69001 -1.7184154 -37.215931
1249500000 -1.5265328 -139.03072 -129.32968 60.213821 -117.94675 74.28434 -1.7022117 -63.310581
1259000000 -1.5426793 -166.06873 -120.94427 19.700472 -112.89795 -60.676716 -1.7007409 -89.547218
1268500000 -1.6090851 166.14565 -116.32677 -4.7126122 -132.87399 1.6789577 -1.7152824 -116.01438
1278000000 -1.6739931 137.87967 -121.11106 -22.181459 -112.53545 68.257591 -1.7443888 -142.74803
1287500000 -1.7138376 109.42342 -116.82094 -128.0834 -126.71227 -143.23521 -1.7853075 -169.74664
1297000000 -1.7442589 80.862152 -124.90141 -140.3098 -116.24395 138.76352 -1.8331336 163.04451
1306500000 -1.7537032 52.609035 -124.33529 -98.61293 -132.64143 -78.927437 -1.879585 135.72322
1316000000 -1.736478 24.891649 -118.98082 90.131882 -117.26065 2.8587146 -1.9147069 108.39664
1325500000 -1.718335 -2.6332083 -126.64783 160.73116 -123.23379 40.151493 -1.9299893 81.161407
1335000000 -1.6940534 -29.840731 -118.7948 129.2588 -128.80455 -17.966681 -1.9239171 54.095886
1344500000 -1.6484637 -56.181068 -129.96664 -116.32248 -119.91932 24.869246 -1.9019475 27.256042
1354000000 -1.6274804 -82.084808 -117.7692 -65.317848 -117.30253 -47.951653 -1.8745379 0.6741448
1363500000 -1.6544634 -108.50444 -118.36302 28.879868 -121.40446 -113.29159 -1.8491722 -25.657381
1373000000 -1.6647583 -135.2585 -115.43259 124.75178 -123.39158 -14.210048 -1.8294883 -51.813457
1382500000 -1.6394223 -161.50653 -121.20878 142.64873 -118.32317 141.31668 -1.8188561 -77.92897
1392000000 -1.657706 172.27663 -125.83427 -117.0336 -121.62932 147.76428 -1.8218652 -104.12991
1401500000 -1.7424015 144.88753 -114.76156 -85.348579 -141.40338 -105.23158 -1.8406203 -130.49782
1411000000 -1.7951356 116.73103 -116.33891 -42.85775 -118.05668 -42.172226 -1.8721535 -157.06816
1420500000 -1.7734563 89.209846 -120.70682 32.18206 -121.13117 -83.002831 -1.9113427 176.17082
1430000000 -1.7730132 62.16819 -125.58426 53.157459 -128.84816 17.335043 -1.9520407 149.28461
1439500000 -1.8195846 34.568409 -116.03947 152.41142 -113.46028 -159.01509 -1.98611 122.37756
1449000000 -1.8064965 6.8213162 -118.06409 -91.361946 -119.93583 -103.13364 -2.0056036 95.544968
1458500000 -1.7160729 -19.667009 -125.10029 83.425827 -119.22047 0.51799881 -2.0060518 68.852814
1468000000 -1.65469 -45.094131 -114.62936 36.429207 -115.38896 53.495861 -1.9890261 42.334835
1477500000 -1.6708109 -70.966774 -122.98809 58.915012 -118.43766 -56.177601 -1.9626983 15.998074
1487000000 -1.682168 -97.362076 -112.70479 -150.12062 -117.51009 -177.65273 -1.9371586 -10.15388
1496500000 -1.6254089 -123.08091 -119.59512 -127.50758 -119.71417 -142.3347 -1.9187651 -36.121307
1506000000 -1.5929719 -148.26071 -121.04459 -19.652874 -119.87431 -134.69617 -1.9077859 -61.934101
1515500000 -1.649569 -174.21121 -122.95049 26.00149 -117.04547 -64.350922 -1.9025075 -87.679787
1525000000 -1.7006563 158.85196 -117.01912 19.163717 -112.33687 -57.463039 -1.9027807 -113.45576
1534500000 -1.6908152 131.96539 -123.04036 128.9469 -120.99374 -24.476656 -1.9117399 -139.35555
1544000000 -1.7061416 105.25842 -124.13543 -113.67469 -129.81647 -170.02782 -1.932611 -165.4321
1553500000 -1.7734599 77.820068 -124.32815 110.13239 -115.16702 166.84773 -1.9635775 168.30957
1563000000 -1.7997186 49.826324 -123.08527 127.16418 -114.64618 -89.511551 -1.9984564 141.89622
1572500000 -1.759084 22.374866 -116.85748 156.55579 -115.42688 80.158592 -2.0288291 115.38601
1582000000 -1.7288377 -4.4601598 -125.53422 27.586033 -121.29692 -54.720459 -2.0472162 88.859856
1591500000 -1.7223281 -31.194611 -116.01275 -155.53627 -119.50776 50.880913 -2.0483668 62.389503
1601000000 -1.697939 -57.720886 -118.1431 -19.766167 -122.92863 122.00495 -2.0327995 36.005856
1610500000 -1.6757115 -83.899323 -115.69254 10.96486 -122.16539 175.61607 -2.0092609 9.7104092
1620000000 -1.670752 -110.04149 -126.08087 60.713417 -128.6067 2.6232126 -1.9888231 -16.500145
1629500000 -1.6507887 -136.22012 -118.82329 107.09676 -122.28759 150.49672 -1.9778676 -42.617802
1639000000 -1.6391776 -162.30116 -113.32975 163.01714 -118.00195 -3.0329597 -1.9750141 -68.650894
1648500000 -1.6843481 171.22166 -127.04258 126.44298 -118.03069 -138.27232 -1.9754539 -94.637321
1658000000 -1.7435024 143.90572 -123.51378 -60.205135 -126.05197 -159.77608 -1.9761184 -120.63166
1667500000 -1.756259 116.34544 -116.78426 -24.092266 -123.21513 174.91948 -1.9780754 -146.70158
1677000000 -1.7771173 88.890167 -118.329 -142.27007 -117.87078 25.835844 -1.9854786 -172.9158
1686500000 -1.8529415 60.885036 -127.61681 -155.82452 -117.65894 -118.55022 -2.0041857 160.6684
1696000000 -1.8825912 32.302605 -130.10245 138.07202 -122.83507 174.05591 -2.0359449 134.04735
1705500000 -1.8315707 4.1452265 -122.2598 -32.465725 -121.22165 -81.85791 -2.0747309 107.27128
1715000000 -1.8308498 -23.190376 -121.39113 23.205223 -116.84562 -49.92844 -2.1065266 80.412117
1724500000 -1.8762159 -50.383953 -125.39845 100.4647 -121.15947 -170.83423 -2.1195483 53.524261
1734000000 -1.8511897 -77.818253 -122.11823 117.87628 -117.63868 39.171616 -2.1133754 26.645815
1743500000 -1.7969218 -104.7998 -123.5683 170.13756 -123.80048 101.16411 -2.0971749 -0.1777133
1753000000 -1.8007275 -131.07063 -114.36269 -103.70567 -118.4317 -114.86189 -2.080524 -26.905096
1762500000 -1.8270804 -157.508 -118.75102 38.839226 -127.70599 29.516191 -2.0682576 -53.526817
1772000000 -1.8200412 175.46535 -114.86195 111.22936 -115.25622 -64.122749 -2.0621216 -80.061897
1781500000 -1.8168466 148.28113 -115.30444 142.40236 -119.31789 -167.54616 -2.0616961 -106.52489
1791000000 -1.8807216 121.16035 -117.68812 -6.7202005 -122.44499 -29.044744 -2.0642576 -132.92
1800500000 -1.9490062 93.811279 -112.78233 -32.155266 -120.49281 81.738518 -2.0665784 -159.28596
1810000000 -1.9487877 65.774849 -119.22675 4.1204915 -112.80453 -59.110939 -2.0714495 174.29266
1819500000 -1.9607952 37.375412 -114.37661 161.87874 -112.43238 -57.258572 -2.0880153 147.74063
1829000000 -2.0105224 9.4653997 -116.01753 121.85996 -117.41264 -94.311394 -2.1211712 121.03291
1838500000 -2.0075698 -18.018509 -114.70963 127.95097 -114.30075 -27.879093 -2.163491 94.194862
1848000000 -1.9570445 -45.438358 -118.05619 -116.14767 -128.57532 -67.56514 -2.1993511 67.257706
1857500000 -1.9354339 -72.592354 -116.88587 -17.853701 -121.84021 -149.42163 -2.2164764 40.266823
1867000000 -1.9541004 -99.31395 -117.59629 -129.54448 -117.5658 -93.13047 -2.2135098 13.29493
1876500000 -1.9453942 -125.63162 -118.06139 -160.77364 -119.67854 -70.632133 -2.1967227 -13.573549
1886000000 -1.8703098 -151.72772 -124.07736 -121.71066 -120.87517 84.153214 -2.1756296 -40.28286
1895500000 -1.8260419 -177.94263 -125.7354 -153.93312 -113.58948 -5.9672208 -2.1594114 -66.818123
1905000000 -1.8800443 155.7178 -117.55184 9.1982698 -122.35723 128.56252 -2.1520944 -93.188141
1914500000 -1.9184507 129.3203 -128.67477 8.0964403 -118.22195 -126.18488 -2.1516125 -119.40301
1924000000 -1.8875024 102.73442 -116.09505 94.609802 -117.47224 -125.05291 -2.1515675 -145.49222
1933500000 -1.8958414 75.83136 -122.08979 -83.52108 -120.22968 -57.95108 -2.1501317 -171.50122
1943000000 -1.9758958 48.376396 -117.2009 -117.39745 -118.03123 109.59184 -2.1510632 162.50485
1952500000 -2.025074 20.603668 -116.40564 -63.238422 -122.1258 -71.602554 -2.1620905 136.4621
1962000000 -1.9817797 -6.7085142 -114.55174 48.964592 -127.37006 -41.831505 -2.187999 110.30375
1971500000 -1.9330198 -33.649132 -119.16727 61.678112 -118.42617 -104.99908 -2.2267745 83.979721
1981000000 -1.9669909 -60.798676 -117.10773 154.23312 -112.32227 -102.63625 -2.2682414 57.481712
1990500000 -1.9900844 -87.883202 -115.49365 -102.43903 -121.32816 167.16492 -2.2980514 30.852337
2000000000 -1.9148132 -114.28345 -109.93156 -26.235268 -115.38953 15.395456 -2.3052764 4.1642604
