!CSV A.01.01
!Keysight Technologies,N5242B,MY48420967,A.15.65.19
!Date: Saturday, February 04, 2023 18:41:19
!Source: Standard

BEGIN CH1_DATA
Freq(Hz),SYSNPDI(DB),SYSNPDI(DEG)
100000000,-166.51714,0.018182352
109500000,-166.35614,0.013181211
119000000,-166.31577,0.012244265
128500000,-166.25684,0.013366012
138000000,-166.23346,0.016599854
147500000,-165.80286,0.013397895
157000000,-166.26143,0.01663362
166500000,-166.15317,0.015996931
176000000,-166.14462,0.016032062
185500000,-166.14728,0.015795035
195000000,-166.13948,0.015312323
204500000,-166.07179,0.014369233
214000000,-166.08255,0.013493135
223500000,-166.03743,0.012577202
233000000,-165.985,0.011921288
242500000,-165.93771,0.011404646
252000000,-165.91925,0.011026787
261500000,-165.90555,0.01066102
271000000,-165.91833,0.010404064
280500000,-165.94376,0.010258398
290000000,-165.95335,0.010200181
299500000,-165.94038,0.010282
309000000,-165.9575,0.01080734
318500000,-165.94031,0.011424512
328000000,-165.87283,0.011676948
337500000,-165.89949,0.011501862
347000000,-165.74791,0.0088394154
356500000,-165.74898,0.0098843314
366000000,-165.78513,0.0097916806
375500000,-165.92776,0.0099329613
385000000,-165.9911,0.0098084155
394500000,-165.95543,0.0094598848
404000000,-165.8992,0.0092842346
413500000,-165.87743,0.0094730826
423000000,-165.77737,0.0094869491
432500000,-165.70625,0.0096941208
442000000,-165.66263,0.0099905385
451500000,-165.64206,0.010277899
461000000,-165.57935,0.010161728
470500000,-165.60744,0.010258999
480000000,-165.64328,0.010210359
489500000,-165.65596,0.0099569298
499000000,-165.69434,0.0097595537
508500000,-165.71162,0.0094834147
518000000,-165.7027,0.0091462163
527500000,-165.68076,0.0088363951
537000000,-165.67999,0.008718133
546500000,-165.64188,0.0085260747
556000000,-165.59424,0.008388781
565500000,-165.54999,0.0083004702
575000000,-165.47734,0.0081596207
584500000,-165.40373,0.0080284718
594000000,-165.34372,0.0079241525
603500000,-165.30309,0.0078641558
613000000,-165.30264,0.007890394
622500000,-165.33096,0.0079692118
632000000,-165.33327,0.0078921607
641500000,-165.33842,0.0077814767
651000000,-165.34705,0.007682587
660500000,-165.3817,0.0076814443
670000000,-165.40091,0.0076524275
679500000,-165.44566,0.0077519403
689000000,-165.4937,0.0079527451
698500000,-165.5087,0.0080952737
708000000,-165.53346,0.0083461376
717500000,-165.54999,0.008600113
727000000,-165.54648,0.0087677184
736500000,-165.48729,0.0086456751
746000000,-165.49623,0.0086603407
755500000,-165.50336,0.010270999
765000000,-165.45268,0.010611311
774500000,-165.42,0.010987719
784000000,-165.41518,0.011431223
793500000,-165.4119,0.011783539
803000000,-165.31059,0.011479293
812500000,-165.26021,0.011315041
822000000,-165.24663,0.011247782
831500000,-165.25714,0.011243171
841000000,-165.25848,0.011129433
850500000,-165.25005,0.010970908
860000000,-165.23563,0.010797651
869500000,-165.21698,0.010615537
879000000,-165.20856,0.010534333
888500000,-165.23268,0.010636394
898000000,-165.23474,0.010684786
907500000,-165.2308,0.01071817
917000000,-165.21347,0.01071937
926500000,-165.20273,0.010758304
936000000,-165.19301,0.01079934
945500000,-165.18094,0.010834434
955000000,-165.18843,0.01091841
964500000,-165.14879,0.0107424
974000000,-165.09865,0.010467599
983500000,-165.06241,0.010230404
993000000,-165.05168,0.010055298
1002500000,-165.04179,0.0098701846
1012000000,-165.00981,0.0096018668
1021500000,-164.97723,0.0093355766
1031000000,-164.93565,0.0090540312
1040500000,-164.87224,0.0087330183
1050000000,-164.90685,0.0088453731
1059500000,-164.94548,0.0090001114
1069000000,-164.9673,0.0091216993
1078500000,-164.97778,0.0092199659
1088000000,-164.98563,0.0093374029
1097500000,-165.00067,0.0094957873
1107000000,-165.02724,0.0096807946
1116500000,-165.0524,0.0098645492
1126000000,-165.08806,0.010047413
1135500000,-165.04413,0.0098207714
1145000000,-165.02959,0.0096629811
1154500000,-165.05054,0.0095840357
1164000000,-165.10667,0.0095813777
1173500000,-165.08473,0.009195853
1183000000,-165.04427,0.0086948564
1192500000,-164.98131,0.0081600547
1202000000,-164.8844,0.0075793541
1211500000,-164.80612,0.0071131336
1221000000,-164.78346,0.006871073
1230500000,-164.73448,0.0065913363
1240000000,-164.65979,0.0062796627
1249500000,-164.55475,0.0059352065
1259000000,-164.58702,0.0060016061
1268500000,-164.60861,0.0060657882
1278000000,-164.61717,0.0061120722
1287500000,-164.62209,0.0061534951
1297000000,-164.62392,0.0061933631
1306500000,-164.6393,0.0062550143
1316000000,-164.66351,0.0063299276
1325500000,-164.71574,0.0064470647
1335000000,-164.76541,0.0065203188
1344500000,-164.71922,0.0062568737
1354000000,-164.69453,0.0060278913
1363500000,-164.68687,0.005824124
1373000000,-164.6624,0.0055992748
1382500000,-164.64777,0.0054280744
1392000000,-164.60741,0.0052372226
1401500000,-164.52638,0.0050022579
1411000000,-164.40407,0.0047291876
1420500000,-164.32382,0.0045883395
1430000000,-164.32091,0.0046454757
1439500000,-164.30446,0.0046880147
1449000000,-164.26297,0.0047029844
1458500000,-164.20789,0.0047047888
1468000000,-164.25941,0.0049556773
1477500000,-164.31319,0.005214572
1487000000,-164.38496,0.005501919
1496500000,-164.47998,0.0058285082
1506000000,-164.55493,0.010251017
1515500000,-164.54984,0.010089648
1525000000,-164.56378,0.009972251
1534500000,-164.58844,0.009878302
1544000000,-164.62358,0.0098066535
1553500000,-164.65033,0.0097143603
1563000000,-164.66068,0.0095842099
1572500000,-164.63953,0.0093734721
1582000000,-164.5925,0.0090966914
1591500000,-164.51372,0.0087604476
1601000000,-164.41783,0.0084002139
1610500000,-164.30992,0.0080292672
1620000000,-164.18681,0.0076446817
1629500000,-164.06528,0.0072779595
1639000000,-163.98206,0.0070633302
1648500000,-164.02788,0.007262012
1658000000,-164.07513,0.0074666315
1667500000,-164.12148,0.0076731658
1677000000,-164.16869,0.0078847455
1686500000,-164.21605,0.0081004528
1696000000,-164.26357,0.0083202831
1705500000,-164.30861,0.0085255234
1715000000,-164.29404,0.008493932
1724500000,-164.27878,0.0084613441
1734000000,-164.26741,0.0084361993
1743500000,-164.24803,0.0083958665
1753000000,-164.2291,0.0083563663
1762500000,-164.19838,0.008294615
1772000000,-164.16779,0.0082334392
1781500000,-164.12593,0.0081727179
1791000000,-164.07614,0.0080992822
1800500000,-164.00703,0.0079908343
1810000000,-163.92964,0.0078686997
1819500000,-163.85254,0.0077489908
1829000000,-163.78194,0.0076424601
1838500000,-163.71646,0.007546287
1848000000,-163.72368,0.0076744556
1857500000,-163.76465,0.0078974292
1867000000,-163.81618,0.0081435386
1876500000,-163.8931,0.0084436303
1886000000,-163.98752,0.0087874066
1895500000,-164.10287,0.0091861468
1905000000,-164.23416,0.0096355258
1914500000,-164.28696,0.0097388066
1924000000,-164.28149,0.0095736338
1933500000,-164.26042,0.0093748122
1943000000,-164.23679,0.0091725662
1952500000,-164.18941,0.0089230752
1962000000,-164.13298,0.0086597893
1971500000,-164.05553,0.0083615435
1981000000,-163.99095,0.0081186593
1990500000,-163.93607,0.0079354439
2000000000,-163.88028,0.0077539482
END

