!CSV A.01.01
!Keysight Technologies,N5242B,MY48420967,A.15.65.19
!Date: Saturday, February 04, 2023 02:07:58
!Source: Standard

BEGIN CH1_DATA
Freq(Hz),SYSNPD(DB),SYSNPD(DEG)
100000000,-166.52768,0.018226558
109500000,-166.3634,0.013203256
119000000,-166.31799,0.012250525
128500000,-166.26096,0.013378715
138000000,-166.2361,0.016609939
147500000,-165.80939,0.013418067
157000000,-166.26837,0.016660269
166500000,-166.16193,0.016029257
176000000,-166.1499,0.016051572
185500000,-166.15013,0.01580547
195000000,-166.14462,0.015330475
204500000,-166.08026,0.014397249
214000000,-166.08989,0.013515951
223500000,-166.04025,0.01258539
233000000,-165.98752,0.011928199
242500000,-165.94135,0.011414184
252000000,-165.9175,0.011022339
261500000,-165.9113,0.010675163
271000000,-165.91798,0.010403218
280500000,-165.94675,0.010265458
290000000,-165.95535,0.010204859
299500000,-165.94563,0.010294415
309000000,-165.96135,0.010816903
318500000,-165.94894,0.011447264
328000000,-165.87907,0.011693734
337500000,-165.90707,0.011521962
347000000,-165.75314,0.0088500595
356500000,-165.75435,0.0098965596
366000000,-165.78943,0.0098013608
375500000,-165.9352,0.0099499635
385000000,-166.00221,0.0098335482
394500000,-165.96307,0.0094765639
404000000,-165.90881,0.0093048001
413500000,-165.88593,0.0094916299
423000000,-165.78592,0.0095056361
432500000,-165.71584,0.0097155375
442000000,-165.6712,0.010010308
451500000,-165.65172,0.010300771
461000000,-165.58968,0.01018595
470500000,-165.6172,0.0102821
480000000,-165.65501,0.01023798
489500000,-165.66841,0.0099855252
499000000,-165.70494,0.0097834207
508500000,-165.72063,0.0095030842
518000000,-165.71368,0.0091693792
527500000,-165.68982,0.0088548409
537000000,-165.6899,0.0087380568
546500000,-165.65428,0.008550466
556000000,-165.61159,0.0084223533
565500000,-165.56244,0.0083242785
575000000,-165.48894,0.008181436
584500000,-165.41635,0.0080518136
594000000,-165.35895,0.0079519907
603500000,-165.31648,0.0078884419
613000000,-165.3093,0.0079024881
622500000,-165.34094,0.0079875318
632000000,-165.34326,0.007910328
641500000,-165.34399,0.0077914442
651000000,-165.35909,0.0077039232
660500000,-165.39296,0.0077013886
670000000,-165.41682,0.0076805279
679500000,-165.45186,0.0077629914
689000000,-165.50809,0.0079791257
698500000,-165.52251,0.0081210453
708000000,-165.55019,0.0083783232
717500000,-165.56754,0.0086349165
727000000,-165.55925,0.0087935226
736500000,-165.50145,0.0086739147
746000000,-165.51582,0.0086994721
755500000,-165.52765,0.010328623
765000000,-165.46754,0.010647712
774500000,-165.43102,0.011015647
784000000,-165.42726,0.011463075
793500000,-165.42912,0.011830375
803000000,-165.32994,0.01153058
812500000,-165.27666,0.011357967
822000000,-165.25635,0.011272966
831500000,-165.27263,0.011283337
841000000,-165.26793,0.01115367
850500000,-165.26602,0.011011356
860000000,-165.25218,0.010838902
869500000,-165.23514,0.010660013
879000000,-165.22336,0.0105703
888500000,-165.24911,0.010676725
898000000,-165.2549,0.010734461
907500000,-165.24623,0.010756318
917000000,-165.23082,0.010762269
926500000,-165.21808,0.01079641
936000000,-165.21109,0.01084438
945500000,-165.19856,0.010878474
955000000,-165.20898,0.010970219
964500000,-165.16418,0.010780546
974000000,-165.11861,0.010515823
983500000,-165.08327,0.010279642
993000000,-165.06587,0.010088207
1002500000,-165.05499,0.0099002253
1012000000,-165.02673,0.0096393479
1021500000,-164.99457,0.0093729226
1031000000,-164.94978,0.0090835299
1040500000,-164.8868,0.0087623363
1050000000,-164.92255,0.0088774273
1059500000,-164.96141,0.0090331612
1069000000,-164.9827,0.0091540897
1078500000,-164.99361,0.0092536248
1088000000,-165.00153,0.0093716374
1097500000,-165.02065,0.0095395399
1107000000,-165.04131,0.0097122006
1116500000,-165.07227,0.0099097686
1126000000,-165.10146,0.010078433
1135500000,-165.06046,0.0098577728
1145000000,-165.04761,0.0097031696
1154500000,-165.07106,0.0096294265
1164000000,-165.11891,0.0096084271
1173500000,-165.10373,0.009236143
1183000000,-165.06152,0.0087294905
1192500000,-164.99706,0.0081897108
1202000000,-164.90099,0.0076083397
1211500000,-164.82001,0.0071359067
1221000000,-164.80098,0.0068988437
1230500000,-164.74902,0.0066134515
1240000000,-164.67355,0.0062995921
1249500000,-164.56982,0.0059558419
1259000000,-164.60222,0.0060226559
1268500000,-164.62253,0.0060852519
1278000000,-164.63345,0.0061350274
1287500000,-164.63197,0.0061675208
1297000000,-164.64171,0.0062187947
1306500000,-164.64992,0.0062703351
1316000000,-164.67616,0.0063484008
1325500000,-164.72745,0.0064644567
1335000000,-164.78276,0.006546407
1344500000,-164.73428,0.0062786071
1354000000,-164.7139,0.0060548144
1363500000,-164.7083,0.0058529284
1373000000,-164.68153,0.0056240009
1382500000,-164.66557,0.0054503749
1392000000,-164.6217,0.0052544982
1401500000,-164.54102,0.0050191381
1411000000,-164.42134,0.004748024
1420500000,-164.33763,0.0046029491
1430000000,-164.33904,0.0046649082
1439500000,-164.31357,0.0046978598
1449000000,-164.27327,0.0047141626
1458500000,-164.21626,0.0047138613
1468000000,-164.27393,0.0049722674
1477500000,-164.32957,0.0052342811
1487000000,-164.39758,0.0055179363
1496500000,-164.49358,0.0058467798
1506000000,-164.57234,0.010292208
1515500000,-164.56508,0.01012514
1525000000,-164.57964,0.010008725
1534500000,-164.60344,0.009912461
1544000000,-164.64139,0.0098469155
1553500000,-164.66592,0.0097493138
1563000000,-164.67352,0.0096126013
1572500000,-164.65428,0.0094053894
1582000000,-164.60445,0.0091217523
1591500000,-164.52887,0.0087910593
1601000000,-164.42949,0.0084228199
1610500000,-164.31888,0.0080458531
1620000000,-164.19756,0.0076636015
1629500000,-164.07558,0.0072952323
1639000000,-163.99895,0.007090861
1648500000,-164.04401,0.0072890176
1658000000,-164.08574,0.0074848793
1667500000,-164.13712,0.0077008698
1677000000,-164.18312,0.0079110125
1686500000,-164.23409,0.0081341472
1696000000,-164.27403,0.0083403578
1705500000,-164.32162,0.0085511049
1715000000,-164.3053,0.0085159652
1724500000,-164.29684,0.0084966002
1734000000,-164.27701,0.0084548648
1743500000,-164.26089,0.0084207542
1753000000,-164.24193,0.0083810762
1762500000,-164.21327,0.0083231032
1772000000,-164.17662,0.0082502132
1781500000,-164.13977,0.0081987847
1791000000,-164.08711,0.0081197619
1800500000,-164.01807,0.008011152
1810000000,-163.93959,0.0078867432
1819500000,-163.86189,0.0077656894
1829000000,-163.79221,0.0076605636
1838500000,-163.72981,0.0075695054
1848000000,-163.73569,0.0076957098
1857500000,-163.77576,0.0079176379
1867000000,-163.82805,0.0081658363
1876500000,-163.90465,0.0084661227
1886000000,-164.00412,0.0088210898
1895500000,-164.11433,0.0092104115
1905000000,-164.24431,0.0096580777
1914500000,-164.29932,0.0097665675
1924000000,-164.29095,0.0095945261
1933500000,-164.27666,0.0094099175
1943000000,-164.24545,0.0091909077
1952500000,-164.19855,0.0089418869
1962000000,-164.14288,0.0086795688
1971500000,-164.0714,0.0083921421
1981000000,-164.00613,0.0081470842
1990500000,-163.94646,0.0079544503
2000000000,-163.88907,0.0077696396
END

