!CSV A.01.01
!Keysight Technologies,N5242B,MY48420967,A.15.65.19
!Date: Saturday, February 04, 2023 06:04:49
!Source: Standard

BEGIN CH1_DATA
Freq(Hz),A_2(DB),A_2(DEG)
100000000,-104.20921,-44.071285
109500000,-103.0191,-86.074547
119000000,-103.79932,-130.75247
128500000,-104.38409,62.745914
138000000,-104.90217,-162.79318
147500000,-102.01254,-37.950531
157000000,-102.5507,-31.898472
166500000,-103.07788,137.24237
176000000,-103.44498,-5.5369239
185500000,-104.01279,61.536625
195000000,-104.49626,71.878082
204500000,-104.52751,-111.60242
214000000,-102.45108,163.53036
223500000,-102.9226,103.90144
233000000,-103.15408,5.7866893
242500000,-103.6066,-114.8323
252000000,-98.700668,-158.42461
261500000,-98.911339,-97.30658
271000000,-99.321419,-97.843506
280500000,-99.68219,161.87239
290000000,-99.799423,70.280731
299500000,-100.34966,-65.922729
309000000,-100.5816,16.730827
318500000,-100.80401,145.48796
328000000,-101.05458,125.87088
337500000,-101.05072,114.79186
347000000,-101.30515,-127.68589
356500000,-101.55989,-143.91539
366000000,-101.83041,37.14484
375500000,-101.94521,-87.389526
385000000,-102.0648,159.16986
394500000,-102.30981,101.47752
404000000,-101.72319,39.089252
413500000,-101.71099,-110.63217
423000000,-102.03131,27.680492
432500000,-101.90105,-64.863106
442000000,-102.23488,-78.597153
451500000,-102.54477,-77.349686
461000000,-102.68626,72.400208
470500000,-102.52676,116.35356
480000000,-102.68481,-140.96266
489500000,-103.22024,13.000311
499000000,-103.27592,-79.218475
508500000,-103.50382,179.6801
518000000,-103.25933,-155.68289
527500000,-103.59461,35.333153
537000000,-103.67181,89.289848
546500000,-103.62611,-84.237122
556000000,-103.94028,-81.733086
565500000,-103.97642,-160.57164
575000000,-104.0752,131.13861
584500000,-104.23438,98.988838
594000000,-104.31103,25.700832
603500000,-104.79081,90.988083
613000000,-104.42963,-83.648163
622500000,-104.66097,46.407539
632000000,-103.70061,73.317261
641500000,-103.76588,-50.288677
651000000,-103.58204,125.64805
660500000,-103.9116,19.211237
670000000,-103.81253,-113.23411
679500000,-103.83527,-124.04906
689000000,-104.00172,-44.033974
698500000,-103.89749,113.36833
708000000,-104.23406,-5.4773979
717500000,-104.2806,119.16022
727000000,-104.40302,-116.33965
736500000,-104.61515,-71.503166
746000000,-104.62187,-72.830688
755500000,-104.66649,159.27826
765000000,-104.7017,-41.730206
774500000,-104.78982,-117.84722
784000000,-104.50954,-157.62212
793500000,-104.77954,-1.3840139
803000000,-104.73061,-13.739457
812500000,-104.97968,-38.115723
822000000,-104.71545,-122.96443
831500000,-105.017,112.84247
841000000,-105.21499,64.844093
850500000,-105.29681,49.819305
860000000,-105.19997,-137.92793
869500000,-105.18063,-150.11574
879000000,-105.39642,-124.93834
888500000,-105.2305,-60.753979
898000000,-105.0971,72.533417
907500000,-105.3214,89.571404
917000000,-105.44704,51.663231
926500000,-105.2892,-98.552223
936000000,-105.15886,159.63751
945500000,-105.35213,14.2495
955000000,-105.56358,-95.556305
964500000,-105.62309,-35.515728
974000000,-105.6588,-131.41563
983500000,-105.33794,18.360298
993000000,-105.60621,12.566562
1002500000,-102.86683,-10.265515
1012000000,-103.19324,176.69156
1021500000,-102.77535,-46.254993
1031000000,-102.83186,120.34214
1040500000,-103.09096,125.61864
1050000000,-102.9951,155.26961
1059500000,-102.87635,92.630013
1069000000,-103.07895,-106.31436
1078500000,-102.90858,41.454262
1088000000,-103.19809,-132.3822
1097500000,-102.96449,-50.668278
1107000000,-102.79603,175.08644
1116500000,-103.18636,67.204155
1126000000,-103.08743,-126.02307
1135500000,-103.10613,-101.24981
1145000000,-103.3363,35.650871
1154500000,-103.20655,-0.98654729
1164000000,-103.07056,80.494972
1173500000,-103.12064,43.706379
1183000000,-102.79609,16.832109
1192500000,-102.96371,-90.297714
1202000000,-103.24919,78.794289
1211500000,-102.6498,-82.322571
1221000000,-102.97618,121.18896
1230500000,-103.32369,139.6853
1240000000,-103.25031,54.396519
1249500000,-102.89745,32.89164
1259000000,-102.89889,54.125977
1268500000,-103.1106,37.428654
1278000000,-102.943,-76.287888
1287500000,-103.14561,127.98776
1297000000,-103.06557,-144.05766
1306500000,-102.81808,-125.49993
1316000000,-103.02853,-174.84161
1325500000,-103.18206,-139.56873
1335000000,-102.79351,-3.6489091
1344500000,-102.70337,-47.967812
1354000000,-103.15228,-150.98532
1363500000,-103.23054,107.23585
1373000000,-103.10826,-127.26617
1382500000,-102.72657,70.579819
1392000000,-102.8532,-50.995094
1401500000,-102.94186,-166.3685
1411000000,-102.86605,-1.6796335
1420500000,-102.95528,177.11511
1430000000,-102.68443,63.55088
1439500000,-102.95905,8.2884684
1449000000,-103.08024,-87.564949
1458500000,-102.69272,-128.68918
1468000000,-102.73062,54.252068
1477500000,-102.56783,-4.6714973
1487000000,-102.92862,-142.05923
1496500000,-102.94856,-109.44062
1506000000,-105.47939,177.95045
1515500000,-105.70802,179.13727
1525000000,-105.29085,-138.52144
1534500000,-105.46239,43.044579
1544000000,-105.58302,-69.733101
1553500000,-105.43002,179.60957
1563000000,-105.49684,79.059319
1572500000,-105.20043,94.307869
1582000000,-105.25565,67.18177
1591500000,-105.52096,-175.35443
1601000000,-105.40286,71.078964
1610500000,-105.4737,121.94844
1620000000,-105.36544,90.606255
1629500000,-105.34084,108.56558
1639000000,-105.16756,128.81259
1648500000,-105.2373,-113.3736
1658000000,-105.3936,107.888
1667500000,-104.97155,-8.7097998
1677000000,-105.02827,-148.24626
1686500000,-105.2421,122.48741
1696000000,-105.29681,-170.01411
1705500000,-105.02666,-115.8884
1715000000,-105.03094,-160.4144
1724500000,-105.22839,36.913723
1734000000,-105.12244,-170.72533
1743500000,-104.77995,23.698729
1753000000,-104.76347,-0.57300162
1762500000,-105.18407,4.0442486
1772000000,-104.98502,48.574596
1781500000,-105.01184,-173.47186
1791000000,-104.82359,-84.275871
1800500000,-105.00953,31.227045
1810000000,-104.69064,-64.20266
1819500000,-104.7405,79.744064
1829000000,-104.87151,-19.326473
1838500000,-104.87423,-171.19633
1848000000,-104.69033,57.379246
1857500000,-104.7916,-24.622402
1867000000,-104.50862,-174.67766
1876500000,-104.59764,-160.92528
1886000000,-104.74813,-79.023415
1895500000,-104.60802,-140.89384
1905000000,-104.71579,40.749252
1914500000,-104.26127,89.812256
1924000000,-104.53814,-47.229294
1933500000,-104.40887,151.60112
1943000000,-104.28405,-32.636143
1952500000,-104.60815,66.312904
1962000000,-104.52673,-135.08359
1971500000,-104.50843,-3.7831979
1981000000,-104.26174,52.451454
1990500000,-104.43027,-108.7403
2000000000,-104.29549,-173.73247
END

