!CSV A.01.01
!Keysight Technologies,N5242B,MY48420967,A.15.65.19
!Date: Saturday, February 04, 2023 08:09:48
!Source: Standard

BEGIN CH1_DATA
Freq(Hz),DUTNPD(DB),DUTNPD(DEG)
100000000,-174.92905,80.421753
109500000,-174.30334,79.147659
119000000,-174.08937,78.659103
128500000,-173.80173,77.919273
138000000,-173.67055,77.584488
147500000,-171.82492,71.537682
157000000,-174.07295,78.767471
166500000,-173.51569,77.298706
176000000,-173.52489,77.359642
185500000,-173.49271,77.240608
195000000,-173.52907,77.397995
204500000,-173.34097,76.969635
214000000,-173.60356,77.84864
223500000,-173.62114,78.046021
233000000,-173.60255,78.170479
242500000,-173.54086,78.112953
252000000,-173.48123,77.992905
261500000,-173.4738,77.999832
271000000,-173.47913,77.980461
280500000,-173.52567,78.058357
290000000,-173.54129,78.075386
299500000,-173.58179,78.231216
309000000,-173.71161,78.581001
318500000,-173.53049,78.062813
328000000,-173.11305,76.872162
337500000,-173.43059,77.864548
347000000,-172.77344,76.072647
356500000,-172.57962,75.287361
366000000,-172.73772,75.782921
375500000,-173.4807,77.945213
385000000,-174.0571,79.490005
394500000,-174.02171,79.487984
404000000,-173.89507,79.301208
413500000,-174.1078,79.954834
423000000,-173.81177,79.420792
432500000,-173.57228,78.91835
442000000,-173.4191,78.592873
451500000,-173.38312,78.549156
461000000,-173.00185,77.505653
470500000,-173.12912,77.831467
480000000,-173.25523,78.133736
489500000,-173.26563,78.113861
499000000,-173.36476,78.327652
508500000,-173.53052,78.771538
518000000,-173.48337,78.678192
527500000,-173.44658,78.616005
537000000,-173.55988,78.947655
546500000,-173.38103,78.542725
556000000,-173.44861,78.854233
565500000,-173.52364,79.225479
575000000,-173.45129,79.230652
584500000,-173.41862,79.342606
594000000,-173.47801,79.666603
603500000,-173.42625,79.644608
613000000,-173.30827,79.326035
622500000,-173.39693,79.497543
632000000,-173.40536,79.508369
641500000,-173.43556,79.581413
651000000,-173.49802,79.722649
660500000,-173.58096,79.856102
670000000,-173.59943,79.840889
679500000,-173.66347,79.914589
689000000,-173.79305,80.117912
698500000,-173.65425,79.711754
708000000,-173.66911,79.669754
717500000,-173.62068,79.481491
727000000,-173.42854,78.956078
736500000,-173.09238,78.101067
746000000,-173.17137,78.31871
755500000,-173.38815,78.953445
765000000,-173.22395,78.613281
774500000,-173.16447,78.535156
784000000,-173.26755,78.869064
793500000,-173.42804,79.339622
803000000,-173.04456,78.495117
812500000,-172.93706,78.329369
822000000,-173.0719,78.785835
831500000,-173.36827,79.609215
841000000,-173.50754,79.986496
850500000,-173.5836,80.202713
860000000,-173.61809,80.323433
869500000,-173.59688,80.32177
879000000,-173.59737,80.347061
888500000,-173.74725,80.665085
898000000,-173.80312,80.778778
907500000,-173.73268,80.627335
917000000,-173.59593,80.32959
926500000,-173.53142,80.194756
936000000,-173.46808,80.060654
945500000,-173.461,80.051872
955000000,-173.50865,80.165436
964500000,-173.4021,79.983627
974000000,-173.27057,79.768654
983500000,-173.28427,79.884804
993000000,-173.35521,80.127327
1002500000,-173.53886,80.613785
1012000000,-173.62134,80.890907
1021500000,-173.71275,81.176636
1031000000,-173.70143,81.251114
1040500000,-173.51535,80.97345
1050000000,-173.65199,81.20385
1059500000,-173.71663,81.267685
1069000000,-173.67282,81.114662
1078500000,-173.5092,80.709946
1088000000,-173.39041,80.387581
1097500000,-173.3488,80.22831
1107000000,-173.27568,79.995216
1116500000,-173.32578,80.036896
1126000000,-173.36783,80.065277
1135500000,-173.06476,79.337456
1145000000,-172.93205,78.98835
1154500000,-172.97165,79.059837
1164000000,-173.2506,79.700691
1173500000,-173.49049,80.372322
1183000000,-173.68196,80.955589
1192500000,-173.72952,81.219353
1202000000,-173.55266,81.027611
1211500000,-173.49841,81.071037
1221000000,-173.70903,81.612991
1230500000,-173.784,81.87468
1240000000,-173.60193,81.653336
1249500000,-173.24478,81.076782
1259000000,-173.37498,81.321411
1268500000,-173.47856,81.50058
1278000000,-173.51274,81.544052
1287500000,-173.45541,81.410835
1297000000,-173.27681,80.999985
1306500000,-173.14212,80.636856
1316000000,-173.0847,80.427345
1325500000,-173.21002,80.608406
1335000000,-173.41547,80.977234
1344500000,-173.27747,80.756569
1354000000,-173.31146,80.891678
1363500000,-173.40271,81.140312
1373000000,-173.45091,81.297195
1382500000,-173.91061,82.317505
1392000000,-174.33865,83.192749
1401500000,-174.44632,83.50843
1411000000,-174.16394,83.229713
1420500000,-173.99434,83.071602
1430000000,-174.21312,83.449158
1439500000,-174.20093,83.470619
1449000000,-174.00424,83.211983
1458500000,-173.6852,82.740448
1468000000,-173.59224,82.447891
1477500000,-173.43922,82.032982
1487000000,-173.38011,81.770447
1496500000,-173.54248,81.913246
1506000000,-173.19455,80.965431
1515500000,-173.114,80.775253
1525000000,-173.12456,80.773285
1534500000,-173.24591,80.999779
1544000000,-173.40836,81.302116
1553500000,-173.5325,81.521301
1563000000,-173.51628,81.467514
1572500000,-173.68694,81.880188
1582000000,-174.15523,82.892174
1591500000,-174.3795,83.419289
1601000000,-174.39458,83.605576
1610500000,-174.28911,83.609146
1620000000,-174.03798,83.392876
1629500000,-173.73897,83.090271
1639000000,-173.47699,82.761162
1648500000,-173.45734,82.637657
1658000000,-173.42059,82.481758
1667500000,-173.39598,82.342545
1677000000,-173.40517,82.259224
1686500000,-173.31821,82.00074
1696000000,-173.3378,81.930077
1705500000,-173.33684,81.834984
1715000000,-173.35582,81.914597
1724500000,-173.42043,82.076012
1734000000,-173.45587,82.182297
1743500000,-173.52057,82.337982
1753000000,-173.50928,82.359634
1762500000,-173.47365,82.338646
1772000000,-173.31703,82.102859
1781500000,-173.55444,82.646591
1791000000,-173.72594,83.054665
1800500000,-173.78354,83.26564
1810000000,-173.68739,83.235062
1819500000,-173.53937,83.121269
1829000000,-173.48155,83.146019
1838500000,-173.51709,83.312828
1848000000,-173.13417,82.618271
1857500000,-172.79355,81.851479
1867000000,-172.55788,81.214485
1876500000,-172.51576,80.931046
1886000000,-172.60324,80.904404
1895500000,-172.77507,81.045555
1905000000,-173.08426,81.450066
1914500000,-173.32182,81.862053
1924000000,-173.59894,82.437691
1933500000,-173.82524,82.890823
1943000000,-173.92426,83.119774
1952500000,-173.88316,83.124397
1962000000,-173.69298,82.890869
1971500000,-173.37918,82.438995
1981000000,-173.18475,82.182281
1990500000,-173.13039,82.182823
2000000000,-173.04005,82.117905
END

