!CSV A.01.01
!Keysight Technologies,N5242B,MY48420967,A.15.65.19
!Date: Saturday, February 04, 2023 18:41:19
!Source: Standard

BEGIN CH1_DATA
Freq(Hz),B_1(DB),B_1(DEG)
100000000,-104.03619,-3.0484307
109500000,-102.76099,-3.8126214
119000000,-103.76323,-176.96115
128500000,-104.48894,128.59152
138000000,-104.72841,-3.9395456
147500000,-101.8902,118.14189
157000000,-102.848,-42.671955
166500000,-102.94678,100.03459
176000000,-103.61187,15.857319
185500000,-104.00342,-132.59668
195000000,-104.84401,100.35889
204500000,-104.85777,14.189559
214000000,-102.06174,-15.323183
223500000,-102.56514,172.96616
233000000,-102.88233,-135.13036
242500000,-103.28696,21.298182
252000000,-98.427925,116.7897
261500000,-98.625725,32.715992
271000000,-98.999977,82.368645
280500000,-99.221725,-88.287056
290000000,-99.860283,10.982205
299500000,-99.836708,54.032017
309000000,-100.04396,60.850552
318500000,-100.22512,76.999039
328000000,-100.29833,-142.54761
337500000,-100.94503,91.290688
347000000,-100.90492,58.749996
356500000,-101.06557,-140.2674
366000000,-101.1925,-147.46124
375500000,-101.51986,-73.064224
385000000,-101.83305,-80.484001
394500000,-101.86954,-20.802471
404000000,-102.14141,-61.163185
413500000,-102.49218,-153.50868
423000000,-102.36886,-27.952896
432500000,-102.43083,161.86676
442000000,-102.71046,-22.477545
451500000,-103.14516,-21.101845
461000000,-102.90911,32.818874
470500000,-102.97232,-116.5848
480000000,-103.42459,6.1606612
489500000,-103.64886,-61.03899
499000000,-103.56568,-15.624965
508500000,-102.95822,76.014328
518000000,-103.10944,76.134125
527500000,-102.91728,-155.35918
537000000,-103.41163,154.37776
546500000,-103.32323,106.26321
556000000,-103.4367,83.874557
565500000,-103.56503,-149.56732
575000000,-103.61141,142.51118
584500000,-103.78698,175.34584
594000000,-103.94002,8.0716619
603500000,-104.12556,-60.497314
613000000,-104.18649,-170.93964
622500000,-103.90584,-84.237144
632000000,-103.36598,115.12241
641500000,-103.17237,88.550369
651000000,-103.33701,100.93498
660500000,-103.3901,99.839249
670000000,-103.64768,-46.6693
679500000,-103.73968,86.157234
689000000,-103.77476,-36.104694
698500000,-104.10709,-101.58349
708000000,-104.02405,36.839134
717500000,-104.00394,92.63443
727000000,-103.82602,-131.10632
736500000,-104.2082,-78.625786
746000000,-104.23301,139.73547
755500000,-104.28763,-56.523102
765000000,-104.13914,115.5094
774500000,-104.49552,118.99831
784000000,-104.30521,157.2382
793500000,-104.43423,-22.556162
803000000,-104.48272,169.9725
812500000,-104.48033,106.11529
822000000,-104.58521,97.974007
831500000,-104.4549,85.815826
841000000,-104.8052,-165.79237
850500000,-104.65662,-80.417473
860000000,-104.79116,-158.24023
869500000,-104.71384,-106.20862
879000000,-104.87044,-168.60834
888500000,-104.82682,17.751484
898000000,-105.12692,-132.32797
907500000,-104.79148,-77.884964
917000000,-104.89723,-137.08649
926500000,-104.96618,-80.055466
936000000,-105.04623,-42.329956
945500000,-105.32375,118.99433
955000000,-105.01198,65.150337
964500000,-105.04111,75.097374
974000000,-105.04899,9.7769146
983500000,-105.29065,146.01817
993000000,-105.10788,59.362785
1002500000,-105.57645,73.361694
1012000000,-105.48035,79.50885
1021500000,-105.46089,-127.39581
1031000000,-105.60529,-111.23933
1040500000,-105.5342,110.84821
1050000000,-105.54738,-164.75642
1059500000,-105.35976,-147.66737
1069000000,-105.34309,141.77161
1078500000,-105.25879,120.07157
1088000000,-105.17572,47.918518
1097500000,-105.45763,-130.89108
1107000000,-105.5887,-150.62935
1116500000,-105.59191,-137.5439
1126000000,-105.30967,-22.031584
1135500000,-105.78344,-149.92628
1145000000,-105.60407,-83.960487
1154500000,-105.31227,163.13324
1164000000,-105.36111,132.77818
1173500000,-105.34857,135.62885
1183000000,-105.35963,-169.99532
1192500000,-105.53094,-46.141815
1202000000,-105.48401,133.27013
1211500000,-105.44453,-52.628632
1221000000,-105.4726,-45.649433
1230500000,-105.83636,20.028252
1240000000,-105.75565,-0.7489773
1249500000,-105.49953,-120.97894
1259000000,-105.35185,-6.7363644
1268500000,-105.64577,-4.4020824
1278000000,-105.37732,-85.294579
1287500000,-105.30887,-34.090557
1297000000,-105.19225,104.22494
1306500000,-105.51394,36.007504
1316000000,-105.6339,-161.41864
1325500000,-105.22665,-77.932907
1335000000,-105.36647,139.17255
1344500000,-105.15671,121.5352
1354000000,-105.41267,-15.37555
1363500000,-105.11784,-132.87207
1373000000,-105.1513,36.298615
1382500000,-105.444,-161.12262
1392000000,-105.23723,-137.80705
1401500000,-105.19566,106.42632
1411000000,-105.4258,25.548153
1420500000,-105.2506,-138.006
1430000000,-105.34691,5.8487396
1439500000,-105.41296,14.549285
1449000000,-105.29082,-39.360527
1458500000,-105.36385,4.7563376
1468000000,-105.05807,54.712906
1477500000,-105.21523,85.401566
1487000000,-105.08094,-145.2067
1496500000,-105.19291,-88.688293
1506000000,-105.03476,44.59634
1515500000,-104.94921,-91.88768
1525000000,-104.8744,45.995667
1534500000,-104.80853,-50.61433
1544000000,-105.02792,109.99731
1553500000,-104.95027,159.22388
1563000000,-104.84373,120.31812
1572500000,-105.10736,157.48351
1582000000,-104.79041,34.09584
1591500000,-104.79705,-158.31326
1601000000,-104.62035,60.617043
1610500000,-104.72121,118.50033
1620000000,-104.56371,5.6806335
1629500000,-104.76537,-174.14417
1639000000,-104.68299,164.54739
1648500000,-104.75784,-90.31356
1658000000,-104.55719,-89.761803
1667500000,-104.64635,-147.19269
1677000000,-104.72989,-133.51064
1686500000,-104.38732,-167.86444
1696000000,-104.3595,-177.90942
1705500000,-104.49921,178.24356
1715000000,-104.37556,52.536076
1724500000,-104.53842,83.667473
1734000000,-104.21588,118.24612
1743500000,-104.36897,40.340782
1753000000,-104.08348,-132.01463
1762500000,-104.29901,26.920338
1772000000,-104.46637,-160.2766
1781500000,-104.26574,-78.632553
1791000000,-104.05717,88.904938
1800500000,-104.19055,-56.484856
1810000000,-104.05029,-135.7144
1819500000,-104.19706,-112.34859
1829000000,-104.18903,-169.7413
1838500000,-104.19957,50.669685
1848000000,-104.1114,20.628485
1857500000,-104.06467,73.082314
1867000000,-103.98892,69.068748
1876500000,-104.15961,148.69896
1886000000,-104.12687,109.57034
1895500000,-104.0917,18.537239
1905000000,-103.95988,161.86157
1914500000,-104.08121,-57.6856
1924000000,-104.0332,-142.35661
1933500000,-103.95022,58.382626
1943000000,-104.06734,-47.39698
1952500000,-103.86208,24.622269
1962000000,-103.78994,85.639381
1971500000,-103.61459,114.90001
1981000000,-104.12949,-18.081156
1990500000,-103.7317,5.1269827
2000000000,-103.88963,-41.208485
END

