!CSV A.01.01
!Keysight Technologies,N5242B,MY48420967,A.15.65.19
!Date: Saturday, February 04, 2023 14:59:17
!Source: Standard

BEGIN CH1_DATA
Freq(Hz),SYSNPD(DB),SYSNPD(DEG)
100000000,-166.52776,0.018226843
109500000,-166.36121,0.013196576
119000000,-166.31654,0.012246438
128500000,-166.26282,0.013384419
138000000,-166.23515,0.016606307
147500000,-165.8102,0.013420557
157000000,-166.26389,0.016643064
166500000,-166.16008,0.016022431
176000000,-166.15007,0.016052218
185500000,-166.15135,0.015809877
195000000,-166.1438,0.015327537
204500000,-166.07933,0.014394184
214000000,-166.08099,0.013488301
223500000,-166.03992,0.012584412
233000000,-165.98964,0.011934018
242500000,-165.93962,0.011409652
252000000,-165.91924,0.011026739
261500000,-165.91081,0.010673974
271000000,-165.92404,0.01041776
280500000,-165.94666,0.01026527
290000000,-165.95299,0.010199303
299500000,-165.94359,0.010289581
309000000,-165.96242,0.010819589
318500000,-165.95026,0.0114507
328000000,-165.87601,0.011685478
337500000,-165.90767,0.011523561
347000000,-165.74973,0.0088430988
356500000,-165.75272,0.0098928409
366000000,-165.78441,0.0097900471
375500000,-165.9353,0.0099502113
385000000,-165.99779,0.0098235328
394500000,-165.95927,0.0094682686
404000000,-165.90752,0.009302034
413500000,-165.87939,0.0094773658
423000000,-165.7849,0.0095033981
432500000,-165.71049,0.0097035998
442000000,-165.66537,0.0099968901
451500000,-165.64436,0.010283347
461000000,-165.58536,0.010175831
470500000,-165.60994,0.010264914
480000000,-165.64468,0.010213625
489500000,-165.66086,0.0099681793
499000000,-165.70349,0.009780135
508500000,-165.71628,0.0094935764
518000000,-165.70656,0.0091543607
527500000,-165.68071,0.0088362973
537000000,-165.68646,0.0087311314
546500000,-165.64758,0.008537285
556000000,-165.60814,0.0084156683
565500000,-165.55264,0.0083055189
575000000,-165.48517,0.0081743468
584500000,-165.40802,0.0080363974
594000000,-165.34918,0.0079341251
603500000,-165.30836,0.0078737121
613000000,-165.30293,0.0078909332
622500000,-165.33653,0.0079794489
632000000,-165.34167,0.0079074502
641500000,-165.34276,0.0077892337
651000000,-165.34808,0.0076844334
660500000,-165.3875,0.0076917126
670000000,-165.41005,0.0076685464
679500000,-165.44917,0.0077581969
689000000,-165.5009,0.0079659531
698500000,-165.51382,0.0081048328
708000000,-165.54344,0.0083653368
717500000,-165.55963,0.0086192256
727000000,-165.55157,0.0087780142
736500000,-165.49004,0.0086511597
746000000,-165.50333,0.0086744726
755500000,-165.5157,0.01030024
765000000,-165.45644,0.010620513
774500000,-165.42458,0.010999326
784000000,-165.41719,0.011436552
793500000,-165.41898,0.011802739
803000000,-165.31914,0.011501931
812500000,-165.26588,0.011329832
822000000,-165.24855,0.011252756
831500000,-165.26489,0.011263249
841000000,-165.26308,0.011141232
850500000,-165.25842,0.0109921
860000000,-165.24316,0.010816418
869500000,-165.22125,0.010625959
879000000,-165.21629,0.01055311
888500000,-165.23601,0.01064453
898000000,-165.24319,0.010705582
907500000,-165.23355,0.010724954
917000000,-165.21967,0.010734658
926500000,-165.20897,0.010773777
936000000,-165.19662,0.010808332
945500000,-165.18903,0.010854625
955000000,-165.19412,0.010932713
964500000,-165.15714,0.010763078
974000000,-165.10094,0.01047312
983500000,-165.06674,0.010240614
993000000,-165.06215,0.01007954
1002500000,-165.04854,0.0098855104
1012000000,-165.01675,0.0096172299
1021500000,-164.98515,0.0093526039
1031000000,-164.94589,0.0090753892
1040500000,-164.87918,0.0087469975
1050000000,-164.91466,0.0088612912
1059500000,-164.95128,0.0090121292
1069000000,-164.97179,0.0091311187
1078500000,-164.98154,0.0092279688
1088000000,-164.99609,0.0093599278
1097500000,-165.01134,0.0095191365
1107000000,-165.02922,0.0096852183
1116500000,-165.05927,0.0098801544
1126000000,-165.09096,0.010054098
1135500000,-165.05228,0.0098392107
1145000000,-165.03998,0.0096861571
1154500000,-165.05762,0.0095996819
1164000000,-165.112,0.0095931618
1173500000,-165.09975,0.0092277061
1183000000,-165.05109,0.0087085236
1192500000,-164.98561,0.0081681591
1202000000,-164.89366,0.0075955265
1211500000,-164.81522,0.0071280221
1221000000,-164.79349,0.0068869591
1230500000,-164.74319,0.0066045672
1240000000,-164.66246,0.006283523
1249500000,-164.55937,0.0059415256
1259000000,-164.59338,0.0060104188
1268500000,-164.61691,0.0060773939
1278000000,-164.62691,0.0061258064
1287500000,-164.62558,0.006158439
1297000000,-164.63512,0.0062093548
1306500000,-164.6414,0.0062580467
1316000000,-164.67162,0.0063417465
1325500000,-164.72209,0.0064564869
1335000000,-164.77322,0.0065320539
1344500000,-164.72343,0.0062629562
1354000000,-164.70723,0.0060455408
1363500000,-164.69447,0.0058343173
1373000000,-164.67239,0.0056121754
1382500000,-164.6508,0.0054318542
1392000000,-164.616,0.0052476027
1401500000,-164.53145,0.0050080954
1411000000,-164.41196,0.0047377832
1420500000,-164.3333,0.0045983633
1430000000,-164.33388,0.0046593691
1439500000,-164.31091,0.0046949931
1449000000,-164.26662,0.0047069476
1458500000,-164.20996,0.0047070328
1468000000,-164.26668,0.00496396
1477500000,-164.32162,0.0052247141
1487000000,-164.39095,0.0055095069
1496500000,-164.48866,0.0058401772
1506000000,-164.56116,0.010265719
1515500000,-164.55559,0.010103018
1525000000,-164.56963,0.0099856779
1534500000,-164.59813,0.0099003427
1544000000,-164.62921,0.0098193586
1553500000,-164.65375,0.009722027
1563000000,-164.66043,0.009583679
1572500000,-164.64679,0.0093891826
1582000000,-164.59283,0.0090973694
1591500000,-164.52005,0.0087732151
1601000000,-164.41629,0.0083972495
1610500000,-164.31273,0.0080344658
1620000000,-164.19296,0.0076555172
1629500000,-164.07031,0.0072863838
1639000000,-163.98979,0.0070759286
1648500000,-164.03247,0.0072696852
1658000000,-164.07974,0.0074745473
1667500000,-164.12982,0.0076879491
1677000000,-164.17287,0.0078923358
1686500000,-164.2211,0.0081098732
1696000000,-164.26924,0.0083311452
1705500000,-164.31459,0.0085372534
1715000000,-164.29681,0.0084993457
1724500000,-164.28241,0.0084684053
1734000000,-164.27095,0.0084430743
1743500000,-164.25117,0.0084019341
1753000000,-164.23178,0.0083615286
1762500000,-164.20984,0.0083165318
1772000000,-164.16864,0.0082350709
1781500000,-164.12912,0.0081787063
1791000000,-164.07883,0.008104275
1800500000,-164.00768,0.0079920236
1810000000,-163.93431,0.007877158
1819500000,-163.85442,0.0077523459
1829000000,-163.78796,0.0076530888
1838500000,-163.72551,0.0075620231
1848000000,-163.72992,0.0076854913
1857500000,-163.76398,0.0078962129
1867000000,-163.8201,0.0081509044
1876500000,-163.89719,0.0084515717
1886000000,-163.99268,0.0087978663
1895500000,-164.11023,0.0092016971
1905000000,-164.24048,0.0096495571
1914500000,-164.29312,0.0097526377
1924000000,-164.28229,0.0095753865
1933500000,-164.26471,0.0093840603
1943000000,-164.23703,0.0091730896
1952500000,-164.19087,0.008926088
1962000000,-164.13197,0.0086577814
1971500000,-164.06079,0.0083716949
1981000000,-163.99147,0.0081196213
1990500000,-163.94154,0.0079454565
2000000000,-163.88448,0.0077614388
END

