!CSV A.01.01
!Keysight Technologies,N5242B,MY48420967,A.15.65.19
!Date: Saturday, February 04, 2023 08:09:48
!Source: Standard

BEGIN CH1_DATA
Freq(Hz),A_1(DB),A_1(DEG)
100000000,-104.15192,-33.408356
109500000,-102.94419,-170.07866
119000000,-103.88548,66.037354
128500000,-104.34979,-27.348215
138000000,-105.0574,165.79124
147500000,-101.74182,-177.89427
157000000,-102.6587,-36.966347
166500000,-102.94582,130.63948
176000000,-103.45211,3.6172912
185500000,-103.90262,179.18149
195000000,-104.29635,-172.62376
204500000,-104.79057,-23.900475
214000000,-102.65245,76.397911
223500000,-103.00719,-28.777458
233000000,-103.30895,-25.334274
242500000,-103.7121,-58.007576
252000000,-98.610352,-117.56933
261500000,-99.001465,178.9429
271000000,-99.332901,-39.265682
280500000,-99.44165,-62.927094
290000000,-99.788643,-3.9669282
299500000,-100.07491,-89.068687
309000000,-100.35772,85.66436
318500000,-100.42713,-155.52248
328000000,-100.92867,-52.973183
337500000,-101.26633,-108.3492
347000000,-101.10722,-69.077347
356500000,-101.51731,-64.078148
366000000,-101.73753,13.770241
375500000,-101.87188,-155.72504
385000000,-102.1312,-155.50594
394500000,-102.35425,-135.74223
404000000,-101.77212,-82.302101
413500000,-101.8335,-71.164452
423000000,-101.97832,126.1754
432500000,-102.08202,-109.36498
442000000,-102.08353,67.767723
451500000,-102.53252,-29.742424
461000000,-102.6939,141.96371
470500000,-102.75525,74.505325
480000000,-102.90831,-70.82061
489500000,-103.09595,-142.29918
499000000,-103.21054,-118.57554
508500000,-103.19939,-41.597466
518000000,-103.3926,-106.21101
527500000,-103.45328,-76.614182
537000000,-103.72725,15.105802
546500000,-103.68971,100.21375
556000000,-103.90668,101.96864
565500000,-103.9847,-121.57983
575000000,-104.04296,68.970627
584500000,-104.1244,121.76798
594000000,-104.22229,81.850609
603500000,-104.18416,116.3579
613000000,-104.48072,127.82175
622500000,-104.40894,0.88565594
632000000,-103.607,-82.975769
641500000,-103.55466,-156.83485
651000000,-103.39657,85.555992
660500000,-103.87673,-22.866531
670000000,-103.7798,148.44728
679500000,-103.938,161.11641
689000000,-104.12926,-179.5786
698500000,-104.11879,54.258076
708000000,-104.316,78.826736
717500000,-104.33102,58.489471
727000000,-104.41589,-43.140736
736500000,-104.5023,-85.494843
746000000,-104.38627,34.30798
755500000,-104.5687,95.512596
765000000,-104.70588,-138.34448
774500000,-104.61675,-12.93071
784000000,-104.83435,-84.60199
793500000,-104.71452,-77.682526
803000000,-104.86257,88.734489
812500000,-104.94335,168.97243
822000000,-104.99904,-58.513973
831500000,-105.02731,176.65881
841000000,-105.07746,4.892941
850500000,-105.36483,-11.367346
860000000,-105.20811,94.786301
869500000,-105.28164,94.720695
879000000,-105.20309,-71.152664
888500000,-104.97262,156.75937
898000000,-105.41231,96.998177
907500000,-105.07922,104.34868
917000000,-105.60746,-130.71213
926500000,-105.33861,15.739077
936000000,-105.30472,99.969345
945500000,-105.47091,52.380466
955000000,-105.70728,20.811031
964500000,-105.52454,-140.61806
974000000,-105.41791,94.070076
983500000,-105.58138,25.739229
993000000,-105.76342,174.75909
1002500000,-102.95029,18.590485
1012000000,-102.89139,-52.462872
1021500000,-102.96704,66.455505
1031000000,-102.9339,-8.6766291
1040500000,-102.89915,86.213737
1050000000,-102.98628,-166.94653
1059500000,-102.88114,-146.3989
1069000000,-102.9311,-155.76352
1078500000,-102.90729,-106.73971
1088000000,-103.19434,-2.9761777
1097500000,-103.27689,-128.28281
1107000000,-102.91614,-70.264954
1116500000,-103.23225,-16.315849
1126000000,-102.86821,31.755749
1135500000,-103.4385,47.19067
1145000000,-103.09014,122.62129
1154500000,-103.14787,-13.93285
1164000000,-102.92627,-15.033969
1173500000,-103.22547,-111.12383
1183000000,-102.88534,-9.7767353
1192500000,-102.97367,-50.812096
1202000000,-103.40838,3.6568668
1211500000,-103.03631,-128.73155
1221000000,-103.32085,57.676788
1230500000,-103.01195,-153.88573
1240000000,-103.09801,96.786606
1249500000,-102.87612,129.19928
1259000000,-103.24044,172.20517
1268500000,-103.10175,101.49049
1278000000,-103.11268,-59.752171
1287500000,-103.1633,56.646835
1297000000,-102.93058,117.5645
1306500000,-103.01165,-51.610344
1316000000,-103.31442,177.73622
1325500000,-103.16193,117.86026
1335000000,-102.94646,-16.723862
1344500000,-103.07883,-156.96996
1354000000,-103.20905,-57.188831
1363500000,-103.01431,46.470921
1373000000,-103.10139,-34.779568
1382500000,-103.32214,-106.11536
1392000000,-103.13222,5.9597015
1401500000,-102.90416,-45.578793
1411000000,-102.92696,-18.899668
1420500000,-102.91125,64.260979
1430000000,-102.68017,127.72604
1439500000,-103.24477,-87.184837
1449000000,-102.91417,52.590591
1458500000,-102.92535,149.75301
1468000000,-102.79601,-108.15784
1477500000,-102.78475,174.97137
1487000000,-102.69134,156.42445
1496500000,-102.82793,162.14571
1506000000,-105.68647,115.94123
1515500000,-105.7502,27.365698
1525000000,-105.54914,135.69084
1534500000,-105.56742,-126.65557
1544000000,-105.36489,-78.372101
1553500000,-105.2975,-112.68423
1563000000,-105.43692,154.79283
1572500000,-105.3647,-132.2336
1582000000,-105.45638,-125.75396
1591500000,-105.36911,40.506786
1601000000,-105.26979,-117.18971
1610500000,-105.27213,-154.24136
1620000000,-105.36488,56.466362
1629500000,-104.92336,-14.357437
1639000000,-105.55624,-129.51358
1648500000,-105.18864,-107.27907
1658000000,-105.29327,59.369686
1667500000,-104.90007,-173.6235
1677000000,-105.07882,76.424782
1686500000,-104.95698,173.01332
1696000000,-105.10413,-15.889934
1705500000,-105.08063,-62.312309
1715000000,-105.14453,163.43948
1724500000,-105.02769,-138.40692
1734000000,-104.93006,157.45103
1743500000,-104.85764,31.853485
1753000000,-104.86832,114.00559
1762500000,-104.68067,67.394958
1772000000,-104.93327,-172.43094
1781500000,-104.87124,-66.25647
1791000000,-105.02041,117.59981
1800500000,-104.66879,-138.72185
1810000000,-104.62108,-132.35686
1819500000,-104.87697,5.5871453
1829000000,-104.67286,-100.89777
1838500000,-104.50079,111.24234
1848000000,-104.78538,170.72292
1857500000,-104.62755,-174.26419
1867000000,-104.5291,-87.700737
1876500000,-104.46433,127.23565
1886000000,-104.54867,-80.702377
1895500000,-104.77258,11.801589
1905000000,-104.69128,-40.423824
1914500000,-104.87858,-45.805058
1924000000,-104.64999,-110.79953
1933500000,-104.56826,131.47928
1943000000,-104.4048,90.899574
1952500000,-104.81691,-35.30349
1962000000,-104.64167,-114.9399
1971500000,-104.51551,-163.76292
1981000000,-104.15649,100.08293
1990500000,-104.28979,-141.00523
2000000000,-104.34789,-121.76077
END

