!Keysight Technologies,N5242B,MY48420967,A.15.65.19
!Date: Monday, January 23, 2023 02:51:35
!Correction: S11(C  1-Port  ) 
!S21(Off) 
!S12(Off) 
!S22(Off) 
!S2P File: Measurements: S11, S21, S12, S22:
# Hz S  dB   R 50
100000000 -1.498968 40.418423 -15.819076 96.896324 -78.518867 -2.1687562 -20.641842 86.702393
109500000 -1.4154499 11.00741 -15.572837 -3.6059327 -76.885689 -77.140434 -23.85791 32.183205
119000000 -1.3235662 -17.699812 -15.669618 -108.85595 -73.973297 166.12105 -30.302656 -59.044498
128500000 -1.2503525 -46.075188 -16.262022 149.59853 -74.174828 81.260109 -25.400471 -178.46313
138000000 -1.2439106 -74.617241 -16.351664 49.928295 -73.45031 -3.5951993 -20.192074 121.80162
147500000 -1.2948999 -103.4603 -16.291077 -51.574909 -71.429588 -111.16528 -17.670471 72.829048
157000000 -1.354624 -132.59555 -16.281172 -153.6501 -70.164894 161.33841 -16.92724 25.104433
166500000 -1.440256 -162.12134 -16.366514 103.48508 -69.879059 65.610191 -17.989637 -23.515446
176000000 -1.5548494 167.92322 -16.682215 1.5013402 -69.900757 -29.651773 -21.304417 -74.958099
185500000 -1.6428226 137.75313 -16.875633 -98.687302 -68.867416 -120.41543 -28.375328 -147.19992
195000000 -1.6739919 107.7972 -16.796291 160.68315 -67.418053 150.01184 -27.061317 74.95887
204500000 -1.6766863 78.182487 -16.755074 58.085697 -66.60685 59.545139 -20.664551 7.5271068
214000000 -1.6621169 48.818249 -17.071722 -44.181976 -66.285515 -37.812893 -17.941793 -44.081181
223500000 -1.6179978 19.81321 -17.288366 -143.66466 -66.340668 -126.33192 -17.235888 -92.786407
233000000 -1.5653901 -8.8704929 -17.102854 116.1526 -64.70842 142.2804 -18.073341 -142.98531
242500000 -1.5433666 -37.480564 -17.021082 13.744966 -64.542046 49.229305 -20.693884 159.70714
252000000 -1.543105 -66.200081 -17.16827 -88.228241 -63.488171 -45.982838 -24.790148 79.948898
261500000 -1.5695465 -95.174789 -17.335482 170.91031 -63.202271 -139.91826 -23.757332 -21.48053
271000000 -1.640605 -124.49445 -17.293419 70.997185 -62.281624 129.37283 -19.836374 -91.418556
280500000 -1.7287171 -154.24306 -17.000555 -31.131937 -61.691559 40.842594 -17.63674 -147.28447
290000000 -1.8047947 175.73877 -17.172621 -135.13205 -61.554565 -55.976246 -17.224838 159.67914
299500000 -1.8852255 145.62611 -17.549225 124.39997 -61.107639 -151.35643 -18.460712 106.34599
309000000 -1.9497787 115.44729 -17.445784 24.401094 -60.707989 120.30906 -21.288485 47.170223
318500000 -1.9681597 85.539162 -17.358786 -78.076653 -60.051823 25.321323 -24.898905 -33.56385
328000000 -1.9478921 56.134922 -17.491289 179.83675 -59.886822 -69.231346 -23.944838 -131.761
337500000 -1.9351437 26.95159 -17.664625 78.201767 -59.256329 -160.14284 -20.842573 156.56458
347000000 -1.9313241 -2.1109056 -17.832691 -22.175602 -59.141743 105.3887 -19.230566 98.756775
356500000 -1.9101073 -31.008659 -17.650187 -122.27643 -58.892666 16.262062 -19.098944 42.924
366000000 -1.911871 -59.988728 -17.440865 134.45554 -58.041058 -80.835197 -20.363367 -17.226341
375500000 -1.9678595 -89.338844 -17.764624 31.196896 -57.861355 -173.20015 -22.525717 -87.79287
385000000 -2.0364981 -119.14197 -18.069294 -68.664078 -57.487839 95.780144 -23.22156 -169.36826
394500000 -2.1040676 -149.19942 -17.891315 -168.61897 -57.244011 4.0547166 -21.5907 116.60092
404000000 -2.1729028 -179.33771 -17.755308 88.229561 -56.865932 -91.651436 -20.15782 54.430374
413500000 -2.2356238 150.41348 -18.106619 -14.219472 -56.683712 173.81029 -20.172777 -2.8567183
423000000 -2.2789996 120.25732 -18.275871 -113.97129 -56.401833 83.448402 -21.932261 -59.994823
432500000 -2.2768414 90.564529 -18.188517 144.5764 -55.985977 -8.5397196 -25.586739 -126.79655
442000000 -2.2475133 61.366001 -18.403635 42.710678 -56.032085 -102.91636 -28.322437 133.60661
451500000 -2.226548 32.553699 -18.487324 -57.760071 -55.876698 165.24886 -24.688303 42.537598
461000000 -2.2033339 4.0034947 -18.587326 -159.85207 -55.562172 71.768944 -21.884609 -19.989414
470500000 -2.1765802 -24.357229 -18.916328 100.14181 -55.646431 -18.846565 -21.067375 -74.605904
480000000 -2.1667001 -52.623344 -18.666233 0.82990515 -55.062057 -110.22604 -22.057257 -130.10883
489500000 -2.1926856 -81.151085 -18.51824 -103.21254 -54.503918 155.05191 -25.116203 164.0139
499000000 -2.2435663 -110.07352 -19.018713 155.04161 -54.682663 62.300232 -27.815268 67.953545
508500000 -2.285594 -139.20967 -18.990305 55.849438 -54.405434 -27.529594 -24.277378 -22.329252
518000000 -2.3268337 -168.49702 -18.855427 -46.956142 -54.018524 -122.64635 -21.012247 -84.084229
527500000 -2.3748622 162.09985 -19.144049 -149.07414 -53.875938 144.47229 -19.751898 -137.58888
537000000 -2.4031439 132.75397 -19.286734 109.77097 -53.99971 52.100925 -20.466566 170.85994
546500000 -2.3968391 103.74503 -19.548325 8.3508787 -53.890408 -40.890015 -23.528311 117.03603
556000000 -2.3699086 75.228584 -19.682648 -91.165016 -53.646587 -132.35278 -30.635 38.462372
565500000 -2.3374662 47.092548 -19.570396 167.09239 -53.217201 135.13792 -27.847815 -100.87025
575000000 -2.3056812 19.265499 -19.973608 64.909775 -53.248268 41.555378 -21.750696 -166.66518
584500000 -2.2738438 -8.3232946 -20.250433 -33.140102 -53.367661 -47.769905 -19.168983 141.92487
594000000 -2.2579846 -35.86385 -20.008722 -132.79807 -52.860073 -139.78543 -18.485641 92.433708
603500000 -2.2722228 -63.600571 -20.059547 126.14294 -52.560699 127.23106 -19.501835 39.371475
613000000 -2.3115594 -91.700264 -19.922318 26.159733 -52.291008 36.365215 -22.397156 -24.490822
622500000 -2.3575251 -120.19639 -19.991079 -76.802849 -52.272221 -58.86483 -24.985188 -114.50826
632000000 -2.41837 -149.06821 -20.408661 -175.20662 -52.700718 -149.67261 -22.111631 157.35477
641500000 -2.4755373 -178.18495 -19.95146 85.892311 -51.923477 120.10368 -18.95443 94.87294
651000000 -2.5189171 152.54506 -19.932262 -18.293467 -51.84483 24.294792 -17.606451 41.051792
660500000 -2.5428662 123.35156 -20.355177 -118.57075 -52.092808 -66.823418 -18.086302 -10.306531
670000000 -2.5420673 94.355453 -20.241837 142.12115 -51.88261 -158.03763 -20.503075 -63.337124
679500000 -2.5236244 65.697861 -20.118488 40.3078 -51.628345 109.437 -25.856207 -132.89938
689000000 -2.4920983 37.477444 -20.239658 -61.4986 -51.58128 15.257058 -26.920456 100.67538
698500000 -2.4657056 9.4993935 -20.409159 -162.41579 -51.600979 -76.074188 -20.766283 23.65316
708000000 -2.4580443 -18.355251 -20.521994 97.720108 -51.520943 -167.51645 -17.66481 -29.103033
717500000 -2.4587834 -46.187862 -20.425201 -2.0054352 -51.360397 101.76202 -16.503284 -77.539192
727000000 -2.4888873 -74.272285 -20.199848 -103.19148 -51.007019 9.5435467 -17.001045 -126.66749
736500000 -2.5572753 -102.8214 -20.149244 154.19406 -50.687107 -84.882782 -19.584513 -179.25301
746000000 -2.6305339 -131.87717 -20.379843 52.371403 -50.810699 -178.45547 -25.112854 113.35522
755500000 -2.6936491 -161.2933 -20.519722 -47.65435 -50.792896 90.739357 -26.94363 -8.1355591
765000000 -2.762146 169.07021 -20.378864 -148.24428 -50.605892 -1.2678132 -20.970709 -86.19043
774500000 -2.8156579 139.2587 -20.3647 109.07519 -50.358349 -94.756721 -18.060497 -139.58115
784000000 -2.8287776 109.54218 -20.715935 7.3889132 -50.642941 171.46609 -17.419764 172.78317
793500000 -2.8113072 80.231186 -20.874649 -91.71476 -50.682056 81.557442 -18.583204 127.31414
803000000 -2.7834566 51.395889 -20.639385 167.69017 -50.393017 -9.8936853 -22.115925 80.81031
812500000 -2.7477419 22.97027 -20.738237 64.744919 -50.249191 -105.05608 -32.385761 20.515358
822000000 -2.7096324 -5.0757341 -21.066162 -35.614895 -50.552135 164.01404 -28.455587 -166.78868
831500000 -2.6873465 -32.85397 -21.016005 -135.31721 -50.26012 73.224487 -21.349543 142.32703
841000000 -2.6932552 -60.583374 -21.038715 123.37437 -50.249306 -19.618702 -18.773958 97.94281
850500000 -2.7256279 -88.525208 -21.055908 23.400528 -50.077671 -111.07249 -18.464813 54.145077
860000000 -2.777353 -116.83952 -20.819391 -78.705383 -49.786469 156.19899 -20.359976 10.957632
869500000 -2.8341219 -145.52191 -21.205475 178.14188 -50.029133 61.401627 -25.700535 -29.892952
879000000 -2.8907747 -174.46638 -21.514248 79.955879 -50.270332 -27.344059 -47.215828 37.211819
888500000 -2.9362731 156.41644 -21.116259 -20.535366 -49.697727 -119.56567 -25.462746 56.748806
898000000 -2.9577057 127.26138 -21.340462 -124.4397 -49.794994 145.51648 -20.84914 16.488295
907500000 -2.9443243 98.318428 -21.768259 136.58882 -50.076389 55.351059 -19.522774 -24.11581
917000000 -2.9090307 69.806389 -21.537327 36.994713 -49.764999 -35.099411 -20.320433 -63.54483
926500000 -2.8596818 41.744179 -21.602736 -65.509209 -49.696468 -129.10408 -23.720089 -99.51207
936000000 -2.803545 14.145661 -21.833483 -165.80876 -49.839653 139.80208 -32.5625 -105.76759
945500000 -2.7526953 -13.016989 -21.910072 93.660492 -49.803967 48.139389 -27.507248 -46.164116
955000000 -2.7201753 -39.946857 -22.107733 -5.9736018 -49.987877 -42.595669 -21.493889 -74.171173
964500000 -2.7176442 -66.836723 -21.919754 -105.04931 -49.614773 -133.04573 -19.141666 -112.61974
974000000 -2.7388523 -93.877769 -21.834133 152.77245 -49.383698 133.32477 -19.022993 -153.47169
983500000 -2.7839789 -121.31641 -22.12232 52.691299 -49.640171 42.150349 -21.142042 165.14137
993000000 -2.8426228 -149.16624 -21.9697 -46.630783 -49.481834 -48.916714 -27.219284 124.10133
1002500000 -2.8930469 -177.37474 -22.011106 -148.25037 -49.535164 -142.60724 -38.6768 -103.36246
1012000000 -2.9452932 154.08276 -22.156612 112.85181 -49.596287 127.87827 -23.593693 -142.34195
1021500000 -2.9793515 125.36647 -21.868263 12.514 -49.360264 35.652439 -19.362883 175.70235
1031000000 -2.9753757 96.677353 -22.020607 -89.450363 -49.498314 -57.504707 -17.818867 133.76884
1040500000 -2.952152 68.251228 -22.099548 172.00429 -49.501034 -147.47444 -18.066769 91.081749
1050000000 -2.919759 40.184338 -21.724192 71.21402 -49.054268 120.9062 -20.444038 47.141182
1059500000 -2.8708963 12.447895 -21.852455 -31.866764 -49.273746 26.569847 -26.985975 1.40473
1069000000 -2.8269517 -14.894897 -22.177137 -131.21512 -49.539658 -63.264587 -36.993416 157.70378
1078500000 -2.8079808 -41.936756 -21.98789 130.14087 -49.319256 -153.74377 -23.269499 103.41239
1088000000 -2.8104339 -68.972519 -21.730904 28.404615 -48.970707 113.33502 -19.226938 58.560825
1097500000 -2.8460696 -96.240578 -21.87689 -73.422424 -49.253296 20.815359 -18.017488 13.772555
1107000000 -2.90801 -123.85844 -21.949665 -172.96333 -49.241009 -69.875168 -18.803623 -31.097569
1116500000 -2.9821627 -152.02225 -21.763695 86.33477 -49.055489 -162.0477 -21.751396 -78.296692
1126000000 -3.0617893 179.29582 -21.853354 -15.115084 -49.008949 105.84492 -28.946552 -142.6729
1135500000 -3.13275 150.22914 -21.835918 -114.55766 -49.099945 15.56741 -29.074646 67.36676
1145000000 -3.1852963 120.82111 -21.551615 143.98824 -48.761253 -77.657631 -21.77206 2.6570885
1154500000 -3.2071161 91.348152 -21.727398 41.800438 -48.886837 -170.47714 -18.73044 -43.898911
1164000000 -3.1942804 62.126522 -21.753138 -57.247513 -48.808208 99.788597 -17.807159 -87.373962
1173500000 -3.1636281 33.214577 -21.3811 -158.94211 -48.561211 6.1858354 -18.722862 -129.38374
1183000000 -3.1260602 4.7127619 -21.567822 97.6632 -48.683876 -87.506363 -21.957111 -167.61781
1192500000 -3.0837462 -23.312527 -21.862667 -2.259608 -49.022297 -178.2683 -29.53022 173.01811
1202000000 -3.0598254 -50.960838 -21.794382 -102.10244 -48.832035 90.85701 -29.362562 -122.96719
1211500000 -3.0669565 -78.496582 -21.721983 156.92796 -48.756786 -0.49799988 -22.36392 -143.52383
1221000000 -3.1012607 -106.16978 -21.700022 55.600609 -48.685799 -93.213379 -19.702248 179.56178
1230500000 -3.160501 -134.10641 -21.823284 -45.798679 -48.841652 174.84952 -19.30427 140.65735
1240000000 -3.2268054 -162.42413 -21.909855 -145.78047 -48.891434 84.156418 -20.791378 102.00234
1249500000 -3.2946036 168.79025 -21.793104 113.71131 -48.877426 -7.0916595 -24.997946 65.779671
1259000000 -3.3630733 139.66449 -21.774799 12.404182 -48.781586 -100.15169 -36.972206 65.176682
1268500000 -3.4031382 110.32464 -21.741022 -88.654839 -48.659988 168.67551 -28.095081 136.19168
1278000000 -3.3976376 81.003311 -21.774 169.83296 -48.701977 76.764267 -22.502815 103.87188
1287500000 -3.3627782 52.065681 -21.834862 69.375633 -48.757336 -13.526918 -20.61982 66.266411
1297000000 -3.3158529 23.550386 -21.668678 -32.128269 -48.497295 -106.07352 -21.004986 29.41099
1306500000 -3.2549222 -4.4803433 -21.907875 -135.03304 -48.785183 159.65584 -23.613413 -1.5280155
1316000000 -3.1833289 -31.900108 -22.273497 125.92011 -49.107094 70.122696 -28.497362 -7.3949561
1325500000 -3.1366928 -58.868111 -22.095295 26.796904 -48.904186 -20.334198 -26.696712 18.390234
1335000000 -3.1319363 -85.729591 -22.070753 -74.973579 -48.86356 -112.82317 -21.945194 0.31363431
1344500000 -3.14223 -112.61743 -22.253458 -174.78526 -48.975346 156.36104 -19.629959 -33.345104
1354000000 -3.1648653 -139.61499 -22.155787 85.594864 -48.959831 65.9552 -19.169178 -71.3097
1363500000 -3.2161813 -166.91458 -22.131796 -14.89972 -49.030003 -26.034107 -20.551928 -111.65571
1373000000 -3.2823625 165.28413 -22.076883 -114.79893 -48.970322 -117.57858 -24.768105 -154.35016
1382500000 -3.3371904 137.10136 -21.988159 144.48799 -48.830765 151.59468 -39.453991 142.53593
1392000000 -3.3687532 108.72363 -22.019518 44.47963 -48.973625 61.344948 -27.897913 -44.385662
1401500000 -3.3794873 80.215302 -21.805283 -55.690788 -48.822315 -30.427797 -21.851858 -89.132065
1411000000 -3.3688235 51.751148 -21.765486 -157.68967 -48.886345 -123.33416 -19.783556 -131.53178
1420500000 -3.3340454 23.58651 -21.916033 102.07793 -48.93037 145.23865 -20.053326 -172.42702
1430000000 -3.2743313 -4.1243834 -21.802053 1.7845931 -48.967033 54.658829 -22.706612 149.79408
1439500000 -3.2176609 -31.346689 -21.890589 -99.651497 -49.054352 -37.288757 -30.056129 125.52502
1449000000 -3.1843367 -58.184101 -22.040693 161.10349 -49.293465 -127.71082 -30.466593 -154.26521
1458500000 -3.1724648 -84.909195 -21.867165 61.702053 -48.98793 142.19826 -22.056448 -176.54956
1468000000 -3.1840365 -111.6991 -21.737371 -39.220539 -49.035526 50.760345 -18.640509 146.32861
1477500000 -3.2168236 -138.55945 -21.754303 -139.58562 -49.129936 -41.255161 -17.341856 107.02963
1487000000 -3.2777524 -165.83641 -21.643852 120.84389 -49.151688 -130.92046 -17.645498 66.554832
1496500000 -3.3585467 166.3587 -21.373598 20.399145 -48.837643 137.8385 -19.790737 25.589336
1506000000 -3.4302075 138.1346 -21.220026 -81.359627 -48.77327 45.963783 -24.956594 -14.734112
1515500000 -3.4957221 109.52726 -21.201525 177.83382 -48.779709 -45.631145 -47.411213 -36.744808
1525000000 -3.548444 80.568726 -21.015015 76.965935 -48.635731 -137.33649 -27.018625 80.405296
1534500000 -3.5655432 51.450806 -20.966053 -24.931843 -48.711788 130.95952 -22.114325 40.512733
1544000000 -3.5550783 22.485008 -20.948685 -125.65324 -48.673737 39.881947 -20.889019 1.1470673
1553500000 -3.5283222 -6.1368113 -20.829103 132.6714 -48.618023 -52.499187 -21.987101 -36.037022
1563000000 -3.4853826 -34.343555 -21.029591 31.203859 -48.824677 -144.38779 -25.897276 -67.268311
1572500000 -3.4507768 -62.126881 -21.010593 -67.712936 -48.831928 125.7613 -34.220158 -52.104713
1582000000 -3.4528329 -89.689308 -20.685879 -169.00047 -48.494118 34.272346 -27.046663 -13.4462
1591500000 -3.4796956 -117.28279 -20.800447 89.132828 -48.673264 -58.559776 -22.040932 -40.532578
1601000000 -3.5163767 -144.98299 -20.746336 -10.26096 -48.700199 -148.36403 -20.039909 -75.132545
1610500000 -3.57587 -172.93578 -20.468346 -111.7467 -48.45752 119.68567 -19.992416 -110.60146
1620000000 -3.6703644 158.6235 -20.526094 146.72232 -48.658371 27.992393 -21.831184 -143.20984
1629500000 -3.7580564 129.67973 -20.378647 46.592319 -48.551502 -62.708595 -25.890881 -164.23692
1639000000 -3.814559 100.4699 -20.174513 -55.654804 -48.324162 -155.03915 -29.432018 -147.89426
1648500000 -3.8561568 71.074615 -20.263424 -157.30884 -48.450123 112.84878 -25.627167 -140.26006
1658000000 -3.8867393 41.491901 -20.165348 101.90337 -48.381706 21.932621 -22.892076 -163.26387
1667500000 -3.872401 12.073324 -20.11149 -0.42697942 -48.36557 -70.754601 -22.469906 167.82802
1677000000 -3.8090241 -16.820257 -20.307657 -102.00245 -48.516109 -162.85292 -24.124601 142.51558
1686500000 -3.7430973 -45.167706 -20.410088 158.03435 -48.663582 107.00267 -27.391146 135.89091
1696000000 -3.7113235 -73.12175 -20.293036 57.724873 -48.51685 16.604956 -26.474043 152.66266
1705500000 -3.6867421 -100.7759 -20.242535 -43.956661 -48.49939 -76.134201 -22.353327 141.41879
1715000000 -3.6619444 -128.20712 -20.341843 -144.61836 -48.631279 -167.2267 -19.849564 113.23143
1724500000 -3.6713886 -155.53674 -20.165648 115.26064 -48.397083 102.24313 -19.075642 79.9151
1734000000 -3.7203569 176.91312 -20.091297 12.754964 -48.397053 9.1518774 -19.993523 46.025898
1743500000 -3.783185 148.94572 -20.335524 -87.451889 -48.719608 -81.109459 -22.902668 16.106226
1753000000 -3.8301556 120.74338 -20.032681 173.49944 -48.503265 -170.71153 -28.444992 5.3840795
1762500000 -3.8640194 92.361946 -19.811626 70.264313 -48.315907 96.022926 -29.015875 39.782089
1772000000 -3.9117715 63.655655 -20.07366 -30.459421 -48.530407 5.2419147 -24.221409 30.12661
1781500000 -3.9395242 34.829494 -19.771671 -130.23705 -48.30328 -85.411461 -22.290716 0.14594069
1791000000 -3.90836 6.1605387 -19.710312 126.16731 -48.241974 -179.87895 -22.799141 -33.657001
1800500000 -3.8566914 -22.121632 -20.014711 26.086922 -48.53756 89.629807 -26.274076 -66.248665
1810000000 -3.817791 -49.957874 -19.761744 -74.113419 -48.323906 -1.4462072 -37.581165 -66.657166
1819500000 -3.7865 -77.562767 -19.86467 -176.74583 -48.533966 -95.067207 -28.666817 11.94261
1829000000 -3.7569063 -104.8981 -19.961767 84.189369 -48.633537 175.63559 -22.318027 -16.485249
1838500000 -3.7313631 -131.84474 -19.579288 -17.363337 -48.335114 83.648712 -19.581612 -50.552078
1848000000 -3.7479305 -158.73944 -19.769812 -120.38458 -48.615208 -10.47249 -18.747765 -85.005882
1857500000 -3.8219984 174.11978 -19.804474 140.10931 -48.791367 -100.47794 -19.47669 -117.35107
1867000000 -3.8943381 146.68176 -19.543188 37.511421 -48.601803 166.66936 -21.725809 -143.31325
1876500000 -3.9622767 118.98931 -19.81848 -64.899117 -48.950058 73.922729 -24.907789 -152.21123
1886000000 -4.0621138 91.087822 -19.767988 -165.1456 -49.006397 -16.516739 -24.799091 -143.49521
1895500000 -4.1707096 62.749954 -19.741028 91.234352 -48.891258 -110.84904 -21.938421 -155.1395
1905000000 -4.2465897 34.046604 -20.143246 -10.523481 -49.385296 158.00685 -20.328262 177.59769
1914500000 -4.2675934 5.4995899 -20.145386 -111.7254 -49.455872 66.241165 -20.441685 145.1306
1924000000 -4.2634635 -22.761002 -20.538305 144.46208 -49.894531 -27.527304 -22.570408 111.85109
1933500000 -4.2506709 -50.914322 -21.19491 45.087143 -50.617863 -117.37594 -28.17149 85.323326
1943000000 -4.2133689 -78.848839 -21.23028 -53.933434 -50.583549 153.87381 -35.621243 141.41289
1952500000 -4.1480198 -106.4639 -21.519915 -155.48204 -50.888069 61.588528 -26.178299 149.68062
1962000000 -4.1016912 -133.84985 -21.898478 106.24125 -51.410789 -26.770182 -22.624973 118.12155
1971500000 -4.0979772 -161.1604 -21.826941 7.4595246 -51.322083 -115.942 -22.141098 83.1287
1981000000 -4.1191134 171.2795 -21.859568 -92.817474 -51.390308 154.0959 -24.369307 51.104485
1990500000 -4.1494532 143.47758 -21.862242 167.88237 -51.435421 65.114967 -30.586796 40.852306
2000000000 -4.1992126 115.50072 -21.7696 67.57428 -51.306759 -25.623833 -28.853003 92.142693
