!Keysight Technologies,N5242B,MY48420967,A.15.65.19
!Date: Saturday, February 04, 2023 00:03:42
!Correction: S11(C  1-Port  ) 
!S21(Off) 
!S12(Off) 
!S22(Off) 
!S2P File: Measurements: S11, S21, S12, S22:
# Hz S  dB   R 50
100000000 -1.3271158 40.384605 -15.736644 95.788727 -81.021454 14.318204 -18.388857 81.475555
109500000 -1.2555225 11.070365 -15.432856 -4.4700508 -76.260765 -89.68042 -21.074139 20.148552
119000000 -1.1823852 -17.810085 -15.511529 -109.83612 -74.658882 172.59415 -24.511745 -68.941681
128500000 -1.0927255 -46.184185 -16.1245 148.69989 -73.618523 81.924942 -21.813112 -167.31932
138000000 -1.0747204 -74.59584 -16.204203 49.362976 -73.31855 -12.155411 -18.025547 127.93895
147500000 -1.1418668 -103.53075 -16.089579 -52.016018 -71.064857 -106.77223 -15.907207 74.963089
157000000 -1.2072715 -132.82362 -16.039368 -154.34294 -69.750717 164.84349 -15.329434 23.669233
166500000 -1.2806556 -162.33905 -16.123934 102.52889 -69.973747 77.125961 -16.50421 -28.837193
176000000 -1.4068549 167.67972 -16.477278 0.52354282 -69.146629 -24.252565 -19.743357 -85.565536
185500000 -1.5132484 137.36682 -16.676828 -99.502129 -68.308609 -125.00739 -24.952894 -165.60362
195000000 -1.5387949 107.36369 -16.565987 159.9604 -67.181732 153.15338 -23.372602 81.998215
204500000 -1.5468032 77.771393 -16.505362 57.118183 -66.792267 56.327084 -18.663641 11.401099
214000000 -1.5614691 48.310783 -16.851877 -45.267139 -65.834282 -38.841133 -16.417812 -43.760014
223500000 -1.5210514 19.196146 -17.083538 -144.62601 -65.783745 -130.35478 -15.927147 -95.130791
233000000 -1.4566121 -9.4472857 -16.878838 115.18777 -64.920441 138.86203 -16.840773 -148.10257
242500000 -1.4520253 -38.035919 -16.797697 12.607486 -64.525551 47.636662 -19.326412 150.72784
252000000 -1.4731733 -66.881073 -16.973963 -89.395378 -63.829708 -45.75729 -22.452791 68.699211
261500000 -1.4864842 -95.902847 -17.155821 169.91754 -63.671494 -138.72258 -21.227825 -24.120834
271000000 -1.5446486 -125.12424 -17.08688 70.112549 -61.917793 126.53493 -18.061132 -92.955002
280500000 -1.6542755 -154.8606 -16.779354 -32.210945 -61.991337 38.221188 -16.23918 -150.57834
290000000 -1.739503 175.01868 -16.984255 -136.34116 -61.486973 -60.691185 -16.057989 154.1893
299500000 -1.7925354 144.93439 -17.382936 123.31881 -61.103458 -152.95659 -17.433712 98.242783
309000000 -1.8537174 114.89608 -17.268993 23.477188 -60.693359 117.5057 -20.100342 35.266369
318500000 -1.890527 85.014648 -17.165716 -79.0047 -59.862629 24.735794 -22.613708 -47.806335
328000000 -1.8611085 55.544052 -17.300993 178.80545 -59.435509 -70.199005 -21.314556 -137.85266
337500000 -1.8287219 26.4121 -17.488169 77.211121 -59.523674 -162.99953 -18.920563 152.5764
347000000 -1.8323171 -2.5576541 -17.658237 -23.033852 -59.143284 106.8544 -17.708792 93.765533
356500000 -1.8160758 -31.444012 -17.447798 -123.12214 -58.602718 17.059927 -17.743305 36.0578
366000000 -1.7957106 -60.42178 -17.228296 133.46118 -57.696304 -81.104042 -19.005867 -26.607313
375500000 -1.8410882 -89.75927 -17.576244 30.131483 -57.612457 -174.7245 -20.837437 -98.929375
385000000 -1.9201175 -119.57416 -17.891476 -69.495377 -57.37796 93.405365 -21.147627 -178.11215
394500000 -1.9758468 -149.60368 -17.671791 -169.32387 -57.071686 2.6619163 -19.727236 110.37357
404000000 -2.0262692 -179.72081 -17.503262 87.25914 -56.453384 -92.292122 -18.613798 47.811558
413500000 -2.1004407 149.96629 -17.881578 -15.44412 -56.625275 173.25926 -18.872229 -11.217242
423000000 -2.1493363 119.75424 -18.073795 -115.01501 -56.32196 81.335945 -20.707968 -71.196068
432500000 -2.1301465 90.111572 -17.966038 143.62108 -55.773029 -8.6674395 -23.838573 -142.3795
442000000 -2.0985231 60.89249 -18.157152 41.635616 -55.711838 -103.13059 -25.077349 122.89632
451500000 -2.0970385 31.928047 -18.256407 -59.022903 -55.4739 163.74872 -22.250336 39.43227
461000000 -2.0708051 3.3258917 -18.380791 -161.04243 -55.186256 70.361107 -20.128719 -23.652058
470500000 -2.0244381 -24.97304 -18.69821 99.104622 -55.399006 -20.080685 -19.579638 -80.082825
480000000 -2.0196083 -53.312149 -18.40992 -0.3149589 -54.851803 -111.41682 -20.592186 -138.09973
489500000 -2.0595534 -81.997925 -18.268066 -104.56031 -54.213699 154.21188 -23.224512 153.123
499000000 -2.0970461 -110.95273 -18.787769 153.8293 -54.608013 60.797508 -24.991486 61.965149
508500000 -2.1231213 -140.02081 -18.715017 54.721493 -54.091305 -29.270061 -22.337313 -22.724216
518000000 -2.1692908 -169.32813 -18.541412 -48.534214 -53.703564 -124.04964 -19.651796 -86.027351
527500000 -2.2247248 161.16576 -18.87923 -150.99252 -53.589348 142.47713 -18.651552 -141.94812
537000000 -2.2429459 131.83446 -19.069777 107.83497 -53.643967 49.465092 -19.487906 163.65709
546500000 -2.2284987 102.89759 -19.352928 6.5788603 -53.4688 -43.22884 -22.417383 105.16441
556000000 -2.2115898 74.373344 -19.477581 -92.885468 -53.430954 -133.90384 -27.444715 19.980684
565500000 -2.1860855 46.228443 -19.366566 165.29546 -53.078445 133.21771 -24.981699 -94.666405
575000000 -2.1456416 18.441736 -19.798666 63.077869 -53.182251 39.826244 -20.335188 -163.84956
584500000 -2.1125336 -9.1262178 -20.085035 -34.810959 -53.057011 -49.369976 -18.142788 141.92871
594000000 -2.100852 -36.675457 -19.826899 -134.3945 -52.651737 -140.94278 -17.603148 90.269348
603500000 -2.1071801 -64.400589 -19.871983 124.51371 -52.462856 126.02453 -18.622967 34.811897
613000000 -2.1358032 -92.466614 -19.733608 24.462624 -52.118954 34.720985 -21.233223 -31.88707
622500000 -2.1831269 -121.00768 -19.821661 -78.536537 -52.026875 -60.759808 -23.039816 -119.71465
632000000 -2.2431841 -149.94006 -20.246933 -176.7621 -52.462753 -151.56438 -20.563519 157.16618
641500000 -2.2848518 -178.98311 -19.758663 84.358307 -51.628094 118.5177 -17.859283 94.339424
651000000 -2.3236797 151.79196 -19.733212 -20.015327 -51.692589 23.054117 -16.742067 39.181488
660500000 -2.3593729 122.50793 -20.176954 -120.29488 -51.932663 -68.416351 -17.349428 -13.745998
670000000 -2.3502159 93.496452 -20.064009 140.51686 -51.75515 -159.45116 -19.782393 -69.139626
679500000 -2.3164191 64.967979 -19.920914 38.678497 -51.336861 107.4034 -24.513832 -143.07687
689000000 -2.294328 36.749603 -20.044199 -63.272873 -51.295738 14.198893 -24.702171 101.03857
698500000 -2.2789199 8.6198692 -20.232744 -164.18422 -51.405518 -78.096252 -19.631186 24.93556
708000000 -2.2546976 -19.223886 -20.355284 96.099411 -51.318878 -168.97426 -16.860443 -29.333698
717500000 -2.2416058 -46.906696 -20.228447 -3.5568607 -51.153034 100.50137 -15.823317 -79.038506
727000000 -2.2775459 -75.060272 -19.981327 -104.87068 -50.675838 7.6893902 -16.387812 -129.68857
736500000 -2.3446839 -103.79971 -19.945145 152.36459 -50.531162 -86.772255 -18.979321 175.54445
746000000 -2.3942525 -132.80435 -20.191238 50.594681 -50.646034 -179.397 -24.037346 104.405
755500000 -2.4464664 -162.12019 -20.31382 -49.332222 -50.547962 88.603889 -24.959654 -8.515976
765000000 -2.5260124 168.12013 -20.156282 -150.0605 -50.305679 -2.8264406 -19.921408 -85.218842
774500000 -2.5764804 138.19798 -20.153044 107.13554 -50.14497 -97.272461 -17.309826 -140.12888
784000000 -2.5746901 108.55096 -20.514994 5.4542375 -50.371834 170.10336 -16.811829 170.93285
793500000 -2.5600166 79.28463 -20.663031 -93.549957 -50.448246 79.879852 -18.052195 123.93105
803000000 -2.5426078 50.339996 -20.41271 165.7466 -50.087021 -12.929226 -21.620119 74.427765
812500000 -2.5061064 21.832005 -20.51758 62.62289 -50.024426 -106.47942 -30.961594 0.77011162
822000000 -2.4642467 -6.1811037 -20.861795 -37.706059 -50.303936 161.82605 -26.913761 -158.3512
831500000 -2.446651 -33.983181 -20.811224 -137.36954 -50.036797 70.986938 -20.546186 145.01913
841000000 -2.4561844 -61.852909 -20.830666 121.32761 -49.987858 -21.529362 -18.097837 98.487312
850500000 -2.4796 -89.887169 -20.834808 21.316931 -49.843895 -112.8341 -17.821791 53.04285
860000000 -2.521235 -118.22373 -20.593279 -80.978516 -49.503139 153.84351 -19.721964 7.8282995
869500000 -2.5805166 -146.97166 -21.007589 175.821 -49.793011 59.915104 -24.995613 -37.65184
879000000 -2.6347487 -176.02866 -21.313795 77.735237 -49.990501 -29.612286 -48.150391 -175.61644
888500000 -2.6684971 154.80734 -20.899637 -22.857611 -49.472527 -121.61208 -25.134638 64.288879
898000000 -2.689616 125.70249 -21.143536 -126.89836 -49.546227 142.76201 -20.417336 19.704115
907500000 -2.6840684 96.753014 -21.582283 134.20686 -49.910553 53.21096 -19.042517 -22.804609
917000000 -2.6451986 68.179024 -21.338379 34.558582 -49.611702 -37.898739 -19.77511 -63.812771
926500000 -2.5941803 40.159134 -21.416052 -67.985603 -49.493916 -131.6185 -23.067888 -102.43882
936000000 -2.5501518 12.610107 -21.652048 -168.30348 -49.636604 137.36589 -32.56813 -120.20972
945500000 -2.5090141 -14.607473 -21.734772 91.111359 -49.612072 45.75713 -28.34334 -40.170509
955000000 -2.4701791 -41.589256 -21.944384 -8.4446144 -49.772121 -45.145462 -21.549303 -70.45491
964500000 -2.4608405 -68.427132 -21.747576 -107.48959 -49.463676 -135.76213 -18.985073 -110.04063
974000000 -2.4834919 -95.45208 -21.658434 150.25526 -49.269508 130.95714 -18.72237 -151.72258
983500000 -2.5266681 -122.99361 -21.954817 50.18943 -49.496346 39.382622 -20.679625 166.04327
993000000 -2.5730886 -150.90387 -21.804739 -49.172295 -49.348358 -51.597256 -26.331261 123.24001
1002500000 -2.6123874 -179.0498 -21.854713 -150.787 -49.338982 -145.0069 -41.921215 -86.902809
1012000000 -2.6601155 152.44608 -21.992004 110.35031 -49.394825 125.66116 -23.874449 -138.89754
1021500000 -2.6943054 123.70571 -21.698296 9.8881445 -49.158463 33.877602 -19.375059 178.01178
1031000000 -2.6865132 95.053101 -21.879496 -92.079178 -49.394733 -60.547421 -17.70673 135.53987
1040500000 -2.6532981 66.745949 -21.946579 169.52675 -49.43956 -150.02924 -17.838758 92.42646
1050000000 -2.6236231 38.738956 -21.551435 68.665199 -48.982632 118.09575 -20.046955 47.913696
1059500000 -2.5909479 10.989046 -21.696913 -34.518105 -49.127041 23.484743 -26.137295 0.62271339
1069000000 -2.546783 -16.351336 -22.038774 -133.77649 -49.354374 -66.316864 -38.422211 176.28033
1078500000 -2.5139499 -43.323189 -21.836613 127.70544 -49.17041 -156.10783 -23.476788 107.47307
1088000000 -2.5176821 -70.323334 -21.563135 25.901943 -48.82893 111.21172 -19.182709 61.529602
1097500000 -2.5640225 -97.692749 -21.713108 -75.969482 -48.898731 18.170149 -17.811769 16.28017
1107000000 -2.609483 -125.39777 -21.783775 -175.50398 -48.955219 -72.641937 -18.427479 -28.840132
1116500000 -2.6580303 -153.51878 -21.589327 83.747154 -48.774193 -164.84271 -21.084839 -76.03537
1126000000 -2.7413201 177.7749 -21.68329 -17.755728 -48.817963 103.0871 -27.428389 -137.35829
1135500000 -2.8167787 148.5592 -21.653753 -117.13789 -48.793968 12.937124 -29.819759 79.581482
1145000000 -2.8443127 119.13222 -21.363756 141.24257 -48.552017 -80.089714 -22.129128 7.4224629
1154500000 -2.8552065 89.777969 -21.564445 39.02047 -48.736103 -173.43777 -18.802155 -40.468151
1164000000 -2.860728 60.504078 -21.581615 -59.949043 -48.762714 96.777847 -17.665543 -84.49189
1173500000 -2.8346186 31.450253 -21.192446 -161.71498 -48.372597 4.4126201 -18.330221 -127.18021
1183000000 -2.7870936 3.0075228 -21.391493 94.773743 -48.583549 -90.22081 -21.170612 -167.10033
1192500000 -2.7536809 -24.963345 -21.691168 -5.1613913 -48.797501 178.67624 -27.969454 164.56496
1202000000 -2.7491789 -52.799397 -21.625912 -104.96532 -48.64986 88.202606 -32.233231 -125.79873
1211500000 -2.7508051 -80.465782 -21.553444 154.10374 -48.645298 -3.2297695 -23.37056 -138.23608
1221000000 -2.7668095 -108.08764 -21.50923 52.698315 -48.482723 -95.578102 -20.106859 -174.81218
1230500000 -2.8304055 -136.11708 -21.633482 -48.887821 -48.612614 171.8712 -19.33325 146.3866
1240000000 -2.9024594 -164.67509 -21.742208 -148.90805 -48.688507 80.864159 -20.415438 107.89309
1249500000 -2.9503155 166.45366 -21.635345 110.62057 -48.6362 -10.338917 -23.842655 71.547371
1259000000 -3.0023091 137.3972 -21.603575 9.30863 -48.551846 -102.27937 -32.695591 53.55674
1268500000 -3.0503199 108.01243 -21.572657 -91.835533 -48.485889 165.78897 -30.513418 132.85382
1278000000 -3.0480702 78.588776 -21.628988 166.57866 -48.666473 73.532516 -23.60043 107.85639
1287500000 -3.0014544 49.697941 -21.688383 66.224289 -48.732555 -17.443443 -21.127272 72.159874
1297000000 -2.9523909 21.317915 -21.507639 -35.388435 -48.42511 -110.08815 -20.970753 36.426304
1306500000 -2.9167078 -6.7249012 -21.770838 -138.43991 -48.678146 156.46135 -22.780792 5.5919476
1316000000 -2.864063 -34.242779 -22.160757 122.59837 -48.989643 67.234993 -26.31945 -8.6829185
1325500000 -2.8048341 -61.200359 -21.969238 23.637651 -48.859833 -22.983835 -26.827421 5.035738
1335000000 -2.7912695 -87.979164 -21.938116 -78.193863 -48.760059 -116.21086 -23.025774 -3.8868256
1344500000 -2.820245 -114.92012 -22.120039 -178.02321 -48.857559 153.05951 -20.611898 -32.65654
1354000000 -2.8487768 -142.08339 -22.028395 82.316528 -48.798271 62.337219 -19.954252 -67.632912
1363500000 -2.8701262 -169.41666 -22.015038 -18.174068 -48.854759 -29.024767 -21.093208 -104.92534
1373000000 -2.9202864 162.88739 -21.945595 -118.04824 -48.723785 -119.86724 -24.833174 -142.40564
1382500000 -2.9916437 134.68423 -21.860909 141.08224 -48.775032 147.79474 -36.497723 -167.61916
1392000000 -3.0196621 106.21219 -21.911121 41.100872 -48.823223 58.031761 -29.945742 -55.46059
1401500000 -2.9961448 77.817863 -21.701174 -59.049732 -48.707565 -33.715008 -23.060217 -90.385651
1411000000 -2.9835646 49.537167 -21.66617 -161.01741 -48.690948 -126.3831 -20.643064 -129.0936
1420500000 -2.9767065 21.385986 -21.810848 98.794189 -48.822086 142.38737 -20.584944 -167.2697
1430000000 -2.9155378 -6.3342848 -21.690905 -1.5831777 -48.831711 51.504597 -22.720211 158.17256
1439500000 -2.844579 -33.417191 -21.807692 -103.02779 -48.988541 -41.283432 -28.112446 138.01563
1449000000 -2.8282015 -60.182224 -21.957275 157.85878 -49.102345 -131.40984 -30.338408 -175.64055
1458500000 -2.8356941 -87.026131 -21.767761 58.5369 -49.02372 139.68497 -23.106312 178.21358
1468000000 -2.8323569 -113.84701 -21.636379 -42.407848 -48.858696 47.460629 -19.523006 146.03891
1477500000 -2.8439336 -140.64662 -21.642756 -142.75096 -48.96574 -44.262344 -18.031301 109.41578
1487000000 -2.9105735 -168.00784 -21.532928 117.65134 -48.868458 -134.44716 -18.103182 71.176033
1496500000 -2.9885194 164.05629 -21.254824 17.203693 -48.664425 134.64986 -19.874588 32.692661
1506000000 -3.0282495 135.88463 -21.089521 -84.59996 -48.677979 42.375137 -24.175125 -3.6300995
1515500000 -3.0790784 107.35323 -21.076529 174.46916 -48.700832 -48.929756 -35.757431 -18.259487
1525000000 -3.1428814 78.312172 -20.899826 73.630989 -48.521339 -140.43736 -29.58127 74.259758
1534500000 -3.1508498 49.137383 -20.843744 -28.18943 -48.54488 127.22893 -23.481428 43.407803
1544000000 -3.122525 20.293436 -20.809265 -128.92406 -48.525429 36.461174 -21.63155 7.744535
1553500000 -3.1065917 -8.2618446 -20.686363 129.15349 -48.397148 -55.908352 -22.036011 -26.421368
1563000000 -3.0855379 -36.588425 -20.923393 27.686499 -48.619102 -148.1078 -24.546124 -55.014683
1572500000 -3.0478728 -64.442482 -20.896521 -71.022095 -48.699402 122.86756 -29.286024 -61.523853
1582000000 -3.0382559 -91.931999 -20.54081 -172.39799 -48.416164 30.834589 -28.527817 -33.446754
1591500000 -3.0745056 -119.58572 -20.66736 85.561546 -48.507538 -61.961681 -23.876318 -44.129562
1601000000 -3.1192226 -147.50017 -20.630253 -13.8056 -48.593769 -151.84203 -21.428308 -71.661583
1610500000 -3.1586111 -175.57014 -20.351728 -115.26665 -48.327698 116.34439 -20.760481 -102.39127
1620000000 -3.2313917 156.01019 -20.396439 143.26796 -48.454845 24.917856 -21.5893 -131.54895
1629500000 -3.3214087 127.00751 -20.231218 42.988853 -48.393635 -65.920456 -23.713139 -153.94388
1639000000 -3.3744349 97.64534 -20.049942 -59.434353 -48.186195 -159.14865 -26.167503 -162.34618
1648500000 -3.3935263 68.222664 -20.159704 -160.97546 -48.35038 109.73347 -26.443577 -161.16481
1658000000 -3.415576 38.722889 -20.047617 98.317207 -48.261127 18.583879 -25.152042 -170.20515
1667500000 -3.4188592 9.2929001 -19.986641 -4.2361546 -48.22377 -74.359085 -24.565716 172.97087
1677000000 -3.365164 -19.659063 -20.216022 -105.81442 -48.436203 -166.41985 -24.932878 157.90443
1686500000 -3.3006485 -48.009911 -20.327202 154.38696 -48.581093 103.45937 -25.185749 150.38632
1696000000 -3.2787232 -75.939575 -20.193182 54.116001 -48.39452 12.479138 -23.921131 143.50452
1705500000 -3.2634161 -103.62248 -20.138769 -47.712357 -48.39851 -80.152985 -22.013382 127.12469
1715000000 -3.2379198 -131.11909 -20.265039 -148.39191 -48.464127 -170.93301 -20.756739 102.83283
1724500000 -3.2515392 -158.5072 -20.099812 111.5678 -48.318081 98.690926 -20.622463 75.211731
1734000000 -3.3009682 173.85655 -20.031982 9.1599007 -48.320305 5.9616632 -21.785534 48.578529
1743500000 -3.3475142 145.82109 -20.27113 -90.901657 -48.651833 -85.024796 -24.222252 29.172913
1753000000 -3.3801754 117.64828 -19.945345 169.93758 -48.338322 -174.07719 -26.584333 26.644012
1762500000 -3.4173067 89.265167 -19.760559 66.585938 -48.218872 92.625763 -25.709412 28.897913
1772000000 -3.4571466 60.504055 -20.048435 -33.819469 -48.581547 1.6018316 -23.828045 13.344224
1781500000 -3.4612837 31.752436 -19.714039 -133.4489 -48.21603 -89.163315 -23.35391 -12.505965
1791000000 -3.4333446 3.2376268 -19.666733 122.89709 -48.202679 177.28192 -24.899666 -40.353218
1800500000 -3.4107544 -25.043293 -19.987028 23.149355 -48.529842 86.783546 -29.594658 -59.811214
1810000000 -3.3690357 -52.93457 -19.699503 -76.78582 -48.276352 -3.4939313 -34.269062 -14.013005
1819500000 -3.3180928 -80.419655 -19.773064 -179.19919 -48.385681 -96.567345 -26.395176 -3.7584627
1829000000 -3.3039093 -107.60378 -19.814564 81.928642 -48.47163 173.50482 -22.261322 -29.498755
1838500000 -3.3022268 -134.63579 -19.379019 -19.713968 -48.147125 81.458412 -20.475403 -59.919666
1848000000 -3.3031924 -161.67854 -19.546629 -122.63732 -48.347195 -12.40718 -20.256727 -89.554688
1857500000 -3.3443036 171.22475 -19.498035 137.98775 -48.423416 -102.43425 -21.229801 -114.72343
1867000000 -3.4115531 143.85432 -19.145014 35.071838 -48.169102 164.47198 -22.756817 -131.18082
1876500000 -3.4853537 116.02285 -19.389265 -67.706139 -48.448498 71.352501 -23.443293 -138.88286
1886000000 -3.5611167 87.960312 -19.29347 -168.2346 -48.524555 -19.358881 -22.591209 -148.87041
1895500000 -3.6323233 59.610943 -19.233377 87.784096 -48.394413 -113.87701 -21.540182 -167.91545
1905000000 -3.6941946 30.908361 -19.590609 -14.243243 -48.78006 153.84755 -21.312778 167.16577
1914500000 -3.726136 2.26669 -19.540737 -116.07948 -48.888451 62.392235 -22.327881 140.50932
1924000000 -3.7328646 -26.151524 -19.928545 139.43163 -49.290928 -32.380413 -25.012562 117.27323
1933500000 -3.721765 -54.377563 -20.577347 39.548279 -49.93449 -122.75195 -29.494211 113.03951
1943000000 -3.6980634 -82.270241 -20.596914 -60.511311 -49.939102 146.93733 -29.354179 137.87808
1952500000 -3.6708817 -109.84283 -20.99576 -163.10872 -50.416 54.778801 -25.494333 129.87973
1962000000 -3.6606364 -137.32822 -21.53265 98.224953 -50.973526 -34.440342 -23.807604 104.12046
1971500000 -3.6523943 -164.74434 -21.565149 -0.72007161 -50.936615 -123.61917 -24.485222 75.952599
1981000000 -3.6571527 167.80438 -21.719673 -101.01579 -51.124844 145.93687 -27.875311 57.257687
1990500000 -3.7038457 140.08014 -21.834036 159.78197 -51.24868 56.725544 -30.818554 82.201744
2000000000 -3.7665296 111.92958 -21.836697 59.875694 -51.316864 -33.207668 -25.033216 90.065659
