!Keysight Technologies,N5242B,MY48420967,A.15.65.19
!Date: Saturday, February 04, 2023 01:51:09
!Correction: S11(C  1-Port  ) 
!S21(Off) 
!S12(Off) 
!S22(Off) 
!S2P File: Measurements: S11, S21, S12, S22:
# Hz S  dB   R 50
100000000 -1.3087806 40.339191 -15.796998 95.952736 -80.777664 37.838581 -17.993717 80.610207
109500000 -1.2377243 11.026649 -15.479529 -4.3051558 -75.350105 -88.278526 -20.566332 18.580784
119000000 -1.1656511 -17.843222 -15.546394 -109.70889 -73.638756 178.30151 -23.708813 -69.521713
128500000 -1.0771104 -46.218163 -16.160017 148.81667 -74.412498 84.635521 -21.273588 -165.9024
138000000 -1.0590179 -74.6334 -16.239384 49.506428 -73.493919 -13.609434 -17.675261 128.76541
147500000 -1.1270326 -103.56701 -16.118034 -51.844955 -71.732262 -108.2355 -15.609497 75.1586
157000000 -1.1925856 -132.8638 -16.056803 -154.24028 -70.304077 161.13092 -15.046856 23.266844
166500000 -1.2664039 -162.37794 -16.142475 102.58345 -70.162079 66.012009 -16.224178 -29.91111
176000000 -1.3935217 167.6432 -16.502996 0.55286592 -69.145103 -25.642868 -19.412699 -87.522163
185500000 -1.5003303 137.33366 -16.704525 -99.407509 -68.741776 -117.27094 -24.282122 -168.01942
195000000 -1.5256621 107.32913 -16.58573 160.05154 -67.644958 148.338 -22.748867 83.030815
204500000 -1.5346376 77.745575 -16.522818 57.167103 -66.421509 54.601871 -18.293137 12.061566
214000000 -1.5490533 48.29258 -16.871542 -45.239292 -66.32357 -36.144886 -16.128477 -43.715134
223500000 -1.5099568 19.181705 -17.107655 -144.56929 -66.037994 -128.9068 -15.664777 -95.55809
233000000 -1.4448828 -9.451087 -16.896948 115.28039 -64.462173 141.79587 -16.576414 -149.04707
242500000 -1.4403288 -38.034004 -16.812004 12.659835 -63.662994 45.217373 -19.002434 149.14922
252000000 -1.461239 -66.874489 -16.991201 -89.367516 -64.02124 -45.646637 -21.949028 67.233635
261500000 -1.4736224 -95.888962 -17.178944 170.00073 -63.573601 -137.68535 -20.767452 -24.066067
271000000 -1.532346 -125.10657 -17.107136 70.172386 -62.371315 131.2735 -17.734432 -92.885422
280500000 -1.6420668 -154.83664 -16.795181 -32.151726 -61.98354 36.215229 -15.967033 -150.93365
290000000 -1.7263635 175.0517 -16.997671 -136.33293 -61.18037 -59.029255 -15.821272 153.41736
299500000 -1.7797893 144.96236 -17.401583 123.35214 -61.40638 -151.84023 -17.202929 97.016899
309000000 -1.8402172 114.92767 -17.286453 23.558401 -60.445908 116.28785 -19.808044 33.539986
318500000 -1.877759 85.041573 -17.178829 -78.948547 -59.732239 24.486349 -22.151001 -49.412903
328000000 -1.8487954 55.57502 -17.319559 178.83444 -59.932003 -70.427086 -20.876877 -138.24013
337500000 -1.8175228 26.438641 -17.50565 77.212601 -59.349846 -161.09653 -18.589836 152.27074
347000000 -1.8205383 -2.5365057 -17.671394 -22.981356 -59.246296 106.83121 -17.434361 93.210228
356500000 -1.8043765 -31.423279 -17.459482 -123.10246 -58.178516 14.25394 -17.484587 35.156269
366000000 -1.7843311 -60.399307 -17.239279 133.48114 -57.668205 -79.670853 -18.727993 -27.899916
375500000 -1.8298157 -89.738411 -17.591743 30.120657 -57.697456 -176.16716 -20.492189 -100.35579
385000000 -1.9079803 -119.54955 -17.909378 -69.46981 -57.47876 94.350876 -20.770567 -179.04919
394500000 -1.9632663 -149.57622 -17.683617 -169.25475 -57.06443 3.2050421 -19.388407 109.69675
404000000 -2.0138059 -179.69568 -17.512236 87.272881 -56.502731 -91.819176 -18.327501 46.914715
413500000 -2.088089 149.9942 -17.895054 -15.449862 -56.550278 174.40562 -18.611792 -12.510878
423000000 -2.1372473 119.79031 -18.094181 -115.02185 -56.531757 82.560341 -20.440493 -73.070282
432500000 -2.1170444 90.143356 -17.98208 143.65491 -55.952282 -10.159325 -23.441343 -144.90506
442000000 -2.0856879 60.927658 -18.167606 41.636528 -55.866138 -102.40407 -24.474686 121.54748
451500000 -2.0828195 31.969957 -18.267843 -59.039822 -55.393997 163.95419 -21.793722 39.100536
461000000 -2.0576332 3.368145 -18.396509 -161.04315 -55.209461 70.209435 -19.780874 -24.177254
470500000 -2.0113556 -24.936623 -18.710779 99.130798 -55.415508 -19.639757 -19.282589 -80.954178
480000000 -2.0047784 -53.272579 -18.419044 -0.31158313 -54.747276 -110.37385 -20.284805 -139.52371
489500000 -2.0443573 -81.954269 -18.283072 -104.59176 -54.401211 152.77414 -22.815334 151.10468
499000000 -2.0818686 -110.91293 -18.809511 153.78816 -54.552383 60.505791 -24.415224 60.889729
508500000 -2.1072226 -139.98012 -18.739973 54.741962 -54.141521 -30.461756 -21.896719 -22.729431
518000000 -2.153966 -169.28447 -18.555586 -48.418293 -53.676617 -124.33218 -19.329788 -86.183006
527500000 -2.2086709 161.2151 -18.882063 -150.9921 -53.669666 141.97345 -18.37343 -142.54134
537000000 -2.2257595 131.88087 -19.079905 107.79242 -53.66988 49.747387 -19.227716 162.52054
546500000 -2.2119827 102.94848 -19.361845 6.5538878 -53.704205 -42.049358 -22.109528 103.25854
556000000 -2.1950092 74.417496 -19.487085 -92.904495 -53.510418 -134.09074 -26.768959 17.824976
565500000 -2.1697237 46.270489 -19.3778 165.24678 -53.021164 133.18091 -24.443302 -93.570847
575000000 -2.1290395 18.481812 -19.813826 63.014118 -53.24667 39.874279 -20.018454 -163.22435
584500000 -2.0958674 -9.0846367 -20.100632 -34.865307 -53.339924 -50.589012 -17.899662 142.03883
594000000 -2.0844452 -36.638744 -19.84201 -134.40459 -52.664146 -140.46365 -17.373426 89.995918
603500000 -2.0902121 -64.364365 -19.884573 124.48333 -52.43071 126.5748 -18.377327 34.153122
613000000 -2.1175935 -92.432045 -19.746204 24.409878 -52.125748 34.428288 -20.918804 -32.897263
622500000 -2.1648297 -120.97372 -19.838678 -78.596664 -52.236965 -60.994438 -22.633877 -120.0527
632000000 -2.2246354 -149.90564 -20.268116 -176.78935 -52.378044 -150.9567 -20.267988 157.46097
641500000 -2.2662101 -178.94366 -19.772093 84.352585 -51.793663 119.34901 -17.634993 94.424805
651000000 -2.3048203 151.83374 -19.748381 -20.063665 -51.633183 22.715387 -16.548735 38.941883
660500000 -2.3396239 122.54764 -20.19833 -120.34318 -52.015404 -69.991631 -17.167074 -14.35769
670000000 -2.3311393 93.53756 -20.078312 140.48657 -51.758278 -159.07373 -19.580128 -70.237228
679500000 -2.2981358 65.014259 -19.937347 38.654911 -51.326279 107.38372 -24.140709 -144.7115
689000000 -2.2752373 36.794434 -20.055096 -63.302536 -51.448803 13.952899 -24.265854 101.62168
698500000 -2.2595513 8.6686487 -20.254326 -164.23305 -51.421276 -77.944061 -19.400717 25.477129
708000000 -2.2362647 -19.173872 -20.374899 96.053795 -51.346451 -169.55609 -16.689398 -29.203602
717500000 -2.2228756 -46.861694 -20.247955 -3.5527906 -51.06263 100.81639 -15.670424 -79.202888
727000000 -2.2578461 -75.014465 -19.994781 -104.88502 -50.754162 7.6049643 -16.24025 -130.20157
736500000 -2.324471 -103.74785 -19.959593 152.32173 -50.585697 -86.2547 -18.819799 174.54938
746000000 -2.373682 -132.75958 -20.204535 50.541996 -50.584854 -179.47792 -23.757324 102.84734
755500000 -2.4258475 -162.07869 -20.331472 -49.375813 -50.677372 88.868637 -24.561508 -8.3146257
765000000 -2.504427 168.16313 -20.170687 -150.11594 -50.363075 -3.4377952 -19.700823 -84.867157
774500000 -2.5545983 138.24075 -20.168726 107.07873 -50.166233 -97.538216 -17.147127 -140.15741
784000000 -2.5526373 108.59354 -20.533333 5.4185996 -50.39677 169.97269 -16.675386 170.57941
793500000 -2.5386174 79.322151 -20.682682 -93.570114 -50.512032 79.767975 -17.929325 123.21924
803000000 -2.5216994 50.375549 -20.42462 165.7079 -50.058205 -12.091172 -21.489946 73.024635
812500000 -2.4845674 21.867533 -20.528963 62.564259 -50.01791 -106.43306 -30.542017 -2.9310279
822000000 -2.4427485 -6.148006 -20.878939 -37.781979 -50.336555 161.52167 -26.56481 -156.76511
831500000 -2.4253118 -33.952293 -20.825918 -137.43541 -50.138401 71.14492 -20.363333 145.56715
841000000 -2.4343781 -61.828068 -20.848431 121.27831 -50.067066 -21.636208 -17.943577 98.558624
850500000 -2.4576769 -89.866226 -20.848213 21.239271 -49.951427 -112.90475 -17.681341 52.720879
860000000 -2.498621 -118.19765 -20.611502 -81.034515 -49.464691 153.68446 -19.593351 6.9925747
869500000 -2.5572207 -146.94936 -21.018871 175.74788 -49.856812 58.919521 -24.87071 -39.568947
879000000 -2.6114309 -176.01427 -21.332523 77.667336 -50.019802 -29.999117 -44.506783 -175.09146
888500000 -2.6446185 154.82498 -20.914778 -22.927195 -49.481064 -122.00742 -24.947395 66.005264
898000000 -2.6663597 125.71449 -21.158419 -126.97315 -49.558315 142.94389 -20.264227 20.30298
907500000 -2.6605396 96.757866 -21.598104 134.12154 -49.930836 53.146538 -18.893892 -22.716717
917000000 -2.6222076 68.189003 -21.359262 34.493328 -49.611538 -37.478909 -19.627962 -64.162384
926500000 -2.5718961 40.157127 -21.427975 -68.07048 -49.579517 -131.36191 -22.916418 -103.56906
936000000 -2.5273967 12.611776 -21.668615 -168.39429 -49.618134 137.50061 -32.665897 -124.68781
945500000 -2.486119 -14.610678 -21.754944 91.031021 -49.663952 45.710522 -28.487389 -37.661304
955000000 -2.4479885 -41.600025 -21.966311 -8.5389624 -49.809444 -45.354538 -21.498751 -69.27594
964500000 -2.438858 -68.438034 -21.767036 -107.54906 -49.445744 -136.19705 -18.888256 -109.40075
974000000 -2.4600699 -95.463699 -21.677166 150.16841 -49.226173 130.81023 -18.599251 -151.43794
983500000 -2.5028019 -123.00201 -21.975269 50.091362 -49.530102 39.672184 -20.520962 165.92786
993000000 -2.5487213 -150.9057 -21.820343 -49.260895 -49.318649 -51.871864 -26.072571 122.21789
1002500000 -2.5884409 -179.04948 -21.875465 -150.88084 -49.444172 -144.92334 -42.48764 -74.862122
1012000000 -2.6345162 152.44804 -22.013994 110.25455 -49.403347 124.9025 -23.894541 -137.41328
1021500000 -2.6682789 123.71748 -21.718853 9.787097 -49.182625 33.284378 -19.335135 178.8396
1031000000 -2.6604409 95.07061 -21.899714 -92.188667 -49.335201 -60.031223 -17.633745 136.09807
1040500000 -2.6277919 66.76445 -21.972132 169.46072 -49.400589 -149.67278 -17.733858 92.779343
1050000000 -2.5990391 38.764549 -21.575167 68.595604 -49.002956 118.06487 -19.897266 47.94677
1059500000 -2.5655313 11.018906 -21.721449 -34.612679 -49.122322 23.854303 -25.856327 0.017473364
1069000000 -2.5212419 -16.316988 -22.063004 -133.86491 -49.442665 -66.730659 -38.551418 -175.59094
1078500000 -2.4891958 -43.287201 -21.861027 127.61479 -49.164677 -156.97107 -23.520872 108.89863
1088000000 -2.4927058 -70.291 -21.586693 25.840754 -48.804401 110.86384 -19.157839 62.424706
1097500000 -2.5381804 -97.664131 -21.734158 -76.034576 -48.967896 17.829147 -17.747492 16.937407
1107000000 -2.5828862 -125.3643 -21.805151 -175.57056 -49.021736 -72.858643 -18.32765 -28.384289
1116500000 -2.6317744 -153.48495 -21.614292 83.670143 -48.777355 -164.87851 -20.925507 -75.719704
1126000000 -2.7134724 177.79608 -21.70495 -17.811789 -48.937462 103.15392 -27.090015 -136.90276
1135500000 -2.7881763 148.58199 -21.673958 -117.20221 -48.87413 12.494265 -29.785458 82.54892
1145000000 -2.8157747 119.16096 -21.385609 141.16472 -48.562267 -79.635574 -22.131964 8.6708345
1154500000 -2.8268912 89.796707 -21.587469 38.922249 -48.757462 -173.31448 -18.768082 -39.63858
1164000000 -2.8318491 60.520176 -21.604807 -60.017399 -48.810486 96.971313 -17.590063 -83.890953
1173500000 -2.8062022 31.462416 -21.215359 -161.7863 -48.437283 4.703856 -18.212009 -126.8082
1183000000 -2.7585995 3.0197933 -21.408833 94.665207 -48.547234 -90.156288 -20.991114 -167.12308
1192500000 -2.7260044 -24.954468 -21.717369 -5.2516761 -48.809914 178.52776 -27.664455 162.95303
1202000000 -2.7221634 -52.797047 -21.649292 -105.04778 -48.719532 88.254562 -32.884506 -126.09804
1211500000 -2.723439 -80.466347 -21.577995 154.04311 -48.649467 -3.8348665 -23.513515 -136.99818
1221000000 -2.7386887 -108.09325 -21.530075 52.606529 -48.576054 -96.152771 -20.122017 -173.76399
1230500000 -2.8019874 -136.12791 -21.657381 -48.976135 -48.605793 171.55145 -19.276911 147.28601
1240000000 -2.873595 -164.69109 -21.771391 -149.00273 -48.791382 80.837669 -20.287357 108.58862
1249500000 -2.9210775 166.43388 -21.660194 110.54468 -48.615047 -10.208982 -23.596394 71.840965
1259000000 -2.9723794 137.36606 -21.63031 9.2134619 -48.554523 -102.74891 -32.15538 50.813503
1268500000 -3.0201433 107.98672 -21.604498 -91.941132 -48.607159 165.42242 -31.080811 133.29272
1278000000 -3.0188925 78.557365 -21.654499 166.46448 -48.472252 73.185661 -23.764599 109.1436
1287500000 -2.9718642 49.66193 -21.71736 66.143562 -48.680775 -17.726458 -21.155178 73.396912
1297000000 -2.9234121 21.281443 -21.529705 -35.503422 -48.498032 -109.90002 -20.891739 37.551613
1306500000 -2.8878636 -6.7648048 -21.798733 -138.55157 -48.648438 157.1031 -22.575706 6.3141222
1316000000 -2.8348498 -34.28051 -22.191862 122.49747 -49.069672 66.627037 -26.00209 -9.6044598
1325500000 -2.7767594 -61.238636 -21.999905 23.533466 -48.885536 -23.185362 -26.926188 2.6065226
1335000000 -2.7630053 -88.023895 -21.968943 -78.267502 -48.736465 -115.56866 -23.262724 -4.3186493
1344500000 -2.7916117 -114.96161 -22.151928 -178.10626 -48.962502 153.24275 -20.776245 -32.15469
1354000000 -2.8190911 -142.11601 -22.059206 82.214706 -48.821686 62.658504 -20.047852 -66.669525
1363500000 -2.8404331 -169.44713 -22.050226 -18.270369 -48.813969 -29.003805 -21.098396 -103.62132
1373000000 -2.8894327 162.85608 -21.9744 -118.12781 -48.769432 -120.21796 -24.680946 -140.61304
1382500000 -2.9598861 134.65968 -21.889349 141.0042 -48.777878 148.20319 -35.415787 -165.3056
1392000000 -2.9876525 106.19548 -21.943964 40.986111 -48.873131 56.495205 -30.491743 -56.84087
1401500000 -2.9647844 77.805038 -21.735338 -59.126228 -48.733147 -34.102337 -23.316425 -89.935974
1411000000 -2.9518847 49.525616 -21.70071 -161.1003 -48.721889 -126.81094 -20.783602 -128.1413
1420500000 -2.9441764 21.381922 -21.841219 98.740395 -48.854382 142.21579 -20.626869 -165.98094
1430000000 -2.8836186 -6.3271651 -21.723148 -1.690626 -48.808193 51.192642 -22.632069 159.72035
1439500000 -2.8136663 -33.406982 -21.838345 -103.1155 -49.046082 -40.923775 -27.681845 139.14764
1449000000 -2.7977633 -60.17403 -21.993792 157.78305 -49.237236 -130.98027 -30.326654 -179.87604
1458500000 -2.8052108 -87.010353 -21.800013 58.488392 -48.979286 138.81078 -23.355379 177.38791
1468000000 -2.8015211 -113.82885 -21.667974 -42.487072 -48.980877 47.25602 -19.704695 146.24629
1477500000 -2.8121827 -140.62784 -21.6724 -142.81032 -49.076069 -44.505733 -18.149071 110.1181
1487000000 -2.8784821 -167.98643 -21.562649 117.60142 -48.968895 -134.54988 -18.153255 72.230179
1496500000 -2.9555304 164.07614 -21.284374 17.14852 -48.767605 134.80408 -19.828434 34.023869
1506000000 -2.9948838 135.90768 -21.12429 -84.676537 -48.64175 42.443481 -23.932489 -2.0663085
1515500000 -3.0450947 107.37802 -21.110178 174.40907 -48.71563 -49.125778 -34.550152 -19.339069
1525000000 -3.1081049 78.334702 -20.936108 73.578026 -48.602562 -139.99393 -30.267469 73.416061
1534500000 -3.1167045 49.155193 -20.878956 -28.246935 -48.529705 127.48132 -23.784245 44.478645
1544000000 -3.0873668 20.306313 -20.839565 -128.96188 -48.56852 36.287617 -21.76206 9.3593245
1553500000 -3.0723884 -8.2491026 -20.716637 129.06976 -48.484444 -56.091915 -22.005484 -24.508875
1563000000 -3.0519888 -36.579849 -20.958063 27.614841 -48.690624 -148.3316 -24.266558 -53.145245
1572500000 -3.0143092 -64.442131 -20.930618 -71.083115 -48.657501 122.97418 -28.631401 -62.594231
1582000000 -3.0046346 -91.941521 -20.573709 -172.45288 -48.402145 30.54542 -28.742245 -37.484985
1591500000 -3.0399132 -119.59728 -20.69828 85.460686 -48.563457 -61.805592 -24.264126 -44.648273
1601000000 -3.0855291 -147.51869 -20.66366 -13.890059 -48.634251 -152.04642 -21.688555 -70.689491
1610500000 -3.1235392 -175.59674 -20.389597 -115.31622 -48.35537 116.4151 -20.869764 -100.6676
1620000000 -3.1955421 155.97704 -20.432077 143.18405 -48.421738 24.183857 -21.49757 -129.56409
1629500000 -3.2849178 126.96716 -20.263424 42.900867 -48.391182 -66.377441 -23.355377 -152.73792
1639000000 -3.3376532 97.604355 -20.084517 -59.545502 -48.243923 -159.00095 -25.703358 -164.1105
1648500000 -3.3558226 68.177132 -20.196501 -161.05585 -48.382172 109.08205 -26.530298 -164.82301
1658000000 -3.3788278 38.674736 -20.083256 98.254669 -48.253216 18.519573 -25.618275 -171.36029
1667500000 -3.3809798 9.2490826 -20.023041 -4.3145318 -48.254246 -74.677994 -24.962133 174.62244
1677000000 -3.3276742 -19.707064 -20.252399 -105.91626 -48.377422 -166.65564 -24.976183 161.0567
1686500000 -3.2640035 -48.054638 -20.368544 154.28932 -48.552814 103.38217 -24.778059 152.21541
1696000000 -3.2424765 -75.982124 -20.23658 54.016052 -48.483913 12.575726 -23.529596 142.38828
1705500000 -3.2265577 -103.66521 -20.179567 -47.80965 -48.341015 -79.768471 -21.920525 124.94587
1715000000 -3.2020028 -131.16017 -20.303755 -148.47643 -48.463299 -171.23386 -20.902714 101.0777
1724500000 -3.2153409 -158.54567 -20.145672 111.48267 -48.383945 98.934685 -20.911182 74.528793
1734000000 -3.2640057 173.81767 -20.076099 9.0844593 -48.363869 5.7991877 -22.101652 49.51474
1743500000 -3.3098013 145.78563 -20.311172 -90.974579 -48.748363 -84.19796 -24.344744 32.085407
1753000000 -3.3422713 117.61752 -19.985687 169.85669 -48.40554 -174.28696 -26.150131 29.179218
1762500000 -3.3792217 89.237534 -19.803648 66.504433 -48.291561 91.868645 -25.244593 27.36492
1772000000 -3.4186213 60.478546 -20.098969 -33.874245 -48.541359 1.2834015 -23.745264 10.618935
1781500000 -3.4221041 31.730518 -19.760391 -133.47574 -48.28577 -88.580444 -23.563631 -14.772804
1791000000 -3.3943965 3.2274163 -19.714211 122.85484 -48.245895 177.31378 -25.362289 -41.320606
1800500000 -3.3719203 -25.050707 -20.038063 23.128977 -48.581436 86.724098 -30.312595 -56.702709
1810000000 -3.3304257 -52.944603 -19.747917 -76.775345 -48.310173 -3.4941623 -33.174755 -9.354969
1819500000 -3.2798374 -80.423676 -19.820091 -179.17612 -48.448189 -97.027466 -25.981159 -6.1005735
1829000000 -3.265619 -107.60216 -19.859385 81.978386 -48.494698 173.64862 -22.21327 -31.81389
1838500000 -3.2632005 -134.63248 -19.42201 -19.663925 -48.153347 80.925705 -20.617641 -61.575104
1848000000 -3.2646787 -161.67 -19.586945 -122.51626 -48.377918 -12.024268 -20.526613 -90.196152
1857500000 -3.3056695 171.23442 -19.527811 138.14937 -48.429684 -102.05869 -21.531071 -113.80183
1867000000 -3.3714147 143.85736 -19.16617 35.230492 -48.18848 164.28058 -22.842905 -128.55176
1876500000 -3.4431548 116.03408 -19.397873 -67.565941 -48.467503 71.143219 -23.115173 -136.98833
1886000000 -3.518183 87.963913 -19.293793 -168.12823 -48.496536 -19.651682 -22.199183 -149.67661
1895500000 -3.5897598 59.606903 -19.222048 87.865906 -48.491684 -113.79719 -21.393326 -170.15952
1905000000 -3.6505747 30.901539 -19.565269 -14.270787 -48.784435 154.29123 -21.444794 164.92531
1914500000 -3.6826572 2.2575681 -19.507509 -116.20731 -48.854122 61.967655 -22.706347 139.33801
1924000000 -3.6904294 -26.172188 -19.901628 139.14993 -49.144276 -33.058083 -25.542051 118.82027
1933500000 -3.6805818 -54.41227 -20.543758 39.171574 -49.845272 -123.12673 -29.476742 119.22697
1943000000 -3.6592634 -82.306168 -20.576603 -61.08672 -49.967159 145.70074 -28.48255 137.75761
1952500000 -3.632668 -109.88222 -20.996811 -163.80904 -50.472828 53.569546 -25.205885 126.55508
1962000000 -3.6224482 -137.3732 -21.557718 97.417412 -50.970623 -34.92823 -23.914267 101.03082
1971500000 -3.6157298 -164.78726 -21.613468 -1.4631313 -51.107414 -124.6396 -24.907492 73.953148
1981000000 -3.6200747 167.75993 -21.789343 -101.73922 -51.249401 145.72049 -28.633738 58.70137
1990500000 -3.6673386 140.02248 -21.919455 159.10841 -51.536037 55.844032 -30.433899 88.657806
2000000000 -3.7281723 111.87946 -21.937542 59.244427 -51.585453 -33.357544 -24.499191 89.847679
