!Keysight Technologies,N5242B,MY48420967,A.15.65.19
!Date: Monday, January 23, 2023 00:04:38
!Correction: S11(C  1-Port  ) 
!S21(Off) 
!S12(Off) 
!S22(Off) 
!S2P File: Measurements: S11, S21, S12, S22:
# Hz S  dB   R 50
100000000 -1.3837787 40.484348 -15.67696 96.22506 -77.77813 9.9542351 -18.945631 82.189095
109500000 -1.2972642 11.106882 -15.402081 -4.0951924 -76.017616 -90.385422 -21.688286 23.168732
119000000 -1.2024275 -17.574688 -15.482738 -109.37827 -74.803688 174.67432 -25.794056 -64.804237
128500000 -1.1254531 -45.938129 -16.088802 149.08357 -72.902687 71.252411 -23.000677 -168.54947
138000000 -1.1163064 -74.478851 -16.182692 49.649094 -73.683792 -10.953465 -18.797487 126.64776
147500000 -1.1643279 -103.32745 -16.093491 -51.729561 -70.441849 -108.51492 -16.511742 74.429977
157000000 -1.2223048 -132.48651 -16.050024 -153.94107 -70.135208 160.4359 -15.847755 24.045065
166500000 -1.308054 -162.03114 -16.134865 103.05241 -69.249687 68.987061 -16.951309 -27.335281
176000000 -1.4232955 167.98232 -16.475292 1.0511352 -69.452431 -24.741772 -20.165653 -82.511208
185500000 -1.5150195 137.78197 -16.67021 -98.986855 -68.216484 -115.41292 -25.824923 -160.15675
195000000 -1.5511203 107.79119 -16.565845 160.42973 -67.613663 149.58852 -24.515636 81.610855
204500000 -1.5579032 78.146339 -16.511187 57.690434 -66.981308 57.301422 -19.35368 10.783664
214000000 -1.5487893 48.749451 -16.844065 -44.646103 -66.38736 -34.8922 -16.930578 -43.653793
223500000 -1.5096666 19.709042 -17.069679 -144.04649 -65.982811 -125.9836 -16.346321 -94.417397
233000000 -1.4610418 -9.0059929 -16.868563 115.76357 -64.442032 141.83051 -17.210983 -146.68541
242500000 -1.4429885 -37.648079 -16.786388 13.257502 -64.271217 48.407631 -19.69005 153.18495
252000000 -1.4436175 -66.390816 -16.947235 -88.759323 -64.219292 -48.269093 -23.020977 71.984879
261500000 -1.4718909 -95.388474 -17.127638 170.47066 -63.392582 -140.40276 -21.900063 -22.588545
271000000 -1.5438112 -124.71958 -17.075293 70.645401 -62.416058 131.00618 -18.578196 -91.935349
280500000 -1.6312494 -154.47026 -16.767544 -31.584568 -62.080208 35.090244 -16.647417 -149.27211
290000000 -1.7058889 175.52061 -16.953953 -135.69716 -61.350872 -57.681175 -16.397728 155.98883
299500000 -1.7843561 145.42154 -17.354586 123.8959 -61.02224 -153.29924 -17.721518 100.71025
309000000 -1.8466527 115.26185 -17.240664 24.077608 -60.419716 122.02629 -20.419155 38.731068
318500000 -1.8628991 85.39418 -17.14156 -78.409737 -60.166416 25.015867 -23.212936 -43.726418
328000000 -1.8391386 56.015156 -17.275406 179.42726 -59.602222 -68.102013 -22.006641 -135.68013
337500000 -1.823972 26.862202 -17.459019 77.826309 -59.353691 -161.74464 -19.448622 154.12242
347000000 -1.816941 -2.1651216 -17.621376 -22.461193 -58.815517 104.98518 -18.134562 95.465088
356500000 -1.7915996 -31.036516 -17.421585 -122.54454 -58.276653 15.340436 -18.118484 38.24889
366000000 -1.7883489 -60.001732 -17.205292 134.08473 -57.881153 -79.92897 -19.363495 -23.681227
375500000 -1.8383006 -89.334686 -17.54455 30.794592 -57.736202 -173.79045 -21.260881 -95.423653
385000000 -1.9010576 -119.12698 -17.853786 -68.889473 -57.389534 96.989716 -21.699718 -174.97716
394500000 -1.9643742 -149.17624 -17.644276 -168.76323 -57.310619 2.6673143 -20.250755 112.87314
404000000 -2.0287278 -179.32253 -17.490919 87.902115 -56.57571 -92.821793 -19.063591 50.326141
413500000 -2.0890002 150.4227 -17.859818 -14.684149 -56.473408 174.1087 -19.250578 -8.3073797
423000000 -2.1304388 120.25497 -18.04332 -114.35032 -56.286629 83.307541 -21.061493 -67.550316
432500000 -2.1284518 90.547485 -17.939419 144.23773 -55.883076 -9.5123787 -24.318933 -137.53987
442000000 -2.0992451 61.317963 -18.143875 42.3302 -55.708836 -104.82096 -25.918997 126.72804
451500000 -2.0782037 32.478867 -18.226757 -58.236687 -55.535091 164.9472 -22.959471 41.418133
461000000 -2.0530751 3.8975463 -18.336737 -160.32529 -55.218079 71.543175 -20.673925 -21.742811
470500000 -2.0254269 -24.496248 -18.663588 99.770828 -55.359173 -18.528442 -20.067675 -77.799667
480000000 -2.0136006 -52.798328 -18.391182 0.44913605 -54.785889 -111.05121 -21.096975 -135.28136
489500000 -2.0362651 -81.352669 -18.239464 -103.72393 -54.241032 154.25075 -23.8666 156.3007
499000000 -2.0833702 -110.29973 -18.749903 154.57388 -54.479424 63.157387 -25.777088 63.318455
508500000 -2.1223969 -139.44048 -18.685133 55.408417 -54.169495 -29.187834 -22.821054 -22.403744
518000000 -2.15804 -168.73318 -18.525545 -47.760941 -53.609261 -123.47082 -19.981834 -84.988403
527500000 -2.20241 161.85242 -18.856916 -150.1004 -53.638317 142.3356 -18.919548 -140.05063
537000000 -2.2296231 132.50818 -19.035303 108.75062 -53.629177 51.492661 -19.74428 166.51077
546500000 -2.224694 103.51109 -19.314474 7.4408269 -53.630875 -40.937489 -22.76911 109.57583
556000000 -2.198365 75.010864 -19.439558 -92.008141 -53.367714 -132.7336 -28.536503 25.414139
565500000 -2.166626 46.891418 -19.320686 166.22903 -52.948853 133.7431 -25.835554 -96.719971
575000000 -2.1349831 19.076998 -19.7456 64.008339 -53.168774 40.754219 -20.699873 -164.85583
584500000 -2.1021254 -8.4987822 -20.032137 -33.922554 -53.013828 -48.594322 -18.374207 141.88007
594000000 -2.0835559 -36.031723 -19.773893 -133.49496 -52.524467 -140.4438 -17.77239 90.990417
603500000 -2.0947702 -63.75843 -19.821028 125.40902 -52.333702 126.9381 -18.771065 36.412304
613000000 -2.1283004 -91.849602 -19.67662 25.362797 -52.055244 34.860321 -21.452951 -29.124788
622500000 -2.1700587 -120.3396 -19.760754 -77.634956 -52.026745 -60.300426 -23.551826 -117.20667
632000000 -2.2252579 -149.2048 -20.184986 -175.92722 -52.261448 -150.37936 -21.037914 157.78348
641500000 -2.2780406 -178.31218 -19.705282 85.180801 -51.675972 118.21686 -18.185364 94.735352
651000000 -2.3180468 152.42873 -19.683691 -19.10565 -51.594925 23.470572 -16.972748 39.816582
660500000 -2.3406098 123.24487 -20.119026 -119.3482 -51.897789 -68.168968 -17.513422 -12.775723
670000000 -2.338269 94.255295 -20.00247 141.41678 -51.627583 -158.7482 -19.901417 -67.533081
679500000 -2.320256 65.610008 -19.864744 39.560287 -51.306343 107.72346 -24.705584 -140.04062
689000000 -2.286685 37.391819 -19.98848 -62.326748 -51.315639 16.047861 -25.234665 102.54154
698500000 -2.2585113 9.4106064 -20.169249 -163.22791 -51.355888 -77.493843 -19.955349 25.408863
708000000 -2.2481484 -18.451647 -20.282568 96.969261 -51.334732 -168.2231 -17.085005 -28.748409
717500000 -2.2448084 -46.297554 -20.171587 -2.7148633 -51.116882 101.26616 -15.997598 -78.247078
727000000 -2.2689795 -74.399223 -19.932295 -103.94914 -50.688114 8.9600706 -16.52384 -128.541
736500000 -2.3305218 -102.96865 -19.881922 153.36229 -50.499622 -85.419708 -19.082769 177.23549
746000000 -2.3960819 -132.0392 -20.120426 51.500023 -50.52943 -178.90456 -24.21394 107.24046
755500000 -2.4535661 -161.47856 -20.257086 -48.45723 -50.517559 89.879356 -25.442242 -7.1953449
765000000 -2.5175092 168.85902 -20.101469 -149.09317 -50.228691 -1.8328325 -20.213947 -84.764893
774500000 -2.5673075 139.02946 -20.087053 108.1214 -50.098553 -96.384987 -17.505173 -139.48367
784000000 -2.5803623 109.29421 -20.449829 6.3906908 -50.277351 171.13011 -16.953318 171.79478
793500000 -2.5638874 79.959419 -20.607336 -92.601143 -50.303539 81.064644 -18.150812 125.12851
803000000 -2.5369213 51.093346 -20.357306 166.7359 -49.983246 -11.024366 -21.662104 76.375725
812500000 -2.5034878 22.633106 -20.454054 63.62986 -49.989517 -105.6585 -31.115465 6.4695735
822000000 -2.4660058 -5.4520583 -20.795784 -36.744102 -50.197681 163.01479 -27.457251 -159.09402
831500000 -2.4426818 -33.270618 -20.748772 -136.39847 -50.037872 71.901894 -20.815407 144.9165
841000000 -2.4465714 -61.051907 -20.771702 122.31316 -49.989979 -20.525675 -18.304279 98.808037
850500000 -2.4756467 -89.042503 -20.779877 22.332451 -49.83725 -112.07874 -17.999372 53.743767
860000000 -2.5220904 -117.40161 -20.535915 -79.886383 -49.39539 154.49707 -19.883909 9.0311508
869500000 -2.5736711 -146.11946 -20.939924 176.86736 -49.75238 60.567421 -25.154619 -35.271503
879000000 -2.6257274 -175.08981 -21.254211 78.772293 -49.950783 -28.865335 -55.020176 171.70277
888500000 -2.6691513 155.77713 -20.839693 -21.741356 -49.405014 -120.56004 -25.271114 62.541161
898000000 -2.6887653 126.62306 -21.077829 -125.79377 -49.539177 144.4268 -20.544107 19.074434
907500000 -2.6764591 97.691132 -21.515833 135.27296 -49.873329 53.980659 -19.165886 -22.959564
917000000 -2.6441469 69.193481 -21.27883 35.694958 -49.584793 -36.572697 -19.906122 -63.576527
926500000 -2.5982471 41.147179 -21.345814 -66.838303 -49.474838 -130.10968 -23.209261 -101.47327
936000000 -2.54459 13.562197 -21.583052 -167.13893 -49.596565 138.78168 -32.50872 -116.39883
945500000 -2.4952796 -13.593799 -21.662594 92.29583 -49.534653 46.798737 -28.156191 -42.178383
955000000 -2.4636533 -40.515739 -21.864233 -7.2941589 -49.657841 -44.302658 -21.549345 -71.547707
964500000 -2.4598615 -67.405388 -21.672329 -106.3245 -49.358429 -134.7411 -19.03153 -110.81043
974000000 -2.4775236 -94.450188 -21.581053 151.4257 -49.175079 132.17889 -18.80434 -152.32323
983500000 -2.5174935 -121.88619 -21.876165 51.353565 -49.457607 40.275887 -20.811304 165.58104
993000000 -2.5696118 -149.73599 -21.719585 -47.956345 -49.233013 -50.455097 -26.595036 122.86676
1002500000 -2.6147013 -177.93753 -21.768894 -149.60179 -49.323555 -143.98558 -40.63694 -90.175079
1012000000 -2.6617284 153.52574 -21.91362 111.51315 -49.355057 126.40265 -23.721964 -139.54718
1021500000 -2.6924627 124.83605 -21.610193 11.13649 -49.042881 34.382122 -19.315125 177.45457
1031000000 -2.6868932 96.175301 -21.775143 -90.87619 -49.299381 -58.922211 -17.685053 135.01268
1040500000 -2.6650465 67.774437 -21.854301 170.65047 -49.279884 -148.46069 -17.846558 91.883171
1050000000 -2.6343296 39.719604 -21.46479 69.862206 -48.881363 119.01782 -20.095425 47.295242
1059500000 -2.5867462 11.998353 -21.599834 -33.290207 -49.048626 25.275869 -26.275 -0.21261598
1069000000 -2.5439851 -15.345385 -21.938955 -132.61331 -49.278244 -65.76899 -37.878769 174.71376
1078500000 -2.5251391 -42.392548 -21.744143 128.82056 -48.994545 -155.38841 -23.398729 107.02915
1088000000 -2.5244882 -69.44722 -21.474125 27.035244 -48.873245 112.22227 -19.169899 60.980347
1097500000 -2.5543234 -96.729942 -21.621063 -74.797768 -48.894024 19.239403 -17.842331 15.641502
1107000000 -2.6089082 -124.37638 -21.691063 -174.35817 -49.009525 -72.250137 -18.509396 -29.6217
1116500000 -2.6751981 -152.56331 -21.505585 84.911583 -48.729866 -163.6651 -21.249828 -77.133499
1126000000 -2.7458725 178.73329 -21.59384 -16.59153 -48.8526 104.56606 -27.773119 -140.21823
1135500000 -2.8099015 149.64967 -21.567528 -115.96124 -48.774719 14.278681 -29.274364 76.407051
1145000000 -2.8566325 120.22274 -21.274734 142.45229 -48.423122 -78.74324 -21.877079 6.6450248
1154500000 -2.8764915 90.744553 -21.473104 40.196308 -48.645554 -172.03487 -18.67152 -41.028301
1164000000 -2.8642747 61.509037 -21.492979 -58.743992 -48.650288 98.45681 -17.601828 -84.993294
1173500000 -2.8360896 32.584656 -21.103743 -160.45952 -48.269489 5.9715075 -18.335972 -127.54671
1183000000 -2.8019607 4.0571928 -21.294079 95.984001 -48.390041 -88.911972 -21.272453 -167.05096
1192500000 -2.7631969 -23.995947 -21.603401 -3.942574 -48.673531 -179.92766 -28.235994 166.836
1202000000 -2.7409868 -51.69141 -21.534382 -103.71051 -48.544815 89.192902 -31.247656 -125.79594
1211500000 -2.747458 -79.284233 -21.459368 155.34355 -48.565636 -2.5669498 -23.028629 -140.31328
1221000000 -2.7793171 -107.01935 -21.421331 53.919415 -48.439053 -94.667351 -19.939117 -176.85735
1230500000 -2.8335159 -135.0139 -21.550554 -47.582001 -48.544624 172.72536 -19.27182 144.32744
1240000000 -2.8933582 -163.39159 -21.649464 -147.57269 -48.698532 82.358551 -20.461754 105.72506
1249500000 -2.954895 167.77075 -21.535574 111.91809 -48.589329 -9.2514973 -24.090759 69.230011
1259000000 -3.0195043 138.60866 -21.511868 10.593369 -48.428024 -100.98718 -33.75494 53.62133
1268500000 -3.0561213 109.241 -21.483023 -90.514359 -48.419853 167.30652 -29.85124 134.42435
1278000000 -3.0503366 79.926407 -21.523773 167.91331 -48.445572 75.300636 -23.292049 106.64993
1287500000 -3.0187109 50.989651 -21.58605 67.541771 -48.590363 -16.495646 -20.995962 70.234261
1297000000 -2.9762621 22.48665 -21.412952 -34.056011 -48.326653 -108.55786 -21.0154 34.148693
1306500000 -2.9208202 -5.5287814 -21.666197 -137.04466 -48.529861 157.3279 -23.069168 3.4517989
1316000000 -2.8537583 -32.933765 -22.0476 123.93857 -48.878353 67.805092 -26.969414 -8.1138277
1325500000 -2.8118408 -59.910404 -21.865204 24.917694 -48.804829 -22.337564 -26.773682 9.4470959
1335000000 -2.8078582 -86.777962 -21.840302 -76.881348 -48.617744 -114.14059 -22.602386 -2.6598051
1344500000 -2.8166375 -113.67301 -22.023163 -176.68576 -48.823582 154.53938 -20.228218 -33.339386
1354000000 -2.8358359 -140.6765 -21.928122 83.637108 -48.77285 63.595612 -19.652966 -69.48011
1363500000 -2.8814082 -167.98032 -21.919147 -16.884768 -48.755585 -27.286324 -20.893829 -107.99135
1373000000 -2.9400477 164.22516 -21.857315 -116.68375 -48.610237 -118.92656 -24.835012 -147.59035
1382500000 -2.9900577 136.06834 -21.764662 142.58566 -48.616886 149.83548 -38.174572 175.11945
1392000000 -3.0161984 107.7167 -21.797316 42.564754 -48.757236 58.664268 -29.157133 -49.959476
1401500000 -3.0231056 79.2519 -21.588062 -57.622654 -48.601234 -32.871319 -22.585426 -89.718918
1411000000 -3.0121827 50.849712 -21.554518 -159.57372 -48.61179 -125.18047 -20.318108 -130.13213
1420500000 -2.9799895 22.735931 -21.696188 100.26389 -48.709793 143.93758 -20.400583 -169.50435
1430000000 -2.9234762 -4.9304776 -21.570532 -0.13794062 -48.63382 52.968323 -22.78092 154.63097
1439500000 -2.8711731 -32.111286 -21.682919 -101.59385 -48.906525 -39.12249 -29.015955 133.46326
1449000000 -2.8385394 -58.931179 -21.834648 159.24464 -49.043533 -129.47978 -30.524105 -166.23303
1458500000 -2.8260992 -85.649826 -21.650858 59.906872 -48.810215 140.31461 -22.630125 -179.25008
1468000000 -2.8352828 -112.42855 -21.52199 -41.035202 -48.786133 48.992577 -19.111708 146.25224
1477500000 -2.8612428 -139.29967 -21.52725 -141.35442 -48.93047 -42.747417 -17.69935 108.35966
1487000000 -2.9163373 -166.58461 -21.41906 119.08115 -48.915249 -133.03363 -17.866089 69.054863
1496500000 -2.9870036 165.60271 -21.136112 18.666895 -48.612583 136.74336 -19.786217 29.381634
1506000000 -3.0490785 137.3756 -20.97616 -83.171692 -48.521076 43.861267 -24.414608 -8.9401121
1515500000 -3.1067717 108.76001 -20.964659 175.93961 -48.564342 -47.664394 -38.873344 -27.88702
1525000000 -3.1523898 79.800072 -20.777996 75.151245 -48.478523 -138.89677 -28.626608 78.992615
1534500000 -3.1659036 50.689354 -20.717813 -26.729458 -48.383904 128.83241 -22.942728 43.050419
1544000000 -3.1564543 21.725908 -20.693329 -127.49842 -48.453732 37.790592 -21.341475 5.5161195
1553500000 -3.131552 -6.9027681 -20.573492 130.66777 -48.354507 -54.752304 -22.023527 -30.029264
1563000000 -3.0913155 -35.127052 -20.793741 29.198936 -48.591805 -146.42778 -25.0658 -59.631145
1572500000 -3.0602624 -62.947708 -20.76745 -69.609863 -48.556656 123.82884 -31.053288 -60.118214
1582000000 -3.0626781 -90.558754 -20.422565 -170.95084 -48.244396 32.359562 -28.245466 -23.963356
1591500000 -3.0875041 -118.2119 -20.544771 87.029999 -48.461224 -60.423904 -23.191574 -41.635101
1601000000 -3.1194305 -145.97258 -20.504625 -12.308304 -48.437412 -150.26543 -20.88826 -72.347977
1610500000 -3.1722763 -174.00288 -20.217678 -113.77952 -48.165195 117.69692 -20.469368 -105.07464
1620000000 -3.2580082 157.48212 -20.271658 144.68452 -48.352829 25.857222 -21.688967 -135.46936
1629500000 -3.3383803 128.48221 -20.112825 44.480602 -48.251751 -64.884674 -24.459576 -157.22183
1639000000 -3.3869612 99.223953 -19.917746 -57.885418 -48.099716 -157.67433 -27.351732 -158.64417
1648500000 -3.4243782 69.792061 -20.023443 -159.51833 -48.218796 110.72273 -26.414455 -152.81718
1658000000 -3.452549 40.190617 -19.919687 99.763123 -48.167824 20.131578 -24.394199 -166.54129
1667500000 -3.4404862 10.77639 -19.861809 -2.7151778 -48.110497 -73.041397 -23.850698 171.7455
1677000000 -3.3817806 -18.116819 -20.084087 -104.32936 -48.297768 -165.07112 -24.765406 153.24677
1686500000 -3.3231375 -46.472664 -20.194361 155.81808 -48.450432 104.7669 -25.944191 147.4819
1696000000 -3.296947 -74.440559 -20.069157 55.555767 -48.222084 13.955986 -24.652996 147.15135
1705500000 -3.2757423 -102.10083 -20.015303 -46.225578 -48.261593 -78.116234 -22.087753 132.53578
1715000000 -3.2532449 -129.54677 -20.135571 -146.87471 -48.441952 -169.50735 -20.379171 107.00927
1724500000 -3.2622252 -156.90175 -19.967926 113.09308 -48.159294 100.31647 -20.00242 77.157707
1734000000 -3.3069661 175.51996 -19.894836 10.627229 -48.23019 7.2117891 -21.095831 47.547123
1743500000 -3.3641067 147.53944 -20.141937 -89.470963 -48.54245 -83.045654 -23.826981 24.120852
1753000000 -3.4047885 119.3442 -19.820942 171.46761 -48.209785 -172.73291 -27.431181 20.864639
1762500000 -3.43312 90.966476 -19.618118 68.148499 -48.138683 93.72065 -26.7472 33.107143
1772000000 -3.4749646 62.285431 -19.904118 -32.364349 -48.457939 2.5862412 -23.960133 19.760611
1781500000 -3.4993882 33.511036 -19.577494 -131.97443 -48.107986 -87.18338 -22.935013 -7.4079599
1791000000 -3.468998 4.9043407 -19.523726 124.41669 -48.113258 178.58855 -24.078453 -37.656994
1800500000 -3.4206519 -23.324566 -19.838118 24.580091 -48.395832 88.133255 -28.402803 -63.104008
1810000000 -3.3840978 -51.115822 -19.555595 -75.354485 -48.26252 -2.7069433 -36.383839 -23.190458
1819500000 -3.3566458 -78.67453 -19.63633 -177.83987 -48.316067 -95.72477 -26.903906 2.6218634
1829000000 -3.3290873 -105.97109 -19.690626 83.274124 -48.341587 175.12419 -22.080809 -24.295353
1838500000 -3.3019288 -132.90251 -19.245689 -18.262585 -47.994907 82.672737 -19.972582 -56.269878
1848000000 -3.3152406 -159.79802 -19.403986 -121.31823 -48.276573 -10.727819 -19.552233 -87.936104
1857500000 -3.3797104 173.05457 -19.382324 139.21263 -48.31794 -101.06715 -20.487539 -115.91998
1867000000 -3.4406939 145.59883 -19.043644 36.348228 -48.045395 165.77089 -22.373943 -135.6609
1876500000 -3.4967756 117.88274 -19.293316 -66.424622 -48.334923 72.499611 -23.901026 -142.67088
1886000000 -3.5823443 89.929932 -19.212332 -166.91676 -48.420029 -18.073534 -23.205032 -147.12733
1895500000 -3.6766996 61.537327 -19.165276 89.155411 -48.358604 -112.52725 -21.643192 -163.47943
1905000000 -3.7425489 32.789001 -19.541857 -12.794003 -48.78558 155.21912 -20.915167 171.36304
1914500000 -3.7624042 4.1813302 -19.502005 -114.38941 -48.792347 64.247429 -21.532326 142.73441
1924000000 -3.7644238 -24.17124 -19.886675 141.1931 -49.328934 -30.914068 -23.947891 115.41976
1933500000 -3.7623415 -52.388947 -20.543766 41.429951 -49.957184 -120.43151 -29.040176 102.44207
1943000000 -3.7427137 -80.361656 -20.575621 -58.342056 -49.91449 149.05905 -31.014366 138.01743
1952500000 -3.6958117 -107.99857 -20.946104 -160.69194 -50.361889 56.448257 -25.769709 136.52034
1962000000 -3.6636744 -135.39157 -21.44623 100.76212 -50.955463 -31.491304 -23.314322 109.60356
1971500000 -3.6691315 -162.72383 -21.442032 1.8496048 -50.917976 -121.71886 -23.436947 78.935921
1981000000 -3.6941662 169.71814 -21.570992 -98.479614 -51.02243 148.74844 -26.262289 53.996502
1990500000 -3.7220044 141.90459 -21.666397 162.36842 -51.160095 59.319633 -31.163399 65.375916
2000000000 -3.7630439 113.8917 -21.635714 62.408203 -51.278675 -30.545849 -26.289772 90.013672
