!Keysight Technologies,N5242B,MY48420967,A.15.65.19
!Date: Saturday, February 04, 2023 18:24:30
!Correction: S11(C  1-Port  ) 
!S21(Off) 
!S12(Off) 
!S22(Off) 
!S2P File: Measurements: S11, S21, S12, S22:
# Hz S  dB   R 50
100000000 -1.4963489 40.20874 -15.908262 95.223694 -78.718193 5.5239391 -20.750763 89.522972
109500000 -1.4350362 10.75621 -15.659736 -5.2105808 -77.440231 -99.827316 -24.131508 34.484268
119000000 -1.3677202 -18.214188 -15.77336 -110.36727 -76.929893 164.48126 -30.898592 -61.008404
128500000 -1.2859775 -46.649296 -16.371815 148.25336 -73.961182 82.473122 -25.162928 179.85974
138000000 -1.2765489 -75.088936 -16.455647 48.690117 -73.170822 -10.952147 -19.995867 121.45388
147500000 -1.3504566 -104.02575 -16.386326 -52.83194 -73.397949 -108.60957 -17.532028 72.779518
157000000 -1.4191622 -133.29234 -16.388111 -154.84123 -71.093849 155.48257 -16.835247 25.072285
166500000 -1.4946254 -162.74005 -16.477976 102.3539 -70.718178 67.608345 -17.958439 -23.64312
176000000 -1.620676 167.35609 -16.796305 0.39865875 -69.46962 -23.895107 -21.368654 -75.325569
185500000 -1.7241211 137.12344 -16.994764 -99.767746 -69.398262 -118.01045 -28.587545 -149.56285
195000000 -1.7441703 107.20382 -16.914972 159.67429 -67.562347 153.02525 -26.668468 73.286995
204500000 -1.7454094 77.706238 -16.871902 57.086243 -67.397957 54.846252 -20.417574 7.1108828
214000000 -1.7535605 48.334034 -17.193634 -45.167213 -67.014153 -38.040997 -17.772223 -44.299084
223500000 -1.7101783 19.286652 -17.415981 -144.59785 -65.515816 -129.97328 -17.110514 -93.005028
233000000 -1.6429752 -9.3008604 -17.225988 115.24018 -64.996498 140.69905 -17.988434 -143.2077
242500000 -1.636079 -37.843056 -17.145634 12.83522 -64.622902 48.841625 -20.656364 159.29903
252000000 -1.6592101 -66.647713 -17.295216 -89.15123 -63.667404 -46.719482 -24.787209 78.914467
261500000 -1.677269 -95.649673 -17.46217 170.02725 -63.155025 -139.58174 -23.64996 -22.611462
271000000 -1.741796 -124.87032 -17.418966 70.106804 -62.774624 130.8766 -19.721788 -92.203033
280500000 -1.8598186 -154.61359 -17.127752 -32.101639 -62.073975 38.364159 -17.545822 -148.0083
290000000 -1.9520427 175.24658 -17.307287 -136.04996 -61.768219 -62.164707 -17.163113 159.00648
299500000 -2.0168352 145.11926 -17.686401 123.4724 -61.091385 -153.07748 -18.436049 105.66447
309000000 -2.0878453 115.02096 -17.584661 23.430035 -60.91951 121.62743 -21.29553 46.359768
318500000 -2.1328568 85.071579 -17.51018 -79.039421 -60.387924 25.478725 -24.918631 -34.920681
328000000 -2.1117547 55.55365 -17.642397 178.89273 -60.143581 -70.149521 -23.893465 -133.07861
337500000 -2.0927749 26.385778 -17.817806 77.227089 -59.608582 -164.73213 -20.790691 155.54373
347000000 -2.1076944 -2.6358182 -17.99423 -23.201538 -59.294323 108.1296 -19.211931 97.814247
356500000 -2.1045561 -31.562263 -17.82423 -123.32214 -59.033195 13.922212 -19.124063 41.948769
366000000 -2.1000788 -60.539486 -17.621925 133.47426 -58.244541 -80.628983 -20.445253 -18.353939
375500000 -2.1627619 -89.860619 -17.947458 30.206631 -58.217712 -176.16377 -22.645817 -89.408401
385000000 -2.2588449 -119.66404 -18.266273 -69.602806 -57.872593 94.076233 -23.281708 -171.59084
394500000 -2.3290744 -149.67842 -18.094585 -169.54459 -57.724846 3.5467772 -21.588154 114.56151
404000000 -2.391983 -179.75555 -17.959698 87.289627 -57.077499 -93.474792 -20.166283 52.589752
413500000 -2.4763775 150.00011 -18.318932 -15.147362 -56.897038 174.62903 -20.224186 -4.5596743
423000000 -2.5330887 119.8419 -18.506062 -114.85683 -56.774025 83.375862 -22.057283 -61.857006
432500000 -2.5169537 90.234627 -18.418987 143.75653 -56.43623 -8.1632748 -25.822832 -129.62032
442000000 -2.4876127 61.106956 -18.625862 41.888222 -56.556847 -105.128 -28.292631 128.6123
451500000 -2.4883161 32.254627 -18.726734 -58.680019 -56.101395 164.58965 -24.445883 39.229984
461000000 -2.468864 3.7287877 -18.844725 -160.62845 -55.81987 73.376358 -21.684885 -22.51466
470500000 -2.4294612 -24.500765 -19.162783 99.440224 -55.737534 -19.614183 -20.899452 -76.994904
480000000 -2.4312854 -52.734585 -18.915915 0.0057398593 -55.259331 -110.61358 -21.901274 -132.63089
489500000 -2.4812591 -81.307724 -18.795588 -104.00298 -54.774071 153.85683 -24.903173 161.27695
499000000 -2.5309253 -110.1908 -19.303457 154.40947 -55.039154 61.596882 -27.469843 66.189911
508500000 -2.5688748 -139.22679 -19.288755 55.279236 -54.742779 -29.173292 -24.101551 -23.252808
518000000 -2.6280792 -168.48312 -19.148792 -47.27483 -54.357445 -123.17278 -20.929878 -85.236992
527500000 -2.6921816 162.07159 -19.410273 -149.36732 -54.380924 143.52011 -19.714632 -139.09755
537000000 -2.7146838 132.74632 -19.546644 109.4501 -54.202759 51.366661 -20.451351 168.86343
546500000 -2.70118 103.80238 -19.799513 8.0388165 -54.007324 -41.494308 -23.498718 114.19758
556000000 -2.6834781 75.26226 -19.934145 -91.603531 -53.815205 -132.85326 -30.170708 33.572994
565500000 -2.6578944 47.110817 -19.8316 166.69392 -53.55344 135.22372 -27.432659 -99.368248
575000000 -2.6184797 19.319675 -20.232075 64.545197 -53.660587 41.999836 -21.661543 -166.06841
584500000 -2.589988 -8.2467985 -20.5082 -33.594002 -53.57383 -48.181995 -19.171379 141.97932
594000000 -2.5870128 -35.792542 -20.281017 -133.27615 -53.160748 -140.92021 -18.546049 92.130722
603500000 -2.6034608 -63.498268 -20.333031 125.73264 -52.850422 127.16257 -19.613325 38.717899
613000000 -2.645201 -91.535179 -20.205019 25.72971 -52.650459 35.504951 -22.544653 -25.880846
622500000 -2.7083066 -120.04264 -20.279198 -77.138817 -52.659447 -59.693367 -24.965219 -116.68291
632000000 -2.7823515 -148.97156 -20.685757 -175.57469 -52.952389 -149.75897 -21.998333 156.33539
641500000 -2.8366401 -178.02167 -20.247625 85.498756 -52.278988 119.66164 -18.907129 94.352203
651000000 -2.8848603 152.75711 -20.224144 -18.577396 -52.099018 24.118614 -17.626028 40.734024
660500000 -2.9271548 123.45709 -20.642424 -118.94249 -52.374943 -67.780334 -18.166964 -10.456612
670000000 -2.9220874 94.405212 -20.543327 141.75626 -52.173435 -157.97559 -20.68741 -63.319275
679500000 -2.8896582 65.852188 -20.425276 40.010632 -51.858082 108.16949 -26.302094 -133.35959
689000000 -2.8680305 37.650429 -20.547144 -61.811493 -51.730083 15.960226 -27.055252 97.006927
698500000 -2.8570013 9.5558939 -20.723782 -162.6956 -52.014809 -76.747238 -20.76195 21.840893
708000000 -2.8408411 -18.276011 -20.843533 97.449661 -51.917381 -167.17293 -17.703205 -30.332563
717500000 -2.839041 -45.932549 -20.743658 -2.3020308 -51.555622 102.05003 -16.587151 -78.470375
727000000 -2.8895721 -73.994087 -20.528744 -103.49967 -51.410648 9.721055 -17.15045 -127.38728
736500000 -2.9742229 -102.64597 -20.496593 153.93956 -51.018826 -84.845428 -19.835154 -179.76035
746000000 -3.0434844 -131.58817 -20.7265 52.234806 -51.182873 -177.87669 -25.646759 112.32924
755500000 -3.1120048 -160.83655 -20.861099 -47.800938 -51.197197 91.070503 -27.143494 -12.718823
765000000 -3.2040346 169.49075 -20.729458 -148.43559 -50.875961 -1.3998696 -21.000948 -88.682846
774500000 -3.2627211 139.63231 -20.739721 108.99976 -50.818298 -95.364426 -18.15024 -141.31184
784000000 -3.2633162 110.03131 -21.077711 7.4298015 -50.954021 171.91011 -17.579 171.46092
793500000 -3.2476993 80.818321 -21.230143 -91.714439 -50.957199 81.72554 -18.837519 126.2818
803000000 -3.2248142 51.956429 -21.013941 167.67821 -50.660507 -9.9742985 -22.584707 80.171799
812500000 -3.18241 23.54229 -21.118912 64.827141 -50.68655 -104.48702 -34.157394 19.362587
822000000 -3.1384821 -4.3659024 -21.440929 -35.474094 -50.843029 163.87335 -27.813013 -171.82227
831500000 -3.1225488 -32.036938 -21.396315 -135.13504 -50.658524 72.93087 -21.141159 139.66228
841000000 -3.1369181 -59.758923 -21.412849 123.61307 -50.61599 -19.459393 -18.724304 95.739517
850500000 -3.1696453 -87.637688 -21.431387 23.58585 -50.554993 -110.62225 -18.533258 52.086735
860000000 -3.2242398 -115.80991 -21.215462 -78.427467 -50.10498 155.81883 -20.584539 8.96556
869500000 -3.2981029 -144.42471 -21.578484 178.58888 -50.394966 62.215988 -26.289759 -31.932552
879000000 -3.3640454 -173.38783 -21.879429 80.276405 -50.501743 -27.496672 -43.706894 69.888435
888500000 -3.4053144 157.51595 -21.506641 -20.166178 -50.131477 -118.96344 -24.91312 55.805698
898000000 -3.4307549 128.44225 -21.721319 -123.91362 -50.208145 145.97563 -20.599371 15.043465
907500000 -3.4248283 99.477264 -22.137127 137.03961 -50.481853 55.635105 -19.408789 -25.803963
917000000 -3.3802171 70.872604 -21.919619 37.427654 -50.13633 -34.728405 -20.322643 -65.560829
926500000 -3.3192854 42.827312 -21.978292 -64.973564 -50.143246 -128.31325 -23.928738 -102.1343
936000000 -3.2656877 15.280612 -22.206427 -165.33046 -50.186386 140.26031 -33.843845 -106.24577
945500000 -3.2194114 -11.943874 -22.285234 94.158447 -50.103233 48.622791 -27.194569 -42.623028
955000000 -3.1798646 -38.916656 -22.475082 -5.4836659 -50.271061 -41.964375 -21.239046 -73.284851
964500000 -3.1729312 -65.722298 -22.301559 -104.59174 -50.026993 -133.11368 -18.9396 -112.45396
974000000 -3.2046506 -92.685921 -22.214977 153.33563 -49.761421 133.81979 -18.84919 -153.72052
983500000 -3.2622027 -120.16069 -22.495417 53.232151 -50.004894 42.696918 -20.978462 164.52631
993000000 -3.3250754 -148.04544 -22.359337 -46.103191 -49.811497 -48.178135 -27.01457 122.53596
1002500000 -3.3818767 -176.19131 -22.3962 -147.64064 -49.944359 -140.99339 -39.120838 -97.307709
1012000000 -3.4426954 155.29413 -22.533468 113.36205 -49.929832 128.06287 -23.613798 -141.37555
1021500000 -3.4862747 126.5089 -22.268433 13.038272 -49.693272 36.418762 -19.361431 176.20146
1031000000 -3.4833744 97.770126 -22.408445 -88.790024 -49.904659 -56.626186 -17.816505 134.13754
1040500000 -3.4491179 69.36039 -22.48098 172.57021 -49.913719 -146.70757 -18.064316 91.47789
1050000000 -3.4150057 41.288128 -22.123787 71.761955 -49.585339 122.09122 -20.445152 47.69022
1059500000 -3.3759184 13.494497 -22.245012 -31.179489 -49.716854 27.228437 -26.990683 2.6125154
1069000000 -3.3277006 -13.88462 -22.567356 -130.57733 -49.973488 -63.552971 -37.174942 153.90915
1078500000 -3.2962296 -40.859825 -22.38867 130.69765 -49.784073 -153.42484 -23.298195 102.66095
1088000000 -3.3068953 -67.819565 -22.143785 29.028208 -49.405788 114.14558 -19.256308 58.185127
1097500000 -3.3630972 -95.096428 -22.292227 -72.772171 -49.600666 20.839788 -18.055069 13.614419
1107000000 -3.4273221 -122.71834 -22.374516 -172.28978 -49.586647 -69.802223 -18.852274 -31.005442
1116500000 -3.4994037 -150.74358 -22.195345 87.044823 -49.419563 -161.17418 -21.825724 -77.823318
1126000000 -3.6031995 -179.35664 -22.276093 -14.407196 -49.477814 106.03884 -29.222761 -140.91953
1135500000 -3.6971421 151.50777 -22.273834 -113.86491 -49.388294 15.81668 -29.394402 64.565018
1145000000 -3.7392397 122.13545 -22.012918 144.80089 -49.214931 -76.518135 -21.894745 1.0058336
1154500000 -3.7571824 92.815765 -22.172073 42.70311 -49.354416 -169.06065 -18.849012 -45.217934
1164000000 -3.7621088 63.570854 -22.196451 -56.478775 -49.357944 100.87053 -17.952641 -88.580452
1173500000 -3.7281096 34.562908 -21.855679 -158.05127 -49.011234 8.0856533 -18.9298 -130.58073
1183000000 -3.6688137 6.1778007 -22.030869 98.752594 -49.162983 -85.60302 -22.301449 -168.82729
1192500000 -3.6286728 -21.693207 -22.310347 -1.2348677 -49.345123 -177.15805 -30.419083 173.44673
1202000000 -3.6181912 -49.402611 -22.252962 -101.06859 -49.278728 92.294281 -28.974789 -118.98193
1211500000 -3.6173015 -76.915947 -22.195961 157.97296 -49.286045 0.60557181 -22.11673 -142.85895
1221000000 -3.638797 -104.33951 -22.177256 56.75695 -49.107048 -91.530197 -19.551727 179.44527
1230500000 -3.7163055 -132.14111 -22.291376 -44.570702 -49.226318 175.94788 -19.215919 140.09645
1240000000 -3.8065822 -160.51048 -22.377317 -144.55284 -49.28949 85.165245 -20.769547 100.8853
1249500000 -3.870873 170.78734 -22.274532 114.98959 -49.250862 -6.022706 -25.140432 63.562813
1259000000 -3.9359782 141.8714 -22.248447 13.778509 -49.204937 -97.864174 -39.002831 63.463543
1268500000 -3.9987144 112.58041 -22.217468 -87.234436 -49.185146 169.90511 -27.699053 140.38554
1278000000 -4.0018306 83.144142 -22.244709 171.3149 -49.171146 78.134743 -22.145046 105.551
1287500000 -3.9466233 54.20676 -22.30081 70.856201 -49.300682 -12.483763 -20.266319 66.938721
1297000000 -3.8856237 25.80657 -22.140118 -30.560705 -49.102074 -105.31689 -20.61338 29.081532
1306500000 -3.8353696 -2.2661598 -22.355473 -133.36531 -49.2533 161.56448 -23.192354 -3.6885502
1316000000 -3.7684669 -29.827539 -22.714701 127.44601 -49.535786 71.120445 -28.541094 -14.001751
1325500000 -3.6990523 -56.795353 -22.54863 28.340891 -49.445618 -18.604582 -27.618561 19.009157
1335000000 -3.6793354 -83.528717 -22.513388 -73.309143 -49.390533 -111.25452 -22.298105 3.2065558
1344500000 -3.7105081 -110.40067 -22.683977 -173.22816 -49.35894 157.96794 -19.73313 -30.444605
1354000000 -3.7501113 -137.50633 -22.598516 87.182472 -49.359798 67.434113 -19.115231 -68.405899
1363500000 -3.7874835 -164.80728 -22.562159 -13.347693 -49.401955 -23.929317 -20.326462 -108.58447
1373000000 -3.854737 167.5453 -22.508469 -113.36835 -49.415047 -114.68449 -24.213379 -150.60648
1382500000 -3.9431903 139.35466 -22.439003 145.93562 -49.364727 153.4771 -36.745224 157.24693
1392000000 -3.989471 110.81168 -22.472937 45.991985 -49.511284 62.46978 -28.949427 -42.669411
1401500000 -3.9767759 82.289528 -22.265638 -54.118759 -49.272438 -28.853981 -22.258751 -86.934494
1411000000 -3.9648044 53.8843 -22.211687 -156.06261 -49.206799 -121.84714 -19.951092 -128.9386
1420500000 -3.9518301 25.591978 -22.358646 103.59305 -49.379387 147.75288 -20.023228 -169.39549
1430000000 -3.8808799 -2.2841983 -22.261808 3.3310599 -49.313427 55.81908 -22.39134 153.50537
1439500000 -3.7986016 -29.48871 -22.340584 -98.046547 -49.434532 -36.221241 -28.717176 129.16
1449000000 -3.77369 -56.306957 -22.476336 162.56566 -49.62495 -125.64744 -31.15155 -164.6581
1458500000 -3.7798796 -83.156738 -22.322557 63.105145 -49.526226 143.79134 -22.64493 -177.97816
1468000000 -3.7801683 -109.97199 -22.209816 -37.763454 -49.541744 51.715588 -19.039593 146.66565
1477500000 -3.8047254 -136.71855 -22.214643 -138.10858 -49.592239 -39.161472 -17.630554 108.25565
1487000000 -3.8912857 -163.99248 -22.118973 122.20862 -49.489346 -130.04788 -17.848566 68.52874
1496500000 -3.9918401 168.13794 -21.873322 21.769096 -49.374577 139.70015 -19.889685 28.553299
1506000000 -4.0544434 140.02811 -21.731527 -79.832191 -49.263611 47.275002 -24.841196 -9.6908665
1515500000 -4.1303759 111.56611 -21.704372 179.34929 -49.353603 -44.200825 -41.941841 -12.859126
1525000000 -4.2151451 82.547028 -21.537954 78.457657 -49.148144 -135.51677 -27.497198 76.766823
1534500000 -4.2323365 53.347546 -21.496904 -23.313227 -49.182011 132.42403 -22.391918 39.904716
1544000000 -4.2014618 24.493971 -21.487791 -123.99195 -49.261322 41.36253 -21.062218 1.7058563
1553500000 -4.1817656 -4.0456643 -21.367695 134.41548 -49.107269 -50.981842 -22.044411 -34.651333
1563000000 -4.1533079 -32.357899 -21.557329 32.960979 -49.330833 -142.70392 -25.724653 -64.884232
1572500000 -4.1028819 -60.151993 -21.554571 -66.05014 -49.368938 127.31029 -33.156235 -53.393215
1582000000 -4.0875392 -87.503853 -21.24979 -167.1535 -49.07272 36.024303 -27.147717 -16.283728
1591500000 -4.1286087 -114.95998 -21.343313 91.031288 -49.172344 -56.292397 -22.159271 -41.374123
1601000000 -4.1866264 -142.68616 -21.300116 -8.4393635 -49.241165 -146.40588 -20.087273 -75.225693
1610500000 -4.2388163 -170.53572 -21.041897 -109.78871 -49.018372 121.66575 -19.949711 -110.41038
1620000000 -4.331461 161.30321 -21.089735 148.71217 -49.140717 30.140091 -21.672092 -143.15784
1629500000 -4.447216 132.52643 -20.956259 48.590061 -48.991619 -60.806026 -25.578379 -165.42732
1639000000 -4.5239062 103.31876 -20.761795 -53.450863 -48.899433 -152.69884 -29.58761 -151.58519
1648500000 -4.5584455 74.001343 -20.830564 -155.03998 -48.981922 115.23342 -25.955212 -140.1302
1658000000 -4.5895615 44.587498 -20.747755 104.21302 -48.935261 24.459782 -22.958553 -161.79056
1667500000 -4.591814 15.168954 -20.684673 1.9887831 -48.919926 -68.050621 -22.268805 169.50946
1677000000 -4.5278077 -13.829746 -20.86307 -99.558357 -49.072105 -160.30359 -23.552984 143.29868
1686500000 -4.4462376 -42.180981 -20.961859 160.44267 -49.143723 109.35328 -26.520533 131.47223
1696000000 -4.4082241 -70.082977 -20.851852 60.138752 -49.132416 18.96121 -26.879419 145.01062
1705500000 -4.3818851 -97.744621 -20.791155 -41.47287 -49.027233 -73.051247 -23.11517 139.33168
1715000000 -4.3509459 -125.17576 -20.878494 -142.21352 -49.119404 -164.41623 -20.434669 113.95339
1724500000 -4.3655472 -152.45805 -20.717344 117.63243 -49.019115 104.75012 -19.441212 82.223228
1734000000 -4.4271088 -179.98093 -20.633968 15.253693 -48.956722 11.788947 -20.072878 49.529545
1743500000 -4.4898558 152.06755 -20.864328 -85.143837 -49.216427 -78.777496 -22.478621 20.405003
1753000000 -4.5400414 123.93723 -20.594656 175.70947 -49.020687 -168.59581 -26.898312 5.9524164
1762500000 -4.5992351 95.579948 -20.380009 72.724113 -48.753796 98.050018 -28.913725 26.67333
1772000000 -4.6591201 66.767532 -20.622921 -28.139179 -49.065784 7.2963624 -25.207956 25.181927
1781500000 -4.6721945 37.873581 -20.347477 -127.95396 -48.827969 -82.751686 -23.229799 -0.073716454
1791000000 -4.6437025 9.2190704 -20.274513 128.60677 -48.831257 -177.31197 -23.559469 -30.382799
1800500000 -4.616374 -19.230808 -20.574291 28.285803 -49.111275 91.602875 -26.586794 -58.127228
1810000000 -4.5665102 -47.315052 -20.363132 -71.880157 -48.941177 1.2947812 -34.045689 -53.624928
1819500000 -4.5023274 -74.937836 -20.443104 -174.44164 -49.104218 -92.358177 -29.108507 -1.3491071
1829000000 -4.4771509 -102.19989 -20.562782 86.21904 -49.254765 177.81558 -23.155752 -21.317451
1838500000 -4.4771223 -129.28584 -20.232288 -15.166485 -48.941811 85.780006 -20.366056 -52.101543
1848000000 -4.4883051 -156.32256 -20.39987 -117.99197 -49.273453 -7.9155722 -19.425802 -84.519402
1857500000 -4.5431585 176.64476 -20.436239 142.2733 -49.263134 -98.146835 -20.002775 -115.20931
1867000000 -4.6367049 149.38852 -20.192202 39.714478 -49.235008 169.39417 -21.965155 -139.45642
1876500000 -4.7418041 121.70513 -20.463371 -62.879925 -49.558968 75.847061 -24.440994 -148.45117
1886000000 -4.8528419 93.794853 -20.470308 -163.42714 -49.588268 -14.098023 -24.174242 -145.9395
1895500000 -4.9567986 65.632095 -20.514706 93.049919 -49.734825 -108.49125 -21.920853 -159.22705
1905000000 -5.0320201 37.134842 -20.978687 -8.722455 -50.187057 159.1252 -20.644981 174.44569
1914500000 -5.060214 8.6760902 -21.093895 -109.68439 -50.336739 68.405907 -20.955069 143.1313
1924000000 -5.0406446 -19.580801 -21.558895 147.24788 -50.859737 -25.133175 -23.250423 111.5192
1933500000 -4.9862089 -47.745529 -22.244612 48.644669 -51.665962 -113.50835 -29.007158 88.995514
1943000000 -4.9122677 -75.642441 -22.270985 -49.516392 -51.663021 157.36398 -34.223846 144.22044
1952500000 -4.8365574 -103.23717 -22.463017 -150.27589 -51.903671 66.499474 -26.081448 146.71136
1962000000 -4.794745 -130.73247 -22.754753 111.59 -52.11647 -20.912514 -22.85985 116.15981
1971500000 -4.7687659 -158.14294 -22.611691 13.008212 -52.067947 -109.87769 -22.533171 82.144257
1981000000 -4.7676477 174.47554 -22.566528 -87.279144 -52.026569 160.25232 -24.889675 51.499493
1990500000 -4.8198686 146.90031 -22.527872 173.16444 -52.007252 69.968582 -31.049067 45.553219
2000000000 -4.9040709 118.95175 -22.425743 72.751732 -51.992085 -20.41118 -28.486259 92.387215
