!Keysight Technologies,N5242B,MY48420967,A.15.65.19
!Date: Saturday, February 04, 2023 14:42:28
!Correction: S11(C  1-Port  ) 
!S21(Off) 
!S12(Off) 
!S22(Off) 
!S2P File: Measurements: S11, S21, S12, S22:
# Hz S  dB   R 50
100000000 -1.5070559 40.196846 -15.95941 96.114738 -79.716919 0.6071533 -20.981537 89.505257
109500000 -1.4424212 10.783238 -15.71123 -4.4231257 -76.013077 -79.481155 -24.433826 35.253265
119000000 -1.3751043 -18.15571 -15.82631 -109.64207 -74.782913 177.16367 -31.621872 -60.877155
128500000 -1.2908552 -46.557579 -16.42152 148.9444 -74.22879 78.443314 -25.427418 178.22699
138000000 -1.2773526 -74.978554 -16.499327 49.320602 -74.319328 -9.9052715 -20.172274 120.84438
147500000 -1.3517572 -103.89707 -16.435936 -52.241852 -72.05529 -93.994339 -17.691954 72.686394
157000000 -1.4189124 -133.15602 -16.437027 -154.28999 -71.6334 169.1508 -16.994085 25.446568
166500000 -1.491833 -162.6118 -16.523643 102.90437 -70.125496 65.013435 -18.110224 -22.733219
176000000 -1.6184262 167.48659 -16.83651 0.91854453 -69.905159 -22.568041 -21.527761 -73.603439
185500000 -1.7208774 137.23222 -17.033237 -99.298027 -68.703865 -118.57533 -29.062387 -145.83954
195000000 -1.7389857 107.27564 -16.955502 160.08551 -67.782936 152.36603 -27.22257 71.678818
204500000 -1.7397963 77.76342 -16.913361 57.492676 -67.222519 60.17075 -20.688864 6.4138851
214000000 -1.7475708 48.362591 -17.23085 -44.746181 -66.783646 -38.908939 -17.98111 -44.403759
223500000 -1.7022884 19.279572 -17.453644 -144.23271 -66.175163 -126.96964 -17.29491 -92.662361
233000000 -1.632425 -9.3237514 -17.264706 115.58994 -65.663628 141.89536 -18.172367 -142.45303
242500000 -1.6252357 -37.875786 -17.186071 13.137582 -64.723091 48.2299 -20.88118 160.65948
252000000 -1.6448647 -66.693283 -17.334335 -88.808632 -63.750862 -46.54784 -25.198112 80.566628
261500000 -1.6607583 -95.708008 -17.500273 170.35629 -63.406879 -139.14803 -24.043114 -22.941395
271000000 -1.7229931 -124.92915 -17.453978 70.393448 -62.694229 127.13922 -19.965538 -92.396126
280500000 -1.837588 -154.67705 -17.172331 -31.789536 -62.332035 40.773167 -17.731035 -147.81966
290000000 -1.9263074 175.19118 -17.35043 -135.71758 -61.721859 -60.228752 -17.31633 159.52525
299500000 -1.9889041 145.07941 -17.722696 123.78691 -60.99157 -150.82547 -18.569386 106.55215
309000000 -2.0573862 114.99174 -17.618582 23.739182 -60.978268 115.62121 -21.442598 47.765137
318500000 -2.0988262 85.052437 -17.546263 -78.733749 -60.359142 24.258406 -25.203392 -33.214165
328000000 -2.0760572 55.553627 -17.677391 179.21861 -59.98127 -69.547951 -24.223427 -132.56337
337500000 -2.0534019 26.393532 -17.84828 77.55854 -59.669041 -163.42943 -21.010122 155.94322
347000000 -2.0660033 -2.6316524 -18.020676 -22.874531 -59.395378 105.35146 -19.376284 98.376259
356500000 -2.0593209 -31.545345 -17.852409 -122.97726 -58.678131 15.57404 -19.258183 42.849052
366000000 -2.0521433 -60.534042 -17.64362 133.8033 -58.117821 -78.840012 -20.575436 -17.125763
375500000 -2.1125815 -89.877312 -17.966787 30.549101 -57.952553 -175.74966 -22.80975 -87.815857
385000000 -2.2032964 -119.69039 -18.274334 -69.334579 -57.855419 94.392738 -23.508429 -170.21931
394500000 -2.2714672 -149.72775 -18.105444 -169.26025 -57.380714 4.6515832 -21.787561 115.59091
404000000 -2.3322549 -179.83269 -17.970491 87.566452 -56.831608 -92.071159 -20.314754 53.708061
413500000 -2.4129002 149.89723 -18.324757 -14.864611 -56.584488 175.2137 -20.326481 -3.1920877
423000000 -2.4673071 119.70841 -18.501648 -114.59251 -56.83675 82.450432 -22.128874 -60.017513
432500000 -2.4512126 90.079994 -18.416069 143.96823 -56.331398 -9.158906 -25.92362 -126.65341
442000000 -2.4188643 60.914143 -18.628347 42.075428 -56.123707 -104.24946 -28.747734 131.42963
451500000 -2.4186358 32.042091 -18.721554 -58.44199 -55.95092 164.70172 -24.817379 40.25135
461000000 -2.3976462 3.4899793 -18.837555 -160.42972 -55.701862 71.896713 -21.936716 -21.546949
470500000 -2.3560109 -24.767763 -19.153177 99.599152 -55.742252 -19.592661 -21.09646 -75.739548
480000000 -2.3540251 -53.025192 -18.904318 0.16898268 -55.31353 -109.99727 -22.070471 -130.90622
489500000 -2.4025514 -81.620766 -18.781136 -103.84161 -54.944828 154.44841 -25.130795 163.82082
499000000 -2.4493558 -110.52767 -19.285149 154.53542 -55.114685 61.40955 -27.958006 68.364929
508500000 -2.482795 -139.57082 -19.258261 55.380112 -54.597046 -29.181133 -24.491903 -22.773281
518000000 -2.5400691 -168.84457 -19.123236 -47.314392 -54.260822 -122.94145 -21.19566 -84.794563
527500000 -2.6024845 161.69353 -19.400063 -149.40083 -54.272552 142.96796 -19.913942 -138.32622
537000000 -2.6217248 132.36865 -19.538177 109.45535 -53.990856 51.633373 -20.613956 170.08246
546500000 -2.6077631 103.42107 -19.789253 8.0301514 -54.153603 -42.72607 -23.65424 116.1388
556000000 -2.5913494 74.884109 -19.921741 -91.602798 -53.863304 -132.23598 -30.631432 37.364555
565500000 -2.563894 46.719379 -19.822966 166.68436 -53.496174 134.50902 -27.939957 -100.38404
575000000 -2.5243719 18.927444 -20.219261 64.572304 -53.49004 41.709763 -21.907923 -166.49435
584500000 -2.4956019 -8.6505432 -20.490934 -33.571644 -53.568062 -47.76062 -19.351442 141.98381
594000000 -2.4908171 -36.221653 -20.262768 -133.28085 -52.948559 -140.09514 -18.700403 92.434753
603500000 -2.5040646 -63.941399 -20.316523 125.71159 -52.805855 127.01392 -19.764252 39.329884
613000000 -2.5427418 -91.990196 -20.184544 25.71381 -52.550911 35.048782 -22.725475 -24.914335
622500000 -2.6040764 -120.52505 -20.256393 -77.169655 -52.584442 -59.827671 -25.235807 -116.14517
632000000 -2.6733229 -149.46609 -20.667372 -175.62395 -52.916111 -149.44589 -22.193636 156.26366
641500000 -2.7248921 -178.52577 -20.216375 85.446526 -52.189411 119.5594 -19.042101 94.453377
651000000 -2.7723813 152.23991 -20.200357 -18.652773 -52.059952 24.45875 -17.728319 41.038254
660500000 -2.8111889 122.93739 -20.617517 -119.01392 -52.411724 -66.956902 -18.247963 -9.9409256
670000000 -2.8047674 93.896355 -20.513641 141.69781 -52.247406 -157.51447 -20.758163 -62.482025
679500000 -2.7733815 65.353729 -20.39636 39.921535 -51.821995 108.50696 -26.429358 -131.83659
689000000 -2.7504799 37.132671 -20.516874 -61.915379 -51.876476 15.427032 -27.331116 97.134109
698500000 -2.7384622 9.0374861 -20.690784 -162.80428 -51.802395 -76.502426 -20.886793 21.818434
708000000 -2.7218714 -18.794247 -20.807961 97.364822 -52.002281 -167.79442 -17.784319 -30.148865
717500000 -2.71786 -46.477886 -20.707014 -2.399941 -51.676796 100.99186 -16.644146 -78.14846
727000000 -2.7654557 -74.568703 -20.490887 -103.63375 -51.246769 8.9179058 -17.187576 -126.88914
736500000 -2.8472946 -103.23309 -20.450937 153.8111 -51.0452 -84.957314 -19.847561 -179.02844
746000000 -2.9129405 -132.20737 -20.684383 52.040699 -51.08194 -177.99327 -25.648214 113.71165
755500000 -2.97786 -161.47987 -20.815315 -47.956348 -51.007534 90.185539 -27.346378 -11.785183
765000000 -3.0662899 168.82231 -20.685392 -148.62994 -50.85981 -1.2739022 -21.106552 -88.274216
774500000 -3.1246305 138.93779 -20.685307 108.76238 -50.755486 -95.671181 -18.203888 -140.85803
784000000 -3.1236079 109.31857 -21.023214 7.1882634 -50.851803 171.15485 -17.59837 172.0269
793500000 -3.1070597 80.091431 -21.176922 -91.954575 -50.95322 81.212105 -18.817762 126.96999
803000000 -3.0867565 51.206566 -20.959169 167.40419 -50.652084 -10.567339 -22.491535 81.12645
812500000 -3.0454087 22.760899 -21.061773 64.549988 -50.593407 -104.68024 -33.689251 22.699032
822000000 -3.0004475 -5.1683946 -21.379934 -35.773735 -50.749004 163.96526 -28.144819 -171.50418
831500000 -2.985898 -32.873962 -21.331646 -135.47412 -50.577339 73.249077 -21.280813 140.16364
841000000 -3.0000401 -60.647697 -21.358961 123.2618 -50.528324 -19.597759 -18.804516 96.382088
850500000 -3.0296571 -88.575851 -21.372728 23.257418 -50.44239 -110.9064 -18.56179 52.918068
860000000 -3.0824413 -116.78892 -21.151581 -78.843536 -50.061577 155.97891 -20.547991 10.042794
869500000 -3.1523788 -145.44775 -21.524342 178.13982 -50.346085 61.582256 -26.077246 -30.22287
879000000 -3.2145226 -174.44876 -21.823324 79.84021 -50.635315 -27.89996 -44.499836 52.810593
888500000 -3.2543452 156.44481 -21.445721 -20.620686 -49.991325 -119.06073 -25.206806 55.34483
898000000 -3.2786417 127.35757 -21.665375 -124.40015 -50.175823 145.40782 -20.777409 15.317806
907500000 -3.2706475 98.401154 -22.077942 136.5666 -50.453598 55.394417 -19.530596 -25.164169
917000000 -3.2267463 69.814537 -21.85886 36.940586 -50.145634 -34.592339 -20.399357 -64.540245
926500000 -3.1689143 41.783546 -21.925531 -65.486916 -50.05582 -128.36017 -23.914694 -100.36044
936000000 -3.1168151 14.24185 -22.151133 -165.82094 -50.075462 139.6498 -33.113884 -104.14634
945500000 -3.0703456 -12.974783 -22.232082 93.655739 -50.097034 48.102955 -27.267811 -45.164467
955000000 -3.0326488 -39.94553 -22.419912 -5.968895 -50.225487 -42.589973 -21.379946 -74.177917
964500000 -3.0264144 -66.762703 -22.242443 -105.06384 -50.008232 -132.97073 -19.083107 -112.78943
974000000 -3.0553951 -93.749603 -22.157867 152.83556 -49.773418 133.86665 -18.995495 -153.63237
983500000 -3.1107159 -121.23592 -22.436884 52.712975 -49.961185 41.714653 -21.136261 165.05275
993000000 -3.1712458 -149.13792 -22.293674 -46.624668 -49.824371 -48.977627 -27.22444 124.31895
1002500000 -3.2230465 -177.30766 -22.334515 -148.20055 -49.799568 -142.4093 -38.692719 -105.39397
1012000000 -3.2809324 154.17514 -22.472862 112.84686 -50.000111 127.28197 -23.633074 -142.79842
1021500000 -3.3226597 125.38809 -22.195057 12.495077 -49.681835 35.82983 -19.415112 175.4682
1031000000 -3.318491 96.655525 -22.349987 -89.403778 -49.774559 -57.665649 -17.888828 133.70216
1040500000 -3.2843845 68.262398 -22.418299 172.01172 -49.805195 -147.42815 -18.15904 91.23188
1050000000 -3.2510586 40.208042 -22.055677 71.19165 -49.408363 120.59883 -20.571056 47.710827
1059500000 -3.2129912 12.414708 -22.187967 -31.786383 -49.705925 27.042526 -27.228712 3.2487051
1069000000 -3.1657324 -14.959764 -22.505579 -131.16008 -49.908985 -63.579861 -36.766132 149.87469
1078500000 -3.134649 -41.933228 -22.316792 130.14012 -49.590866 -153.8564 -23.255209 101.76466
1088000000 -3.1458678 -68.911407 -22.07268 28.41762 -49.280499 113.14706 -19.26021 57.631546
1097500000 -3.1989911 -96.235092 -22.217991 -73.393852 -49.450645 20.785198 -18.082787 13.213041
1107000000 -3.2603157 -123.87487 -22.29479 -172.89131 -49.550095 -70.645546 -18.899952 -31.312317
1116500000 -3.3284078 -151.93282 -22.115725 86.391487 -49.297653 -162.26627 -21.900726 -78.0149
1126000000 -3.4272275 179.407 -22.196457 -15.052853 -49.499531 105.70138 -29.388033 -141.31891
1135500000 -3.5170732 150.24779 -22.187599 -114.527 -49.430962 15.350645 -29.366615 63.490906
1145000000 -3.5543337 120.87219 -21.919655 144.08324 -49.148491 -77.755371 -21.89356 0.59644032
1154500000 -3.570709 91.536293 -22.090017 41.971855 -49.22403 -170.14703 -18.867031 -45.459259
1164000000 -3.5755837 62.284897 -22.109415 -57.191692 -49.258827 99.65889 -17.981712 -88.702232
1173500000 -3.5424786 33.284908 -21.763468 -158.8085 -48.936867 7.4107776 -18.968731 -130.56158
1183000000 -3.4852591 4.8929834 -21.941874 97.94944 -49.102295 -87.016403 -22.341345 -168.54628
1192500000 -3.4467511 -22.995127 -22.224459 -1.9800123 -49.425766 -177.59482 -30.371004 174.64339
1202000000 -3.4386799 -50.726635 -22.157522 -101.89133 -49.2439 91.845352 -28.894875 -120.057
1211500000 -3.4396877 -78.276558 -22.096991 157.15573 -49.167519 -0.030300133 -22.149063 -143.45775
1221000000 -3.4602985 -105.75813 -22.078897 55.931797 -49.094498 -93.110977 -19.611172 179.11626
1230500000 -3.534976 -133.61191 -22.193626 -45.448902 -49.195873 175.74698 -19.296169 140.00179
1240000000 -3.6225016 -162.04359 -22.280933 -145.44012 -49.307865 84.295296 -20.871477 101.09819
1249500000 -3.6825221 169.19762 -22.172787 114.09595 -49.126297 -7.0953889 -25.284313 64.548096
1259000000 -3.7442791 140.2439 -22.149092 12.857259 -49.100296 -98.834122 -38.536705 69.997055
1268500000 -3.802109 110.9228 -22.116568 -88.220497 -49.124969 169.22244 -27.60445 138.25121
1278000000 -3.8042467 81.479744 -22.146139 170.32069 -49.077023 77.664978 -22.187931 104.34758
1287500000 -3.7492607 52.558487 -22.205275 69.864571 -49.205021 -13.475221 -20.371422 66.149704
1297000000 -3.6890583 24.177483 -22.042112 -31.630821 -49.025223 -106.82408 -20.781651 28.73263
1306500000 -3.6425643 -3.8841801 -22.269522 -134.44319 -49.229805 160.65689 -23.436117 -3.1796556
1316000000 -3.5784185 -31.429577 -22.62961 126.42279 -49.459953 70.444778 -28.685862 -10.78998
1325500000 -3.5116403 -58.384056 -22.456953 27.318378 -49.366093 -19.236826 -27.149117 19.574387
1335000000 -3.4953849 -85.127655 -22.427946 -74.397346 -49.197285 -112.26634 -22.087912 2.0874956
1344500000 -3.5265613 -112.02062 -22.60169 -174.22716 -49.292591 156.5925 -19.657923 -31.723307
1354000000 -3.5634189 -139.14267 -22.507689 86.141045 -49.322876 66.736153 -19.135286 -69.734673
1363500000 -3.5976961 -166.45786 -22.477049 -14.393447 -49.313709 -25.105585 -20.453739 -109.91947
1373000000 -3.6621418 165.86278 -22.417288 -114.35165 -49.242561 -116.03371 -24.544912 -152.08633
1382500000 -3.7466271 137.65634 -22.346165 144.871 -49.255989 152.25233 -38.51672 152.62347
1392000000 -3.786593 109.12429 -22.382366 44.954372 -49.242531 61.340981 -28.311747 -44.568298
1401500000 -3.7726347 80.623634 -22.168289 -55.227219 -49.154388 -30.153175 -22.017647 -88.547371
1411000000 -3.7601659 52.238338 -22.121956 -157.18452 -49.067505 -123.14006 -19.855371 -130.55814
1420500000 -3.7463775 23.978176 -22.266327 102.52752 -49.360626 146.22173 -20.049604 -171.10803
1430000000 -3.6778231 -3.852771 -22.163889 2.2471895 -49.218899 54.703625 -22.581575 151.64421
1439500000 -3.5982382 -31.025007 -22.250708 -99.11808 -49.448563 -36.77594 -29.424824 128.17906
1449000000 -3.5763695 -57.835728 -22.389307 161.53108 -49.587288 -127.31261 -30.652494 -159.54776
1458500000 -3.5836306 -84.6866 -22.226694 62.068771 -49.491077 142.46089 -22.294416 -177.70796
1468000000 -3.5840042 -111.50785 -22.107975 -38.819065 -49.372936 51.213596 -18.826754 146.11053
1477500000 -3.6065826 -138.27982 -22.112953 -139.11667 -49.5201 -40.107594 -17.502098 107.32461
1487000000 -3.6909258 -165.58426 -22.008389 121.20626 -49.422592 -130.70554 -17.795031 67.314461
1496500000 -3.7862279 166.50986 -21.758755 20.74445 -49.298458 138.12614 -19.941109 26.993614
1506000000 -3.8434408 138.36821 -21.61167 -80.921837 -49.17255 46.256413 -25.126841 -11.756022
1515500000 -3.9145677 109.88711 -21.58527 178.26788 -49.160271 -45.202564 -45.286106 -4.1281548
1525000000 -3.9942064 80.844826 -21.409569 77.348625 -49.031082 -137.04933 -26.949553 77.172867
1534500000 -4.0090222 51.640999 -21.371506 -24.467796 -49.052307 130.88857 -22.120508 39.151772
1544000000 -3.9770024 22.799412 -21.359774 -125.15266 -49.041916 40.192009 -20.917383 0.47085088
1553500000 -3.9571016 -5.7359991 -21.236523 133.20045 -48.966351 -52.288975 -22.022354 -36.250401
1563000000 -3.9304667 -34.046627 -21.435211 31.743263 -49.201313 -144.15614 -25.928459 -66.771614
1572500000 -3.8844175 -61.847912 -21.425285 -67.221565 -49.221458 125.99349 -33.891491 -50.48547
1582000000 -3.8704405 -89.230721 -21.114426 -168.40201 -48.911362 34.534939 -26.852156 -14.569186
1591500000 -3.9121704 -116.73839 -21.213894 89.780121 -49.136787 -57.430977 -21.936132 -41.392643
1601000000 -3.9682229 -144.51747 -21.165098 -9.6926975 -49.124638 -148.07097 -19.946472 -75.89666
1610500000 -4.0188174 -172.43434 -20.902117 -111.12056 -48.874897 120.49151 -19.895931 -111.4094
1620000000 -4.1075501 159.32373 -20.950556 147.38947 -49.003262 28.57832 -21.746651 -144.28571
1629500000 -4.217494 130.47163 -20.808437 47.254356 -48.941978 -62.101364 -25.878645 -165.90436
1639000000 -4.287848 101.21622 -20.612633 -54.888115 -48.778778 -154.4165 -29.701017 -148.32202
1648500000 -4.318049 71.860199 -20.69128 -156.46819 -48.8605 113.7308 -25.630835 -139.23566
1658000000 -4.3457322 42.408962 -20.599106 102.73666 -48.829765 22.955544 -22.723572 -162.51593
1667500000 -4.3451886 12.990898 -20.542103 0.46049878 -48.749733 -69.83268 -22.166704 168.028
1677000000 -4.281961 -15.996142 -20.728079 -101.07819 -48.908001 -161.68745 -23.660583 141.45943
1686500000 -4.2041187 -44.334709 -20.82542 158.97037 -49.041576 107.90051 -26.967756 131.01952
1696000000 -4.1692648 -72.235062 -20.710886 58.61409 -48.962765 17.712418 -26.998621 148.25313
1705500000 -4.1454172 -99.898041 -20.660418 -43.027557 -48.856606 -75.289047 -22.853424 140.90887
1715000000 -4.1157293 -127.334 -20.747858 -143.69673 -48.951271 -165.89343 -20.153107 114.01653
1724500000 -4.1306405 -154.63676 -20.579166 116.1539 -48.784206 103.2131 -19.219046 81.292061
1734000000 -4.1904263 177.79581 -20.50378 13.722317 -48.802223 10.797602 -19.959295 47.736778
1743500000 -4.2481928 149.81679 -20.737797 -86.574783 -49.004608 -80.314972 -22.583218 17.898405
1753000000 -4.2943392 121.67043 -20.453836 174.27942 -48.88702 -169.55182 -27.571211 4.2911129
1762500000 -4.3479691 93.299049 -20.23764 71.189659 -48.639935 96.726593 -29.228598 32.623844
1772000000 -4.4022241 64.490433 -20.483414 -29.575926 -49.005711 5.3806381 -24.776686 28.13341
1781500000 -4.4106345 35.629639 -20.195742 -129.40059 -48.740456 -84.235512 -22.731882 0.32155764
1791000000 -4.3823032 7.0177097 -20.129826 127.12447 -48.601742 -178.89542 -23.088066 -31.966293
1800500000 -4.3531284 -21.383423 -20.427509 26.889404 -48.926788 90.407707 -26.263281 -62.489342
1810000000 -4.3054738 -49.408768 -20.197733 -73.340904 -48.808052 -0.14155684 -35.376259 -62.747772
1819500000 -4.2452703 -76.98027 -20.29351 -175.84062 -48.89296 -94.400146 -29.277525 5.180356
1829000000 -4.2225547 -104.22564 -20.404331 84.906609 -49.014919 176.11302 -22.875158 -18.564384
1838500000 -4.2225666 -131.29468 -20.054264 -16.558794 -48.852093 84.754982 -20.028936 -51.134876
1848000000 -4.2305732 -158.33183 -20.23608 -119.34518 -49.086075 -8.7408218 -19.099722 -84.791641
1857500000 -4.2857714 174.59912 -20.254463 141.07722 -49.177349 -99.027359 -19.743647 -116.64313
1867000000 -4.373735 147.2822 -19.998484 38.54554 -49.052616 167.71155 -21.896626 -142.17261
1876500000 -4.4722195 119.53792 -20.246996 -63.918549 -49.292458 75.289536 -24.853893 -150.97202
1886000000 -4.579464 91.55909 -20.204739 -164.37099 -49.413261 -15.857638 -24.658621 -144.1893
1895500000 -4.6807685 63.300686 -20.191492 91.967728 -49.434772 -109.72087 -21.971813 -156.47699
1905000000 -4.7586088 34.730824 -20.60561 -9.9512863 -49.842155 158.25951 -20.46463 176.40131
1914500000 -4.7955155 6.2281303 -20.660872 -111.30502 -49.935429 66.802361 -20.644844 144.13571
1924000000 -4.7925849 -22.034788 -21.103233 144.99261 -50.43932 -26.668264 -22.837898 111.1493
1933500000 -4.7535372 -50.140114 -21.811092 45.791569 -51.28487 -116.43772 -28.539282 85.226738
1943000000 -4.6893902 -77.966225 -21.891073 -52.853424 -51.335938 154.7867 -35.642197 143.61578
1952500000 -4.6218195 -105.49171 -22.173786 -153.81586 -51.564163 63.355217 -26.261557 149.85971
1962000000 -4.5818048 -132.96333 -22.529865 108.13702 -52.059338 -25.275867 -22.760389 118.28964
1971500000 -4.5538716 -160.35992 -22.425451 9.6526985 -51.916431 -112.98274 -22.297718 83.504196
1981000000 -4.55267 172.23267 -22.410742 -90.471596 -51.88718 157.03912 -24.52466 51.728859
1990500000 -4.6018476 144.58287 -22.380844 170.17915 -51.928623 67.902428 -30.677481 41.97295
2000000000 -4.6779685 116.55102 -22.274044 69.892365 -51.981026 -23.014885 -28.933147 92.280632
