!Keysight Technologies,N5242B,MY48420967,A.15.65.19
!Date: Sunday, January 22, 2023 21:13:57
!Correction: S11(C  1-Port  ) 
!S21(Off) 
!S12(Off) 
!S22(Off) 
!S2P File: Measurements: S11, S21, S12, S22:
# Hz S  dB   R 50
100000000 -1.2834561 40.534958 -15.741788 96.284081 -78.129257 10.765429 -17.69191 79.656693
109500000 -1.1989466 11.176838 -15.422797 -3.8667021 -76.199455 -93.280205 -20.086163 18.272142
119000000 -1.1050717 -17.500351 -15.467658 -109.26371 -73.905777 163.74902 -23.172014 -67.206902
128500000 -1.0301479 -45.877869 -16.075899 149.15282 -73.9571 76.744087 -21.2124 -163.49332
138000000 -1.0222665 -74.451347 -16.165192 49.816219 -72.902519 -15.55156 -17.681259 129.655
147500000 -1.0723138 -103.3427 -16.043608 -51.470078 -72.648972 -112.67195 -15.579155 75.349022
157000000 -1.1328266 -132.54001 -15.970104 -153.86655 -70.351593 159.55589 -14.963354 23.039169
166500000 -1.2203509 -162.1373 -16.056572 102.91689 -69.296303 64.341248 -16.073706 -30.479395
176000000 -1.3389685 167.83783 -16.422071 0.8915363 -69.43454 -27.289606 -19.145601 -88.34227
185500000 -1.433414 137.60722 -16.619114 -99.035217 -68.120438 -118.24767 -23.773333 -167.71274
195000000 -1.4736319 107.60425 -16.49634 160.41307 -67.283127 148.75935 -22.54641 85.217087
204500000 -1.4839176 77.952591 -16.433626 57.537521 -66.614944 56.956116 -18.224546 13.090032
214000000 -1.4780236 48.557087 -16.78446 -44.849319 -66.274467 -34.422256 -16.053997 -43.363781
223500000 -1.4416548 19.541714 -17.017448 -144.17503 -66.057465 -126.94524 -15.566775 -95.651497
233000000 -1.3953114 -9.1600666 -16.807058 115.66107 -64.465332 136.98822 -16.429756 -149.47069
242500000 -1.3781149 -37.78727 -16.719252 13.079397 -63.825562 48.585022 -18.753056 148.49704
252000000 -1.3799303 -66.511414 -16.89366 -88.96067 -63.610321 -45.581139 -21.551352 67.326256
261500000 -1.4074013 -95.488457 -17.080357 170.35822 -63.361481 -139.52477 -20.492975 -22.80793
271000000 -1.4775999 -124.81056 -17.013248 70.61615 -62.512211 134.33867 -17.581953 -91.917122
280500000 -1.5637753 -154.54866 -16.686573 -31.708982 -61.272713 37.330997 -15.842719 -150.39751
290000000 -1.6381923 175.44926 -16.881926 -135.94855 -61.453735 -60.004566 -15.687474 153.55196
299500000 -1.7149743 145.36011 -17.299471 123.74707 -60.937408 -151.10358 -17.045305 96.831459
309000000 -1.7764298 115.20204 -17.183102 23.974289 -60.270134 116.41759 -19.578957 33.146927
318500000 -1.7910244 85.336281 -17.067179 -78.524078 -59.885429 23.368979 -21.822798 -49.274761
328000000 -1.7669526 55.957516 -17.201328 179.21939 -59.559799 -68.690224 -20.613756 -137.47321
337500000 -1.7500532 26.805595 -17.392538 77.634537 -59.374695 -162.50189 -18.409548 152.87959
347000000 -1.7410342 -2.2225523 -17.559534 -22.561184 -58.961132 108.52354 -17.269766 93.504715
356500000 -1.713783 -31.09832 -17.34017 -122.67397 -58.302162 16.626026 -17.303631 35.190533
366000000 -1.7075287 -60.060219 -17.120562 133.8343 -57.707039 -82.499519 -18.503769 -28.106676
375500000 -1.754099 -89.395226 -17.480268 30.516964 -57.762596 -175.09221 -20.2082 -100.39101
385000000 -1.8143325 -119.18479 -17.791021 -69.040741 -57.379993 93.751007 -20.493265 -178.55713
394500000 -1.8743252 -149.24144 -17.562027 -168.88072 -57.005096 3.5850651 -19.178205 110.29205
404000000 -1.936821 -179.38136 -17.392159 87.667595 -56.351597 -91.841713 -18.14539 47.248451
413500000 -1.9957573 150.35678 -17.772251 -15.021184 -56.211765 172.55132 -18.43721 -12.601865
423000000 -2.0363245 120.18652 -17.968874 -114.63905 -56.23069 83.87104 -20.228655 -73.576286
432500000 -2.0343671 90.471542 -17.859043 144.03719 -55.844715 -9.1851892 -23.087492 -145.54236
442000000 -2.0053165 61.235653 -18.049715 42.055401 -55.666115 -103.96058 -24.029543 122.28929
451500000 -1.9843944 32.373238 -18.139599 -58.588085 -55.538746 164.32426 -21.51775 40.363987
461000000 -1.9588034 3.7776821 -18.262693 -160.66547 -55.406269 70.563316 -19.600187 -23.264675
470500000 -1.9302703 -24.630627 -18.588858 99.474518 -55.374138 -19.911314 -19.134972 -80.482857
480000000 -1.9175206 -52.958195 -18.2987 0.13518831 -54.560387 -111.40202 -20.141668 -139.58553
489500000 -1.9382999 -81.532921 -18.148254 -104.18218 -54.20343 153.57928 -22.605816 150.3989
499000000 -1.9836725 -110.49603 -18.680201 154.13753 -54.393471 60.783985 -24.01873 60.485958
508500000 -2.0224607 -139.64896 -18.620527 55.147778 -54.206867 -29.017466 -21.531168 -22.057938
518000000 -2.0573606 -168.9446 -18.426796 -47.928295 -53.588924 -123.10353 -19.026484 -85.357178
527500000 -2.1000435 161.63824 -18.73844 -150.52972 -53.557556 142.67975 -18.105858 -141.79745
537000000 -2.1267769 132.29514 -18.937794 108.19155 -53.606152 50.188675 -18.980551 163.12509
546500000 -2.1216252 103.29787 -19.231871 6.9239755 -53.476734 -42.28204 -21.866358 103.80905
556000000 -2.0962529 74.793777 -19.356417 -92.467644 -53.327034 -133.04393 -26.522682 18.417801
565500000 -2.0649431 46.671478 -19.23596 165.67279 -52.975815 133.6071 -24.230816 -93.058647
575000000 -2.033747 18.855135 -19.675261 63.375576 -52.950161 40.550247 -19.797304 -162.84303
584500000 -2.0005538 -8.7234735 -19.975548 -34.426731 -53.046082 -49.55048 -17.663414 142.32191
594000000 -1.9804828 -36.26429 -19.703688 -133.93919 -52.462666 -140.1311 -17.111382 90.25563
603500000 -1.9898449 -64.003204 -19.740725 124.9181 -52.290997 125.55231 -18.06727 34.440075
613000000 -2.0208123 -92.10569 -19.599222 24.812719 -52.043545 35.035927 -20.55282 -32.198311
622500000 -2.059016 -120.60598 -19.694534 -78.21817 -52.095676 -60.735088 -22.354092 -118.44627
632000000 -2.1118903 -149.47636 -20.123585 -176.42395 -52.179775 -150.53323 -20.137535 158.63383
641500000 -2.1617768 -178.59581 -19.628176 84.728134 -51.686962 118.78619 -17.519354 94.959259
651000000 -2.2002733 152.14548 -19.608778 -19.66836 -51.61721 22.840826 -16.402418 39.051079
660500000 -2.220911 122.96623 -20.0555 -119.91611 -51.864021 -68.259933 -16.982243 -14.587343
670000000 -2.2191682 93.984123 -19.934669 140.93121 -51.510323 -159.28027 -19.308725 -70.770187
679500000 -2.2008703 65.342003 -19.789711 39.051739 -51.233444 108.37464 -23.638157 -144.90331
689000000 -2.1679862 37.127769 -19.914545 -62.905693 -51.25811 14.924065 -23.912132 104.0525
698500000 -2.1398523 9.1444635 -20.103621 -163.8084 -51.368458 -77.645493 -19.264116 26.927681
708000000 -2.1274965 -18.717388 -20.224129 96.455872 -51.291389 -168.93414 -16.576368 -28.378134
717500000 -2.1226792 -46.568047 -20.102955 -3.1901197 -51.023247 100.77377 -15.546693 -78.796623
727000000 -2.1448984 -74.679649 -19.850967 -104.45836 -50.599846 8.4993467 -16.088282 -130.12325
736500000 -2.2034111 -103.26171 -19.806055 152.75514 -50.351727 -86.347717 -18.612568 174.24661
746000000 -2.2652304 -132.34283 -20.054226 50.914169 -50.473152 -179.24445 -23.388994 102.47614
755500000 -2.3199627 -161.79378 -20.185213 -48.992306 -50.43642 89.680107 -24.23484 -6.7069259
765000000 -2.3815684 168.53416 -20.022987 -149.64047 -50.18866 -2.589041 -19.542061 -83.779594
774500000 -2.4303386 138.69577 -20.008301 107.49342 -49.960152 -96.602509 -17.007387 -139.59468
784000000 -2.4428267 108.95602 -20.376707 5.7760096 -50.306641 170.07037 -16.532686 170.75861
793500000 -2.4270511 79.62104 -20.534447 -93.194267 -50.316235 80.532982 -17.765713 123.02867
803000000 -2.4010978 50.743576 -20.271805 166.15686 -49.882072 -11.621049 -21.257723 72.215172
812500000 -2.3692029 22.27466 -20.36775 62.942699 -49.942833 -106.44561 -29.835859 -4.3982105
822000000 -2.3316936 -5.8217158 -20.723824 -37.417091 -50.096863 162.57652 -26.385492 -153.86501
831500000 -2.3087232 -33.659122 -20.67837 -137.06105 -49.961983 71.263535 -20.267834 146.80113
841000000 -2.3117349 -61.463097 -20.694174 121.67362 -49.875282 -21.452942 -17.841915 99.202423
850500000 -2.339493 -89.477158 -20.694164 21.661413 -49.804722 -112.1618 -17.565554 52.960251
860000000 -2.3829331 -117.86732 -20.451366 -80.653946 -49.360298 153.76392 -19.460888 6.7503591
869500000 -2.4331269 -146.61392 -20.868822 176.10873 -49.652737 59.955826 -24.699322 -40.801685
879000000 -2.4845266 -175.60953 -21.179543 78.07148 -49.875206 -29.820503 -42.20372 -171.48975
888500000 -2.5265863 155.23193 -20.754538 -22.505146 -49.353401 -121.40842 -24.808289 67.806099
898000000 -2.5454221 126.05283 -20.999401 -126.60518 -49.463921 143.1505 -20.129347 21.121534
907500000 -2.5341153 97.104652 -21.44763 134.47998 -49.833904 53.188232 -18.745878 -22.347811
917000000 -2.5033326 68.584641 -21.205816 34.906124 -49.447769 -37.290775 -19.460321 -64.26828
926500000 -2.4589851 40.522057 -21.268917 -67.649902 -49.374992 -131.40765 -22.71718 -104.4061
936000000 -2.4068205 12.916466 -21.507128 -168.00175 -49.517757 137.71634 -32.533993 -129.20346
945500000 -2.3588591 -14.256433 -21.593086 91.372299 -49.474621 46.072781 -28.689222 -35.322319
955000000 -2.3272386 -41.200798 -21.810911 -8.1381969 -49.552101 -45.159157 -21.46982 -68.173126
964500000 -2.3219182 -68.114586 -21.605154 -107.14689 -49.275124 -135.45546 -18.802273 -108.80267
974000000 -2.3372929 -95.181686 -21.520294 150.539 -49.076199 131.31462 -18.479977 -151.23547
983500000 -2.3742232 -122.63329 -21.821901 50.473675 -49.350399 39.57523 -20.365957 165.62997
993000000 -2.4219756 -150.49045 -21.664429 -48.838943 -49.229275 -50.821121 -25.825535 120.8161
1002500000 -2.4632864 -178.6898 -21.715446 -150.49068 -49.259007 -144.48041 -42.074444 -59.926891
1012000000 -2.5077407 152.78551 -21.85811 110.67085 -49.338757 125.04361 -23.848194 -135.50529
1021500000 -2.5352712 124.1161 -21.556374 10.216875 -49.092682 33.501373 -19.240294 179.79175
1031000000 -2.5291278 95.488457 -21.735006 -91.77697 -49.230423 -59.52631 -17.511475 136.61761
1040500000 -2.5068347 67.114479 -21.812281 169.85071 -49.159405 -149.79457 -17.57906 92.945801
1050000000 -2.4764011 39.100094 -21.414988 69.022522 -48.766735 118.73485 -19.688055 47.645645
1059500000 -2.430186 11.404921 -21.54911 -34.20359 -49.00462 24.203505 -25.47805 -1.3738585
1069000000 -2.3892894 -15.916419 -21.901712 -133.49014 -49.219357 -66.315918 -38.136189 -163.91644
1078500000 -2.3709581 -42.956768 -21.700788 128.01477 -49.049694 -156.22736 -23.555614 110.98961
1088000000 -2.3693163 -70.006981 -21.421898 26.233423 -48.718117 111.89823 -19.123701 63.520096
1097500000 -2.3976929 -97.304527 -21.566689 -75.645378 -48.771439 18.486254 -17.679924 17.535471
1107000000 -2.4488583 -124.96923 -21.641129 -175.21225 -48.806347 -72.587601 -18.237261 -28.143574
1116500000 -2.5112464 -153.17924 -21.450634 84.029228 -48.66114 -164.28925 -20.798609 -75.974762
1126000000 -2.5793583 178.09621 -21.543901 -17.422831 -48.743748 103.61931 -26.798447 -138.18562
1135500000 -2.640414 148.98668 -21.509172 -116.7849 -48.707577 13.551291 -29.274532 85.038612
1145000000 -2.6851759 119.54274 -21.21389 141.53654 -48.44532 -79.720375 -21.932856 10.291919
1154500000 -2.7043097 90.053314 -21.422569 39.287186 -48.55954 -172.64163 -18.593954 -38.512466
1164000000 -2.6932778 60.810268 -21.44445 -59.626289 -48.583466 97.285233 -17.404659 -83.049416
1173500000 -2.6671388 31.864012 -21.040859 -161.36914 -48.229237 4.945034 -17.997786 -126.20691
1183000000 -2.6351073 3.3266032 -21.234407 94.973885 -48.371902 -89.986588 -20.725727 -166.85017
1192500000 -2.5980461 -24.744469 -21.557692 -4.9272189 -48.59164 179.33609 -27.261045 162.37009
1202000000 -2.5775352 -52.469536 -21.487122 -104.65732 -48.571987 89.078941 -33.227791 -128.1189
1211500000 -2.5840762 -80.090591 -21.406158 154.41626 -48.456181 -3.4783146 -23.536972 -136.85429
1221000000 -2.6150358 -107.86093 -21.361431 52.935764 -48.400169 -95.906113 -20.053947 -173.64423
1230500000 -2.6674905 -135.89909 -21.494686 -48.611927 -48.528591 172.03203 -19.154869 147.19833
1240000000 -2.7243466 -164.31955 -21.599354 -148.60706 -48.592869 81.147354 -20.112768 108.2245
1249500000 -2.7830462 166.81091 -21.485325 110.89892 -48.523617 -10.456901 -23.345409 70.788757
1259000000 -2.8436725 137.60941 -21.463396 9.5691643 -48.408112 -102.15975 -31.798895 46.287262
1268500000 -2.8781581 108.23017 -21.433197 -91.587646 -48.414089 165.8795 -31.643711 134.77208
1278000000 -2.8713791 78.907784 -21.48826 166.82683 -48.51247 73.896057 -23.87047 110.22517
1287500000 -2.8408201 49.975769 -21.543957 66.503098 -48.483727 -16.831583 -21.152544 74.102165
1297000000 -2.7999518 21.470539 -21.362497 -35.125259 -48.260841 -109.67708 -20.82959 37.915722
1306500000 -2.7469623 -6.5317101 -21.628517 -138.16776 -48.483391 156.27223 -22.468357 6.2984567
1316000000 -2.6825156 -33.937088 -22.022745 122.85114 -48.86628 67.114807 -25.891443 -10.446373
1325500000 -2.64147 -60.916428 -21.8319 23.886271 -48.629616 -22.605183 -26.999289 1.6786022
1335000000 -2.6385601 -87.79213 -21.803555 -77.945595 -48.609989 -115.85538 -23.323074 -4.4156322
1344500000 -2.6459727 -114.69068 -21.990358 -177.73071 -48.77544 153.58246 -20.777075 -32.168617
1354000000 -2.6639042 -141.71454 -21.893446 82.538933 -48.672726 62.602852 -20.002028 -66.730591
1363500000 -2.7059205 -169.03152 -21.891329 -17.938065 -48.678127 -28.693943 -21.000954 -103.94402
1373000000 -2.7611735 163.16678 -21.823523 -117.73764 -48.746487 -119.34093 -24.499496 -141.54733
1382500000 -2.8068092 135.00287 -21.736742 141.4888 -48.558403 148.89322 -34.995411 -170.51276
1392000000 -2.8301222 106.66116 -21.771639 41.45145 -48.765511 57.86694 -30.86544 -54.375248
1401500000 -2.8349259 78.215233 -21.568727 -58.684357 -48.568367 -32.924412 -23.410641 -88.774422
1411000000 -2.8238354 49.829884 -21.537905 -160.64316 -48.613468 -126.04199 -20.807819 -127.42332
1420500000 -2.792172 21.745426 -21.66786 99.224983 -48.757843 143.01645 -20.616138 -165.56664
1430000000 -2.7376277 -5.8940167 -21.537354 -1.2558562 -48.645905 51.990162 -22.597622 159.80571
1439500000 -2.6874964 -33.055511 -21.666618 -102.75651 -48.858887 -41.264687 -27.657579 138.63737
1449000000 -2.6565034 -59.867149 -21.824459 158.18584 -49.012135 -130.57739 -30.508007 -179.73009
1458500000 -2.6452215 -86.595078 -21.626587 58.915245 -48.91935 138.82758 -23.383715 177.89494
1468000000 -2.654016 -113.37762 -21.491491 -42.113956 -48.830006 47.462822 -19.686201 146.59454
1477500000 -2.6784401 -140.27704 -21.51428 -142.45093 -48.925774 -44.056068 -18.10203 110.26238
1487000000 -2.7288284 -167.59439 -21.399691 118.02219 -48.858017 -134.56677 -18.078142 72.125053
1496500000 -2.7962697 164.57532 -21.113745 17.622469 -48.538349 135.03806 -19.721897 33.589809
1506000000 -2.8543873 136.3246 -20.949339 -84.263321 -48.545147 42.619705 -23.767885 -3.2958622
1515500000 -2.9081264 107.68808 -20.944164 174.83182 -48.561348 -48.743568 -34.344112 -25.416428
1525000000 -2.9508979 78.716835 -20.764294 74.090485 -48.458611 -139.72804 -30.701929 75.981087
1534500000 -2.9629476 49.602852 -20.697771 -27.786469 -48.35841 127.94711 -23.909536 45.835583
1544000000 -2.9535666 20.643505 -20.65941 -128.55527 -48.361927 36.584709 -21.817726 10.156682
1553500000 -2.9302175 -7.9763165 -20.538534 129.50693 -48.270172 -55.598732 -22.039003 -24.089554
1563000000 -2.8926957 -36.195423 -20.780943 28.05386 -48.540688 -147.69127 -24.306149 -53.164043
1572500000 -2.8632712 -64.026199 -20.745764 -70.638603 -48.536285 122.96238 -28.794558 -63.032818
1582000000 -2.8665426 -91.653374 -20.38895 -172.06064 -48.253979 30.861565 -28.968445 -36.376522
1591500000 -2.8911405 -119.33131 -20.523252 85.861481 -48.444859 -61.596859 -24.329182 -43.46067
1601000000 -2.9221239 -147.12337 -20.487141 -13.450824 -48.425388 -151.68411 -21.703384 -69.783897
1610500000 -2.9719203 -175.19516 -20.200756 -114.92619 -48.151264 116.76141 -20.864342 -100.01212
1620000000 -3.0542152 156.25374 -20.250925 143.54546 -48.304222 24.473114 -21.485798 -129.23334
1629500000 -3.1302781 127.21984 -20.085346 43.311241 -48.211445 -65.822639 -23.369946 -152.81276
1639000000 -3.1754673 97.936707 -19.903053 -59.168701 -48.006348 -158.74823 -25.823353 -164.48982
1648500000 -3.2094471 68.484215 -20.014727 -160.71191 -48.260647 110.17823 -26.763578 -164.42859
1658000000 -3.2366903 38.882881 -19.903902 98.592064 -48.122356 18.799446 -25.812286 -170.01701
1667500000 -3.2253602 9.4774904 -19.842642 -3.9668386 -48.090893 -74.485909 -25.068851 176.40222
1677000000 -3.168467 -19.40715 -20.076353 -105.56104 -48.317345 -166.52895 -24.969854 162.98975
1686500000 -3.1128902 -47.748257 -20.196428 154.6429 -48.377586 103.65093 -24.687807 153.74185
1696000000 -3.0896866 -75.712669 -20.066263 54.40226 -48.297344 12.878017 -23.41538 143.31554
1705500000 -3.0710771 -103.37827 -20.008574 -47.42598 -48.192673 -79.497108 -21.842642 125.54971
1715000000 -3.0494657 -130.8356 -20.135618 -148.08749 -48.331406 -170.60042 -20.855068 101.61
1724500000 -3.0575943 -158.21176 -19.971592 111.93271 -48.254059 98.730537 -20.88225 75.087433
1734000000 -3.1006866 174.17902 -19.901436 9.4940577 -48.187805 6.1942072 -22.088127 50.139545
1743500000 -3.1548827 146.17464 -20.144136 -90.571068 -48.509068 -84.150047 -24.317608 32.873913
1753000000 -3.1921194 117.95837 -19.816959 170.30905 -48.213253 -174.07327 -26.078485 29.844854
1762500000 -3.2161481 89.565071 -19.627041 66.91394 -48.118439 92.507385 -25.195856 27.614922
1772000000 -3.2553842 60.880516 -19.926231 -33.483959 -48.421543 1.3514528 -23.749874 10.808096
1781500000 -3.2773349 32.119137 -19.588118 -133.06824 -48.117775 -88.086044 -23.631218 -14.469752
1791000000 -3.2471321 3.5347934 -19.542263 123.27473 -48.069675 177.22346 -25.524059 -40.670902
1800500000 -3.2003911 -24.671783 -19.870872 23.56196 -48.451008 87.136299 -30.630241 -54.383015
1810000000 -3.1649108 -52.439899 -19.576046 -76.279564 -48.192646 -3.186729 -32.677288 -5.2559533
1819500000 -3.1396332 -79.98613 -19.652306 -178.72369 -48.291843 -96.606583 -25.615133 -5.433785
1829000000 -3.1129205 -107.26908 -19.694557 82.530937 -48.372074 173.97417 -21.972466 -31.557072
1838500000 -3.0866952 -134.20004 -19.238031 -19.070316 -48.032448 81.843285 -20.445412 -61.41946
1848000000 -3.0993204 -161.10413 -19.407808 -122.01166 -48.275997 -11.594143 -20.400475 -90.005005
1857500000 -3.1604812 171.72131 -19.352594 138.72809 -48.23003 -101.73337 -21.435322 -113.33194
1867000000 -3.2178774 144.24136 -18.974394 35.832008 -47.976551 165.095 -22.717182 -127.70752
1876500000 -3.2693467 116.491 -19.204641 -66.986305 -48.304798 72.149765 -22.90011 -136.15765
1886000000 -3.3502483 88.49398 -19.093678 -167.54742 -48.296406 -19.074686 -21.954306 -149.49004
1895500000 -3.4391754 60.065723 -19.013464 88.37439 -48.330708 -113.09902 -21.193623 -170.43544
1905000000 -3.5008228 31.283628 -19.359743 -13.720083 -48.607883 154.38 -21.312061 164.46126
1914500000 -3.5203474 2.6542683 -19.281981 -115.69413 -48.546703 62.901646 -22.65205 139.01587
1924000000 -3.5233564 -25.726709 -19.675827 139.55215 -49.05901 -32.657787 -25.563587 119.10271
1933500000 -3.5258391 -53.957268 -20.333963 39.513103 -49.733624 -122.93924 -29.397514 121.02101
1943000000 -3.5117905 -81.944092 -20.362814 -60.6894 -49.833504 146.59856 -28.092453 138.61354
1952500000 -3.4712856 -109.58736 -20.779825 -163.47423 -50.223778 54.173801 -24.867296 126.1916
1962000000 -3.4456487 -136.98215 -21.347517 97.772369 -50.913448 -34.956104 -23.631847 100.20714
1971500000 -3.4541252 -164.33765 -21.390396 -1.2191972 -50.934216 -124.25616 -24.65881 72.657379
1981000000 -3.4806461 168.08905 -21.580927 -101.59631 -51.088127 145.1799 -28.477905 56.464298
1990500000 -3.5078421 140.27071 -21.724203 159.27982 -51.321121 56.383686 -30.613577 87.515945
2000000000 -3.5459828 112.23284 -21.746458 59.444054 -51.309093 -33.75412 -24.506342 89.837433
