!Keysight Technologies,N5242B,MY48420967,A.15.65.19
!Date: Saturday, February 04, 2023 11:21:56
!Correction: S11(C  1-Port  ) 
!S21(Off) 
!S12(Off) 
!S22(Off) 
!S2P File: Measurements: S11, S21, S12, S22:
# Hz S  dB   R 50
100000000 -1.5148133 40.244846 -15.881721 96.601196 -82.418747 15.34745 -20.875563 88.19223
109500000 -1.447016 10.878067 -15.633401 -3.9895678 -76.354996 -81.751945 -24.33758 33.380215
119000000 -1.3753928 -18.026241 -15.748653 -109.2631 -74.808838 169.2567 -31.13097 -63.110401
128500000 -1.2883276 -46.40591 -16.34506 149.26616 -73.610039 84.370872 -25.192793 178.93915
138000000 -1.2731354 -74.798729 -16.429466 49.644978 -73.395279 -9.3274212 -20.062885 121.15527
147500000 -1.3432237 -103.6992 -16.365679 -51.935234 -71.756767 -97.893478 -17.615286 72.81646
157000000 -1.4083053 -132.94786 -16.363468 -154.03014 -70.602623 163.45888 -16.927782 25.403259
166500000 -1.4801986 -162.40562 -16.451847 103.1462 -70.112068 66.351074 -18.05172 -22.96196
176000000 -1.6031908 167.68535 -16.762978 1.1308894 -69.331108 -23.988111 -21.470751 -74.035118
185500000 -1.7044445 137.42255 -16.962868 -99.084297 -69.086159 -117.62091 -28.927362 -146.72247
195000000 -1.7217269 107.45869 -16.885559 160.29114 -67.817596 148.70189 -27.085083 72.146889
204500000 -1.7214861 77.928596 -16.84383 57.686726 -66.546654 60.408203 -20.627619 6.5548944
214000000 -1.7280284 48.508942 -17.165535 -44.581726 -67.416939 -35.548107 -17.937674 -44.398674
223500000 -1.6811047 19.424501 -17.385307 -144.03831 -66.057465 -122.4976 -17.26314 -92.775673
233000000 -1.6098179 -9.1916313 -17.194305 115.76742 -64.784477 143.53535 -18.144751 -142.66425
242500000 -1.6001039 -37.754627 -17.119127 13.328631 -64.537582 47.503338 -20.85462 160.30267
252000000 -1.6182169 -66.582451 -17.268185 -88.643272 -64.240219 -41.872318 -25.153383 79.992943
261500000 -1.6302512 -95.589188 -17.434515 170.52896 -63.868721 -134.93968 -23.968752 -23.101851
271000000 -1.6892066 -124.80966 -17.390392 70.568886 -62.873215 128.52551 -19.913794 -92.521164
280500000 -1.8006029 -154.5415 -17.10183 -31.598112 -62.171154 36.847221 -17.693813 -147.97365
290000000 -1.8865063 175.32935 -17.283916 -135.52914 -61.723896 -58.261055 -17.287045 159.34528
299500000 -1.9441266 145.22403 -17.656647 124.00784 -61.313522 -149.09351 -18.544802 106.24632
309000000 -2.0088406 115.15787 -17.551611 23.983503 -60.589828 119.21823 -21.418659 47.347775
318500000 -2.0476587 85.23613 -17.471561 -78.478844 -60.11478 24.999279 -25.140352 -33.770626
328000000 -2.0213928 55.731777 -17.606518 179.45958 -60.328556 -67.714142 -24.114889 -132.70091
337500000 -1.9953024 26.574318 -17.773762 77.803185 -59.345966 -163.04581 -20.93784 155.87163
347000000 -2.004281 -2.4386883 -17.944347 -22.627966 -59.324749 107.64394 -19.320238 98.320839
356500000 -1.9935614 -31.357521 -17.767937 -122.72404 -58.70863 15.609351 -19.202223 42.725536
366000000 -1.9814668 -60.346684 -17.557207 134.08145 -57.857529 -79.585655 -20.5042 -17.275431
375500000 -2.0363038 -89.697762 -17.873631 30.774828 -57.923092 -175.20049 -22.717112 -87.95961
385000000 -2.1232941 -119.52233 -18.189251 -69.056381 -58.016266 94.755966 -23.416746 -170.06448
394500000 -2.1867509 -149.56197 -18.008215 -169.00833 -57.318409 2.29881 -21.712946 115.87499
404000000 -2.2429979 -179.67795 -17.870714 87.810677 -56.828083 -92.505783 -20.251966 53.954597
413500000 -2.3204181 150.03233 -18.227646 -14.677575 -56.924992 174.14133 -20.26576 -2.9541202
423000000 -2.3727829 119.83802 -18.400503 -114.38737 -56.497528 83.881554 -22.051395 -59.72892
432500000 -2.35425 90.198044 -18.310926 144.16235 -56.087742 -9.6727266 -25.817183 -126.09711
442000000 -2.321264 61.019497 -18.519951 42.252789 -56.084137 -103.79963 -28.724701 132.76093
451500000 -2.3186843 32.122826 -18.61375 -58.256912 -55.757206 165.13988 -24.874933 41.02269
461000000 -2.2957907 3.5564783 -18.724627 -160.2661 -55.684296 72.378952 -21.981462 -21.033754
470500000 -2.2515559 -24.711033 -19.041004 99.77491 -55.842503 -20.063251 -21.125168 -75.257126
480000000 -2.2472901 -52.990253 -18.784492 0.3363772 -55.201607 -110.22247 -22.102049 -130.32704
489500000 -2.2916737 -81.60672 -18.651794 -103.69019 -54.668907 154.65701 -25.177288 164.58498
499000000 -2.3348801 -110.53344 -19.149595 154.67264 -54.833424 62.509071 -28.116169 68.915581
508500000 -2.3644247 -139.58745 -19.113039 55.424179 -54.54031 -28.206141 -24.5966 -22.827827
518000000 -2.4168868 -168.87996 -18.985643 -47.438046 -54.026592 -122.52087 -21.26228 -84.848007
527500000 -2.477103 161.63713 -19.277863 -149.51508 -54.052414 143.13214 -19.971905 -138.35345
537000000 -2.4956732 132.29442 -19.424376 109.34618 -54.056068 51.641724 -20.666836 170.11145
546500000 -2.4811642 103.34626 -19.677113 7.9594884 -54.028008 -41.466057 -23.721989 116.22306
556000000 -2.4635165 74.806381 -19.811602 -91.630409 -53.693954 -132.13657 -30.774759 37.234394
565500000 -2.4364874 46.63205 -19.7087 166.62444 -53.339413 134.3019 -27.943529 -100.97607
575000000 -2.3954964 18.831129 -20.110228 64.489639 -53.51157 41.240463 -21.907228 -166.78632
584500000 -2.3648415 -8.7516584 -20.382126 -33.5938 -53.446171 -48.138668 -19.355978 141.79771
594000000 -2.3575394 -36.324814 -20.144743 -133.30157 -52.931965 -140.07758 -18.702868 92.256569
603500000 -2.3678393 -64.051575 -20.205122 125.65965 -52.78614 127.24931 -19.770733 39.128326
613000000 -2.4024453 -92.111061 -20.068144 25.716455 -52.447853 35.265007 -22.723789 -25.236647
622500000 -2.4583201 -120.64117 -20.135536 -77.229286 -52.415741 -59.5126 -25.207237 -116.46165
632000000 -2.5241485 -149.57605 -20.553402 -175.64514 -52.745075 -149.97292 -22.155365 156.20293
641500000 -2.5722499 -178.62918 -20.095116 85.429825 -52.091824 120.07638 -19.009602 94.396675
651000000 -2.6158087 152.14984 -20.074286 -18.719906 -51.939289 24.624544 -17.698963 40.993793
660500000 -2.6535132 122.85764 -20.49851 -119.04844 -52.186245 -68.250732 -18.217846 -10.065571
670000000 -2.6466877 93.832909 -20.387064 141.67569 -51.996849 -158.10004 -20.718464 -62.770592
679500000 -2.6139994 65.300407 -20.26458 39.852612 -51.75885 108.68065 -26.324003 -132.28337
689000000 -2.5915067 37.089207 -20.383089 -61.953346 -51.725502 16.293821 -27.201319 97.730804
698500000 -2.5781114 8.9823055 -20.557941 -162.83653 -51.752251 -76.499504 -20.831259 22.252182
708000000 -2.5593071 -18.854769 -20.672039 97.306862 -51.656544 -167.4798 -17.735615 -29.876518
717500000 -2.5526912 -46.53907 -20.568304 -2.4452164 -51.309494 101.36623 -16.588776 -77.955971
727000000 -2.5954356 -74.65242 -20.344664 -103.64975 -51.066128 8.6261101 -17.111118 -126.77654
736500000 -2.6716731 -103.34665 -20.302114 153.72913 -50.855656 -85.332031 -19.736004 -179.03607
746000000 -2.7326465 -132.33554 -20.533672 51.961178 -50.85664 -178.54633 -25.432755 113.75696
755500000 -2.7935891 -161.63359 -20.662119 -48.05764 -50.994255 90.226662 -27.221865 -10.093867
765000000 -2.8779528 168.64064 -20.526484 -148.74898 -50.722351 -2.127023 -21.073692 -87.286522
774500000 -2.9333389 138.74048 -20.523409 108.62402 -50.550182 -95.523254 -18.157782 -140.15239
784000000 -2.9319322 109.1032 -20.866716 6.9861808 -50.676922 171.93877 -17.526138 172.56792
793500000 -2.9166555 79.851044 -21.018089 -92.139183 -50.843903 81.465446 -18.708847 127.42261
803000000 -2.8970652 50.944744 -20.795002 167.19928 -50.446686 -10.466924 -22.294994 81.49408
812500000 -2.8571382 22.471935 -20.892359 64.279633 -50.334454 -104.94215 -32.975384 23.408901
822000000 -2.8135896 -5.493526 -21.215033 -36.024673 -50.633163 163.02209 -28.456652 -169.69096
831500000 -2.7972772 -33.233376 -21.165773 -135.74234 -50.493629 72.636093 -21.384882 141.19081
841000000 -2.8096578 -61.045341 -21.192354 122.96711 -50.389736 -19.866573 -18.836784 97.293457
850500000 -2.8371804 -89.010681 -21.206858 22.937561 -50.251228 -111.15263 -18.540255 53.86787
860000000 -2.8858578 -117.26373 -20.979549 -79.156166 -49.821983 155.4691 -20.453041 11.087379
869500000 -2.9519334 -145.94957 -21.360796 177.7193 -50.234756 60.917221 -25.800152 -28.951351
879000000 -3.0115244 -174.96939 -21.663765 79.518311 -50.434807 -28.522991 -45.141155 33.59446
888500000 -3.0478778 155.9041 -21.275612 -21.028233 -49.866615 -120.05607 -25.521528 55.284302
898000000 -3.0717692 126.81573 -21.500151 -124.84672 -49.930466 145.10333 -20.946922 15.787506
907500000 -3.0644023 97.860039 -21.921833 136.15802 -50.350594 54.952171 -19.636225 -24.419212
917000000 -3.0225649 69.279617 -21.695765 36.488777 -49.987659 -36.325924 -20.451746 -63.493298
926500000 -2.9668248 41.257496 -21.761562 -65.978394 -49.835537 -129.4254 -23.867582 -98.77594
936000000 -2.9173436 13.712178 -21.996492 -166.26033 -50.026131 139.53995 -32.469864 -102.60838
945500000 -2.8730502 -13.500433 -22.06819 93.191521 -49.982204 47.868813 -27.3498 -47.392738
955000000 -2.8352034 -40.477913 -22.264801 -6.4240003 -50.057415 -43.333309 -21.501348 -74.956032
964500000 -2.8284383 -67.301208 -22.08268 -105.51251 -49.76284 -133.94116 -19.202852 -113.03764
974000000 -2.8548667 -94.300369 -21.997589 152.33817 -49.575443 132.80331 -19.11153 -153.58754
983500000 -2.9064343 -121.80482 -22.279665 52.250267 -49.88649 41.596195 -21.258354 165.49356
993000000 -2.9622049 -149.70915 -22.133291 -47.105713 -49.634567 -49.520489 -27.400003 125.60268
1002500000 -3.0100758 -177.8716 -22.178186 -148.68877 -49.65506 -143.49588 -38.263103 -110.33463
1012000000 -3.0642927 153.61426 -22.3125 112.39837 -49.757145 127.22765 -23.623796 -143.74809
1021500000 -3.1031268 124.84241 -22.028 11.99999 -49.479404 35.0979 -19.434849 174.96597
1031000000 -3.0977759 96.139145 -22.189468 -89.904976 -49.673771 -57.892807 -17.922733 133.38005
1040500000 -3.0640447 67.773979 -22.260418 171.53001 -49.829838 -147.24474 -18.199909 90.997406
1050000000 -3.0322115 39.73188 -21.885727 70.714317 -49.227684 120.30158 -20.621857 47.550671
1059500000 -2.9959826 11.956476 -22.021879 -32.318863 -49.531235 26.539373 -27.312819 3.0965614
1069000000 -2.9498401 -15.40914 -22.343756 -131.63863 -49.730713 -64.160789 -36.5765 149.92152
1078500000 -2.91904 -42.385181 -22.150097 129.68942 -49.540497 -153.78436 -23.220873 101.7989
1088000000 -2.9273326 -69.372963 -21.896734 27.924631 -49.167519 112.89159 -19.24329 57.678741
1097500000 -2.9781704 -96.709602 -22.04678 -73.885582 -49.335564 19.921108 -18.063984 13.288278
1107000000 -3.0335007 -124.36803 -22.1192 -173.38101 -49.331299 -70.601051 -18.867905 -31.222246
1116500000 -3.0949016 -152.45436 -21.929987 85.890259 -49.171013 -162.48622 -21.841148 -77.966751
1126000000 -3.1879106 178.87231 -22.014509 -15.594427 -49.205254 105.71091 -29.204439 -140.90869
1135500000 -3.2715638 149.69545 -22.003138 -115.01567 -49.211647 14.813265 -29.462641 64.905174
1145000000 -3.3065374 120.30314 -21.723944 143.53514 -48.880768 -77.329323 -21.945162 1.261312
1154500000 -3.3213077 90.960167 -21.898935 41.350918 -49.031338 -170.71509 -18.884871 -44.877277
1164000000 -3.3254662 61.70348 -21.920158 -57.74979 -49.131996 99.098976 -17.971218 -88.109924
1173500000 -3.2946892 32.683857 -21.560556 -159.41223 -48.716034 6.6185074 -18.912331 -129.92125
1183000000 -3.2404943 4.2725224 -21.745289 97.269737 -48.856258 -87.581596 -22.189383 -167.87326
1192500000 -3.2046859 -23.6504 -22.031164 -2.6688974 -49.122761 -178.91847 -29.90671 173.88753
1202000000 -3.197829 -51.423328 -21.960833 -102.5593 -49.051346 90.335419 -29.261024 -121.98254
1211500000 -3.1980875 -79.022171 -21.897184 156.48383 -48.977371 -0.84646714 -22.383104 -143.4147
1221000000 -3.2178438 -106.55265 -21.871508 55.179321 -48.782059 -93.275902 -19.772528 179.64978
1230500000 -3.2885344 -134.47253 -21.982237 -46.25668 -48.892635 174.63165 -19.414185 140.90131
1240000000 -3.3713515 -162.95784 -22.082062 -146.27574 -49.05402 83.647026 -20.938995 102.51099
1249500000 -3.4264684 168.24104 -21.967957 113.26075 -48.955231 -7.4056797 -25.215149 67.017609
1259000000 -3.4846914 139.23915 -21.94755 11.996352 -48.939034 -99.850739 -36.926781 72.076706
1268500000 -3.5389276 109.89688 -21.910496 -89.105789 -48.928501 168.30241 -27.851818 135.08963
1278000000 -3.5388136 80.461433 -21.948452 169.35757 -48.886391 76.690536 -22.448061 103.2851
1287500000 -3.4872839 51.54393 -22.008284 68.956993 -48.968147 -14.443615 -20.629827 65.958519
1297000000 -3.4309227 23.158258 -21.839592 -32.573284 -48.75227 -106.89645 -21.039852 29.371698
1306500000 -3.3873973 -4.8973522 -22.081171 -135.44012 -48.929089 158.87946 -23.662127 -1.2588578
1316000000 -3.3278501 -32.431915 -22.444933 125.47601 -49.241798 69.888741 -28.47747 -6.6563168
1325500000 -3.264472 -59.388577 -22.26878 26.377527 -49.125717 -20.488354 -26.642746 18.313631
1335000000 -3.2483447 -86.145264 -22.24239 -75.366608 -49.073254 -112.99585 -21.967585 0.20748337
1344500000 -3.278749 -113.05219 -22.420107 -175.20464 -49.212517 155.41331 -19.685299 -33.275295
1354000000 -3.3132482 -140.18968 -22.326658 85.134491 -48.992893 65.078094 -19.250376 -71.018951
1363500000 -3.3447027 -167.50882 -22.299404 -15.368593 -49.072647 -26.247019 -20.666283 -110.99317
1373000000 -3.4034059 164.80331 -22.237078 -115.32309 -49.03878 -116.68709 -24.951113 -152.87836
1382500000 -3.4818921 136.60547 -22.16086 143.91502 -48.943073 151.17152 -40.739311 150.25899
1392000000 -3.5179298 108.09319 -22.198206 43.941811 -49.135567 60.125042 -27.847563 -46.859249
1401500000 -3.5020037 79.637291 -21.97887 -56.196877 -49.027897 -30.735096 -21.866117 -90.107018
1411000000 -3.4891951 51.292068 -21.942896 -158.22783 -49.036034 -124.28568 -19.821003 -131.95819
1420500000 -3.4775646 23.075043 -22.096951 101.57664 -49.14135 144.97058 -20.094887 -172.44771
1430000000 -3.4106939 -4.7121477 -21.983631 1.2986393 -49.110714 54.728348 -22.748701 150.25552
1439500000 -3.335079 -31.847141 -22.072777 -100.10809 -49.201347 -38.12479 -29.975847 127.24768
1449000000 -3.3157573 -58.638214 -22.217249 160.62669 -49.399204 -128.62614 -30.353899 -156.43399
1458500000 -3.3223217 -85.48127 -22.046843 61.208023 -49.281582 141.0103 -22.106209 -177.38687
1468000000 -3.3217249 -112.29299 -21.919241 -39.662708 -49.211216 50.210938 -18.714556 145.91995
1477500000 -3.3409956 -139.0681 -21.925737 -140.00909 -49.301712 -40.866116 -17.428783 106.9617
1487000000 -3.4183009 -166.39169 -21.819035 120.36147 -49.111225 -131.51755 -17.751776 66.810593
1496500000 -3.5075181 165.69933 -21.553755 19.892994 -48.966625 137.48712 -19.922842 26.322758
1506000000 -3.55917 137.56082 -21.405478 -81.79055 -48.937523 45.485142 -25.144444 -12.825787
1515500000 -3.6226656 109.0637 -21.375593 177.34431 -48.953991 -45.859459 -46.705143 -7.9819818
1525000000 -3.697367 80.02002 -21.196281 76.43676 -48.905331 -137.6747 -26.897715 78.007233
1534500000 -3.7094991 50.829285 -21.151423 -25.41065 -48.87677 130.28546 -22.086651 39.490147
1544000000 -3.6785433 21.98465 -21.135395 -126.09402 -48.818756 39.185402 -20.887615 0.74383378
1553500000 -3.660913 -6.5595956 -21.008915 132.20612 -48.736916 -53.015274 -21.977274 -35.940693
1563000000 -3.636579 -34.883503 -21.210548 30.721563 -48.978481 -145.16806 -25.82411 -66.460861
1572500000 -3.5931604 -62.715275 -21.194326 -68.214073 -48.947407 125.26025 -33.600548 -52.042576
1582000000 -3.5809889 -90.148727 -20.873083 -169.44608 -48.652405 34.051785 -27.001764 -15.591512
1591500000 -3.6201713 -117.71383 -20.979343 88.663872 -48.90416 -58.512245 -22.074799 -41.689484
1601000000 -3.673161 -145.55692 -20.927845 -10.754244 -48.881535 -148.79079 -20.07975 -75.792892
1610500000 -3.7204189 -173.53973 -20.656784 -112.22518 -48.667454 119.34873 -20.029663 -110.85853
1620000000 -3.8027463 158.14053 -20.708937 146.26701 -48.708698 27.296658 -21.843142 -143.03723
1629500000 -3.9054794 129.22461 -20.558771 46.086277 -48.687222 -63.428005 -25.776911 -163.54074
1639000000 -3.969234 99.922409 -20.360107 -56.150478 -48.520557 -155.69763 -29.091501 -148.71872
1648500000 -3.994884 70.524498 -20.446228 -157.76097 -48.654709 112.69048 -25.532618 -142.00668
1658000000 -4.0205774 41.045219 -20.353016 101.44872 -48.560398 21.601625 -22.875027 -164.51991
1667500000 -4.0200267 11.626151 -20.296244 -0.89815664 -48.483967 -71.320328 -22.45656 166.87569
1677000000 -3.9591262 -17.352116 -20.491774 -102.47681 -48.696537 -163.28461 -24.084436 141.71306
1686500000 -3.8861678 -45.693283 -20.592997 157.58055 -48.740707 106.57424 -27.283735 134.68362
1696000000 -3.8555202 -73.607758 -20.477165 57.237923 -48.707237 15.786815 -26.514849 150.82263
1705500000 -3.8337748 -101.27178 -20.428679 -44.447113 -48.614555 -76.318169 -22.468143 140.16678
1715000000 -3.8056231 -128.72502 -20.523651 -145.09068 -48.709969 -167.88042 -19.96298 112.37193
1724500000 -3.8198419 -156.05348 -20.352686 114.74693 -48.596947 101.95062 -19.18433 79.341988
1734000000 -3.8760231 176.3611 -20.279823 12.297544 -48.583622 8.890296 -20.092155 45.725674
1743500000 -3.9288793 148.36861 -20.516769 -87.919189 -48.861107 -81.784889 -22.966824 16.184835
1753000000 -3.9704795 120.22406 -20.214869 172.9834 -48.608101 -170.77325 -28.361153 5.9164147
1762500000 -4.0192327 91.856766 -20.004223 69.782913 -48.463871 95.160103 -28.876511 38.245605
1772000000 -4.067193 63.069462 -20.260355 -30.927526 -48.726601 3.6843774 -24.246027 28.773396
1781500000 -4.0737958 34.262562 -19.954784 -130.72096 -48.445419 -86.012085 -22.342346 -0.89490175
1791000000 -4.0446439 5.7034249 -19.890104 125.72926 -48.450779 179.78564 -22.838552 -34.469955
1800500000 -4.0188198 -22.64785 -20.192461 25.571163 -48.71653 89.122452 -26.257425 -66.879883
1810000000 -3.9741032 -50.620026 -19.941393 -74.659935 -48.56493 -1.7029171 -37.148205 -69.068878
1819500000 -3.9174933 -78.148178 -20.04265 -177.25192 -48.683708 -94.663765 -29.015776 10.316571
1829000000 -3.8973567 -105.35793 -20.139217 83.601532 -48.814053 174.87991 -22.570137 -17.280466
1838500000 -3.8970609 -132.39932 -19.768709 -18.008266 -48.461979 82.975212 -19.797794 -51.122704
1848000000 -3.9046466 -159.43057 -19.964787 -120.95586 -48.789959 -10.37431 -18.94907 -85.384483
1857500000 -3.9545681 173.49915 -19.992149 139.54871 -48.924099 -101.34267 -19.660696 -117.59872
1867000000 -4.0355649 146.17712 -19.730047 36.912933 -48.688667 166.54272 -21.89126 -143.39148
1876500000 -4.1256242 118.42004 -20.00371 -65.536537 -49.132843 73.824234 -25.031734 -152.18143
1886000000 -4.2224674 90.415527 -19.959604 -165.82942 -49.179623 -17.098497 -24.899214 -143.81516
1895500000 -4.3138242 62.131443 -19.946772 90.587479 -49.206154 -110.97087 -22.062626 -155.53209
1905000000 -4.3846698 33.514874 -20.34816 -11.173025 -49.638458 157.16156 -20.464926 177.29562
1914500000 -4.4205365 4.9621601 -20.35965 -112.39258 -49.673847 65.830681 -20.589342 144.85886
1924000000 -4.4235187 -23.369314 -20.759785 143.78674 -50.092403 -28.332153 -22.719374 111.64829
1933500000 -4.397656 -51.529049 -21.417582 44.455578 -50.811241 -117.63657 -28.295513 85.19706
1943000000 -4.3499036 -79.36834 -21.462852 -54.586628 -50.808369 153.00964 -35.838791 140.48651
1952500000 -4.2980719 -106.91317 -21.76158 -156.02338 -51.104992 61.584103 -26.418148 149.66299
1962000000 -4.2687554 -134.39532 -22.143274 105.75941 -51.589924 -26.8876 -22.86796 118.33174
1971500000 -4.2488017 -161.80154 -22.064995 7.0950875 -51.594509 -115.59722 -22.395739 83.594093
1981000000 -4.2500043 170.74841 -22.079996 -93.139641 -51.64341 153.58556 -24.664751 52.130333
1990500000 -4.2977004 143.05486 -22.078896 167.48212 -51.551758 65.300186 -30.816048 44.144726
2000000000 -4.3701525 114.96104 -21.991423 67.201134 -51.630295 -25.43576 -28.601707 92.465103
