!Keysight Technologies,N5242B,MY48420967,A.15.65.19
!Date: Monday, January 23, 2023 05:35:59
!Correction: S11(C  1-Port  ) 
!S21(Off) 
!S12(Off) 
!S22(Off) 
!S2P File: Measurements: S11, S21, S12, S22:
# Hz S  dB   R 50
100000000 -1.4896752 40.366039 -15.905381 96.308937 -79.136238 3.7730131 -20.730856 88.034454
109500000 -1.4126902 10.911096 -15.657162 -4.1357765 -76.988266 -90.655052 -23.934189 33.906387
119000000 -1.3215405 -17.834534 -15.75262 -109.32632 -75.240807 173.56805 -30.641306 -56.657074
128500000 -1.2522039 -46.241501 -16.342764 149.19476 -74.713348 85.572662 -25.635132 -178.77547
138000000 -1.2514397 -74.807159 -16.434021 49.553257 -73.309097 -7.6325369 -20.305134 121.64772
147500000 -1.3024538 -103.67572 -16.369427 -51.939846 -71.639633 -109.62537 -17.74527 72.823578
157000000 -1.3653651 -132.82411 -16.359184 -153.97943 -70.929153 169.10506 -16.989033 25.191072
166500000 -1.4553337 -162.34863 -16.448017 103.18898 -69.745247 71.591415 -18.038445 -23.349272
176000000 -1.5705781 167.68324 -16.757462 1.2200502 -70.088562 -26.718033 -21.352468 -74.631569
185500000 -1.660097 137.526 -16.952242 -98.988297 -68.795593 -120.51265 -28.458672 -146.66273
195000000 -1.6942821 107.58489 -16.87154 160.41029 -67.105621 148.7243 -27.171654 74.809074
204500000 -1.6972518 77.973785 -16.82909 57.826424 -66.906044 57.18531 -20.721275 7.5061049
214000000 -1.6836427 48.621456 -17.143303 -44.425198 -66.819847 -37.624634 -17.979952 -44.017605
223500000 -1.6414201 19.642355 -17.362144 -143.89651 -65.840973 -127.89206 -17.264688 -92.678528
233000000 -1.5914444 -9.0455408 -17.175436 115.92282 -64.630531 140.04498 -18.094105 -142.82617
242500000 -1.5715775 -37.656467 -17.092896 13.497875 -64.367447 46.862202 -20.71035 159.9325
252000000 -1.5728999 -66.36837 -17.236427 -88.454971 -63.584656 -47.812244 -24.822338 80.3144
261500000 -1.6037866 -95.348541 -17.404617 170.65269 -63.310165 -145.09555 -23.809494 -21.262381
271000000 -1.6787037 -124.68187 -17.363592 70.722672 -62.430626 126.15947 -19.874071 -91.303215
280500000 -1.7700028 -154.4283 -17.072746 -31.412521 -61.533802 37.525803 -17.665974 -147.18983
290000000 -1.8522305 175.54413 -17.246584 -135.41791 -61.389969 -55.89957 -17.248022 159.79033
299500000 -1.9351801 145.41545 -17.622997 124.10246 -61.514183 -148.5237 -18.480806 106.50296
309000000 -2.0027716 115.23193 -17.520809 24.089991 -60.375603 117.96815 -21.300396 47.408638
318500000 -2.0247498 85.322792 -17.438673 -78.366066 -60.174492 24.373585 -24.935541 -33.251705
328000000 -2.007302 55.899452 -17.571901 179.5621 -59.926979 -69.699776 -24.009989 -131.54964
337500000 -1.9977206 26.719425 -17.745058 77.919014 -59.25959 -161.70715 -20.884146 156.63042
347000000 -1.9988849 -2.3303823 -17.916834 -22.523838 -59.047523 108.65859 -19.274679 98.772423
356500000 -1.9829143 -31.24081 -17.739359 -122.616 -58.88958 16.608576 -19.14426 42.957153
366000000 -1.9891332 -60.215576 -17.535429 134.13237 -58.285473 -78.849174 -20.412294 -17.235378
375500000 -2.0502822 -89.556854 -17.859037 30.891832 -58.060207 -175.43758 -22.588398 -87.869751
385000000 -2.1261671 -119.36164 -18.165878 -68.968132 -57.898521 93.839973 -23.288467 -169.64023
394500000 -2.1979256 -149.41685 -17.992847 -168.92082 -57.614487 2.8344111 -21.640476 116.29068
404000000 -2.269881 -179.53801 -17.859608 87.911911 -57.062355 -91.093903 -20.205549 54.094814
413500000 -2.3382251 150.21222 -18.215858 -14.499136 -56.584404 174.21251 -20.226494 -3.1676223
423000000 -2.3839285 120.0644 -18.38793 -114.24087 -56.645828 83.035461 -22.003206 -60.421535
432500000 -2.3819194 90.39299 -18.302628 144.28468 -56.252113 -9.4085178 -25.68228 -127.57112
442000000 -2.3552678 61.202183 -18.51683 42.444969 -56.254341 -102.25514 -28.288881 132.17953
451500000 -2.3372722 32.400036 -18.605291 -58.049423 -56.074081 164.79878 -24.604197 41.767036
461000000 -2.3140607 3.8659375 -18.712532 -160.0867 -55.632938 71.716187 -21.82708 -20.510525
470500000 -2.2902782 -24.467182 -19.041168 99.892838 -55.630325 -18.998619 -21.021393 -75.147408
480000000 -2.285481 -52.728081 -18.796164 0.54569286 -55.134243 -110.11478 -22.016678 -130.78687
489500000 -2.3143308 -81.233917 -18.657356 -103.46579 -54.754486 155.17593 -25.052032 163.11417
499000000 -2.3687942 -110.14132 -19.161947 154.8526 -55.02264 61.915188 -27.633886 67.308281
508500000 -2.4177468 -139.27162 -19.149773 55.712711 -54.525631 -28.96991 -24.156326 -22.33823
518000000 -2.4618647 -168.53848 -19.010149 -46.888115 -54.252441 -121.64416 -20.936041 -84.046066
527500000 -2.5115049 162.08067 -19.272415 -149.00507 -54.021492 143.9756 -19.693474 -137.61913
537000000 -2.5430467 132.74376 -19.408405 109.79292 -53.913666 50.918045 -20.411827 170.71489
546500000 -2.5367925 103.73557 -19.670126 8.3889933 -53.892891 -40.769962 -23.460457 116.81097
556000000 -2.5083573 75.228958 -19.802528 -91.204887 -53.728928 -131.41911 -30.488186 38.200058
565500000 -2.478734 47.105087 -19.694668 167.08244 -53.341061 134.55138 -27.799238 -100.26521
575000000 -2.4476554 19.27347 -20.098225 64.881897 -53.571583 41.705185 -21.73538 -166.39537
584500000 -2.416163 -8.3128204 -20.373041 -33.186508 -53.494747 -47.332336 -19.159111 142.06783
594000000 -2.4034603 -35.836414 -20.137238 -132.86969 -52.927849 -139.56236 -18.480806 92.518318
603500000 -2.4231133 -63.576359 -20.18816 126.08637 -52.770184 127.88017 -19.498396 39.454029
613000000 -2.4666078 -91.682434 -20.052698 26.088135 -52.521641 35.91217 -22.398813 -24.386887
622500000 -2.5167143 -120.17277 -20.123882 -76.83046 -52.396557 -59.474247 -25.004242 -114.38737
632000000 -2.5850089 -149.05376 -20.539066 -175.26567 -52.690487 -149.72081 -22.140224 157.41359
641500000 -2.6451757 -178.18091 -20.091427 85.81823 -52.127102 119.775 -18.981354 94.843842
651000000 -2.6895678 152.54364 -20.07065 -18.302303 -52.07962 24.145235 -17.63833 41.026459
660500000 -2.717741 123.3429 -20.493402 -118.61801 -52.239132 -67.381966 -18.12122 -10.263885
670000000 -2.7170465 94.326912 -20.381989 142.06912 -51.945049 -157.91676 -20.560005 -63.228573
679500000 -2.6975451 65.666107 -20.264168 40.260139 -51.700531 109.09764 -25.972696 -132.79909
689000000 -2.6669643 37.45509 -20.385347 -61.517433 -51.682835 16.542128 -27.00215 99.831627
698500000 -2.6428936 9.4733334 -20.55917 -162.38257 -51.854641 -75.829498 -20.798006 23.146212
708000000 -2.6361127 -18.379999 -20.670954 97.698349 -51.645542 -167.30763 -17.704676 -29.471031
717500000 -2.6413136 -46.183651 -20.576302 -2.0576358 -51.399418 102.38874 -16.555319 -77.818245
727000000 -2.6767013 -74.245255 -20.357927 -103.21789 -51.025055 9.51583 -17.075781 -126.87215
736500000 -2.7512007 -102.78841 -20.315182 154.20743 -50.908176 -84.827026 -19.698923 -179.40141
746000000 -2.828712 -131.8111 -20.546637 52.429764 -50.923573 -178.63956 -25.354427 113.01411
755500000 -2.8985729 -161.20248 -20.684669 -47.602047 -50.904297 90.961693 -27.045527 -10.165097
765000000 -2.9702702 169.1703 -20.551617 -148.21901 -50.708153 -1.3947426 -20.982903 -87.332138
774500000 -3.0258307 139.38934 -20.545069 109.16215 -50.581791 -95.356499 -18.098064 -140.41795
784000000 -3.0397122 109.69228 -20.88932 7.5166192 -50.778751 171.78178 -17.491306 172.11188
793500000 -3.02246 80.390877 -21.046711 -91.607613 -50.805798 81.352638 -18.699802 126.69302
803000000 -2.9910235 51.5858 -20.820904 167.81905 -50.46706 -9.9229155 -22.337828 80.232353
812500000 -2.9548795 23.197552 -20.918217 64.924408 -50.364433 -104.32474 -33.194202 18.93898
822000000 -2.9174616 -4.8260636 -21.238787 -35.399551 -50.601021 164.02849 -28.077389 -168.91129
831500000 -2.8939228 -32.572056 -21.196787 -135.11536 -50.415657 73.424583 -21.21557 141.10349
841000000 -2.9012349 -60.257957 -21.218679 123.635 -50.465939 -19.066757 -18.725109 96.848511
850500000 -2.9394121 -88.162918 -21.233912 23.613594 -50.29808 -110.53606 -18.477072 53.034439
860000000 -2.9943726 -116.45383 -21.008434 -78.45295 -49.915005 156.31743 -20.457865 9.7232332
869500000 -3.0539296 -145.1033 -21.387859 178.48096 -50.207283 62.52647 -26.001579 -31.425024
879000000 -3.1154492 -174.02513 -21.688452 80.254112 -50.403156 -27.289316 -45.879459 63.109673
888500000 -3.1634085 156.86263 -21.301842 -20.234545 -49.872784 -119.36127 -25.099224 56.710667
898000000 -3.1834433 127.71473 -21.521591 -124.06405 -49.986656 145.89864 -20.656866 15.910876
907500000 -3.1704814 98.771996 -21.944393 136.94016 -50.277386 56.283615 -19.403715 -24.98033
917000000 -3.1334114 70.250267 -21.721298 37.358242 -49.943939 -35.081131 -20.261318 -64.765541
926500000 -3.0801587 42.1828 -21.779358 -65.092957 -49.91814 -128.26532 -23.763437 -101.3399
936000000 -3.0207572 14.588905 -22.005978 -165.42628 -50.001873 139.8401 -33.296688 -107.65191
945500000 -2.9692652 -12.576179 -22.083788 94.040344 -49.92173 48.988605 -27.403158 -43.560406
955000000 -2.9350247 -39.51096 -22.279051 -5.5897145 -50.106583 -42.413322 -21.345591 -73.340233
964500000 -2.9338083 -66.379547 -22.100855 -104.67977 -49.785976 -132.72292 -19.006771 -112.33974
974000000 -2.9591713 -93.406013 -22.013901 153.18117 -49.591335 133.35263 -18.889223 -153.55634
983500000 -3.008745 -120.85135 -22.295183 53.09108 -49.863216 42.551304 -21.002794 164.67809
993000000 -3.071033 -148.69955 -22.15127 -46.22908 -49.678947 -48.904682 -27.028135 122.71379
1002500000 -3.1279685 -176.9054 -22.189219 -147.81514 -49.616589 -141.70436 -39.078163 -97.118362
1012000000 -3.1846266 154.53459 -22.332314 113.21891 -49.717064 127.42669 -23.593765 -141.31696
1021500000 -3.2196901 125.80098 -22.051823 12.904672 -49.447296 35.690655 -19.338943 176.22627
1031000000 -3.2171648 97.104698 -22.199018 -89.007851 -49.637539 -56.581821 -17.785749 134.08218
1040500000 -3.194164 68.650597 -22.274361 172.39496 -49.755543 -146.97018 -18.027225 91.292213
1050000000 -3.1583798 40.55975 -21.907576 71.59893 -49.295712 121.32047 -20.392885 47.288765
1059500000 -3.1074119 12.825836 -22.033171 -31.381878 -49.39608 27.310505 -26.909639 1.4980164
1069000000 -3.0640221 -14.519631 -22.356876 -130.79373 -49.784035 -63.197411 -37.180836 157.91541
1078500000 -3.0455673 -41.571796 -22.173483 130.51674 -49.467655 -153.56163 -23.298077 103.3508
1088000000 -3.0492373 -68.5923 -21.92157 28.817541 -49.168934 113.72157 -19.249207 58.466774
1097500000 -3.0896552 -95.827019 -22.068466 -73.016251 -49.346573 21.149477 -18.043816 13.655591
1107000000 -3.1576293 -123.43358 -22.143774 -172.52538 -49.29306 -69.634232 -18.847383 -31.217644
1116500000 -3.2382188 -151.5929 -21.965229 86.747459 -49.160812 -162.00375 -21.830622 -78.466911
1126000000 -3.3241358 179.76375 -22.05106 -14.665943 -49.308769 105.60818 -29.163813 -143.29489
1135500000 -3.4014068 150.71223 -22.039408 -114.09859 -49.213444 15.701365 -28.985226 65.630257
1145000000 -3.4573069 121.30483 -21.767847 144.47144 -48.962551 -76.566452 -21.722389 1.8373907
1154500000 -3.4816797 91.853073 -21.942522 42.326893 -49.195694 -169.50293 -18.720791 -44.612934
1164000000 -3.4679625 62.646461 -21.960047 -56.748379 -49.130787 100.37155 -17.833721 -88.078323
1173500000 -3.4356146 33.737785 -21.605984 -158.39211 -48.811359 7.8060408 -18.804482 -130.11763
1183000000 -3.3951242 5.2632489 -21.785406 98.286163 -48.879478 -86.618111 -22.144646 -168.34511
1192500000 -3.349241 -22.719625 -22.074741 -1.6377362 -49.163269 -176.98163 -30.092302 173.84662
1202000000 -3.3246546 -50.346455 -22.007347 -101.46886 -49.119888 92.197456 -28.936779 -120.55658
1211500000 -3.3319857 -77.829399 -21.941988 157.58115 -48.9109 0.055829197 -22.102783 -143.58371
1221000000 -3.3685706 -105.42835 -21.924982 56.268654 -48.964809 -91.974236 -19.526115 178.89577
1230500000 -3.4326711 -133.32776 -22.045815 -45.079712 -49.008911 175.21671 -19.188803 139.61011
1240000000 -3.5037239 -161.60059 -22.133583 -145.02142 -49.098019 84.751968 -20.735088 100.38475
1249500000 -3.5758665 169.68016 -22.016188 114.46844 -48.996063 -6.9539022 -25.099855 62.964928
1259000000 -3.6499751 140.57863 -21.994677 13.214753 -48.984741 -98.750145 -38.934002 61.88113
1268500000 -3.6931672 111.25381 -21.963682 -87.799088 -48.937786 169.47731 -27.764372 139.74109
1278000000 -3.6855862 81.944725 -21.9935 170.71558 -48.933968 78.10582 -22.205315 104.97708
1287500000 -3.6498654 53.007915 -22.050247 70.245285 -49.003632 -13.763035 -20.345119 66.339447
1297000000 -3.599508 24.479616 -21.888569 -31.231728 -48.840801 -105.93305 -20.739262 28.551193
1306500000 -3.5327303 -3.5587516 -22.115934 -134.05206 -48.974644 161.10904 -23.398224 -3.803968
1316000000 -3.4557121 -30.979031 -22.471588 126.81452 -49.399876 70.727669 -28.798395 -11.989474
1325500000 -3.4064763 -57.943233 -22.298525 27.686152 -49.133224 -19.083042 -27.272507 20.11212
1335000000 -3.4004517 -84.798752 -22.272839 -74.041534 -49.046856 -111.66499 -22.070425 2.4444473
1344500000 -3.4118011 -111.67745 -22.448969 -173.86382 -49.270039 157.78442 -19.599739 -31.672096
1354000000 -3.4380901 -138.66193 -22.357662 86.520638 -49.085129 66.654274 -19.044792 -69.99791
1363500000 -3.4938636 -165.97044 -22.324606 -14.018167 -49.179123 -25.112324 -20.331295 -110.63823
1373000000 -3.5650918 166.23889 -22.266497 -113.9371 -49.111954 -116.2185 -24.343212 -153.74985
1382500000 -3.6251523 138.04547 -22.189178 145.31192 -49.036705 152.36508 -37.380047 145.30649
1392000000 -3.6614113 109.62797 -22.223845 45.373516 -49.137047 61.400047 -28.376554 -41.476784
1401500000 -3.6751719 81.086624 -22.008858 -54.805763 -48.991703 -29.361183 -22.018312 -87.349113
1411000000 -3.664221 52.585571 -21.963078 -156.79143 -48.964615 -122.58218 -19.827765 -130.05603
1420500000 -3.6284807 24.371588 -22.108564 102.95017 -49.147312 146.32964 -20.011271 -171.05965
1430000000 -3.5648985 -3.3850095 -21.99975 2.630594 -49.093292 55.706982 -22.541185 151.11946
1439500000 -3.5048022 -30.638966 -22.089785 -98.80648 -49.24136 -37.311306 -29.501099 126.20525
1449000000 -3.4699273 -57.500965 -22.229736 161.89069 -49.432858 -127.16145 -30.882261 -157.27385
1458500000 -3.4575393 -84.237503 -22.060184 62.436569 -49.294827 143.23149 -22.27479 -176.74821
1468000000 -3.4711719 -111.02367 -21.951103 -38.534065 -49.204388 51.299824 -18.771643 146.52083
1477500000 -3.5080333 -137.88556 -21.967508 -138.82407 -49.302811 -40.008129 -17.431749 107.37223
1487000000 -3.5743783 -165.16592 -21.867395 121.5583 -49.308788 -130.18039 -17.706635 67.001663
1496500000 -3.662255 167.04445 -21.603664 21.115311 -49.086864 139.14104 -19.830976 26.189819
1506000000 -3.7416677 138.83632 -21.459852 -80.569931 -48.954777 46.286034 -24.956421 -13.761623
1515500000 -3.8141141 110.23114 -21.438009 178.63972 -49.017773 -44.400105 -46.305901 -28.377748
1525000000 -3.8717792 81.267349 -21.262526 77.757187 -48.878696 -136.30229 -27.105942 79.400368
1534500000 -3.8915341 52.15942 -21.214733 -24.063395 -48.877171 131.91858 -22.172792 40.023899
1544000000 -3.8803277 23.195522 -21.210154 -124.77536 -48.935268 40.71447 -20.949896 0.74497885
1553500000 -3.8521879 -5.416955 -21.087971 133.62001 -48.78265 -51.757862 -22.064365 -36.490551
1563000000 -3.8054776 -33.599167 -21.283508 32.200058 -48.98933 -143.78897 -26.05868 -67.900009
1572500000 -3.7681971 -61.353123 -21.265194 -66.812744 -49.048248 126.90018 -34.638496 -50.067326
1582000000 -3.7700882 -88.864975 -20.956366 -167.99796 -48.775539 35.375423 -26.882114 -12.269435
1591500000 -3.7990029 -116.40009 -21.063326 90.191544 -48.916389 -57.079453 -21.898497 -40.296059
1601000000 -3.8381166 -144.03441 -21.010107 -9.2055016 -48.895763 -147.1507 -19.906162 -75.384392
1610500000 -3.9032278 -171.92226 -20.740095 -110.67893 -48.688835 120.58492 -19.87216 -111.36444
1620000000 -4.0056849 159.72177 -20.795065 147.82135 -48.872208 28.595802 -21.759695 -144.7532
1629500000 -4.0996642 130.83566 -20.659121 47.724922 -48.729748 -61.30748 -26.047937 -167.0079
1639000000 -4.162858 101.67797 -20.452103 -54.430546 -48.576187 -153.95267 -30.17028 -147.21913
1648500000 -4.2100005 72.329201 -20.53014 -156.05869 -48.749119 114.64063 -25.72748 -137.22009
1658000000 -4.2421055 42.766991 -20.440382 103.16429 -48.622356 22.922689 -22.723871 -161.24567
1667500000 -4.2284775 13.350314 -20.382832 0.88982719 -48.609028 -69.8479 -22.159002 168.79837
1677000000 -4.1614957 -15.538314 -20.572903 -100.64365 -48.762032 -161.31895 -23.693008 141.85289
1686500000 -4.0892787 -43.888374 -20.665628 159.39157 -48.83358 108.30548 -27.131859 131.51782
1696000000 -4.0542636 -71.841675 -20.553213 59.063644 -48.837807 17.600605 -27.078947 150.16374
1705500000 -4.0258284 -99.474709 -20.495794 -42.589561 -48.692028 -74.583809 -22.786791 142.36946
1715000000 -3.9998577 -126.89738 -20.590752 -143.2493 -48.827778 -166.19565 -20.052053 115.02901
1724500000 -4.0106187 -154.21242 -20.422102 116.60223 -48.659698 104.06838 -19.105625 81.929008
1734000000 -4.0622735 178.26775 -20.337406 14.165868 -48.684235 11.112973 -19.846846 48.00272
1743500000 -4.1307292 150.30853 -20.577061 -86.166199 -48.969242 -80.004776 -22.493578 17.553394
1753000000 -4.1845546 122.09824 -20.294786 174.71429 -48.714977 -169.32079 -27.628721 3.1259346
1762500000 -4.2215405 93.710564 -20.072485 71.640862 -48.490269 97.391357 -29.522718 33.526611
1772000000 -4.2749825 64.978935 -20.322802 -29.169992 -48.844116 6.1970658 -24.84223 29.609137
1781500000 -4.3068829 36.105003 -20.038996 -128.97313 -48.53059 -84.040985 -22.724482 1.5467048
1791000000 -4.2736793 7.3743982 -19.972998 127.52291 -48.500435 -178.22339 -23.065838 -31.043295
1800500000 -4.2207203 -20.970766 -20.277161 27.323309 -48.86367 90.960007 -26.27033 -61.83852
1810000000 -4.1789703 -48.856033 -20.04505 -72.894508 -48.653023 -0.099942826 -35.597561 -61.428181
1819500000 -4.1429744 -76.517342 -20.14526 -175.42474 -48.818554 -93.455734 -29.062107 6.9994001
1829000000 -4.1114354 -103.88465 -20.259171 85.41626 -48.947159 177.00137 -22.684408 -17.5371
1838500000 -4.0861111 -130.84258 -19.892735 -15.97561 -48.636379 84.74498 -19.84511 -50.390503
1848000000 -4.1054797 -157.76076 -20.068411 -118.84406 -48.832836 -8.4476738 -18.924427 -84.257492
1857500000 -4.1836381 175.10429 -20.10071 141.55788 -48.999954 -98.620422 -19.57126 -116.33427
1867000000 -4.2635007 147.68343 -19.839863 39.067352 -48.873207 168.17004 -21.725109 -142.0876
1876500000 -4.3422861 119.99916 -20.094467 -63.401443 -49.169048 75.28038 -24.732267 -151.21904
1886000000 -4.4516754 92.116745 -20.047132 -163.78587 -49.196251 -14.839491 -24.586779 -144.15692
1895500000 -4.5709791 63.844059 -20.023693 92.549881 -49.281551 -109.38258 -21.892126 -156.26186
1905000000 -4.6522369 35.184242 -20.443438 -9.4261951 -49.740589 158.7894 -20.361423 176.64037
1914500000 -4.6740122 6.6846838 -20.498739 -110.68947 -49.810528 67.621582 -20.530619 144.33583
1924000000 -4.6594367 -21.496386 -20.929428 145.58752 -50.231602 -26.131729 -22.719769 111.28687
1933500000 -4.634336 -49.574062 -21.643225 46.382755 -51.09927 -115.76781 -28.426416 85.264336
1943000000 -4.5815873 -77.50515 -21.708429 -52.200081 -51.064018 155.10307 -35.479149 144.04503
1952500000 -4.4955649 -105.10236 -21.98732 -153.2708 -51.495773 64.313354 -26.08429 149.78642
1962000000 -4.4384375 -132.46278 -22.345583 108.65668 -51.798748 -23.761475 -22.574533 118.08369
1971500000 -4.4275184 -159.7626 -22.238607 10.192857 -51.73439 -113.09104 -22.087934 83.034866
1981000000 -4.4447165 172.69623 -22.227856 -89.912086 -51.740761 157.36867 -24.278362 50.719143
1990500000 -4.4771466 144.94763 -22.192242 170.68568 -51.770267 68.296013 -30.464817 38.960461
2000000000 -4.5339346 117.03816 -22.077808 70.370827 -51.614948 -22.278812 -29.216534 91.822632
