!Keysight Technologies,N5242B,MY48420967,A.15.65.19
!Date: Monday, January 23, 2023 08:29:56
!Correction: S11(C  1-Port  ) 
!S21(Off) 
!S12(Off) 
!S22(Off) 
!S2P File: Measurements: S11, S21, S12, S22:
# Hz S  dB   R 50
100000000 -1.481069 40.376369 -15.855253 95.510475 -80.170715 6.3120146 -20.529045 88.083099
109500000 -1.4051563 10.881618 -15.608645 -4.8307071 -79.566971 -99.782921 -23.671368 33.297634
119000000 -1.3175495 -17.893415 -15.705126 -109.98864 -75.05114 170.59113 -30.071163 -57.195126
128500000 -1.2500149 -46.325275 -16.29689 148.55844 -74.538094 80.885025 -25.365782 -177.46625
138000000 -1.2499903 -74.913071 -16.388727 48.964344 -73.785912 -13.252916 -20.125978 122.16535
147500000 -1.3040917 -103.79382 -16.321875 -52.478748 -71.843651 -100.96687 -17.588932 72.886375
157000000 -1.3677593 -132.94728 -16.314383 -154.50008 -71.619957 162.04597 -16.836798 24.8395
166500000 -1.4583502 -162.46979 -16.404493 102.67694 -70.388718 67.19931 -17.896406 -24.169298
176000000 -1.5753175 167.58112 -16.72397 0.74278343 -69.759407 -27.228872 -21.204111 -76.19558
185500000 -1.6658674 137.43846 -16.916754 -99.400314 -68.467789 -121.92494 -28.063795 -149.95543
195000000 -1.6999162 107.52172 -16.835171 160.03493 -68.053047 147.27763 -26.629021 75.995224
204500000 -1.704389 77.938225 -16.789778 57.453388 -66.783066 56.134319 -20.451715 8.0942421
214000000 -1.6919979 48.611023 -17.109997 -44.789154 -66.081772 -37.080868 -17.772749 -43.937122
223500000 -1.6509665 19.650274 -17.32938 -144.24048 -66.037079 -126.93711 -17.082848 -92.982628
233000000 -1.6021069 -9.009429 -17.142744 115.59871 -65.419464 143.1976 -17.913906 -143.49307
242500000 -1.5839725 -37.603523 -17.056747 13.211396 -64.055992 49.432938 -20.500774 158.76541
252000000 -1.5877483 -66.304596 -17.200352 -88.759651 -63.849964 -43.931873 -24.454266 78.960648
261500000 -1.6207809 -95.272301 -17.371494 170.37833 -63.042629 -137.95309 -23.453125 -21.142822
271000000 -1.6983007 -124.59953 -17.327902 70.467529 -63.115128 132.06006 -19.646536 -91.157051
280500000 -1.7923418 -154.35318 -17.033045 -31.693071 -62.125145 37.028709 -17.490746 -147.34428
290000000 -1.8765438 175.61623 -17.206915 -135.69583 -61.700668 -63.095943 -17.099314 159.35225
299500000 -1.9636455 145.48048 -17.589159 123.79841 -61.614681 -150.72478 -18.350477 105.73597
309000000 -2.0341609 115.27831 -17.490068 23.812841 -60.806763 116.38023 -21.160648 46.24511
318500000 -2.0586722 85.357422 -17.407887 -78.651718 -60.449135 25.829828 -24.679565 -34.741184
328000000 -2.0441236 55.922146 -17.541601 179.25816 -59.956089 -66.059502 -23.720081 -132.13998
337500000 -2.0374875 26.730188 -17.716747 77.582603 -59.664646 -163.03651 -20.688114 156.27943
347000000 -2.0413671 -2.326103 -17.893599 -22.809898 -59.302086 106.66154 -19.122742 98.262413
356500000 -2.0275729 -31.233694 -17.717392 -122.93886 -58.557396 15.335913 -19.017244 42.201519
366000000 -2.0371454 -60.204353 -17.520639 133.82086 -58.016933 -79.703934 -20.300201 -18.256283
375500000 -2.1015093 -89.531364 -17.84388 30.62105 -57.823135 -175.8853 -22.449436 -89.249619
385000000 -2.1793854 -119.315 -18.156559 -69.227692 -58.026688 94.721695 -23.099182 -170.83971
394500000 -2.2547197 -149.34526 -17.982121 -169.18962 -57.323986 2.4247298 -21.469442 115.29729
404000000 -2.3300772 -179.44469 -17.854786 87.660835 -56.708614 -92.584641 -20.07655 53.076813
413500000 -2.4001801 150.34241 -18.209761 -14.755975 -56.729782 173.92349 -20.131367 -4.4147921
423000000 -2.447494 120.21552 -18.389349 -114.46658 -56.871532 83.867439 -21.939728 -62.0667
432500000 -2.4480121 90.565826 -18.308622 144.1226 -56.152199 -9.9181919 -25.587652 -130.09839
442000000 -2.422425 61.405663 -18.522902 42.261234 -56.131474 -102.75182 -27.912392 129.58093
451500000 -2.4056935 32.628235 -18.609495 -58.221661 -55.889271 164.97076 -24.28289 40.711697
461000000 -2.3858531 4.1195307 -18.720436 -160.27913 -55.624115 72.479698 -21.599567 -21.459951
470500000 -2.3632438 -24.189472 -19.050297 99.762321 -55.778992 -19.880722 -20.847422 -76.279579
480000000 -2.3606606 -52.424759 -18.806009 0.40901566 -55.08054 -110.25301 -21.863441 -132.32684
489500000 -2.3924563 -80.906433 -18.673384 -103.57901 -54.863178 154.21999 -24.84833 160.89886
499000000 -2.4497905 -109.79272 -19.184628 154.74646 -54.861244 61.204178 -27.20648 65.510933
508500000 -2.5010478 -138.90608 -19.177341 55.663712 -54.697109 -28.560289 -23.821865 -22.788641
518000000 -2.5489573 -168.16273 -19.032621 -46.839035 -54.167091 -123.33649 -20.710688 -84.502686
527500000 -2.6011357 162.47124 -19.287066 -148.95795 -54.013599 145.04881 -19.519773 -138.34665
537000000 -2.6332269 133.1393 -19.424438 109.81805 -53.857052 52.007336 -20.271376 169.65454
546500000 -2.6278284 104.13571 -19.683136 8.4006901 -53.904507 -40.500294 -23.3235 115.09281
556000000 -2.6003063 75.625099 -19.812319 -91.184364 -53.803699 -131.61293 -30.072935 34.92231
565500000 -2.569603 47.507244 -19.711187 167.08186 -53.357822 136.20065 -27.370909 -99.440201
575000000 -2.5397713 19.684752 -20.108089 64.900093 -53.524563 42.220722 -21.523689 -166.06453
584500000 -2.5095208 -7.8949986 -20.38805 -33.165936 -53.419628 -47.702518 -19.00742 142.04326
594000000 -2.4983237 -35.404758 -20.156662 -132.82024 -52.913509 -139.81273 -18.35009 92.227295
603500000 -2.5194108 -63.121201 -20.205141 126.13981 -52.769215 127.88464 -19.376898 38.914551
613000000 -2.5656102 -91.207138 -20.077507 26.097984 -52.485035 36.272411 -22.24411 -25.265644
622500000 -2.6196461 -119.68001 -20.150011 -76.739288 -52.583309 -59.418747 -24.777586 -115.00504
632000000 -2.6892202 -148.54404 -20.562334 -175.19501 -52.712173 -149.29811 -21.965168 157.31783
641500000 -2.7522705 -177.65555 -20.118513 85.898064 -52.182766 120.3166 -18.869577 94.695633
651000000 -2.8001149 153.06848 -20.097378 -18.182884 -51.926018 25.03158 -17.55197 40.739101
660500000 -2.8285716 123.87014 -20.517319 -118.52023 -52.371582 -67.126251 -18.057787 -10.746631
670000000 -2.8295209 94.853661 -20.41012 142.18866 -51.849373 -157.75859 -20.509193 -63.957222
679500000 -2.812052 66.184624 -20.293646 40.384357 -51.762123 108.99523 -25.8874 -134.09703
689000000 -2.7804434 37.973465 -20.421152 -61.415955 -51.768139 17.129879 -26.773428 99.525452
698500000 -2.7570541 10.00251 -20.592987 -162.30132 -51.750568 -75.766808 -20.686159 23.042841
708000000 -2.7519834 -17.841511 -20.706099 97.826454 -51.696674 -167.23294 -17.636709 -29.683937
717500000 -2.7583103 -45.633366 -20.615074 -1.9363426 -51.416954 102.29512 -16.509975 -78.154137
727000000 -2.7962635 -73.668808 -20.401907 -103.09634 -51.17474 9.8433971 -17.052961 -127.34938
736500000 -2.8742301 -102.1784 -20.357967 154.36751 -50.977917 -84.443962 -19.705694 179.93335
746000000 -2.9555099 -131.1783 -20.591181 52.604752 -50.877663 -177.86336 -25.376398 111.68399
755500000 -3.0273726 -160.54234 -20.730284 -47.418869 -50.92178 90.8293 -26.867563 -11.26642
765000000 -3.1027169 169.85959 -20.603214 -148.00183 -50.770676 -0.92008519 -20.888016 -87.817497
774500000 -3.1594555 140.10088 -20.601046 109.41187 -50.618309 -94.910988 -18.05068 -140.9028
784000000 -3.1748977 110.42407 -20.940136 7.7814355 -50.79184 172.05994 -17.473568 171.5462
793500000 -3.1565568 81.141899 -21.102678 -91.294594 -50.825336 82.106865 -18.721157 126.06222
803000000 -3.1253924 52.356903 -20.879059 168.10225 -50.532063 -9.6460981 -22.429108 79.322235
812500000 -3.0884662 23.988432 -20.977339 65.259224 -50.506737 -103.99652 -33.581772 15.911613
822000000 -3.0502596 -4.0042686 -21.30035 -35.085373 -50.714828 164.33963 -27.758598 -169.45428
831500000 -3.0267584 -31.714472 -21.258512 -134.72586 -50.484543 74.088493 -21.083387 140.62354
841000000 -3.0349302 -59.35989 -21.27796 124.02551 -50.506786 -18.893175 -18.653221 96.223328
850500000 -3.0743277 -87.216599 -21.293667 23.997528 -50.352211 -110.21748 -18.450018 52.236412
860000000 -3.1324637 -115.45975 -21.071171 -78.010162 -49.966721 156.25124 -20.493195 8.6806479
869500000 -3.1948264 -144.07965 -21.441734 178.97047 -50.301308 62.292118 -26.19973 -33.096836
879000000 -3.2587152 -172.96339 -21.746115 80.653107 -50.425816 -27.390905 -44.564404 80.127266
888500000 -3.3090606 157.94398 -21.370317 -19.745567 -50.010056 -118.99368 -24.826857 57.147186
898000000 -3.3315871 128.79996 -21.579081 -123.54035 -50.03688 146.59731 -20.493019 15.661479
907500000 -3.3193519 99.850021 -21.998531 137.40352 -50.300518 55.993935 -19.288763 -25.57016
917000000 -3.2810514 71.314392 -21.781309 37.861336 -50.004902 -34.277687 -20.187553 -65.711105
926500000 -3.2271926 43.23587 -21.831755 -64.532661 -49.93499 -128.2628 -23.772486 -102.94621
936000000 -3.1661825 15.623062 -22.057995 -164.94116 -50.08709 140.91254 -33.964024 -110.20568
945500000 -3.1125813 -11.544692 -22.14217 94.579048 -50.031582 49.157055 -27.341845 -41.215591
955000000 -3.0783055 -38.473267 -22.334839 -5.0612173 -50.212582 -41.556545 -21.224335 -72.499168
964500000 -3.0766521 -65.338242 -22.156454 -104.15811 -49.846371 -132.66333 -18.87941 -112.03583
974000000 -3.1025565 -92.345726 -22.069288 153.7448 -49.654919 134.64218 -18.761971 -153.60565
983500000 -3.1552954 -119.76409 -22.354147 53.646301 -49.925064 42.547428 -20.861866 164.21558
993000000 -3.2202616 -147.59659 -22.210043 -45.696087 -49.779343 -47.748196 -26.826685 121.21619
1002500000 -3.2787211 -175.78323 -22.25024 -147.23738 -49.73587 -141.5471 -39.369576 -89.389793
1012000000 -3.3385744 155.66833 -22.39572 113.78396 -49.835094 128.43544 -23.583035 -140.04779
1021500000 -3.3772707 126.93456 -22.118818 13.481241 -49.544971 36.819885 -19.289845 176.8868
1031000000 -3.375145 98.223701 -22.263586 -88.394806 -49.74831 -56.246807 -17.726406 134.50681
1040500000 -3.3521843 69.761047 -22.335131 172.97844 -49.774746 -146.38678 -17.949919 91.528641
1050000000 -3.3166261 41.655003 -21.971844 72.210945 -49.435135 121.76588 -20.285191 47.334625
1059500000 -3.2646668 13.90831 -22.096556 -30.763332 -49.557056 27.698597 -26.696495 1.1213189
1069000000 -3.2187595 -13.437684 -22.421516 -130.19803 -49.807636 -62.431576 -37.52895 161.55228
1078500000 -3.2005892 -40.480942 -22.245934 131.12547 -49.572853 -152.61267 -23.344154 104.08218
1088000000 -3.2049026 -67.483803 -21.995163 29.446735 -49.26086 114.39585 -19.249271 58.916557
1097500000 -3.2469108 -94.694679 -22.140223 -72.350639 -49.391045 21.745514 -18.024649 13.994038
1107000000 -3.3183093 -122.25856 -22.220871 -171.89558 -49.483551 -68.97348 -18.809132 -30.974949
1116500000 -3.4032793 -150.37874 -22.05023 87.443214 -49.267883 -161.67653 -21.771334 -78.251747
1126000000 -3.4932902 -179.0016 -22.130182 -13.961342 -49.382275 106.27654 -29.032635 -142.92403
1135500000 -3.5740709 151.98561 -22.125519 -113.42238 -49.295033 16.043583 -28.998592 66.438889
1145000000 -3.6340609 122.59941 -21.855705 145.20334 -49.051136 -75.64814 -21.720818 2.1322515
1154500000 -3.6603208 93.147575 -22.021009 43.093552 -49.331367 -168.99239 -18.703978 -44.445534
1164000000 -3.647754 63.941521 -22.051264 -56.044811 -49.26683 100.77149 -17.807461 -88.008339
1173500000 -3.6143136 35.039562 -21.700563 -157.5909 -48.892593 8.5529871 -18.76899 -130.19232
1183000000 -3.5718143 6.5628619 -21.87504 99.123085 -49.002327 -85.352432 -22.113041 -168.63557
1192500000 -3.5241404 -21.41054 -22.160374 -0.83698225 -49.305317 -176.90735 -30.150593 172.85252
1202000000 -3.4971862 -49.00367 -22.100958 -100.65899 -49.170631 92.846619 -29.007828 -119.56305
1211500000 -3.5038676 -76.453682 -22.04077 158.40056 -49.107449 1.2468472 -22.06587 -143.02248
1221000000 -3.5403769 -104.01049 -22.021746 57.129963 -49.075157 -91.270622 -19.463722 179.19107
1230500000 -3.6062996 -131.84686 -22.142036 -44.191238 -49.144806 176.31842 -19.104765 139.68071
1240000000 -3.6809454 -160.06281 -22.228392 -144.15895 -49.202526 85.601112 -20.628838 100.15646
1249500000 -3.7565615 171.26387 -22.115324 115.40476 -49.126949 -5.5360284 -24.953051 62.053978
1259000000 -3.8344409 142.21866 -22.091478 14.175013 -49.071686 -97.968361 -39.244289 54.671295
1268500000 -3.8825042 112.9195 -22.065758 -86.838295 -49.02029 170.6091 -27.844398 141.88425
1278000000 -3.8768191 83.608009 -22.087275 171.73296 -49.052853 78.022881 -22.147388 106.1946
1287500000 -3.8398297 54.663494 -22.13744 71.242516 -49.118896 -11.697392 -20.223835 67.133133
1297000000 -3.7887931 26.122873 -21.982994 -30.173588 -49.017433 -104.63689 -20.558344 28.958128
1306500000 -3.7194183 -1.9421622 -22.200745 -132.94351 -49.087399 162.31837 -23.137001 -4.2235093
1316000000 -3.6393955 -29.375837 -22.555428 127.82717 -49.468853 71.870934 -28.609161 -15.181772
1325500000 -3.5874424 -56.351795 -22.386215 28.739038 -49.24506 -18.066065 -27.742544 19.50157
1335000000 -3.5793064 -83.194206 -22.358583 -72.94413 -49.228561 -110.89904 -22.28157 3.5511079
1344500000 -3.5905032 -110.05949 -22.534616 -172.83211 -49.372955 158.59537 -19.673298 -30.379118
1354000000 -3.6180305 -137.02609 -22.446453 87.606125 -49.243263 67.5299 -19.024529 -68.626938
1363500000 -3.6753936 -164.29561 -22.413408 -12.929543 -49.259636 -23.673891 -20.204254 -109.19788
1373000000 -3.7511528 167.92496 -22.356791 -112.92027 -49.197929 -114.52708 -24.022873 -152.08621
1382500000 -3.8156438 139.74928 -22.277533 146.39136 -49.151985 153.21245 -35.921062 151.25722
1392000000 -3.8552058 111.33662 -22.310478 46.434566 -49.203339 62.472454 -29.004005 -39.518951
1401500000 -3.8727617 82.772629 -22.100618 -53.718174 -49.159187 -28.239662 -22.250525 -85.743553
1411000000 -3.8620133 54.246769 -22.047428 -155.63551 -49.031528 -121.36581 -19.916658 -128.36438
1420500000 -3.8258638 26.002054 -22.190828 104.05318 -49.149876 147.48558 -19.97661 -169.26923
1430000000 -3.7607422 -1.7968038 -22.087948 3.7195754 -49.16951 57.130646 -22.344646 153.12263
1439500000 -3.697526 -29.084429 -22.17083 -97.706764 -49.288776 -35.508217 -28.76368 127.74537
1449000000 -3.6589034 -55.952965 -22.31728 162.94145 -49.566238 -126.19341 -31.379602 -162.67973
1458500000 -3.646322 -82.695221 -22.161852 63.465168 -49.323849 143.66336 -22.613037 -177.09343
1468000000 -3.6604702 -109.47226 -22.049896 -37.45343 -49.3344 52.509575 -18.979429 147.08673
1477500000 -3.6977413 -136.30867 -22.063543 -137.7449 -49.462177 -38.893456 -17.555216 108.33539
1487000000 -3.7685966 -163.55305 -21.967333 122.6074 -49.392857 -129.42313 -17.757631 68.298279
1496500000 -3.8607583 168.68825 -21.721592 22.188921 -49.141739 139.40706 -19.779448 27.833822
1506000000 -3.9434752 140.51588 -21.577223 -79.447495 -49.066593 47.510818 -24.687243 -11.433855
1515500000 -4.0223937 111.94218 -21.553806 179.75264 -49.209671 -43.705616 -42.376305 -27.964811
1525000000 -4.0851426 83.000191 -21.385962 78.897469 -49.024315 -135.32845 -27.637459 79.068542
1534500000 -4.1071162 53.88937 -21.338438 -22.89761 -49.044373 132.85478 -22.431929 40.846218
1544000000 -4.0981688 24.920326 -21.333645 -123.59821 -49.039158 41.903229 -21.080669 2.0818415
1553500000 -4.0686975 -3.7047272 -21.216038 134.83488 -48.97253 -50.265156 -22.077545 -34.782436
1563000000 -4.020134 -31.893969 -21.403015 33.415249 -49.220951 -142.2879 -25.833689 -65.696854
1572500000 -3.980202 -59.632 -21.396729 -65.610634 -49.179195 128.07216 -33.755154 -52.915195
1582000000 -3.9801502 -87.111382 -21.090111 -166.74135 -48.951897 36.203396 -27.162136 -14.160354
1591500000 -4.0085931 -114.60685 -21.195129 91.460602 -49.075352 -56.246086 -22.108618 -40.313431
1601000000 -4.0485578 -142.18735 -21.150667 -7.9577513 -49.041534 -146.03043 -20.03837 -74.706795
1610500000 -4.1156702 -169.99695 -20.880705 -109.3383 -48.843266 121.89933 -19.913315 -110.296
1620000000 -4.221941 161.71423 -20.934164 149.11096 -48.993263 30.612293 -21.675425 -143.50067
1629500000 -4.3215265 132.90202 -20.802158 49.0532 -48.893444 -59.90905 -25.725584 -166.29393
1639000000 -4.3896971 103.80231 -20.600742 -53.01741 -48.78442 -152.46358 -30.000616 -150.69882
1648500000 -4.4422121 74.493423 -20.671375 -154.62196 -48.813469 116.01778 -26.03269 -138.08945
1658000000 -4.4790697 44.955196 -20.588156 104.64278 -48.79298 24.558125 -22.946861 -160.46147
1667500000 -4.465889 15.534608 -20.523378 2.4323707 -48.769196 -67.804649 -22.248732 170.36539
1677000000 -4.3989673 -13.369512 -20.707451 -99.099449 -48.908073 -159.51389 -23.5714 143.84146
1686500000 -4.324769 -41.730492 -20.800625 160.89731 -49.009441 109.73679 -26.641026 132.23639
1696000000 -4.2851872 -69.682442 -20.689909 60.595371 -48.902714 19.067789 -26.929911 146.85338
1705500000 -4.2562909 -97.318565 -20.629965 -41.029381 -48.824356 -72.763489 -23.022856 140.80455
1715000000 -4.2282901 -124.73093 -20.71949 -141.75024 -48.918106 -164.05836 -20.31571 114.9602
1724500000 -4.2380972 -152.01682 -20.556984 118.1197 -48.79834 105.58174 -19.317991 82.867554
1734000000 -4.2914042 -179.5029 -20.470301 15.715089 -48.852631 11.823191 -19.954491 49.83836
1743500000 -4.3638878 152.56526 -20.700815 -84.698753 -49.090347 -78.263969 -22.385235 20.25181
1753000000 -4.4213614 124.37856 -20.436468 176.18739 -48.888496 -167.91986 -26.94022 5.1727819
1762500000 -4.4652967 96.006081 -20.211014 73.185501 -48.655205 98.741028 -29.16526 27.625408
1772000000 -4.5240602 67.279724 -20.458599 -27.694733 -48.947273 7.496335 -25.252666 26.770554
1781500000 -4.5589805 38.368916 -20.184383 -127.515 -48.747757 -82.910103 -23.201084 1.2327536
1791000000 -4.5286918 9.5903997 -20.111378 129.0649 -48.650623 -176.57625 -23.516701 -29.330601
1800500000 -4.474833 -18.800152 -20.416897 28.741009 -49.040066 92.645775 -26.575508 -57.179428
1810000000 -4.4308791 -46.739368 -20.203346 -71.428703 -48.778179 1.7547942 -34.167126 -51.907272
1819500000 -4.3932014 -74.436783 -20.292101 -173.95326 -48.904964 -91.606804 -28.883774 0.41321886
1829000000 -4.3593974 -101.83595 -20.415928 86.7658 -49.101643 178.55188 -22.938381 -20.277523
1838500000 -4.332633 -128.82195 -20.065981 -14.575803 -48.797279 86.199326 -20.163918 -51.339218
1848000000 -4.3516817 -155.71793 -20.229956 -117.48762 -49.1105 -7.2645578 -19.227049 -83.943008
1857500000 -4.4324093 177.18103 -20.273598 142.78679 -49.216404 -97.656479 -19.809441 -114.85703
1867000000 -4.5185771 149.79921 -20.031067 40.268166 -49.02462 169.54141 -21.781569 -139.33716
1876500000 -4.6011095 122.17973 -20.305344 -62.31815 -49.43597 76.929001 -24.306622 -148.67358
1886000000 -4.7140837 94.389053 -20.311611 -162.82115 -49.523087 -14.007081 -24.099087 -145.83923
1895500000 -4.8357821 66.197441 -20.345055 93.668457 -49.619221 -107.90454 -21.827101 -158.84631
1905000000 -4.9162407 37.596577 -20.807474 -8.0934477 -50.059364 160.46944 -20.530161 174.83804
1914500000 -4.929358 9.1364145 -20.916454 -108.99122 -50.209682 69.434967 -20.824772 143.52074
1924000000 -4.9016242 -19.051615 -21.361065 147.90746 -50.698948 -24.075243 -23.113327 111.86017
1933500000 -4.8613529 -47.183434 -22.047596 49.215843 -51.36964 -113.53073 -28.852859 89.363632
1943000000 -4.7981339 -75.18177 -22.065649 -48.917786 -51.490685 158.6084 -34.034279 144.46657
1952500000 -4.7075486 -102.85151 -22.25527 -149.78795 -51.727573 67.587021 -25.882734 146.75813
1962000000 -4.6478696 -130.23717 -22.553513 112.04784 -51.931175 -20.786201 -22.647516 116.07535
1971500000 -4.6370368 -157.53728 -22.411379 13.403948 -51.872967 -109.84361 -22.289068 81.896095
1981000000 -4.6583276 174.95842 -22.37141 -86.892403 -51.874756 160.53406 -24.599991 50.709362
1990500000 -4.6952534 147.27043 -22.329338 173.51689 -51.795666 71.409065 -30.776819 42.449001
2000000000 -4.7544584 119.45698 -22.228241 73.071724 -51.759903 -19.636494 -28.72299 91.671021
