!Keysight Technologies,N5242B,MY48420967,A.15.65.19
!Date: Sunday, January 22, 2023 18:59:58
!Correction: S11(C  1-Port  ) 
!S21(Off) 
!S12(Off) 
!S22(Off) 
!S2P File: Measurements: S11, S21, S12, S22:
# Hz S  dB   R 50
100000000 -1.3046297 40.528221 -15.687935 96.094658 -81.024033 0.65010554 -18.033068 80.319077
109500000 -1.2191188 11.17141 -15.378542 -4.0593286 -77.187386 -100.42917 -20.516899 19.480345
119000000 -1.1248008 -17.500282 -15.433352 -109.41896 -74.471031 162.42731 -23.837355 -66.602585
128500000 -1.0486529 -45.870079 -16.039539 149.02184 -73.55558 74.494743 -21.693645 -164.67986
138000000 -1.0403392 -74.430344 -16.132248 49.682415 -73.220192 -4.8305831 -17.989662 128.90849
147500000 -1.0896072 -103.31041 -16.016314 -51.623245 -72.023834 -110.114 -15.837559 75.136795
157000000 -1.1493795 -132.4913 -15.952641 -153.9706 -70.063431 158.82141 -15.207733 23.34363
166500000 -1.236678 -162.07593 -16.036058 102.87978 -69.768135 71.118614 -16.318569 -29.598734
176000000 -1.3546042 167.90691 -16.392485 0.8644762 -69.109138 -26.50197 -19.436075 -86.741722
185500000 -1.4488177 137.67688 -16.589838 -99.089577 -68.74688 -116.58014 -24.330582 -165.83386
195000000 -1.4886156 107.66872 -16.472101 160.33934 -68.372208 151.32782 -23.093071 84.383888
204500000 -1.4988196 78.00769 -16.410736 57.499298 -66.172012 58.56115 -18.549444 12.471146
214000000 -1.4928141 48.602821 -16.755394 -44.884644 -66.328201 -39.252956 -16.310017 -43.438896
223500000 -1.4560279 19.566734 -16.987003 -144.24907 -66.044434 -128.01007 -15.797293 -95.285713
233000000 -1.4096935 -9.1487398 -16.78042 115.59727 -65.128181 138.77589 -16.661211 -148.68423
242500000 -1.3926156 -37.78455 -16.693523 13.021708 -63.771584 47.09618 -19.036779 149.78674
252000000 -1.3950226 -66.518646 -16.864422 -88.983391 -63.749863 -47.475121 -21.980762 68.478134
261500000 -1.4228088 -95.505394 -17.054504 170.28009 -63.461884 -137.57506 -20.893682 -22.797567
271000000 -1.4935472 -124.83527 -16.986143 70.504082 -62.157616 131.8356 -17.865749 -91.985184
280500000 -1.5795971 -154.57298 -16.670525 -31.776926 -61.159252 38.82119 -16.075804 -150.14546
290000000 -1.6538951 175.42516 -16.865131 -135.95764 -61.346592 -59.149677 -15.901652 154.20515
299500000 -1.7308189 145.33568 -17.27453 123.68164 -61.283024 -152.39526 -17.249199 97.868248
309000000 -1.7925342 115.18794 -17.159836 23.916061 -60.553215 120.34881 -19.84111 34.613155
318500000 -1.8074862 85.324684 -17.051674 -78.577927 -59.812485 24.56094 -22.220062 -47.975071
328000000 -1.7830185 55.957409 -17.185041 179.21039 -59.748562 -70.662331 -20.999887 -137.0826
337500000 -1.7662477 26.80909 -17.371517 77.613495 -59.018322 -161.76088 -18.701792 153.1234
347000000 -1.7567919 -2.2111833 -17.536255 -22.609259 -58.791229 107.22212 -17.512569 93.984734
356500000 -1.7301357 -31.082382 -17.323309 -122.72482 -58.469662 15.336675 -17.536766 35.943932
366000000 -1.7234542 -60.045517 -17.106369 133.84326 -57.725136 -78.775276 -18.753971 -27.007778
375500000 -1.7708135 -89.375153 -17.458973 30.535509 -57.843632 -175.65372 -20.505957 -99.203079
385000000 -1.8309362 -119.16737 -17.769247 -69.068512 -57.420406 95.370811 -20.823513 -177.74994
394500000 -1.8916005 -149.21985 -17.545822 -168.90573 -56.726845 4.3296962 -19.474171 110.86123
404000000 -1.9543403 -179.36346 -17.380924 87.692245 -56.538391 -92.096939 -18.403261 48.004959
413500000 -2.013242 150.37718 -17.756779 -14.983904 -56.332649 175.02097 -18.668741 -11.493168
423000000 -2.0536001 120.20363 -17.948555 -114.61764 -56.083767 83.973679 -20.469849 -72.025276
432500000 -2.0523281 90.486343 -17.839611 144.04269 -55.879223 -9.8576803 -23.442549 -143.51843
442000000 -2.02279 61.247692 -18.034138 42.056 -55.859257 -103.97542 -24.538517 123.36649
451500000 -2.0025048 32.391766 -18.121658 -58.562164 -55.538685 163.23846 -21.907516 40.654697
461000000 -1.9778799 3.7978299 -18.241173 -160.64203 -55.067581 72.480049 -19.898743 -22.859785
470500000 -1.9497569 -24.616007 -18.569702 99.48983 -55.365406 -20.230991 -19.400793 -79.73262
480000000 -1.9370837 -52.940449 -18.283651 0.14127181 -54.631107 -110.43409 -20.417109 -138.35431
489500000 -1.9581752 -81.515373 -18.130669 -104.12138 -54.074062 153.80476 -22.969944 152.06296
499000000 -2.0047007 -110.47861 -18.655346 154.2007 -54.35442 60.782402 -24.517696 61.268703
508500000 -2.0434916 -139.63231 -18.592379 55.138725 -54.042435 -28.853514 -21.902966 -22.109098
518000000 -2.0776937 -168.93279 -18.410412 -48.018021 -53.743965 -123.89362 -19.308813 -85.211555
527500000 -2.1207094 161.64832 -18.735243 -150.53732 -53.495415 142.57956 -18.346882 -141.27214
537000000 -2.147505 132.30782 -18.928232 108.23633 -53.568756 50.017612 -19.210218 164.1109
546500000 -2.142652 103.31441 -19.218819 6.9637303 -53.612282 -42.210857 -22.141527 105.43834
556000000 -2.1169689 74.815575 -19.343246 -92.415413 -53.422417 -133.0367 -27.108572 20.24711
565500000 -2.0855289 46.703613 -19.222479 165.73039 -52.903294 133.62486 -24.697729 -94.075699
575000000 -2.0539503 18.893995 -19.657759 63.480778 -52.961575 39.915558 -20.06904 -163.43562
584500000 -2.0207765 -8.6769667 -19.952559 -34.344784 -53.050617 -48.934498 -17.877523 142.18372
594000000 -2.0009158 -36.212879 -19.687431 -133.88637 -52.486607 -140.9144 -17.311068 90.443077
603500000 -2.0107293 -63.943439 -19.723009 124.98573 -52.307858 126.80238 -18.281654 34.980125
613000000 -2.0413797 -92.036751 -19.584621 24.889881 -51.908623 34.191105 -20.82605 -31.348707
622500000 -2.0815036 -120.5337 -19.675333 -78.121155 -52.094337 -60.582172 -22.707767 -118.15009
632000000 -2.1343148 -149.40065 -20.102196 -176.34227 -52.269154 -151.03273 -20.405859 158.35532
641500000 -2.1848357 -178.5249 -19.61071 84.796249 -51.586159 119.11868 -17.716553 94.878029
651000000 -2.2242742 152.20924 -19.591333 -19.575764 -51.510151 23.200949 -16.574924 39.240196
660500000 -2.2450724 123.02086 -20.034985 -119.84369 -51.871853 -68.251648 -17.146479 -14.101727
670000000 -2.243125 94.028999 -19.91234 140.99374 -51.509201 -158.78938 -19.49246 -69.890205
679500000 -2.2246568 65.379433 -19.765772 39.107315 -51.144756 107.61565 -23.957754 -143.56912
689000000 -2.1911962 37.153343 -19.894747 -62.832211 -51.129692 14.806575 -24.290245 103.53091
698500000 -2.1637692 9.1645498 -20.083097 -163.74561 -51.274338 -77.633865 -19.467512 26.42849
708000000 -2.1510665 -18.698687 -20.200706 96.505363 -51.221222 -168.96852 -16.726496 -28.533175
717500000 -2.1461008 -46.551102 -20.083399 -3.1446362 -50.890453 100.03436 -15.68218 -78.689774
727000000 -2.1682138 -74.657646 -19.836109 -104.41299 -50.644909 8.3141584 -16.22135 -129.70589
736500000 -2.2270892 -103.23501 -19.787838 152.84175 -50.429928 -86.424835 -18.759174 175.05127
746000000 -2.2897153 -132.30666 -20.034777 50.991306 -50.405773 -179.26436 -23.637623 103.70063
755500000 -2.3449168 -161.74806 -20.168819 -48.92984 -50.434963 89.083366 -24.572262 -6.9313889
765000000 -2.4074934 168.59033 -20.008701 -149.57396 -50.163601 -2.5090683 -19.732107 -84.089828
774500000 -2.4559181 138.76523 -19.987976 107.58182 -49.977966 -97.206978 -17.149782 -139.59967
784000000 -2.4692562 109.02883 -20.361444 5.8517771 -50.179379 170.33266 -16.653118 171.03087
793500000 -2.4535229 79.701073 -20.516449 -93.10997 -50.253849 80.536987 -17.877558 123.59377
803000000 -2.4275784 50.830395 -20.258856 166.24637 -49.863701 -11.535702 -21.378569 73.385612
812500000 -2.3951907 22.363461 -20.352749 63.071404 -49.944378 -106.33684 -30.208799 -1.6148665
822000000 -2.358201 -5.7254896 -20.704346 -37.310944 -50.092957 162.23891 -26.687284 -155.21631
831500000 -2.3350105 -33.565727 -20.658548 -136.95842 -49.895126 71.306213 -20.424778 146.3252
841000000 -2.3388078 -61.364647 -20.678501 121.7615 -49.868301 -21.255854 -17.974514 99.133484
850500000 -2.3660746 -89.381981 -20.677044 21.756533 -49.770332 -112.35575 -17.688532 53.218067
860000000 -2.4106705 -117.76768 -20.433653 -80.532135 -49.37574 153.84285 -19.578711 7.4400959
869500000 -2.4608436 -146.50328 -20.848965 176.23975 -49.644024 59.506058 -24.820707 -39.168602
879000000 -2.5120325 -175.49872 -21.161268 78.193459 -49.837231 -29.211586 -44.50251 -171.30417
888500000 -2.5545955 155.3459 -20.73752 -22.371315 -49.311565 -121.2681 -24.976137 66.341408
898000000 -2.5738955 126.17554 -20.979414 -126.47091 -49.413673 143.52202 -20.25885 20.59934
907500000 -2.5616858 97.227791 -21.425508 134.60747 -49.769703 53.114277 -18.871881 -22.444855
917000000 -2.5307376 68.720879 -21.185932 35.035732 -49.424725 -37.126347 -19.58976 -63.987762
926500000 -2.4858437 40.665394 -21.250891 -67.537628 -49.375122 -131.10083 -22.852303 -103.44795
936000000 -2.4336596 13.064946 -21.489319 -167.86681 -49.457134 137.99791 -32.498123 -125.22306
945500000 -2.3856647 -14.10474 -21.574642 91.539497 -49.446781 46.27092 -28.57649 -37.686134
955000000 -2.3540251 -41.043415 -21.7847 -8.0144987 -49.631039 -44.781212 -21.517361 -69.190826
964500000 -2.3486934 -67.949615 -21.584795 -107.01607 -49.226814 -134.74088 -18.888891 -109.37616
974000000 -2.3648615 -95.016251 -21.493414 150.67493 -49.057129 130.97246 -18.588634 -151.49066
983500000 -2.4020748 -122.46877 -21.795845 50.621548 -49.349056 39.460529 -20.505215 165.71175
993000000 -2.4502923 -150.32553 -21.637369 -48.677849 -49.193367 -51.447262 -26.057762 121.58427
1002500000 -2.4927688 -178.53352 -21.686098 -150.34587 -49.248455 -144.13728 -42.00922 -70.89151
1012000000 -2.5367777 152.93686 -21.831768 110.78761 -49.327042 125.93428 -23.83013 -136.88814
1021500000 -2.5653794 124.25655 -21.53157 10.384136 -49.111919 33.884121 -19.277983 179.02933
1031000000 -2.5593035 95.618088 -21.706852 -91.642235 -49.201427 -59.560562 -17.57559 136.11494
1040500000 -2.5372834 67.231003 -21.784832 169.95267 -49.270966 -149.59225 -17.669352 92.635757
1050000000 -2.5064063 39.209442 -21.386118 69.142693 -48.826332 119.59398 -19.819904 47.568436
1059500000 -2.4603701 11.508132 -21.528383 -34.066525 -48.966511 24.385395 -25.725313 -0.92345506
1069000000 -2.4183128 -15.819106 -21.87088 -133.35825 -49.251434 -66.064674 -38.256611 -170.77539
1078500000 -2.399879 -42.857105 -21.671934 128.11702 -48.947926 -155.77243 -23.51379 109.69486
1088000000 -2.398437 -69.902992 -21.399601 26.351978 -48.711472 111.49283 -19.145016 62.722603
1097500000 -2.4276304 -97.197845 -21.544878 -75.528008 -48.717445 18.32692 -17.734306 16.957514
1107000000 -2.4795709 -124.85083 -21.614302 -175.07109 -48.882141 -72.422333 -18.322922 -28.588131
1116500000 -2.5427825 -153.05031 -21.428272 84.151703 -48.623146 -164.6687 -20.936274 -76.304146
1126000000 -2.6118073 178.22871 -21.520519 -17.314444 -48.729515 103.89648 -27.0888 -138.71089
1135500000 -2.6736104 149.11963 -21.484589 -116.67948 -48.69062 13.248421 -29.308138 82.471535
1145000000 -2.7182612 119.68263 -21.1915 141.68147 -48.414261 -79.953171 -21.924952 9.1973143
1154500000 -2.7375479 90.194595 -21.398468 39.424328 -48.587711 -172.17418 -18.622189 -39.261917
1164000000 -2.7271721 60.949085 -21.421301 -59.494583 -48.628483 97.749115 -17.465919 -83.598114
1173500000 -2.7007797 32.008343 -21.015118 -161.21832 -48.145451 4.8734512 -18.098742 -126.57478
1183000000 -2.6674781 3.4663408 -21.213511 95.142586 -48.35672 -89.264862 -20.880516 -166.85912
1192500000 -2.630604 -24.599302 -21.532787 -4.7796617 -48.602936 179.11555 -27.52774 163.64047
1202000000 -2.6093857 -52.310562 -21.461943 -104.49747 -48.527267 88.822571 -32.609077 -127.48312
1211500000 -2.6157663 -79.929192 -21.386843 154.56204 -48.452953 -2.9187398 -23.400713 -137.92586
1221000000 -2.6460474 -107.68649 -21.341946 53.087921 -48.375031 -95.458916 -20.029783 -174.58426
1230500000 -2.6989419 -135.70787 -21.475735 -48.455795 -48.460201 172.01706 -19.195702 146.40985
1240000000 -2.7559688 -164.11324 -21.577866 -148.44223 -48.602165 81.252823 -20.215467 107.56909
1249500000 -2.8157954 167.03445 -21.460489 111.08137 -48.403744 -9.8862667 -23.550776 70.442703
1259000000 -2.8768044 137.85204 -21.439564 9.7432537 -48.351578 -102.06552 -32.302353 48.223885
1268500000 -2.9115179 108.47705 -21.410341 -91.384972 -48.37225 166.64665 -31.123495 134.53746
1278000000 -2.9055412 79.166756 -21.45809 167.04373 -48.436729 74.570351 -23.715992 109.11465
1287500000 -2.8745191 50.244598 -21.517965 66.688164 -48.502918 -16.510723 -21.118576 72.988495
1297000000 -2.8340592 21.737526 -21.339056 -34.93816 -48.171738 -109.71239 -20.892248 36.922653
1306500000 -2.780822 -6.2647104 -21.602936 -137.96664 -48.453197 157.132 -22.643181 5.600894
1316000000 -2.7158945 -33.672668 -21.993149 123.05395 -48.91111 67.054291 -26.170563 -9.7565107
1325500000 -2.6750283 -60.654942 -21.800318 24.071424 -48.658348 -23.040102 -26.931517 3.7778997
1335000000 -2.6714709 -87.531738 -21.774231 -77.763817 -48.589951 -115.52592 -23.121151 -3.9997683
1344500000 -2.6795621 -114.43519 -21.9564 -177.54861 -48.738895 153.75142 -20.629929 -32.549355
1354000000 -2.6981323 -141.46429 -21.862791 82.747009 -48.630772 63.032845 -19.917019 -67.547905
1363500000 -2.7404113 -168.78287 -21.856976 -17.763409 -48.675838 -28.768826 -20.984871 -105.06468
1373000000 -2.7962954 163.41003 -21.789801 -117.56483 -48.659466 -119.34828 -24.617882 -143.13928
1382500000 -2.8420694 135.23717 -21.702133 141.66144 -48.532314 148.83377 -35.831741 -173.18834
1392000000 -2.8664865 106.88958 -21.738436 41.637768 -48.700546 57.929268 -30.355894 -53.170162
1401500000 -2.8716354 78.433434 -21.530195 -58.52087 -48.505486 -33.281628 -23.185833 -89.191216
1411000000 -2.8609066 50.04208 -21.502237 -160.4763 -48.50869 -125.97014 -20.680557 -128.26372
1420500000 -2.8285074 21.944784 -21.632029 99.409363 -48.756927 142.90889 -20.573448 -166.71466
1430000000 -2.7735353 -5.7084808 -21.507685 -1.0669951 -48.622833 51.899372 -22.668896 158.43077
1439500000 -2.7227802 -32.870815 -21.631887 -102.57001 -48.776299 -40.01561 -28.028152 137.56114
1449000000 -2.6914315 -59.684223 -21.785839 158.33676 -49.027115 -130.59969 -30.516953 -176.04742
1458500000 -2.6802924 -86.409981 -21.592575 59.053215 -48.795773 139.72728 -23.166506 178.63155
1468000000 -2.6895223 -113.19691 -21.458889 -41.947937 -48.729565 47.522446 -19.524595 146.41154
1477500000 -2.7135894 -140.09422 -21.480564 -142.26701 -48.872009 -43.001633 -17.996752 109.67892
1487000000 -2.7654443 -167.40645 -21.364124 118.17149 -48.806793 -132.92476 -18.032352 71.226334
1496500000 -2.8330178 164.7673 -21.077806 17.764462 -48.520397 135.46109 -19.757351 32.44796
1506000000 -2.8927436 136.51628 -20.914192 -84.118301 -48.505009 42.935673 -23.965712 -4.6928563
1515500000 -2.9475853 107.8791 -20.90975 175.00034 -48.48526 -48.261284 -35.405834 -25.324446
1525000000 -2.9898398 78.915802 -20.731174 74.225555 -48.339535 -139.35339 -30.073606 76.651558
1534500000 -3.0024924 49.803867 -20.662336 -27.632988 -48.342278 127.80365 -23.641171 44.846298
1544000000 -2.9935338 20.84306 -20.634251 -128.41624 -48.297581 37.02961 -21.699978 8.7092924
1553500000 -2.9689746 -7.7746882 -20.510824 129.67909 -48.253723 -55.820129 -22.060373 -25.763077
1563000000 -2.93116 -35.990604 -20.748472 28.209049 -48.581692 -147.36691 -24.546618 -54.792835
1572500000 -2.9015601 -63.811127 -20.716742 -70.514023 -48.44175 122.76472 -29.368904 -62.137741
1582000000 -2.9042299 -91.43026 -20.361158 -171.90724 -48.176441 31.43899 -28.757933 -32.635349
1591500000 -2.9284811 -119.0913 -20.492756 86.053627 -48.379116 -61.453175 -23.983952 -42.992481
1601000000 -2.9600296 -146.86925 -20.456617 -13.259473 -48.433971 -151.18437 -21.467804 -70.639793
1610500000 -3.0095882 -174.92003 -20.167536 -114.72782 -48.101105 116.83103 -20.764906 -101.56198
1620000000 -3.092592 156.54797 -20.219292 143.73654 -48.267582 24.619621 -21.562649 -130.99556
1629500000 -3.1692295 127.53034 -20.053892 43.522141 -48.168774 -65.947548 -23.675917 -153.94293
1639000000 -3.2158098 98.259926 -19.868166 -58.934937 -48.005589 -158.42035 -26.245018 -162.97136
1648500000 -3.2501607 68.814659 -19.976795 -160.47664 -48.097149 109.59811 -26.699892 -161.04341
1658000000 -3.2784891 39.222515 -19.872303 98.81781 -48.093624 18.926657 -25.387331 -168.89603
1667500000 -3.2669284 9.8120995 -19.81061 -3.7344358 -48.048328 -73.987053 -24.709345 174.92288
1677000000 -3.2097239 -19.074625 -20.040787 -105.33275 -48.227474 -165.67873 -24.941183 160.17171
1686500000 -3.1533043 -47.42107 -20.159582 154.83289 -48.328297 103.96567 -25.028742 152.11507
1696000000 -3.1297507 -75.384468 -20.024925 54.620872 -48.230297 13.071748 -23.757065 144.25394
1705500000 -3.1109004 -103.05833 -19.968498 -47.200333 -48.161839 -79.183487 -21.929785 127.43061
1715000000 -3.0892398 -130.51331 -20.094669 -147.84995 -48.369068 -170.31915 -20.735495 103.17612
1724500000 -3.0974104 -157.88959 -19.929005 112.12994 -48.186047 99.143867 -20.63431 75.721886
1734000000 -3.1416302 174.50443 -19.855764 9.6851454 -48.195518 6.3546281 -21.80245 49.433781
1743500000 -3.1958709 146.50285 -20.104977 -90.390121 -48.455624 -84.404007 -24.196577 30.340916
1753000000 -3.2336895 118.28382 -19.773661 170.51491 -48.212925 -173.48405 -26.445086 27.657335
1762500000 -3.2596674 89.881294 -19.581875 67.116737 -48.032318 92.541176 -25.596865 28.856447
1772000000 -3.2987843 61.196896 -19.877285 -33.299248 -48.336491 1.5681102 -23.833817 13.173552
1781500000 -3.3216896 32.427666 -19.542583 -132.88213 -48.085014 -88.190353 -23.463736 -12.436357
1791000000 -3.2910666 3.8288927 -19.49486 123.46964 -48.013298 177.53418 -25.116096 -39.720921
1800500000 -3.243892 -24.385708 -19.818167 23.728437 -48.374825 87.373528 -30.006411 -57.028992
1810000000 -3.2082112 -52.170834 -19.527813 -76.180641 -48.117203 -2.8641319 -33.560608 -8.8339634
1819500000 -3.1822405 -79.719559 -19.598768 -178.62503 -48.21283 -96.633408 -25.965281 -3.5741465
1829000000 -3.1560764 -107.01212 -19.647781 82.595879 -48.309761 174.02771 -22.019426 -29.677944
1838500000 -3.1291661 -133.959 -19.197657 -19.022175 -47.931705 81.576416 -20.328245 -60.008144
1848000000 -3.1416843 -160.87218 -19.365644 -121.98217 -48.211426 -11.731766 -20.167759 -89.387161
1857500000 -3.2042377 171.95561 -19.317087 138.69691 -48.225628 -101.39082 -21.169914 -114.06374
1867000000 -3.2615383 144.47583 -18.955896 35.796352 -47.976616 165.14073 -22.637091 -129.95406
1876500000 -3.3142507 116.73071 -19.193104 -66.987411 -48.281925 71.934174 -23.172741 -137.85744
1886000000 -3.3962331 88.740356 -19.091419 -167.51059 -48.302181 -18.602434 -22.283667 -148.87769
1895500000 -3.4854681 60.315926 -19.022589 88.474442 -48.297512 -113.20901 -21.326258 -168.59055
1905000000 -3.5475981 31.547419 -19.381186 -13.540998 -48.650753 154.52499 -21.200289 166.4313
1914500000 -3.5665793 2.9300554 -19.310917 -115.39796 -48.603989 63.020653 -22.320288 140.03622
1924000000 -3.5692241 -25.441631 -19.700411 139.95879 -49.076241 -31.696293 -25.095774 117.70885
1933500000 -3.5705934 -53.663231 -20.352869 40.048309 -49.74725 -122.48631 -29.451883 115.66598
1943000000 -3.5543213 -81.632774 -20.371716 -60.047882 -49.748089 147.23145 -28.826124 138.76486
1952500000 -3.5132031 -109.27013 -20.770906 -162.7182 -50.127178 54.812721 -25.109375 128.92203
1962000000 -3.4852564 -136.65401 -21.313866 98.587662 -50.85202 -33.947029 -23.541927 102.85938
1971500000 -3.4937391 -163.99435 -21.341295 -0.40995958 -50.926449 -123.46201 -24.301603 74.441406
1981000000 -3.5206528 168.44685 -21.511255 -100.80896 -51.014484 146.05928 -27.816275 55.424458
1990500000 -3.5477617 140.64288 -21.642199 160.03436 -51.024872 57.167957 -30.940987 81.824631
2000000000 -3.5863996 112.61601 -21.64842 60.143497 -51.188862 -32.959488 -24.962343 90.000023
