!Keysight Technologies,N5242B,MY48420967,A.15.65.19
!Date: Sunday, January 22, 2023 22:42:48
!Correction: S11(C  1-Port  ) 
!S21(Off) 
!S12(Off) 
!S22(Off) 
!S2P File: Measurements: S11, S21, S12, S22:
# Hz S  dB   R 50
100000000 -1.3317695 40.515343 -15.709261 96.165901 -78.374016 -8.7005081 -18.285721 80.803574
109500000 -1.2464826 11.142701 -15.411845 -4.0384264 -75.620911 -93.711349 -20.841612 20.453451
119000000 -1.1530362 -17.548763 -15.475356 -109.37701 -74.103508 176.0976 -24.366314 -66.151108
128500000 -1.0783579 -45.930408 -16.081835 149.07339 -74.232712 78.683731 -22.054428 -165.70313
138000000 -1.0701548 -74.501976 -16.171227 49.687057 -73.957565 -12.294522 -18.214993 128.29698
147500000 -1.1197407 -103.38563 -16.062447 -51.626263 -70.830917 -111.26717 -16.029343 74.931816
157000000 -1.1787733 -132.57312 -16.009912 -153.92848 -70.128777 163.68169 -15.389861 23.544779
166500000 -1.2665751 -162.15186 -16.093868 102.95423 -69.03373 65.958878 -16.50285 -28.984987
176000000 -1.38283 167.83817 -16.44663 0.95710599 -69.324814 -23.506498 -19.65205 -85.587578
185500000 -1.475613 137.623 -16.64255 -99.019325 -68.401222 -116.64201 -24.754059 -164.38699
195000000 -1.5129092 107.63279 -16.529049 160.40904 -67.539299 151.74254 -23.484545 83.600128
204500000 -1.5213369 77.990829 -16.46981 57.599476 -66.446754 56.935642 -18.776129 11.999679
214000000 -1.5129491 48.602505 -16.810408 -44.747231 -66.332588 -33.554546 -16.48432 -43.52718
223500000 -1.4752607 19.581173 -17.03915 -144.12309 -65.078407 -130.49248 -15.952501 -95.059311
233000000 -1.4271002 -9.1155233 -16.834137 115.72337 -64.837357 142.06117 -16.819115 -148.1609
242500000 -1.4091867 -37.745655 -16.747107 13.158382 -64.127121 46.368206 -19.225544 150.6792
252000000 -1.4101988 -66.476807 -16.916449 -88.866646 -63.809368 -50.146034 -22.268139 69.428963
261500000 -1.438548 -95.457024 -17.098982 170.42056 -63.243176 -140.93568 -21.163219 -22.753622
271000000 -1.5094551 -124.78687 -17.035225 70.602539 -62.797318 128.78351 -18.064293 -91.985947
280500000 -1.5955974 -154.53174 -16.721218 -31.662134 -62.067188 37.102081 -16.234858 -149.9086
290000000 -1.6705376 175.46629 -16.912237 -135.827 -61.750786 -58.457253 -16.039343 154.68762
299500000 -1.7485297 145.36659 -17.317286 123.78471 -61.27623 -152.69376 -17.375952 98.642929
309000000 -1.8101343 115.21068 -17.208488 24.011726 -59.829266 119.28536 -19.999022 35.728119
318500000 -1.8256167 85.341705 -17.094275 -78.478386 -59.688419 27.008051 -22.492544 -46.815865
328000000 -1.8021024 55.971203 -17.230696 179.29945 -59.859642 -70.793297 -21.271086 -136.67033
337500000 -1.7858413 26.82276 -17.420872 77.69355 -59.203861 -163.42488 -18.903587 153.43732
347000000 -1.7778279 -2.1985056 -17.582344 -22.513195 -58.88316 104.45144 -17.679903 94.407417
356500000 -1.7514373 -31.073242 -17.371952 -122.6189 -58.513626 12.458034 -17.695782 36.633896
366000000 -1.7468876 -60.035847 -17.154003 133.94789 -57.625164 -81.200684 -18.921185 -26.055134
375500000 -1.7957203 -89.36718 -17.50453 30.654329 -57.472912 -176.0737 -20.713278 -98.123962
385000000 -1.8571711 -119.16209 -17.813204 -68.96537 -57.591698 94.06144 -21.070017 -176.93747
394500000 -1.9194803 -149.22665 -17.596624 -168.83051 -56.966885 1.8446251 -19.696283 111.47791
404000000 -1.983225 -179.3756 -17.431644 87.76738 -56.230858 -91.622459 -18.594717 48.693172
413500000 -2.0431237 150.35475 -17.807556 -14.872935 -56.358273 172.71288 -18.841505 -10.511741
423000000 -2.0855684 120.17133 -17.99663 -114.50606 -55.99168 83.873032 -20.64707 -70.67617
432500000 -2.08272 90.45343 -17.889366 144.11632 -55.793613 -7.5366077 -23.710546 -141.78185
442000000 -2.0533066 61.208214 -18.089022 42.158207 -55.677208 -101.96424 -24.950344 124.27348
451500000 -2.0321591 32.350006 -18.177273 -58.453304 -55.407532 164.48686 -22.224064 40.855949
461000000 -2.0071518 3.7575414 -18.292643 -160.51488 -55.172153 71.738876 -20.13534 -22.532951
470500000 -1.9779754 -24.643785 -18.619768 99.584724 -55.230854 -18.57979 -19.606897 -79.203979
480000000 -1.965742 -52.959343 -18.338434 0.26358068 -54.658119 -109.53056 -20.631992 -137.53532
489500000 -1.9869562 -81.520424 -18.188032 -103.95027 -54.286327 154.51176 -23.255056 153.17433
499000000 -2.0327518 -110.46656 -18.70739 154.34851 -54.56303 60.473541 -24.887102 61.683357
508500000 -2.0705605 -139.60629 -18.63941 55.256294 -54.02393 -28.752573 -22.168066 -22.299301
518000000 -2.1049299 -168.88826 -18.466938 -47.918774 -53.728809 -124.44063 -19.504015 -85.257858
527500000 -2.1481504 161.70358 -18.795116 -150.38582 -53.710503 142.96812 -18.517626 -141.02472
537000000 -2.1749427 132.36816 -18.984051 108.43144 -53.549427 50.252026 -19.373142 164.70746
546500000 -2.1694956 103.37957 -19.265259 7.1533065 -53.707779 -41.812897 -22.336725 106.48731
556000000 -2.1435077 74.886948 -19.394863 -92.247208 -53.455166 -132.7289 -27.51162 21.329874
565500000 -2.1120276 46.769196 -19.274736 165.93915 -53.01112 134.41541 -24.99836 -94.865417
575000000 -2.0805984 18.957203 -19.705147 63.677254 -53.054699 40.403778 -20.23539 -163.88283
584500000 -2.0477545 -8.6198101 -19.995316 -34.196247 -53.134369 -48.594982 -18.009832 142.05858
594000000 -2.0284224 -36.162941 -19.730782 -133.76132 -52.480827 -140.59671 -17.436308 90.552734
603500000 -2.0389199 -63.897655 -19.773191 125.1377 -52.322292 127.13245 -18.416964 35.316261
613000000 -2.0711601 -91.998978 -19.630693 25.052656 -52.141251 34.660385 -20.995888 -30.789345
622500000 -2.1110005 -120.50246 -19.722252 -77.971062 -51.974304 -61.150433 -22.930082 -117.94231
632000000 -2.1661096 -149.37416 -20.146969 -176.21417 -52.257072 -150.36586 -20.573347 158.20926
641500000 -2.2171519 -178.49669 -19.658403 84.930298 -51.596489 119.20287 -17.840506 94.830086
651000000 -2.2564366 152.24207 -19.64068 -19.413372 -51.591434 23.352381 -16.681952 39.38871
660500000 -2.277899 123.05742 -20.081942 -119.69103 -51.879848 -67.868011 -17.244507 -13.713099
670000000 -2.2759914 94.067215 -19.959312 141.13792 -51.540482 -158.58124 -19.604582 -69.233253
679500000 -2.2580638 65.426018 -19.820786 39.261688 -51.228058 108.12494 -24.157337 -142.62419
689000000 -2.2243164 37.208694 -19.944998 -62.660236 -51.275536 14.741236 -24.548244 103.34827
698500000 -2.196924 9.2269421 -20.126904 -163.55281 -51.341236 -76.959763 -19.602577 26.214312
708000000 -2.1856949 -18.635408 -20.247839 96.67411 -51.204044 -168.17052 -16.827091 -28.560234
717500000 -2.1814108 -46.486538 -20.129089 -2.9863188 -50.934589 101.05687 -15.771018 -78.524475
727000000 -2.2042522 -74.596687 -19.881271 -104.2453 -50.625179 8.7324123 -16.306755 -129.33398
736500000 -2.26402 -103.17368 -19.835207 153.02623 -50.40089 -85.64843 -18.847212 175.72038
746000000 -2.3282835 -132.25819 -20.079105 51.152508 -50.562523 -178.53479 -23.800379 104.79977
755500000 -2.3846712 -161.70937 -20.211227 -48.746918 -50.49284 90.089432 -24.827595 -6.9203577
765000000 -2.4464068 168.62093 -20.053478 -149.41692 -50.206608 -2.4641862 -19.878393 -84.250031
774500000 -2.4956975 138.78169 -20.037476 107.74541 -49.969364 -96.851402 -17.257679 -139.54808
784000000 -2.5082378 109.04247 -20.408527 6.0334697 -50.265812 170.39838 -16.744724 171.27655
793500000 -2.4916627 79.70459 -20.565742 -92.941223 -50.30756 80.185837 -17.961637 124.0791
803000000 -2.464848 50.836708 -20.30637 166.40111 -49.999859 -11.95724 -21.47226 74.296516
812500000 -2.4320059 22.373795 -20.403673 63.256683 -49.886471 -106.21721 -30.504375 0.73672116
822000000 -2.3943083 -5.7140365 -20.751339 -37.124336 -50.12104 162.51279 -26.929556 -156.45262
831500000 -2.3711743 -33.537933 -20.706917 -136.77737 -49.971497 71.479439 -20.544479 145.89034
841000000 -2.3741119 -61.32333 -20.727821 121.92564 -49.937073 -20.77643 -18.076891 99.006943
850500000 -2.402271 -89.323639 -20.73229 21.939455 -49.786865 -112.45316 -17.785181 53.349751
860000000 -2.4471266 -117.69341 -20.484373 -80.316582 -49.385521 154.05708 -19.67911 7.8843522
869500000 -2.4978564 -146.41505 -20.897612 176.45741 -49.693039 60.487671 -24.9436 -38.067245
879000000 -2.5495651 -175.39606 -21.210392 78.405815 -49.950596 -28.870434 -46.64212 -175.15997
888500000 -2.5916352 155.46384 -20.789457 -22.152943 -49.372822 -121.04704 -25.053635 65.144531
898000000 -2.6113284 126.30288 -21.027193 -126.24508 -49.447147 143.54724 -20.338028 20.100679
907500000 -2.5994964 97.361328 -21.472139 134.8522 -49.856621 53.719791 -18.959597 -22.657873
917000000 -2.5677595 68.856567 -21.233179 35.254875 -49.546631 -36.76244 -19.685482 -63.913624
926500000 -2.5226419 40.796631 -21.297976 -67.276459 -49.451965 -130.68811 -22.972317 -102.95536
936000000 -2.4701242 13.199934 -21.533318 -167.62909 -49.51598 137.75946 -32.572105 -122.56423
945500000 -2.4216349 -13.968571 -21.617405 91.811363 -49.522495 46.251221 -28.423559 -38.979385
955000000 -2.3891988 -40.90839 -21.824219 -7.7744646 -49.636818 -44.648174 -21.511986 -69.915398
964500000 -2.3855381 -67.810432 -21.628561 -106.77602 -49.345184 -134.96806 -18.919437 -109.82532
974000000 -2.4017611 -94.874283 -21.539955 150.93073 -49.141388 131.92993 -18.647339 -151.8165
983500000 -2.4403174 -122.32539 -21.836248 50.870842 -49.390808 39.979366 -20.592052 165.59514
993000000 -2.489783 -150.18645 -21.682886 -48.458775 -49.301132 -50.905792 -26.222811 121.80016
1002500000 -2.5329883 -178.39137 -21.730606 -150.12965 -49.16996 -143.96703 -41.576641 -76.63105
1012000000 -2.579107 153.07292 -21.874928 111.03989 -49.348427 125.56539 -23.78669 -137.63145
1021500000 -2.6076117 124.38911 -21.572535 10.616655 -49.020126 34.619717 -19.281616 178.59196
1031000000 -2.6019552 95.738464 -21.744837 -91.398376 -49.198708 -58.897308 -17.603243 135.78915
1040500000 -2.5796814 67.34687 -21.823336 170.19626 -49.385944 -149.31465 -17.715759 92.39814
1050000000 -2.549726 39.313751 -21.427307 69.35939 -48.914623 118.78927 -19.894535 47.452171
1059500000 -2.5031621 11.602576 -21.56514 -33.832172 -48.955383 24.114998 -25.87755 -0.81588095
1069000000 -2.4614851 -15.728973 -21.910286 -133.12129 -49.236557 -65.480202 -38.129509 -175.04739
1078500000 -2.442322 -42.779099 -21.709894 128.33565 -49.073063 -156.1864 -23.478777 108.9362
1088000000 -2.4417551 -69.835533 -21.44112 26.571486 -48.794769 111.32352 -19.150965 62.224281
1097500000 -2.4712915 -97.126732 -21.583616 -75.31176 -48.82663 18.79591 -17.76325 16.580853
1107000000 -2.5241854 -124.7882 -21.658012 -174.84805 -48.983303 -71.90239 -18.373573 -28.884792
1116500000 -2.5881574 -152.99002 -21.470156 84.376877 -48.709248 -163.62785 -21.027266 -76.550911
1126000000 -2.6572795 178.29887 -21.563814 -17.059614 -48.68623 103.55026 -27.277113 -139.18771
1135500000 -2.719476 149.20175 -21.531599 -116.46138 -48.747753 13.511448 -29.297384 80.69474
1145000000 -2.7653265 119.76865 -21.237514 141.91631 -48.436642 -79.087959 -21.909904 8.448595
1154500000 -2.7842879 90.290024 -21.442619 39.673187 -48.587456 -172.31973 -18.636299 -39.772762
1164000000 -2.7721119 61.057076 -21.463406 -59.251175 -48.597301 98.074097 -17.505955 -84.013046
1173500000 -2.7457185 32.123249 -21.064863 -160.98691 -48.228649 5.3723397 -18.165903 -126.8775
1183000000 -2.7114217 3.5996516 -21.257246 95.427841 -48.385178 -89.791359 -20.998569 -166.94023
1192500000 -2.6737158 -24.461035 -21.57538 -4.4995055 -48.617931 179.17882 -27.741793 164.49352
1202000000 -2.6525321 -52.163033 -21.505323 -104.24297 -48.557991 89.021706 -32.173153 -126.79063
1211500000 -2.6590555 -79.770111 -21.422264 154.82637 -48.500172 -2.8718305 -23.285494 -138.63916
1221000000 -2.6891477 -107.52067 -21.38393 53.352646 -48.415936 -95.652122 -20.000906 -175.28221
1230500000 -2.7434914 -135.53777 -21.512794 -48.162323 -48.458851 172.47609 -19.217779 145.757
1240000000 -2.8015432 -163.93834 -21.616884 -148.15735 -48.524082 81.831886 -20.289715 106.9912
1249500000 -2.8611317 167.20882 -21.498444 111.35984 -48.586914 -9.7502022 -23.712496 70.046295
1259000000 -2.9231229 138.02615 -21.479219 10.020445 -48.390491 -102.08379 -32.749065 49.720242
1268500000 -2.958297 108.65491 -21.449913 -91.115128 -48.386948 166.61053 -30.704903 134.55148
1278000000 -2.952255 79.333412 -21.495842 167.32768 -48.518482 74.433807 -23.588236 108.36342
1287500000 -2.9211931 50.404194 -21.5569 66.95919 -48.594017 -16.118513 -21.081364 72.134247
1297000000 -2.8797038 21.90321 -21.378201 -34.656197 -48.279461 -109.13425 -20.930021 36.059288
1306500000 -2.8253777 -6.1070137 -21.638273 -137.70534 -48.541626 157.58502 -22.772478 4.9437184
1316000000 -2.7601016 -33.514175 -22.027744 123.33077 -48.929871 67.255135 -26.41774 -9.3137379
1325500000 -2.7186127 -60.48584 -21.836536 24.336761 -48.685966 -22.929262 -26.905678 5.6286473
1335000000 -2.7149875 -87.357407 -21.813318 -77.498207 -48.61932 -114.8136 -22.958426 -3.5168626
1344500000 -2.7225313 -114.25978 -21.993078 -177.29131 -48.870384 154.32735 -20.50054 -32.775799
1354000000 -2.7418339 -141.2766 -21.897146 83.024696 -48.68383 63.969223 -19.83074 -68.145149
1363500000 -2.7850528 -168.59314 -21.891895 -17.489971 -48.730595 -28.35734 -20.956642 -105.97308
1373000000 -2.843128 163.60632 -21.830505 -117.29712 -48.687866 -119.47479 -24.690556 -144.50571
1382500000 -2.8900399 135.43637 -21.736837 141.95569 -48.630856 149.6254 -36.519955 -176.40347
1392000000 -2.9143162 107.08364 -21.773777 41.92778 -48.695469 58.257252 -29.979212 -52.01746
1401500000 -2.9208705 78.626976 -21.565598 -58.242081 -48.594196 -32.7458 -22.994608 -89.309319
1411000000 -2.9099886 50.221809 -21.535612 -160.19037 -48.43948 -125.6172 -20.566059 -128.84578
1420500000 -2.8782089 22.124319 -21.672215 99.653671 -48.667397 143.69759 -20.517231 -167.57391
1430000000 -2.8229022 -5.5386915 -21.543179 -0.81929928 -48.568211 52.080685 -22.704248 157.22569
1439500000 -2.7713978 -32.718925 -21.664268 -102.26149 -48.818672 -39.73951 -28.325502 136.23737
1449000000 -2.7399714 -59.536938 -21.816227 158.63335 -49.002739 -129.97389 -30.56916 -172.80725
1458500000 -2.7281961 -86.268982 -21.624428 59.314762 -48.809891 140.00748 -22.994921 179.40024
1468000000 -2.7374396 -113.05594 -21.496098 -41.679657 -48.903732 48.114052 -19.391777 146.39168
1477500000 -2.7625432 -139.95125 -21.510868 -141.99976 -48.909283 -42.789402 -17.89887 109.27044
1487000000 -2.8152077 -167.2596 -21.399477 118.43719 -48.891491 -133.9959 -17.975359 70.540764
1496500000 -2.8833203 164.9127 -21.115398 18.028349 -48.559277 135.94307 -19.758482 31.443716
1506000000 -2.9440444 136.67868 -20.95262 -83.84066 -48.476421 43.242466 -24.102736 -6.0658793
1515500000 -2.9990468 108.05168 -20.944155 175.29198 -48.531242 -48.398643 -36.364559 -26.281361
1525000000 -3.0424349 79.09153 -20.764021 74.498665 -48.380436 -139.87421 -29.586559 77.698044
1534500000 -3.0549855 49.990017 -20.700605 -27.376963 -48.420746 128.50459 -23.409195 44.339813
1544000000 -3.0451138 21.033649 -20.670166 -128.13463 -48.296234 37.172558 -21.578129 7.7427077
1553500000 -3.0205016 -7.5784903 -20.551012 129.99388 -48.301899 -55.281601 -22.04299 -27.12108
1563000000 -2.9822712 -35.789131 -20.779808 28.522034 -48.53278 -147.19127 -24.700867 -56.339592
1572500000 -2.9522979 -63.601513 -20.748697 -70.227264 -48.550472 123.61212 -29.869432 -61.854561
1582000000 -2.9553244 -91.214439 -20.399246 -171.59669 -48.274757 31.812784 -28.656948 -29.844837
1591500000 -2.9795709 -118.87311 -20.528713 86.362701 -48.41848 -61.036076 -23.741354 -42.448639
1601000000 -3.011421 -146.63979 -20.488377 -12.953774 -48.41983 -150.97644 -21.283962 -71.107109
1610500000 -3.0626662 -174.68625 -20.203117 -114.43098 -48.153873 117.237 -20.668465 -102.57574
1620000000 -3.1466551 156.78575 -20.250957 144.05307 -48.290653 24.98896 -21.592216 -132.32716
1629500000 -3.2239692 127.77131 -20.088413 43.819595 -48.154182 -65.767731 -23.89786 -154.94765
1639000000 -3.2715013 98.502327 -19.898031 -58.599808 -48.067993 -158.41786 -26.564663 -161.88739
1648500000 -3.3066363 69.061234 -20.008694 -160.16724 -48.144707 109.96822 -26.649467 -158.55492
1658000000 -3.3350501 39.461006 -19.901674 99.095901 -48.149487 19.464966 -25.090212 -168.08687
1667500000 -3.3230333 10.044138 -19.840874 -3.4047859 -48.057838 -73.778297 -24.446619 173.98958
1677000000 -3.2657132 -18.846207 -20.067225 -105.0313 -48.268406 -165.80345 -24.900763 158.11267
1686500000 -3.2084286 -47.198467 -20.185225 155.13835 -48.375271 104.34123 -25.296156 150.84007
1696000000 -3.1840799 -75.171326 -20.054188 54.897812 -48.211723 13.590669 -24.01647 145.01738
1705500000 -3.16396 -102.84951 -19.996965 -46.906784 -48.192688 -79.08387 -21.987261 128.92551
1715000000 -3.1424928 -130.30518 -20.122553 -147.57658 -48.322342 -170.03102 -20.63081 104.34829
1724500000 -3.1504467 -157.68283 -19.953537 112.41405 -48.179211 99.220078 -20.441412 76.136642
1734000000 -3.194135 174.71088 -19.884029 9.9569998 -48.228241 6.7742267 -21.588289 48.775673
1743500000 -3.24946 146.70895 -20.128048 -90.117928 -48.537254 -84.192886 -24.099535 28.418964
1753000000 -3.2883782 118.4882 -19.803541 170.7843 -48.259033 -173.31982 -26.753206 25.822811
1762500000 -3.3145635 90.093109 -19.606754 67.421867 -48.033791 93.586533 -25.932711 30.072975
1772000000 -3.3540061 61.399742 -19.901272 -33.028694 -48.393692 2.0311701 -23.872465 15.187974
1781500000 -3.3768795 32.628799 -19.56839 -132.63191 -48.120331 -87.972527 -23.293459 -10.866838
1791000000 -3.3458405 4.0280442 -19.518166 123.71897 -48.052505 177.60829 -24.780586 -39.098095
1800500000 -3.2983625 -24.186102 -19.840456 23.959919 -48.435421 87.61068 -29.499382 -59.359848
1810000000 -3.2626815 -51.966011 -19.548796 -75.963081 -48.110485 -2.6992304 -34.424026 -12.18405
1819500000 -3.2353625 -79.512566 -19.627438 -178.42506 -48.291576 -96.636093 -26.257275 -1.7159194
1829000000 -3.2083273 -106.80283 -19.676785 82.766525 -48.350468 174.17194 -22.045078 -27.956604
1838500000 -3.1820035 -133.73543 -19.229799 -18.842312 -47.97451 81.68251 -20.214422 -58.773266
1848000000 -3.1950836 -160.63071 -19.393711 -121.80372 -48.2173 -11.261443 -19.965334 -88.88018
1857500000 -3.2576096 172.20959 -19.352518 138.80022 -48.24765 -101.5935 -20.947554 -114.70923
1867000000 -3.3167362 144.74156 -18.99901 35.906528 -47.977547 165.19064 -22.559633 -131.83687
1876500000 -3.3705461 117.01405 -19.241823 -66.865433 -48.348537 71.994537 -23.409245 -139.37045
1886000000 -3.4534881 89.037941 -19.147434 -167.37735 -48.305172 -19.005768 -22.580305 -148.40729
1895500000 -3.5453835 60.62875 -19.083605 88.620171 -48.347076 -113.11803 -21.444733 -166.97537
1905000000 -3.6081958 31.865114 -19.452244 -13.374576 -48.716209 154.74751 -21.126842 168.11978
1914500000 -3.6278863 3.2509024 -19.395706 -115.14246 -48.640347 63.129074 -22.062853 141.04219
1924000000 -3.6296558 -25.112356 -19.779131 140.31386 -49.106544 -31.807516 -24.709972 117.04024
1933500000 -3.6305039 -53.333977 -20.437222 40.452644 -49.761143 -121.89003 -29.344521 111.36684
1943000000 -3.6143832 -81.306129 -20.451756 -59.537624 -49.869236 148.05516 -29.459711 138.31993
1952500000 -3.5711019 -108.94499 -20.843904 -162.09709 -50.262833 55.626785 -25.349535 131.1264
1962000000 -3.5421071 -136.33473 -21.372999 99.237312 -50.832355 -33.450245 -23.5002 105.01429
1971500000 -3.5502203 -163.67758 -21.388638 0.2598356 -50.869591 -122.98536 -24.04249 75.991051
1981000000 -3.5758545 168.76015 -21.549704 -100.11086 -51.141739 146.67593 -27.301727 55.162956
1990500000 -3.6036944 140.94591 -21.66445 160.71877 -51.178001 57.829117 -31.040951 76.818726
2000000000 -3.6443939 112.9253 -21.661451 60.797352 -51.247334 -31.962666 -25.35202 89.905762
