!Keysight Technologies,N5242B,MY48420967,A.15.65.19
!Date: Saturday, February 04, 2023 03:38:38
!Correction: S11(C  1-Port  ) 
!S21(Off) 
!S12(Off) 
!S22(Off) 
!S2P File: Measurements: S11, S21, S12, S22:
# Hz S  dB   R 50
100000000 -1.2992424 40.363049 -15.804083 96.004791 -78.864853 7.4684491 -17.890934 80.405052
109500000 -1.2283345 11.048035 -15.480882 -4.235208 -76.696762 -103.45282 -20.430809 18.249128
119000000 -1.1562002 -17.832376 -15.548295 -109.65664 -74.130112 162.05731 -23.503805 -69.596169
128500000 -1.0680884 -46.211159 -16.162317 148.84642 -73.932251 74.04879 -21.137123 -165.52043
138000000 -1.0499654 -74.641258 -16.23951 49.533474 -72.425575 -5.9217644 -17.584999 128.98051
147500000 -1.1190698 -103.5853 -16.115557 -51.82066 -73.717026 -107.73754 -15.531569 75.220154
157000000 -1.1848401 -132.88979 -16.050631 -154.22861 -70.974312 162.76985 -14.969533 23.173716
166500000 -1.2588173 -162.4184 -16.13949 102.58025 -69.567688 66.734703 -16.146475 -30.16967
176000000 -1.3861798 167.60007 -16.502743 0.55989069 -69.400246 -29.959526 -19.322935 -87.994667
185500000 -1.4930872 137.28931 -16.707186 -99.394684 -68.233437 -116.07913 -24.105932 -168.54039
195000000 -1.5185452 107.28526 -16.586695 160.05128 -67.67086 149.31223 -22.590824 83.317787
204500000 -1.5268511 77.713135 -16.525219 57.173782 -66.794754 59.78513 -18.198893 12.227691
214000000 -1.5413332 48.265884 -16.874792 -45.233093 -66.817986 -35.357819 -16.049311 -43.703655
223500000 -1.5020179 19.165272 -17.1115 -144.5482 -65.724472 -130.64862 -15.597198 -95.673927
233000000 -1.4374954 -9.4602928 -16.897646 115.29943 -64.618324 139.68919 -16.503687 -149.28696
242500000 -1.4323828 -38.033909 -16.81184 12.685417 -64.07827 44.82188 -18.913824 148.78532
252000000 -1.4526228 -66.864563 -16.996439 -89.357155 -64.174911 -48.173016 -21.811069 66.900146
261500000 -1.4655414 -95.877129 -17.184116 169.97894 -63.177933 -138.95793 -20.646044 -24.046236
271000000 -1.5241072 -125.09811 -17.106678 70.203804 -62.105354 132.53246 -17.648293 -92.843895
280500000 -1.6331303 -154.82858 -16.787975 -32.127583 -61.816963 32.154144 -15.896277 -150.99417
290000000 -1.7173047 175.05421 -16.996151 -136.32373 -61.702038 -59.93642 -15.754649 153.24203
299500000 -1.7719804 144.96791 -17.404337 123.35547 -61.531338 -151.25003 -17.136513 96.721405
309000000 -1.8322213 114.91967 -17.287062 23.536018 -60.179276 115.42809 -19.732729 33.072868
318500000 -1.8691688 85.027855 -17.176056 -78.941071 -59.843632 25.015175 -22.029867 -49.769714
328000000 -1.8404621 55.558594 -17.316286 178.84309 -59.500347 -68.793121 -20.752958 -138.36696
337500000 -1.8087502 26.419912 -17.501221 77.222733 -59.456356 -162.56808 -18.505098 152.21463
347000000 -1.8116959 -2.5626693 -17.666283 -22.992399 -59.028255 107.66096 -17.358017 93.103058
356500000 -1.7953869 -31.445951 -17.455757 -123.10778 -58.919628 14.317274 -17.41194 34.938065
366000000 -1.7747121 -60.425201 -17.235001 133.45177 -57.812893 -80.618141 -18.647703 -28.261166
375500000 -1.8204639 -89.766304 -17.592279 30.110193 -57.760593 -173.74225 -20.398338 -100.73369
385000000 -1.898204 -119.57644 -17.909456 -69.465767 -57.459404 94.040062 -20.669018 -179.2968
394500000 -1.95402 -149.60715 -17.680519 -169.2823 -57.184242 1.83322 -19.30035 109.55075
404000000 -2.0043073 -179.72757 -17.508972 87.255211 -56.271145 -92.200989 -18.247164 46.715492
413500000 -2.0775986 149.96454 -17.891655 -15.467459 -56.301781 173.69424 -18.542326 -12.841372
423000000 -2.1271667 119.76219 -18.092564 -115.04638 -56.430805 83.73481 -20.366171 -73.550644
432500000 -2.1077576 90.112068 -17.980455 143.64717 -55.743652 -10.356094 -23.328009 -145.49352
442000000 -2.0749547 60.897129 -18.165533 41.625065 -55.835968 -104.15677 -24.319288 121.23476
451500000 -2.0723391 31.94429 -18.262403 -59.070427 -55.52422 164.53175 -21.677872 39.044277
461000000 -2.0469122 3.3418739 -18.397205 -161.0681 -55.223274 70.289955 -19.693089 -24.270782
470500000 -2.0002346 -24.970085 -18.710196 99.115379 -55.400639 -20.592073 -19.201725 -81.172134
480000000 -1.9938302 -53.301716 -18.414534 -0.33170196 -54.732029 -110.47395 -20.206011 -139.89337
489500000 -2.0331893 -81.974472 -18.279613 -104.63161 -54.346607 152.75208 -22.708647 150.62427
499000000 -2.0704658 -110.93769 -18.807503 153.73891 -54.63269 60.537991 -24.263632 60.672455
508500000 -2.095469 -140.00618 -18.743603 54.738064 -54.145977 -28.844091 -21.787878 -22.675577
518000000 -2.1425855 -169.30515 -18.550322 -48.398293 -53.75518 -124.38042 -19.245462 -86.198433
527500000 -2.1973288 161.19159 -18.87233 -151.00052 -53.819939 141.78802 -18.300819 -142.68163
537000000 -2.2144828 131.85445 -19.071949 107.74516 -53.757591 49.313229 -19.158981 162.23619
546500000 -2.2007987 102.91838 -19.356134 6.5147958 -53.675964 -43.989868 -22.023685 102.74326
556000000 -2.1849234 74.381691 -19.480917 -92.927979 -53.303982 -134.04649 -26.595104 17.294514
565500000 -2.1591198 46.226665 -19.37055 165.18588 -53.031841 133.97997 -24.304575 -93.316338
575000000 -2.1186104 18.429708 -19.807823 62.981804 -53.08392 39.709408 -19.934086 -163.02904
584500000 -2.0858576 -9.141202 -20.103701 -34.887264 -53.190025 -49.979877 -17.83576 142.0912
594000000 -2.0738795 -36.707878 -19.842329 -134.42744 -52.567112 -140.91943 -17.311785 89.954071
603500000 -2.0786347 -64.439545 -19.880722 124.45335 -52.315117 126.45233 -18.311684 33.975277
613000000 -2.1067822 -92.505348 -19.741215 24.342112 -52.13382 33.875771 -20.833702 -33.123524
622500000 -2.1537137 -121.05323 -19.835716 -78.658012 -52.198265 -60.97443 -22.523228 -120.10356
632000000 -2.2128806 -149.98349 -20.261452 -176.85864 -52.362923 -151.65788 -20.187349 157.56856
641500000 -2.2536616 -179.02092 -19.771437 84.29493 -51.704224 118.48975 -17.57403 94.46373
651000000 -2.292258 151.75896 -19.747595 -20.091583 -51.560978 23.357677 -16.494564 38.879757
660500000 -2.3269646 122.48292 -20.196651 -120.38202 -52.009083 -69.183922 -17.117556 -14.51824
670000000 -2.3182769 93.485893 -20.079756 140.45627 -51.645763 -160.02068 -19.520164 -70.508156
679500000 -2.2855837 64.966331 -19.932568 38.610302 -51.50325 107.08263 -24.031042 -145.09212
689000000 -2.2620738 36.755802 -20.055872 -63.364292 -51.323009 14.667901 -24.148121 101.8376
698500000 -2.2468038 8.6399565 -20.250624 -164.2834 -51.441612 -77.815193 -19.339138 25.625475
708000000 -2.2241163 -19.198412 -20.37443 96.022331 -51.441517 -168.86905 -16.644642 -29.121735
717500000 -2.2106216 -46.894646 -20.244576 -3.6044579 -51.073082 100.18735 -15.629383 -79.243431
727000000 -2.2446048 -75.048508 -19.990532 -104.94991 -50.724819 7.5148191 -16.200901 -130.30244
736500000 -2.3110571 -103.78447 -19.954853 152.26697 -50.489841 -86.641396 -18.77454 174.33127
746000000 -2.3611536 -132.79895 -20.203051 50.497414 -50.652721 -179.99564 -23.675863 102.47562
755500000 -2.4123397 -162.13121 -20.328363 -49.408684 -50.495754 88.693245 -24.458578 -8.2200222
765000000 -2.4905915 168.11046 -20.166538 -150.13838 -50.265919 -2.8406146 -19.64226 -84.768959
774500000 -2.5414357 138.17836 -20.161428 107.01884 -50.094013 -96.673622 -17.102213 -140.14592
784000000 -2.5394392 108.52137 -20.528593 5.3572149 -50.39259 169.28253 -16.637951 170.50984
793500000 -2.5246663 79.243195 -20.676792 -93.620522 -50.42923 79.717216 -17.893766 123.05829
803000000 -2.5083435 50.298553 -20.420965 165.66316 -50.058342 -12.159499 -21.451168 72.665695
812500000 -2.4708841 21.780952 -20.5233 62.482887 -50.037476 -106.24718 -30.424629 -3.8620815
822000000 -2.428925 -6.2307415 -20.873762 -37.881027 -50.2696 161.83551 -26.466917 -156.29852
831500000 -2.4116786 -34.03603 -20.824917 -137.50102 -50.090778 70.797867 -20.314535 145.73999
841000000 -2.42044 -61.909565 -20.845642 121.2318 -50.066757 -21.821352 -17.907364 98.602814
850500000 -2.4429266 -89.951462 -20.841049 21.19714 -49.917149 -112.67677 -17.643122 52.652103
860000000 -2.4842329 -118.28494 -20.603191 -81.122726 -49.567825 153.11388 -19.558472 6.7899084
869500000 -2.5434299 -147.03625 -21.018293 175.66612 -49.879791 58.978268 -24.828827 -40.065628
879000000 -2.5965717 -176.10497 -21.329544 77.617722 -50.005756 -29.987759 -43.717701 -174.32082
888500000 -2.6301429 154.72705 -20.909008 -22.991409 -49.486229 -121.78725 -24.904018 66.440239
898000000 -2.6520061 125.61442 -21.155186 -127.07057 -49.613323 142.75098 -20.223829 20.482738
907500000 -2.646662 96.654488 -21.596951 134.02577 -49.921711 53.337273 -18.853964 -22.678026
917000000 -2.6089406 68.078453 -21.355923 34.423988 -49.608849 -37.668659 -19.586424 -64.26545
926500000 -2.557982 40.043797 -21.428827 -68.144836 -49.548866 -131.47121 -22.874123 -103.85646
936000000 -2.5139804 12.491729 -21.667545 -168.48601 -49.625378 136.98987 -32.674915 -125.93851
945500000 -2.4720316 -14.732993 -21.754614 90.931808 -49.647583 45.429169 -28.527784 -36.903671
955000000 -2.4345236 -41.72184 -21.961695 -8.6180696 -49.756599 -45.147945 -21.484861 -68.982857
964500000 -2.4252779 -68.563904 -21.765989 -107.62692 -49.476307 -135.51405 -18.862511 -109.21572
974000000 -2.4460757 -95.590546 -21.676069 150.06287 -49.292885 130.93671 -18.566486 -151.34492
983500000 -2.4882765 -123.12438 -21.976185 49.996624 -49.521404 39.401428 -20.479177 165.92451
993000000 -2.5347152 -151.02658 -21.823521 -49.348347 -49.340305 -51.4944 -25.997364 121.97461
1002500000 -2.5728037 -179.17044 -21.877117 -150.97481 -49.353867 -144.78745 -42.531704 -71.284233
1012000000 -2.6190248 152.33182 -22.010473 110.17148 -49.453651 125.19021 -23.903484 -136.9798
1021500000 -2.6524253 123.6108 -21.718939 9.7162619 -49.213779 32.94014 -19.321749 179.07698
1031000000 -2.6451168 94.969276 -21.900654 -92.273682 -49.379879 -60.678562 -17.613718 136.25189
1040500000 -2.6115167 66.664574 -21.974268 169.39177 -49.395657 -150.30977 -17.70298 92.873703
1050000000 -2.5829651 38.667831 -21.572218 68.501526 -48.942013 118.60741 -19.856689 47.966484
1059500000 -2.5501103 10.925427 -21.719027 -34.693039 -49.175812 23.920063 -25.77692 -0.075101361
1069000000 -2.5064821 -16.408388 -22.06155 -133.93988 -49.379642 -66.674866 -38.547192 -173.58813
1078500000 -2.4747794 -43.383072 -21.861227 127.53176 -49.191143 -156.27896 -23.533169 109.27667
1088000000 -2.4784222 -70.388763 -21.587048 25.760323 -48.83289 110.35291 -19.152617 62.664936
1097500000 -2.5221367 -97.766747 -21.734041 -76.118706 -48.996334 17.978735 -17.729818 17.094772
1107000000 -2.5672359 -125.4681 -21.803392 -175.64032 -49.033085 -72.911789 -18.299845 -28.27075
1116500000 -2.616631 -153.59293 -21.614573 83.573647 -48.841835 -164.75098 -20.884998 -75.645485
1126000000 -2.6969318 177.68195 -21.707998 -17.913345 -48.835659 102.89552 -27.000652 -136.76103
1135500000 -2.7707593 148.46927 -21.678082 -117.30211 -48.920128 12.335227 -29.763645 83.424133
1145000000 -2.798526 119.04972 -21.384335 141.07709 -48.553459 -80.305077 -22.132475 9.0022631
1154500000 -2.8104858 89.683952 -21.588545 38.82481 -48.703506 -173.50018 -18.760489 -39.411621
1164000000 -2.8159394 60.406254 -21.606314 -60.102093 -48.790798 97.601524 -17.570366 -83.718262
1173500000 -2.7895813 31.358833 -21.213905 -161.86481 -48.37141 4.0226665 -18.179686 -126.6879
1183000000 -2.7425442 2.907398 -21.411201 94.584618 -48.548847 -90.266518 -20.941025 -167.13319
1192500000 -2.7109375 -25.065481 -21.719023 -5.344739 -48.84145 178.93559 -27.585768 162.56708
1202000000 -2.7064679 -52.911682 -21.649961 -105.14838 -48.726337 88.380623 -33.074951 -126.30337
1211500000 -2.7079525 -80.589775 -21.576494 153.93796 -48.526951 -4.0038795 -23.552074 -136.69029
1221000000 -2.7232833 -108.22601 -21.526155 52.522957 -48.538231 -96.00045 -20.125868 -173.47734
1230500000 -2.7872093 -136.26149 -21.65192 -49.080151 -48.661633 170.81224 -19.261749 147.51662
1240000000 -2.8583393 -164.84322 -21.765703 -149.11856 -48.788261 80.647934 -20.250454 108.80545
1249500000 -2.905205 166.26862 -21.656591 110.41817 -48.597565 -10.679635 -23.52799 71.928726
1259000000 -2.9566393 137.19318 -21.625631 9.1053152 -48.619999 -103.02232 -32.004921 50.110893
1268500000 -3.0039275 107.80488 -21.598438 -92.049095 -48.531059 165.1629 -31.23715 133.30769
1278000000 -3.0028756 78.366257 -21.656157 166.34825 -48.595917 73.614342 -23.814354 109.45752
1287500000 -2.954879 49.46104 -21.712608 66.027863 -48.608887 -18.011131 -21.161915 73.735634
1297000000 -2.9065535 21.082588 -21.527555 -35.610649 -48.494648 -110.40339 -20.87324 37.863422
1306500000 -2.8704503 -6.9598265 -21.799442 -138.66331 -48.637127 155.92723 -22.517918 6.5425177
1316000000 -2.8190699 -34.472149 -22.19092 122.39366 -49.042881 66.204643 -25.90963 -9.8313732
1325500000 -2.7605414 -61.427486 -22.00246 23.437963 -48.840023 -23.564184 -26.937737 1.9140856
1335000000 -2.7466345 -88.208847 -21.969606 -78.365501 -48.885101 -116.20969 -23.323809 -4.4673066
1344500000 -2.7755532 -115.14534 -22.153078 -178.2196 -48.987709 153.21326 -20.821045 -32.044758
1354000000 -2.8024945 -142.29201 -22.06143 82.072678 -48.817581 62.116322 -20.071695 -66.410011
1363500000 -2.8236048 -169.62422 -22.050144 -18.390421 -48.906147 -29.654797 -21.099232 -103.25884
1373000000 -2.8727944 162.68143 -21.977859 -118.2635 -48.826466 -120.24097 -24.643017 -140.10831
1382500000 -2.9420049 134.48543 -21.892687 140.87465 -48.765312 148.08275 -35.133499 -164.52718
1392000000 -2.9690828 106.03253 -21.947149 40.882179 -48.83987 57.749798 -30.652962 -57.262814
1401500000 -2.9471996 77.645683 -21.74073 -59.233757 -48.67136 -34.170746 -23.388447 -89.828476
1411000000 -2.934659 49.368137 -21.703646 -161.20148 -48.766113 -127.00311 -20.821354 -127.90084
1420500000 -2.926419 21.226927 -21.841961 98.644165 -48.899372 142.17554 -20.63747 -165.6201
1430000000 -2.8655496 -6.475781 -21.723396 -1.7711294 -48.83857 51.126183 -22.602991 160.15315
1439500000 -2.79653 -33.557892 -21.846872 -103.2337 -48.960999 -41.181889 -27.568615 139.50603
1449000000 -2.7804623 -60.321651 -21.996874 157.68507 -49.200241 -131.29582 -30.306559 179.03038
1458500000 -2.7871435 -87.153313 -21.802706 58.382 -49.043083 138.85039 -23.419043 177.15131
1468000000 -2.7831047 -113.96822 -21.669533 -42.603058 -48.944389 47.276165 -19.752735 146.29573
1477500000 -2.7942374 -140.77188 -21.677635 -142.92719 -49.073811 -43.905884 -18.178389 110.29334
1487000000 -2.860512 -168.13322 -21.569035 117.49355 -48.956944 -134.01364 -18.165827 72.479561
1496500000 -2.9367995 163.92738 -21.287224 17.063774 -48.746368 135.07532 -19.813772 34.398724
1506000000 -2.9754007 135.76074 -21.123928 -84.778931 -48.645473 42.647488 -23.867306 -1.6544518
1515500000 -3.0260034 107.23014 -21.109943 174.30782 -48.758759 -48.974319 -34.236683 -19.392378
1525000000 -3.0889971 78.181381 -20.935209 73.501663 -48.618534 -140.70042 -30.4587 73.132805
1534500000 -3.0969067 49.004444 -20.878761 -28.306288 -48.550671 127.23017 -23.861778 44.795197
1544000000 -3.0686111 20.155066 -20.841127 -129.06119 -48.514797 35.988483 -21.793537 9.7848587
1553500000 -3.0535524 -8.3987122 -20.715385 128.96051 -48.501495 -56.336342 -21.99688 -24.003563
1563000000 -3.0338526 -36.73814 -20.958763 27.496973 -48.707279 -148.18022 -24.191277 -52.678852
1572500000 -2.9962666 -64.604958 -20.929707 -71.189156 -48.72636 122.6799 -28.463411 -62.821793
1582000000 -2.986742 -92.112968 -20.568867 -172.57991 -48.383755 30.528774 -28.783655 -38.615124
1591500000 -3.0228198 -119.7795 -20.699867 85.351082 -48.573315 -62.493637 -24.362661 -44.823994
1601000000 -3.0683019 -147.71117 -20.664169 -14.011552 -48.57692 -151.79114 -21.758564 -70.41124
1610500000 -3.1068718 -175.80409 -20.387535 -115.42913 -48.351742 116.19985 -20.89802 -100.18783
1620000000 -3.1777365 155.7543 -20.427456 143.04868 -48.495693 24.399323 -21.472305 -129.00613
1629500000 -3.2668684 126.73454 -20.262962 42.757298 -48.336433 -66.379189 -23.261093 -152.38417
1639000000 -3.319257 97.365868 -20.083279 -59.68475 -48.248249 -159.42775 -25.588976 -164.52196
1648500000 -3.3373661 67.926529 -20.198093 -161.18575 -48.355747 109.25517 -26.540026 -165.793
1658000000 -3.3598454 38.414886 -20.083376 98.103096 -48.308216 18.254921 -25.736378 -171.67471
1667500000 -3.3611135 8.9939032 -20.025183 -4.4623156 -48.243748 -74.563637 -25.070141 175.07147
1677000000 -3.3082583 -19.957119 -20.259064 -106.05742 -48.402569 -166.91801 -24.974274 161.94206
1686500000 -3.2447383 -48.303616 -20.374619 154.13853 -48.559021 103.394 -24.676689 152.6944
1696000000 -3.2235215 -76.226852 -20.242481 53.894348 -48.397552 12.184459 -23.429781 142.10086
1705500000 -3.2073812 -103.9091 -20.184559 -47.949703 -48.447636 -79.960693 -21.889385 124.37512
1715000000 -3.1822555 -131.39371 -20.310873 -148.60571 -48.511246 -171.07655 -20.935572 100.60001
1724500000 -3.1965563 -158.78116 -20.148136 111.35283 -48.360596 98.233849 -20.988039 74.339729
1734000000 -3.2451775 173.58028 -20.084408 8.949358 -48.353786 5.6487379 -22.189882 49.770088
1743500000 -3.2894518 145.54625 -20.319185 -91.101944 -48.683151 -84.399841 -24.380337 32.858372
1753000000 -3.3226457 117.38065 -19.994217 169.7357 -48.449135 -174.45961 -26.037052 29.874323
1762500000 -3.359529 89.007156 -19.812206 66.376068 -48.265732 92.033676 -25.121666 27.016487
1772000000 -3.3985641 60.24699 -20.106731 -34.001926 -48.568073 1.2483937 -23.711329 9.9066725
1781500000 -3.4008293 31.505579 -19.764212 -133.59091 -48.305138 -88.972931 -23.608761 -15.390261
1791000000 -3.3725231 3.0093627 -19.720676 122.74405 -48.250568 177.09093 -25.481817 -41.606796
1800500000 -3.3507721 -25.261251 -20.045456 23.006847 -48.574356 86.753296 -30.511246 -55.858959
1810000000 -3.3097134 -53.145359 -19.756212 -76.854904 -48.363308 -4.0197287 -32.895866 -8.2648325
1819500000 -3.2595203 -80.613403 -19.826525 -179.28224 -48.504528 -97.140182 -25.861713 -6.68788
1829000000 -3.2441134 -107.78917 -19.865509 81.903984 -48.500374 173.09982 -22.186539 -32.395576
1838500000 -3.2427771 -134.80569 -19.425825 -19.739201 -48.142769 81.133034 -20.651978 -62.046616
1848000000 -3.2445183 -161.84523 -19.593355 -122.57556 -48.403568 -12.299429 -20.593199 -90.404083
1857500000 -3.2849643 171.05765 -19.531593 138.10265 -48.379238 -102.15128 -21.612537 -113.56327
1867000000 -3.3512421 143.67584 -19.162079 35.194923 -48.120461 164.48981 -22.859835 -127.88645
1876500000 -3.4223087 115.85605 -19.388983 -67.627876 -48.52356 71.164909 -23.027531 -136.42047
1886000000 -3.498435 87.777214 -19.282024 -168.18687 -48.482765 -19.617109 -22.092487 -149.80412
1895500000 -3.5695622 59.413227 -19.20899 87.756516 -48.442635 -113.62295 -21.347279 -170.71246
1905000000 -3.6286907 30.694523 -19.547049 -14.376595 -48.790131 154.07439 -21.473877 164.33562
1914500000 -3.6613171 2.0474267 -19.488688 -116.3626 -48.754196 61.902782 -22.809641 139.03079
1924000000 -3.6697519 -26.390205 -19.88069 138.95161 -49.253559 -33.056683 -25.683352 119.28445
1933500000 -3.6602387 -54.64241 -20.533831 38.925125 -50.018963 -123.47948 -29.450796 120.89253
1943000000 -3.6388886 -82.541656 -20.560839 -61.363594 -49.8937 145.7137 -28.255264 137.74687
1952500000 -3.6131034 -110.12434 -20.990267 -164.11771 -50.450104 53.181519 -25.118694 125.72866
1962000000 -3.603977 -137.62363 -21.557215 97.14003 -50.980923 -36.104847 -23.934525 100.1959
1971500000 -3.5967073 -165.043 -21.62249 -1.7848481 -51.072655 -124.75634 -25.020214 73.360161
1981000000 -3.6027079 167.493 -21.802736 -102.02439 -51.319031 144.93706 -28.847843 59.090851
1990500000 -3.6483574 139.75087 -21.937691 158.84845 -51.436378 55.487377 -30.322254 90.193962
2000000000 -3.7087424 111.60212 -21.955599 58.9804 -51.524361 -34.08284 -24.364494 89.776985
