!Keysight Technologies,N5242B,MY48420967,A.15.65.19
!Date: Saturday, February 04, 2023 05:47:59
!Correction: S11(C  1-Port  ) 
!S21(Off) 
!S12(Off) 
!S22(Off) 
!S2P File: Measurements: S11, S21, S12, S22:
# Hz S  dB   R 50
100000000 -1.3563641 40.294762 -15.769221 95.863358 -80.995262 2.1599448 -18.529602 81.777931
109500000 -1.2851467 10.962188 -15.473086 -4.4383502 -76.613594 -98.518417 -21.261364 20.751936
119000000 -1.2135479 -17.919708 -15.556419 -109.79029 -74.058121 176.98207 -24.82597 -68.719025
128500000 -1.1240808 -46.295742 -16.169771 148.76088 -74.32402 77.251266 -22.018402 -167.98814
138000000 -1.1057935 -74.70356 -16.249514 49.402271 -73.929352 -10.697787 -18.14868 127.5315
147500000 -1.1744045 -103.62579 -16.142418 -51.974503 -71.095726 -111.39046 -16.008289 74.809097
157000000 -1.2384104 -132.89853 -16.09498 -154.27045 -70.433022 165.48776 -15.425493 23.745193
166500000 -1.3101723 -162.39113 -16.181305 102.65542 -69.237648 69.492905 -16.600586 -28.498083
176000000 -1.4360316 167.65991 -16.52894 0.64139521 -69.591141 -28.627272 -19.859917 -84.899582
185500000 -1.5407525 137.37256 -16.729801 -99.376053 -68.055283 -118.74518 -25.205359 -164.77684
195000000 -1.5632547 107.38689 -16.619097 160.07968 -67.212654 148.88264 -23.597612 81.408745
204500000 -1.5695372 77.825111 -16.5602 57.270275 -66.433868 60.611782 -18.783854 11.021463
214000000 -1.5826217 48.383034 -16.899952 -45.080948 -66.803078 -44.503826 -16.509142 -43.890228
223500000 -1.5412483 19.273912 -17.132315 -144.44426 -65.720009 -127.51334 -16.007751 -95.080765
233000000 -1.4757221 -9.3644514 -16.922754 115.37653 -64.849411 141.32462 -16.921162 -147.85597
242500000 -1.4706229 -37.949051 -16.841316 12.769879 -63.962231 45.44582 -19.422798 151.19952
252000000 -1.4909444 -66.79937 -17.015038 -89.248055 -63.312668 -43.6488 -22.609056 69.185287
261500000 -1.5049733 -95.835823 -17.194765 170.06541 -63.094189 -143.173 -21.381763 -24.111305
271000000 -1.5642607 -125.06627 -17.128778 70.209076 -62.173347 130.13034 -18.167299 -92.987259
280500000 -1.6756437 -154.81114 -16.822393 -32.09285 -61.552113 36.022644 -16.318642 -150.49144
290000000 -1.7597963 175.06334 -17.023623 -136.24068 -61.694706 -55.642914 -16.128185 154.4158
299500000 -1.8153306 144.97382 -17.422333 123.41367 -61.040688 -151.3038 -17.495617 98.634407
309000000 -1.8772413 114.92139 -17.309286 23.592939 -60.764839 116.5479 -20.172771 35.858128
318500000 -1.9137959 85.035339 -17.210934 -78.900116 -59.717381 23.386944 -22.755108 -47.120541
328000000 -1.8848057 55.578274 -17.349573 178.91505 -59.455002 -69.848503 -21.460325 -137.55559
337500000 -1.8549639 26.454306 -17.530745 77.311401 -59.628872 -163.90271 -19.030025 152.75565
347000000 -1.8586191 -2.5140204 -17.701303 -22.957844 -59.104553 107.1827 -17.797487 94.020905
356500000 -1.8433373 -31.39057 -17.495531 -123.00141 -58.446545 15.504379 -17.82972 36.424408
366000000 -1.8247309 -60.356571 -17.277773 133.57802 -57.768654 -80.973412 -19.095896 -26.057444
375500000 -1.8728236 -89.683533 -17.621132 30.270811 -57.798477 -174.86563 -20.944483 -98.249168
385000000 -1.9520402 -119.49123 -17.935177 -69.370094 -57.635212 93.751755 -21.281862 -177.57094
394500000 -2.0088582 -149.51958 -17.721052 -169.21165 -57.008724 1.8005482 -19.852156 110.80236
404000000 -2.0615947 -179.64581 -17.554193 87.392433 -56.641464 -93.289604 -18.723928 48.256405
413500000 -2.1351922 150.04529 -17.928947 -15.267534 -56.494358 173.58487 -18.970203 -10.614611
423000000 -2.1860554 119.83609 -18.123186 -114.88959 -56.391041 82.831711 -20.816128 -70.392532
432500000 -2.1664941 90.176262 -18.01322 143.76506 -55.933388 -9.3458891 -23.99445 -141.36874
442000000 -2.1330924 60.95681 -18.205015 41.777378 -55.948742 -104.47974 -25.329327 123.38187
451500000 -2.1300266 32.009926 -18.307774 -58.865227 -55.377438 163.93872 -22.435722 39.477489
461000000 -2.1051507 3.4066744 -18.42944 -160.88185 -55.286896 71.604851 -20.265434 -23.547358
470500000 -2.0589328 -24.893238 -18.740383 99.276878 -55.37878 -19.851879 -19.704264 -79.845825
480000000 -2.0519412 -53.217957 -18.457121 -0.16129202 -54.854141 -110.08273 -20.721949 -137.7115
489500000 -2.0917666 -81.874199 -18.32093 -104.39053 -54.256306 153.00179 -23.391832 153.61006
499000000 -2.1294723 -110.81604 -18.835356 154.00581 -54.695686 60.8866 -25.205175 62.044605
508500000 -2.1556129 -139.86841 -18.763556 54.907341 -54.23267 -29.333593 -22.480639 -22.978041
518000000 -2.2012854 -169.15768 -18.594492 -48.363564 -53.712475 -124.35335 -19.760424 -86.135773
527500000 -2.2573102 161.35571 -18.932018 -150.77985 -53.701538 142.50995 -18.744688 -141.87093
537000000 -2.2751381 132.02979 -19.119881 108.06002 -53.691605 50.487263 -19.585073 163.89452
546500000 -2.2611282 103.09858 -19.393192 6.8230863 -53.738762 -42.52018 -22.539219 105.63804
556000000 -2.2446904 74.572319 -19.521778 -92.650948 -53.572376 -134.07088 -27.670645 20.283831
565500000 -2.2186711 46.419258 -19.412857 165.53366 -53.147327 133.55431 -25.124781 -95.355011
575000000 -2.1781585 18.632635 -19.840284 63.317501 -53.157501 40.386921 -20.401129 -164.15875
584500000 -2.1465356 -8.9389753 -20.125738 -34.603161 -53.23093 -49.082039 -18.202599 141.79347
594000000 -2.1354511 -36.503101 -19.870277 -134.19157 -52.635773 -140.83949 -17.66338 90.267891
603500000 -2.1418161 -64.232956 -19.917091 124.72543 -52.367168 126.30786 -18.687895 34.921005
613000000 -2.1711113 -92.298065 -19.775499 24.651268 -52.114738 35.07122 -21.321615 -31.674221
622500000 -2.2204905 -120.83672 -19.864258 -78.313026 -52.270733 -60.884838 -23.147459 -119.70344
632000000 -2.2806797 -149.77008 -20.288328 -176.57648 -52.553318 -151.38077 -20.642879 157.04378
641500000 -2.3229394 -178.81525 -19.801826 84.563423 -51.822651 118.85185 -17.917061 94.290077
651000000 -2.3631947 151.96851 -19.780426 -19.784595 -51.67931 23.177345 -16.792933 39.235416
660500000 -2.3981273 122.68976 -20.221651 -120.08569 -52.049561 -67.82193 -17.39636 -13.574731
670000000 -2.3894074 93.687149 -20.106358 140.7455 -51.639114 -159.84001 -19.839014 -68.810501
679500000 -2.3563619 65.161163 -19.969229 38.903824 -51.376858 107.87957 -24.618267 -142.59239
689000000 -2.3323278 36.951698 -20.089787 -63.027004 -51.3862 14.913708 -24.826149 100.85591
698500000 -2.3172462 8.8483267 -20.278446 -163.95778 -51.471573 -77.627213 -19.69681 24.801943
708000000 -2.2947578 -18.989229 -20.398832 96.331825 -51.37413 -169.27589 -16.910856 -29.354279
717500000 -2.2823029 -46.680813 -20.274174 -3.3368151 -51.022827 100.40913 -15.869118 -78.966217
727000000 -2.3173902 -74.820175 -20.02886 -104.64553 -50.776371 7.5685248 -16.433292 -129.50177
736500000 -2.3858943 -103.53998 -19.989708 152.63124 -50.578266 -86.745163 -19.025166 175.88063
746000000 -2.4380441 -132.55273 -20.2355 50.841442 -50.59074 -179.72641 -24.131504 104.95338
755500000 -2.4904315 -161.87723 -20.357094 -49.11134 -50.668697 89.169212 -25.100798 -8.5901947
765000000 -2.5700171 168.36484 -20.200085 -149.83772 -50.362244 -3.4453967 -19.998032 -85.345222
774500000 -2.6211894 138.43887 -20.194828 107.38588 -50.226406 -96.822784 -17.369209 -140.12929
784000000 -2.6191578 108.77788 -20.558056 5.7277994 -50.344021 170.06297 -16.863155 171.03743
793500000 -2.6041424 79.501709 -20.70574 -93.301781 -50.453205 79.702988 -18.104563 124.16709
803000000 -2.5865169 50.553936 -20.456539 165.97737 -50.123936 -12.079988 -21.681894 74.895241
812500000 -2.5487182 22.043535 -20.559189 62.883389 -50.088657 -106.3824 -31.166229 2.0869393
822000000 -2.5058303 -5.9627681 -20.901924 -37.467308 -50.239002 161.90094 -27.021173 -159.18852
831500000 -2.489306 -33.753063 -20.85681 -137.12242 -50.173527 71.268364 -20.602406 144.70355
841000000 -2.4986393 -61.618328 -20.878071 121.58547 -50.001308 -21.381126 -18.15243 98.348663
850500000 -2.5216403 -89.638382 -20.884739 21.565868 -49.907467 -112.35886 -17.880346 53.054688
860000000 -2.5638239 -117.94309 -20.64509 -80.696289 -49.577568 154.55428 -19.789072 7.9909501
869500000 -2.6237428 -146.67094 -21.053316 176.11632 -49.841366 59.869629 -25.093597 -37.119579
879000000 -2.6780756 -175.7179 -21.359131 78.018707 -50.093155 -29.086235 -49.66946 176.90598
888500000 -2.7120724 155.13911 -20.949776 -22.566631 -49.47953 -121.16327 -25.138998 63.519974
898000000 -2.7341225 126.04587 -21.189123 -126.57108 -49.686546 143.52176 -20.444262 19.33692
907500000 -2.7283049 97.098129 -21.628851 134.51352 -50.035408 53.205959 -19.081211 -23.032902
917000000 -2.6892419 68.535263 -21.389748 34.903114 -49.623466 -37.283661 -19.829367 -63.914692
926500000 -2.6380792 40.516953 -21.457024 -67.648544 -49.52322 -131.08911 -23.146181 -102.30399
936000000 -2.592679 12.974895 -21.696671 -167.97379 -49.664509 137.38809 -32.680019 -118.77271
945500000 -2.5501606 -14.233568 -21.774521 91.463196 -49.6693 45.997852 -28.215004 -40.707325
955000000 -2.5126917 -41.214993 -21.984777 -8.1278419 -49.792355 -45.163822 -21.520607 -70.824394
964500000 -2.5037003 -68.049271 -21.789782 -107.14902 -49.505035 -134.82906 -18.983168 -110.35016
974000000 -2.5257525 -95.060822 -21.698711 150.59731 -49.223076 131.254 -18.741364 -151.96982
983500000 -2.5699501 -122.58205 -21.995405 50.543606 -49.533653 39.436626 -20.722172 165.81874
993000000 -2.6183004 -150.48396 -21.84334 -48.822056 -49.4095 -51.007587 -26.422935 123.03847
1002500000 -2.659076 -178.63272 -21.890806 -150.4711 -49.426308 -144.40842 -41.458561 -88.076714
1012000000 -2.7072535 152.86502 -22.031864 110.68912 -49.553474 125.06042 -23.813595 -139.14888
1021500000 -2.7425611 124.12035 -21.738214 10.228057 -49.174778 33.540192 -19.356144 177.77744
1031000000 -2.7356598 95.452576 -21.912573 -91.725143 -49.419113 -60.195263 -17.703106 135.34952
1040500000 -2.7030694 67.123222 -21.986778 169.84753 -49.460526 -149.74098 -17.848013 92.246254
1050000000 -2.6731088 39.106735 -21.590586 68.982071 -49.046837 118.5033 -20.076345 47.743443
1059500000 -2.6396172 11.347221 -21.733341 -34.162838 -49.191128 24.376247 -26.220661 0.48508272
1069000000 -2.5952284 -16.006704 -22.07612 -133.43933 -49.457626 -65.959389 -38.192707 174.6942
1078500000 -2.5632555 -42.989479 -21.875027 127.98771 -49.183392 -155.99841 -23.43335 107.15865
1088000000 -2.5675859 -69.99778 -21.602798 26.203474 -48.870613 111.09393 -19.164837 61.291412
1097500000 -2.6119924 -97.363724 -21.753967 -75.680916 -49.05827 18.256458 -17.81197 16.042528
1107000000 -2.6583374 -125.0523 -21.827896 -175.17636 -49.128719 -71.990829 -18.441662 -29.086042
1116500000 -2.7093089 -153.16032 -21.635529 84.0765 -48.846569 -164.19186 -21.118315 -76.277222
1126000000 -2.7920148 178.13434 -21.723061 -17.4424 -48.944176 103.39953 -27.516844 -137.8481
1135500000 -2.866729 148.93823 -21.697824 -116.81156 -48.965591 12.806756 -29.743507 78.62796
1145000000 -2.8958964 119.53352 -21.411919 141.59734 -48.604874 -79.675026 -22.089066 7.0277472
1154500000 -2.9077542 90.177483 -21.604256 39.372257 -48.791901 -173.05826 -18.792618 -40.766026
1164000000 -2.912113 60.915329 -21.624971 -59.607635 -48.70499 97.32473 -17.67 -84.76487
1173500000 -2.8848844 31.881708 -21.240982 -161.33513 -48.359077 4.7168021 -18.353668 -127.42218
1183000000 -2.8363392 3.447027 -21.437071 95.142967 -48.570137 -89.731323 -21.231176 -167.255
1192500000 -2.803396 -24.518339 -21.735691 -4.7826071 -48.868275 179.49449 -28.106905 164.87584
1202000000 -2.7985299 -52.341091 -21.668242 -104.58724 -48.733009 88.854263 -32.001675 -125.14569
1211500000 -2.7987435 -79.996567 -21.595619 154.49904 -48.703575 -2.4971428 -23.281137 -138.55522
1221000000 -2.8151984 -107.61172 -21.553072 53.08424 -48.53083 -95.213264 -20.064367 -175.20592
1230500000 -2.8787699 -135.61436 -21.67676 -48.463722 -48.550354 172.41238 -19.32653 145.98906
1240000000 -2.9530194 -164.16975 -21.784409 -148.50221 -48.734566 80.968605 -20.437571 107.50188
1249500000 -3.0020878 166.96513 -21.673523 111.0309 -48.663933 -10.282517 -23.918844 71.176163
1259000000 -3.0543864 137.90741 -21.643599 9.7059393 -48.612358 -102.39522 -32.966614 54.178463
1268500000 -3.1034863 108.5349 -21.616188 -91.423347 -48.483467 165.64777 -30.301142 133.15852
1278000000 -3.1027853 79.091087 -21.665798 166.98427 -48.606182 73.824234 -23.507326 107.51073
1287500000 -3.0553284 50.188915 -21.723658 66.639488 -48.736092 -17.135881 -21.085684 71.66684
1297000000 -3.0053611 21.806704 -21.544367 -34.98077 -48.486198 -109.53082 -20.974148 35.864605
1306500000 -2.968333 -6.2387791 -21.804729 -138.00153 -48.673851 156.56514 -22.841082 5.1082234
1316000000 -2.914887 -33.757195 -22.196486 122.97715 -49.057137 67.258484 -26.455076 -8.5643911
1325500000 -2.8553598 -60.711319 -22.008135 24.016127 -48.944778 -22.940836 -26.829617 6.0019665
1335000000 -2.841701 -87.491333 -21.979416 -77.790352 -48.782623 -115.4358 -22.932152 -3.5344779
1344500000 -2.8701308 -114.41043 -22.159277 -177.64223 -48.909027 153.04793 -20.526188 -32.733093
1354000000 -2.899085 -141.55072 -22.066624 82.675468 -48.92028 62.793575 -19.890759 -67.922455
1363500000 -2.922343 -168.87314 -22.058994 -17.824602 -48.803589 -27.965149 -21.05336 -105.4323
1373000000 -2.9725931 163.43129 -21.987118 -117.67152 -48.901917 -119.35777 -24.843838 -143.24333
1382500000 -3.0446796 135.24982 -21.905626 141.47717 -48.720638 148.90556 -36.859161 -169.85957
1392000000 -3.0747042 106.7866 -21.955507 41.494244 -48.965118 57.88586 -29.754162 -54.467705
1401500000 -3.0539186 78.377647 -21.745106 -58.628048 -48.758621 -33.339733 -22.940611 -90.310318
1411000000 -3.0411217 50.083672 -21.712126 -160.60901 -48.677555 -125.93629 -20.554028 -129.35376
1420500000 -3.0323868 21.92589 -21.857315 99.223396 -48.90881 142.89848 -20.529034 -167.75748
1430000000 -2.9707708 -5.8051825 -21.735456 -1.1270479 -48.811127 51.588085 -22.71101 157.41074
1439500000 -2.9003222 -32.899036 -21.850809 -102.5787 -49.00206 -40.7915 -28.260244 136.9855
1449000000 -2.8831007 -59.677841 -21.996737 158.30032 -49.211117 -130.89824 -30.415085 -173.94171
1458500000 -2.8889875 -86.507927 -21.810917 58.96133 -49.040035 139.91635 -23.015955 178.75456
1468000000 -2.8858643 -113.32236 -21.680767 -41.968105 -48.948357 48.004971 -19.437073 146.11769
1477500000 -2.8976052 -140.11575 -21.684731 -142.29643 -49.010715 -42.799969 -17.960222 109.27612
1487000000 -2.9645743 -167.45203 -21.572226 118.09193 -49.024303 -134.35146 -18.052307 70.827026
1496500000 -3.0429461 164.6232 -21.295208 17.655045 -48.703945 135.16 -19.853718 32.115734
1506000000 -3.0840735 136.47523 -21.132607 -84.167358 -48.713634 42.943016 -24.22382 -4.5359378
1515500000 -3.1365385 107.97334 -21.115013 174.942 -48.657543 -48.695038 -36.305908 -19.236673
1525000000 -3.2010276 78.939667 -20.94198 74.070953 -48.511028 -139.73741 -29.35146 75.230301
1534500000 -3.2103934 49.770081 -20.890224 -27.720274 -48.518162 128.17619 -23.344679 43.361885
1544000000 -3.1807432 20.926569 -20.853294 -128.44815 -48.553692 36.995602 -21.540222 7.3222308
1553500000 -3.1654849 -7.6169691 -20.728661 129.65071 -48.436386 -55.52597 -21.994448 -27.109396
1563000000 -3.1447794 -35.948566 -20.964069 28.18029 -48.774223 -148.00803 -24.586525 -55.887039
1572500000 -3.1056616 -63.805389 -20.939226 -70.566414 -48.72105 122.65258 -29.527094 -61.708145
1582000000 -3.0949717 -91.294128 -20.584362 -171.91257 -48.464321 31.162268 -28.519939 -31.946226
1591500000 -3.1311698 -118.93639 -20.704903 86.069855 -48.60527 -61.322689 -23.761463 -43.650776
1601000000 -3.1775222 -146.84216 -20.667891 -13.336122 -48.560043 -151.41757 -21.320663 -71.755684
1610500000 -3.2171681 -174.9088 -20.386295 -114.76764 -48.31424 116.49445 -20.693617 -102.83968
1620000000 -3.290621 156.67848 -20.431747 143.72606 -48.439175 24.926638 -21.581348 -132.22255
1629500000 -3.382257 127.68739 -20.268364 43.471554 -48.329826 -65.97583 -23.802561 -154.55705
1639000000 -3.4367332 98.327866 -20.089769 -58.922997 -48.258606 -158.69377 -26.327595 -161.94434
1648500000 -3.4568806 68.890411 -20.19227 -160.47832 -48.369915 110.199 -26.439514 -159.89246
1658000000 -3.4802155 39.37492 -20.082708 98.798439 -48.263268 18.535448 -25.005913 -169.58904
1667500000 -3.4815476 9.9440317 -20.023571 -3.7224784 -48.268688 -73.783897 -24.414339 172.65678
1677000000 -3.4272089 -19.025656 -20.248758 -105.33456 -48.443993 -166.17538 -24.880116 156.96643
1686500000 -3.3625021 -47.384533 -20.364666 154.81882 -48.576 103.75665 -25.291212 149.67326
1696000000 -3.33903 -75.32045 -20.232872 54.552147 -48.460819 12.974278 -24.04808 143.81024
1705500000 -3.3214908 -103.01115 -20.1786 -47.227661 -48.365959 -79.047974 -22.044592 127.85902
1715000000 -3.2957859 -130.49411 -20.29652 -147.92493 -48.548809 -170.31442 -20.705091 103.45667
1724500000 -3.3094089 -157.86937 -20.134943 112.03246 -48.428623 98.779221 -20.525043 75.483749
1734000000 -3.3588662 174.50211 -20.068193 9.6221294 -48.401348 6.1577187 -21.67111 48.365852
1743500000 -3.4052083 146.48007 -20.307117 -90.468651 -48.717602 -83.954063 -24.158607 28.272566
1753000000 -3.4391191 118.33044 -19.98572 170.42322 -48.436939 -173.73131 -26.724854 25.773981
1762500000 -3.4779208 89.963074 -19.796436 67.086288 -48.240761 92.605003 -25.869987 29.507002
1772000000 -3.5194731 61.207977 -20.084377 -33.349693 -48.57806 2.2019434 -23.845547 14.374887
1781500000 -3.5226493 32.454144 -19.745647 -132.95583 -48.273712 -88.398628 -23.270821 -11.637824
1791000000 -3.4944293 3.956018 -19.693829 123.39941 -48.324677 177.72675 -24.727821 -39.928577
1800500000 -3.4713223 -24.331127 -20.012379 23.574291 -48.619686 87.134178 -29.331295 -60.68251
1810000000 -3.4302363 -52.22644 -19.731289 -76.352539 -48.365429 -3.1069803 -34.664429 -16.172117
1819500000 -3.378958 -79.711342 -19.804762 -178.82481 -48.393646 -96.283745 -26.556557 -2.8296239
1829000000 -3.3626227 -106.8868 -19.849449 82.260307 -48.577377 174.29572 -22.274761 -28.597412
1838500000 -3.3604825 -133.90541 -19.419069 -19.352381 -48.119553 81.256943 -20.410666 -59.198895
1848000000 -3.3633032 -160.93437 -19.58807 -122.25958 -48.352242 -11.900582 -20.134865 -89.195679
1857500000 -3.405 171.98248 -19.546392 138.3172 -48.413063 -102.40455 -21.089289 -114.95259
1867000000 -3.4728496 144.63025 -19.20052 35.422783 -48.172478 164.59116 -22.689013 -132.1848
1876500000 -3.5459774 116.83321 -19.442238 -67.364372 -48.572857 71.732002 -23.553547 -139.78989
1886000000 -3.6256871 88.781303 -19.357952 -167.87891 -48.577923 -19.682785 -22.747976 -148.66269
1895500000 -3.700819 60.434875 -19.299221 88.205093 -48.534344 -113.63257 -21.604773 -167.07738
1905000000 -3.7614729 31.741501 -19.659904 -13.843373 -48.866352 154.23325 -21.273104 168.10081
1914500000 -3.7952082 3.1174393 -19.617188 -115.64368 -48.926792 62.695557 -22.191183 141.14035
1924000000 -3.8028994 -25.298048 -20.00893 139.92383 -49.449806 -32.172581 -24.793867 117.11092
1933500000 -3.7918694 -53.535786 -20.658104 40.052483 -49.989933 -122.63613 -29.365131 110.91229
1943000000 -3.7662632 -81.427933 -20.690617 -59.976021 -50.025177 147.55669 -29.665903 137.43851
1952500000 -3.7362044 -108.99934 -21.085724 -162.42888 -50.446686 54.82679 -25.626698 130.89833
1962000000 -3.7233105 -136.47905 -21.624617 98.913612 -51.068233 -34.41629 -23.793434 105.26302
1971500000 -3.7132101 -163.89124 -21.65136 0.1477863 -51.203362 -123.17632 -24.352835 76.843498
1981000000 -3.7178588 168.64735 -21.791794 -100.06696 -51.2384 146.57832 -27.616863 57.203934
1990500000 -3.763973 140.92221 -21.884434 160.76239 -51.358864 57.801346 -30.844847 79.887695
2000000000 -3.8266993 112.79403 -21.874537 60.832684 -51.510124 -32.017841 -25.205423 89.94104
