!Keysight Technologies,N5242B,MY48420967,A.15.65.19
!Date: Saturday, February 04, 2023 07:52:59
!Correction: S11(C  1-Port  ) 
!S21(Off) 
!S12(Off) 
!S22(Off) 
!S2P File: Measurements: S11, S21, S12, S22:
# Hz S  dB   R 50
100000000 -1.4057945 40.330818 -15.729832 95.985069 -79.463791 -2.9456713 -19.301287 83.54808
109500000 -1.3325026 10.994114 -15.456491 -4.4079661 -75.026474 -83.580162 -22.275661 24.183449
119000000 -1.2593923 -17.883057 -15.554617 -109.74079 -73.950462 169.02888 -26.605913 -67.458572
128500000 -1.1687469 -46.246162 -16.16914 148.82254 -73.095535 80.638824 -23.081553 -171.53589
138000000 -1.1492469 -74.641823 -16.254002 49.373741 -73.580559 -12.660421 -18.812504 125.6127
147500000 -1.2169114 -103.54729 -16.164173 -52.065041 -70.951256 -106.49956 -16.56601 74.224754
157000000 -1.2801756 -132.80791 -16.132589 -154.27159 -70.544685 161.89349 -15.952361 24.372465
166500000 -1.3508604 -162.29236 -16.216366 102.73976 -69.959412 66.843193 -17.117378 -26.515116
176000000 -1.475637 167.76625 -16.553303 0.73437405 -69.201088 -25.666922 -20.452311 -81.144867
185500000 -1.5797148 137.47426 -16.754763 -99.356537 -69.254616 -118.45765 -26.513649 -159.42131
195000000 -1.6010495 107.48019 -16.655359 160.06586 -67.290703 152.22711 -24.801197 78.848152
204500000 -1.6057992 77.914131 -16.60323 57.313934 -66.835732 57.588528 -19.454279 9.5743723
214000000 -1.6175027 48.459061 -16.938225 -45.016251 -66.433495 -39.194656 -17.026184 -44.052864
223500000 -1.5749121 19.330965 -17.163267 -144.40878 -66.053017 -128.15068 -16.461395 -94.282539
233000000 -1.5078276 -9.3103237 -16.963882 115.41589 -64.506462 140.15915 -17.371191 -146.09109
242500000 -1.5012307 -37.903225 -16.885225 12.857409 -64.10601 49.998135 -19.962418 154.19897
252000000 -1.5211418 -66.75087 -17.055397 -89.132271 -63.824001 -46.605904 -23.509726 72.328926
261500000 -1.5341146 -95.779732 -17.232824 170.13963 -62.829762 -145.40927 -22.242395 -23.993221
271000000 -1.5933362 -125.01304 -17.17271 70.277084 -62.689991 131.14079 -18.758015 -93.001289
280500000 -1.7037811 -154.74911 -16.873785 -32.004158 -61.784184 36.558685 -16.797821 -149.79428
290000000 -1.7878773 175.12796 -17.066795 -136.05936 -61.054321 -58.918709 -16.544617 155.93306
299500000 -1.8439479 145.03839 -17.459217 123.57699 -61.488506 -151.57379 -17.889336 101.03283
309000000 -1.9067314 114.98518 -17.347401 23.647755 -60.564281 118.7041 -20.667633 39.423977
318500000 -1.9427303 85.089523 -17.256987 -78.820129 -59.884857 25.188053 -23.616177 -43.49572
328000000 -1.914546 55.621552 -17.39101 179.0578 -59.997818 -68.607399 -22.336309 -136.46315
337500000 -1.8855264 26.487808 -17.567245 77.453651 -59.206306 -162.22206 -19.66988 153.52138
347000000 -1.8905255 -2.499404 -17.734306 -22.867254 -58.791634 106.42939 -18.323111 95.237114
356500000 -1.8753225 -31.38707 -17.542427 -122.9467 -58.550957 15.118878 -18.316887 38.360912
366000000 -1.8584905 -60.36694 -17.321779 133.71155 -57.764042 -80.030251 -19.606207 -23.308952
375500000 -1.9082005 -89.707565 -17.659357 30.405762 -57.756733 -173.94505 -21.58139 -95.089966
385000000 -1.9887174 -119.51604 -17.974075 -69.326035 -57.66856 95.307396 -22.013519 -175.33649
394500000 -2.0467417 -149.5448 -17.767996 -169.18173 -57.338001 3.9369929 -20.491524 112.40194
404000000 -2.1006603 -179.66489 -17.61043 87.512596 -56.66394 -92.851341 -19.263735 50.168777
413500000 -2.1741142 150.03888 -17.98003 -15.093208 -56.524727 174.13298 -19.438875 -7.9965134
423000000 -2.22458 119.83451 -18.165407 -114.73836 -56.454929 83.129158 -21.277704 -66.719109
432500000 -2.206301 90.189873 -18.063643 143.8786 -55.884178 -10.456902 -24.69429 -136.28308
442000000 -2.1728075 60.982681 -18.259476 41.915691 -55.760151 -103.43633 -26.492619 126.3092
451500000 -2.1702139 32.058502 -18.354992 -58.677036 -55.792583 164.28238 -23.297453 40.094624
461000000 -2.1460307 3.4670699 -18.472984 -160.69135 -55.354408 71.557724 -20.889214 -22.647467
470500000 -2.1006393 -24.830912 -18.78606 99.419884 -55.453728 -20.987165 -20.23876 -78.202087
480000000 -2.0942202 -53.145306 -18.511074 0.0067939851 -54.877888 -110.78895 -21.256193 -135.11111
489500000 -2.1352267 -81.795364 -18.372713 -104.1647 -54.292381 153.75783 -24.097414 157.41423
499000000 -2.1748931 -110.73873 -18.878021 154.20398 -54.667095 62.365551 -26.262724 64.066673
508500000 -2.201308 -139.80486 -18.807573 55.001812 -54.219627 -30.077581 -23.255848 -23.092182
518000000 -2.2477114 -169.10323 -18.658924 -48.220516 -53.731148 -124.60205 -20.321661 -85.811119
527500000 -2.3053684 161.39735 -18.996244 -150.50072 -53.876762 143.09833 -19.223368 -140.7393
537000000 -2.322726 132.05907 -19.169588 108.3894 -53.716278 50.373161 -20.023111 166.00029
546500000 -2.3092647 103.12165 -19.442022 7.0862403 -53.747887 -42.460003 -23.05043 109.26698
556000000 -2.2926109 74.588066 -19.570013 -92.429131 -53.562782 -132.60924 -28.884998 24.986504
565500000 -2.265763 46.429787 -19.462528 165.78377 -53.037327 133.58061 -26.099037 -97.560555
575000000 -2.2256393 18.645557 -19.879267 63.619881 -53.216431 40.590553 -20.945597 -165.32744
584500000 -2.1935935 -8.9239244 -20.158562 -34.346622 -53.269428 -49.636459 -18.62834 141.57042
594000000 -2.183094 -36.489704 -19.909393 -133.97058 -52.659325 -140.48811 -18.056635 90.775131
603500000 -2.1906817 -64.205742 -19.962091 124.96597 -52.456123 125.85979 -19.105038 36.193665
613000000 -2.2208993 -92.261032 -19.820522 24.943819 -52.202568 35.651424 -21.866768 -29.731049
622500000 -2.2715936 -120.79269 -19.901964 -78.049446 -52.200996 -60.44746 -23.887308 -119.01136
632000000 -2.3325918 -149.71375 -20.324324 -176.34538 -52.430622 -150.86823 -21.177605 156.48677
641500000 -2.3761468 -178.75389 -19.846758 84.793709 -51.903809 119.28282 -18.309696 94.14785
651000000 -2.4170377 152.03217 -19.821814 -19.493963 -51.745468 23.501341 -17.126463 39.697697
660500000 -2.4520502 122.75489 -20.261518 -119.8089 -52.060986 -68.83577 -17.70993 -12.497186
670000000 -2.4445593 93.744843 -20.146978 140.99481 -51.745831 -158.51236 -20.180895 -66.849228
679500000 -2.4122343 65.217888 -20.012924 39.154842 -51.436863 108.11533 -25.271217 -139.46828
689000000 -2.3877218 37.003109 -20.130157 -62.742714 -51.578144 14.970538 -25.627193 99.638878
698500000 -2.3726919 8.8973265 -20.315117 -163.64348 -51.560223 -76.707512 -20.093281 23.834608
708000000 -2.3514297 -18.941639 -20.432331 96.574974 -51.48534 -168.8589 -17.202148 -29.594086
717500000 -2.3397295 -46.637539 -20.315886 -3.10203 -51.177391 100.71336 -16.126604 -78.657623
727000000 -2.376559 -74.774704 -20.075781 -104.37376 -50.885105 8.1920195 -16.681931 -128.57161
736500000 -2.4463673 -103.48462 -20.035366 152.92085 -50.549877 -86.005104 -19.292103 177.63316
746000000 -2.5005248 -132.49515 -20.276217 51.121223 -50.62748 -179.06111 -24.607656 107.90737
755500000 -2.5541699 -161.81078 -20.399858 -48.849457 -50.609119 89.908142 -25.830694 -9.0093861
765000000 -2.6345742 168.4458 -20.251881 -149.53989 -50.485992 -2.6061401 -20.385508 -85.954514
774500000 -2.6871498 138.52187 -20.247335 107.70633 -50.247208 -97.291443 -17.652042 -140.07175
784000000 -2.6850452 108.86943 -20.59762 6.04145 -50.376286 171.09618 -17.10309 171.64876
793500000 -2.6701503 79.598709 -20.748753 -93.015976 -50.434006 80.295433 -18.320047 125.38852
803000000 -2.6524329 50.661316 -20.50853 166.2838 -50.207157 -11.688789 -21.899807 77.374657
812500000 -2.6146941 22.157621 -20.609411 63.236187 -50.123058 -106.0729 -31.865379 9.4618769
822000000 -2.5716088 -5.8449221 -20.948622 -37.099072 -50.370377 162.23341 -27.61846 -162.50407
831500000 -2.5549927 -33.629639 -20.896578 -136.78108 -50.151539 71.830338 -20.918289 143.59026
841000000 -2.5648942 -61.490875 -20.920954 121.89221 -50.089634 -20.55905 -18.417622 98.126457
850500000 -2.5885572 -89.503189 -20.930075 21.882551 -49.971439 -112.00351 -18.127487 53.524071
860000000 -2.6325281 -117.80399 -20.689947 -80.323349 -49.540218 154.14615 -20.026983 9.3407784
869500000 -2.6935883 -146.53024 -21.092535 176.50613 -49.905628 60.162792 -25.328829 -33.790104
879000000 -2.7483244 -175.57552 -21.400572 78.369881 -50.088825 -29.08503 -60.245567 88.128746
888500000 -2.7831333 155.28716 -20.994379 -22.184843 -49.560112 -121.35222 -25.382027 60.435432
898000000 -2.8050642 126.19476 -21.235764 -126.1693 -49.686745 143.96518 -20.681107 18.1141
907500000 -2.7987721 97.248055 -21.66531 134.90004 -49.97937 53.764278 -19.324329 -23.361544
917000000 -2.7586615 68.687271 -21.429546 35.246735 -49.678967 -36.936798 -20.086361 -63.497673
926500000 -2.7070835 40.676933 -21.50205 -67.249756 -49.631538 -130.7025 -23.425854 -100.53294
936000000 -2.660511 13.139973 -21.739773 -167.53442 -49.718948 137.83078 -32.50948 -111.61111
945500000 -2.6176152 -14.065035 -21.813484 91.896606 -49.758148 46.12991 -27.896963 -44.178307
955000000 -2.5803435 -41.031162 -22.019796 -7.7232723 -49.835278 -44.347122 -21.555655 -72.725624
964500000 -2.5716906 -67.85659 -21.828743 -106.74664 -49.498383 -134.73692 -19.108671 -111.51973
974000000 -2.5947483 -94.85672 -21.739864 151.03749 -49.348461 131.06825 -18.927149 -152.6122
983500000 -2.6403549 -122.36914 -22.028231 50.968216 -49.61982 40.669369 -20.978556 165.78633
993000000 -2.6908972 -150.26109 -21.87936 -48.367691 -49.410435 -50.797905 -26.87817 124.34571
1002500000 -2.7330329 -178.40706 -21.923264 -150.01974 -49.402283 -143.69991 -39.953533 -101.18311
1012000000 -2.7828634 153.08237 -22.064228 111.10596 -49.57431 125.86374 -23.727884 -141.3705
1021500000 -2.8188438 124.34161 -21.768333 10.682583 -49.344585 34.01239 -19.391529 176.45743
1031000000 -2.8124368 95.659233 -21.942059 -91.261963 -49.44429 -59.267288 -17.799007 134.42735
1040500000 -2.7796192 67.318954 -22.013935 170.26141 -49.458279 -149.09129 -17.999563 91.646675
1050000000 -2.7502301 39.294495 -21.628651 69.393044 -49.0504 118.90715 -20.314646 47.546978
1059500000 -2.7161388 11.526773 -21.765963 -33.715824 -49.177177 24.812777 -26.690536 1.3161031
1069000000 -2.6706588 -15.83103 -22.099081 -132.99568 -49.505116 -65.694191 -37.557266 163.47301
1078500000 -2.6385002 -42.811314 -21.899658 128.41701 -49.237839 -155.40521 -23.331224 104.94868
1088000000 -2.6440389 -69.820274 -21.635576 26.609312 -48.856236 111.84876 -19.187336 59.826324
1097500000 -2.6896424 -97.179527 -21.78459 -75.228188 -49.094303 18.59403 -17.90378 14.928898
1107000000 -2.7378411 -124.86069 -21.858328 -174.74124 -49.113365 -72.041191 -18.601328 -29.937914
1116500000 -2.791111 -152.96617 -21.664423 84.519714 -48.822208 -164.20485 -21.385151 -76.943771
1126000000 -2.8758683 178.33177 -21.754604 -16.988998 -48.920921 103.99696 -28.107327 -138.97429
1135500000 -2.9527802 149.14355 -21.733652 -116.37715 -48.947514 13.575806 -29.672056 73.461464
1145000000 -2.9829836 119.74258 -21.444794 142.06401 -48.697594 -79.524246 -22.042974 4.9162316
1154500000 -2.9954042 90.388474 -21.629805 39.832901 -48.786762 -172.37592 -18.83209 -42.229961
1164000000 -2.9991388 61.12072 -21.655491 -59.187519 -48.82338 97.946045 -17.781624 -85.91172
1173500000 -2.9717591 32.092113 -21.276226 -160.89319 -48.517101 5.1017985 -18.549953 -128.23584
1183000000 -2.9222431 3.6554396 -21.466438 95.657341 -48.615414 -89.096352 -21.554699 -167.38965
1192500000 -2.888144 -24.299131 -21.763273 -4.2623162 -48.833935 179.39645 -28.686798 167.85048
1202000000 -2.8822672 -52.110817 -21.693262 -104.12293 -48.736485 89.27433 -30.945799 -124.22765
1211500000 -2.8829417 -79.761337 -21.62615 154.9442 -48.681393 -3.3548357 -22.988977 -140.50259
1221000000 -2.8999608 -107.35361 -21.585045 53.57703 -48.550613 -95.354126 -19.997602 -177.05341
1230500000 -2.9646106 -135.33684 -21.706228 -47.957195 -48.721157 172.42635 -19.389362 144.28319
1240000000 -3.0413208 -163.88118 -21.808481 -147.98927 -48.732677 81.762413 -20.640171 105.9951
1249500000 -3.0915499 167.26933 -21.701078 111.52091 -48.689655 -9.4913292 -24.370583 70.296104
1259000000 -3.1446271 138.22565 -21.669621 10.215895 -48.679005 -101.56895 -34.078796 59.817432
1268500000 -3.1947536 108.86115 -21.643028 -90.896263 -48.665058 166.58035 -29.365341 133.09044
1278000000 -3.1955583 79.417046 -21.688158 167.52704 -48.585369 74.434334 -23.171169 105.5269
1287500000 -3.1465409 50.510136 -21.748745 67.143021 -48.719002 -16.555405 -20.988546 69.454926
1297000000 -3.0949171 22.125984 -21.571613 -34.457996 -48.549355 -108.70678 -21.076239 33.663425
1306500000 -3.0571821 -5.924181 -21.825058 -137.45183 -48.755764 157.09184 -23.198265 3.4173028
1316000000 -3.0022197 -33.44553 -22.208435 123.54084 -49.086391 67.523651 -27.093458 -7.0579453
1325500000 -2.942385 -60.409527 -22.023939 24.499384 -48.804771 -22.189133 -26.656027 10.39565
1335000000 -2.9277704 -87.181114 -21.99659 -77.280945 -48.786846 -115.0761 -22.526281 -2.6317692
1344500000 -2.9567451 -114.10246 -22.174435 -177.12495 -48.989399 154.32735 -20.212412 -33.413216
1354000000 -2.9867759 -141.24095 -22.08346 83.203293 -48.796062 63.536667 -19.685873 -69.489159
1363500000 -3.0122898 -168.56319 -22.071987 -17.301685 -48.847309 -28.292101 -20.985842 -107.82098
1373000000 -3.064256 163.74809 -22.005852 -117.19755 -48.870892 -119.05214 -25.038815 -146.83624
1382500000 -3.1368294 135.55807 -21.92594 141.99586 -48.769489 148.87747 -39.088879 -178.67316
1392000000 -3.1670589 107.09232 -21.970833 42.027859 -48.985344 58.62059 -28.847895 -52.062836
1401500000 -3.14884 78.677429 -21.759117 -58.115429 -48.78846 -32.551037 -22.478195 -90.778938
1411000000 -3.1358058 50.374924 -21.722519 -160.11499 -48.797825 -125.89772 -20.272444 -130.84119
1420500000 -3.1257308 22.217793 -21.873611 99.756424 -48.948399 143.4678 -20.397667 -169.9716
1430000000 -3.0633883 -5.5159092 -21.756847 -0.57301569 -48.833168 52.465286 -22.805946 154.40286
1439500000 -2.992254 -32.61763 -21.855633 -102.01811 -49.001308 -40.169083 -29.058893 133.90465
1449000000 -2.9736123 -59.391113 -22.0082 158.81142 -49.224083 -130.34889 -30.36412 -166.32271
1458500000 -2.9801333 -86.216026 -21.826952 59.46241 -49.06945 140.07138 -22.594864 -179.711
1468000000 -2.9768102 -113.01476 -21.693983 -41.447277 -49.087585 47.774006 -19.115396 145.92094
1477500000 -2.9903624 -139.79721 -21.692776 -141.76624 -49.027252 -42.776829 -17.734127 108.18257
1487000000 -3.0607038 -167.12306 -21.58511 118.60968 -48.993385 -133.58311 -17.930561 69.079308
1496500000 -3.1408334 164.95984 -21.312193 18.169367 -48.782707 135.58795 -19.890522 29.70718
1506000000 -3.1838377 136.81833 -21.151361 -83.599724 -48.762844 43.190887 -24.606903 -7.8021235
1515500000 -3.2390344 108.31651 -21.129278 175.49226 -48.711185 -47.955173 -39.262047 -17.691412
1525000000 -3.3067479 79.281616 -20.950159 74.625961 -48.588364 -139.03032 -28.287035 76.797546
1534500000 -3.3169823 50.101276 -20.898161 -27.211317 -48.600624 128.51187 -22.817881 41.863789
1544000000 -3.2870798 21.254786 -20.869511 -127.9453 -48.534401 37.733376 -21.273396 4.762197
1553500000 -3.270905 -7.3003993 -20.74229 130.2278 -48.528534 -55.142559 -21.987226 -30.425163
1563000000 -3.2495201 -35.639057 -20.96731 28.73258 -48.760487 -147.14488 -25.030155 -59.57291
1572500000 -3.210021 -63.502659 -20.94471 -70.065422 -48.71896 123.3456 -30.838345 -59.476906
1582000000 -3.1983509 -90.986122 -20.598589 -171.38829 -48.436192 31.857744 -28.065086 -25.298506
1591500000 -3.2351465 -118.62054 -20.716518 86.606316 -48.615356 -60.749535 -23.123867 -42.765182
1601000000 -3.2828844 -146.52457 -20.673929 -12.777152 -48.640785 -151.42796 -20.86492 -73.249405
1610500000 -3.3242939 -174.57693 -20.396429 -114.23897 -48.445526 117.20586 -20.471514 -105.74268
1620000000 -3.3989441 157.02632 -20.443773 144.23975 -48.536716 25.67223 -21.704958 -135.85568
1629500000 -3.4931374 128.04512 -20.281807 44.011196 -48.409515 -64.94091 -24.455572 -157.09137
1639000000 -3.5493615 98.693474 -20.09486 -58.338634 -48.232681 -158.06921 -27.203413 -158.18896
1648500000 -3.5708766 69.260612 -20.197695 -159.93364 -48.416924 109.96717 -26.181364 -153.46298
1658000000 -3.5941429 39.757973 -20.093685 99.337318 -48.329124 19.233101 -24.222727 -167.80962
1667500000 -3.5952134 10.328143 -20.034868 -3.1655943 -48.270752 -73.399147 -23.729691 170.15291
1677000000 -3.5395212 -18.647633 -20.251455 -104.75725 -48.471973 -165.64006 -24.728861 151.37445
1686500000 -3.4722035 -47.000385 -20.362446 155.37057 -48.582077 104.36523 -26.03182 145.71715
1696000000 -3.4473836 -74.928749 -20.238361 55.093445 -48.479969 13.79556 -24.796019 146.26204
1705500000 -3.4288409 -102.61079 -20.1861 -46.684055 -48.364594 -78.718651 -22.167929 132.06352
1715000000 -3.4027896 -130.08055 -20.297785 -147.35019 -48.579708 -169.77657 -20.411331 106.54621
1724500000 -3.416281 -157.4427 -20.132635 112.58033 -48.373898 99.850662 -20.01318 76.6147
1734000000 -3.4675827 174.94128 -20.066261 10.147084 -48.347282 7.2771592 -21.103909 46.913017
1743500000 -3.5152361 146.93544 -20.309713 -89.955887 -48.716614 -83.842369 -23.840742 23.31209
1753000000 -3.5499225 118.79016 -19.992348 170.94887 -48.395569 -173.23003 -27.513382 20.127911
1762500000 -3.5911603 90.429276 -19.791321 67.664612 -48.200302 92.861176 -26.796053 32.952263
1772000000 -3.634048 61.672478 -20.07382 -32.845737 -48.599979 2.7083757 -23.939787 19.58881
1781500000 -3.6381521 32.911743 -19.744282 -132.48247 -48.29327 -87.678291 -22.867105 -7.7181301
1791000000 -3.6099796 4.4017529 -19.687483 123.87463 -48.186333 178.14891 -23.934401 -38.276592
1800500000 -3.5864801 -23.89522 -20.004541 23.998823 -48.574711 88.11071 -28.107166 -64.742302
1810000000 -3.5448155 -51.804714 -19.730843 -75.99453 -48.330509 -3.358613 -36.78672 -30.497255
1819500000 -3.4921658 -79.292152 -19.805399 -178.45676 -48.474346 -96.047867 -27.327658 2.2623732
1829000000 -3.4744608 -106.47785 -19.861315 82.614174 -48.478401 174.33105 -22.311886 -24.316603
1838500000 -3.4729114 -133.50034 -19.432671 -18.988152 -48.151073 81.991302 -20.122276 -56.318932
1848000000 -3.4760787 -160.52141 -19.595705 -121.96567 -48.443474 -11.593266 -19.654358 -88.121887
1857500000 -3.5190396 172.3949 -19.570797 138.55075 -48.436367 -101.68622 -20.56599 -116.41097
1867000000 -3.5896499 145.0533 -19.240742 35.683823 -48.268925 164.64415 -22.480839 -136.58829
1876500000 -3.6657593 117.27077 -19.491489 -67.071938 -48.506691 72.079674 -24.125454 -143.62651
1886000000 -3.7492139 89.235832 -19.418289 -167.55721 -48.63335 -18.73856 -23.468775 -147.13501
1895500000 -3.8271637 60.895378 -19.376841 88.569786 -48.62405 -112.87237 -21.825329 -163.0173
1905000000 -3.890218 32.221474 -19.752377 -13.412663 -48.986301 154.87314 -21.015327 171.80025
1914500000 -3.9249461 3.6110151 -19.725037 -115.06705 -48.951916 63.163952 -21.578625 142.97505
1924000000 -3.9324446 -24.792482 -20.116529 140.6461 -49.52309 -31.288342 -23.948507 115.16547
1933500000 -3.9185092 -53.018291 -20.777546 40.894123 -50.09346 -121.90263 -29.04125 100.82085
1943000000 -3.8892915 -80.894852 -20.814259 -58.84631 -50.257416 148.79445 -31.496822 136.96738
1952500000 -3.8556118 -108.46478 -21.190981 -161.06999 -50.658585 56.156837 -26.098122 137.25465
1962000000 -3.8391507 -135.94562 -21.692715 100.45568 -51.115223 -32.285114 -23.548523 110.56996
1971500000 -3.8280971 -163.35626 -21.693216 1.7352891 -51.205738 -121.0472 -23.624512 80.041756
1981000000 -3.8319998 169.18265 -21.800343 -98.441406 -51.323746 148.57181 -26.408985 55.476051
1990500000 -3.8791041 141.46082 -21.864447 162.34561 -51.399853 59.344784 -31.095093 67.0783
2000000000 -3.9434237 113.3316 -21.826735 62.360126 -51.386734 -30.311071 -26.27174 90.274673
