!Keysight Technologies,N5242B,MY48420967,A.15.65.19
!Date: Sunday, January 22, 2023 20:12:40
!Correction: S11(C  1-Port  ) 
!S21(Off) 
!S12(Off) 
!S22(Off) 
!S2P File: Measurements: S11, S21, S12, S22:
# Hz S  dB   R 50
100000000 -1.2923427 40.520748 -15.733323 96.241753 -79.977478 5.3766594 -17.800018 79.867737
109500000 -1.2069451 11.168502 -15.415079 -3.9210238 -76.576607 -96.25499 -20.220097 18.615772
119000000 -1.1132333 -17.504242 -15.465301 -109.30809 -76.117302 162.4471 -23.378986 -67.02285
128500000 -1.0380814 -45.878841 -16.073984 149.12914 -74.810432 84.565834 -21.362713 -163.875
138000000 -1.0297344 -74.44046 -16.161825 49.792324 -73.493881 -6.6752753 -17.779076 129.42427
147500000 -1.0794135 -103.32536 -16.042128 -51.496082 -71.366669 -108.1518 -15.660168 75.286659
157000000 -1.1395133 -132.51434 -15.972962 -153.8754 -70.007393 160.86745 -15.040697 23.127943
166500000 -1.2273097 -162.10191 -16.056778 102.90937 -69.516968 66.682648 -16.154339 -30.207554
176000000 -1.3454472 167.87582 -16.42058 0.90922296 -69.488167 -24.596376 -19.241499 -87.857918
185500000 -1.4397843 137.6461 -16.616175 -99.032608 -68.495216 -121.0431 -23.951082 -167.14404
195000000 -1.4801593 107.63961 -16.496038 160.41064 -67.03167 151.4192 -22.716639 84.944786
204500000 -1.4903643 77.981094 -16.433519 57.554131 -66.166237 58.358276 -18.328279 12.88536
214000000 -1.4843315 48.581219 -16.778875 -44.848305 -66.457565 -37.796619 -16.137239 -43.37962
223500000 -1.4484463 19.552389 -17.014391 -144.20058 -65.941383 -126.95468 -15.643031 -95.52375
233000000 -1.4016027 -9.1560707 -16.803764 115.65952 -65.369972 142.10306 -16.50338 -149.21719
242500000 -1.3846022 -37.786297 -16.717903 13.070761 -64.158783 47.379265 -18.842773 148.903
252000000 -1.3856968 -66.511635 -16.891607 -88.967194 -64.134193 -46.161003 -21.688974 67.682213
261500000 -1.4140856 -95.494759 -17.079029 170.34531 -63.245419 -136.58458 -20.624947 -22.792177
271000000 -1.4843231 -124.81567 -17.01222 70.620323 -62.526638 130.31042 -17.671059 -91.957314
280500000 -1.5702283 -154.5536 -16.688805 -31.696484 -61.789505 35.562069 -15.917356 -150.32658
290000000 -1.6450284 175.45361 -16.888248 -135.91449 -61.368916 -60.656239 -15.756709 153.75587
299500000 -1.7219055 145.36131 -17.301945 123.75456 -60.997356 -150.11328 -17.11095 97.161247
309000000 -1.7833959 115.2139 -17.182381 23.986515 -60.638947 117.48756 -19.659554 33.562283
318500000 -1.7984533 85.347527 -17.065145 -78.519859 -60.432335 22.277424 -21.955637 -48.861797
328000000 -1.7742941 55.978302 -17.204935 179.24869 -59.694965 -69.40023 -20.736807 -137.3878
337500000 -1.7569231 26.824537 -17.394682 77.64563 -59.194759 -163.34322 -18.503128 152.91486
347000000 -1.7481085 -2.1991446 -17.556616 -22.564795 -59.11554 104.40425 -17.346979 93.648361
356500000 -1.7209054 -31.072508 -17.34074 -122.67263 -58.284233 15.991956 -17.377174 35.448475
366000000 -1.7148395 -60.042309 -17.124199 133.85641 -57.798656 -78.870125 -18.585409 -27.746115
375500000 -1.7615494 -89.377106 -17.479488 30.526787 -57.358101 -173.19702 -20.300249 -100.02804
385000000 -1.8217623 -119.16257 -17.791958 -69.044189 -57.428734 95.614464 -20.601822 -178.29543
394500000 -1.8817515 -149.21594 -17.563791 -168.8548 -57.106579 2.7315824 -19.27195 110.46362
404000000 -1.9457397 -179.36028 -17.393778 87.686409 -56.121231 -92.650284 -18.226009 47.453506
413500000 -2.0038662 150.38048 -17.775984 -14.993635 -56.418732 172.5556 -18.510685 -12.258072
423000000 -2.0451214 120.21127 -17.968868 -114.59761 -56.311874 83.243706 -20.304314 -73.073685
432500000 -2.0424538 90.496208 -17.860516 144.03818 -55.824589 -10.238764 -23.198402 -144.92792
442000000 -2.0135906 61.258308 -18.050352 42.07888 -55.747597 -102.8652 -24.187098 122.58852
451500000 -1.992605 32.40324 -18.139553 -58.564564 -55.60601 164.76169 -21.640564 40.44899
461000000 -1.9681438 3.8054368 -18.264303 -160.63135 -55.20015 71.404175 -19.694187 -23.137543
470500000 -1.939267 -24.601433 -18.588921 99.49958 -55.338844 -19.21862 -19.219278 -80.251282
480000000 -1.9264572 -52.930508 -18.299494 0.16750123 -54.717945 -111.02143 -20.230661 -139.16858
489500000 -1.9477851 -81.504768 -18.15119 -104.118 -54.220921 153.59129 -22.720467 150.90437
499000000 -1.9935143 -110.46643 -18.680317 154.18291 -54.444355 61.071194 -24.179146 60.707161
508500000 -2.0317752 -139.62456 -18.617254 55.168762 -54.056007 -29.212887 -21.642281 -22.069996
518000000 -2.06652 -168.91957 -18.430401 -47.93877 -53.650856 -123.21552 -19.117041 -85.303391
527500000 -2.1094742 161.6635 -18.74577 -150.53105 -53.620651 142.86612 -18.184155 -141.63029
537000000 -2.1365101 132.31415 -18.941536 108.21655 -53.533909 50.233971 -19.056711 163.46631
546500000 -2.1313703 103.32072 -19.234472 6.9794927 -53.513432 -42.041336 -21.956108 104.33339
556000000 -2.1054235 74.825882 -19.364143 -92.424866 -53.403294 -133.4904 -26.712982 19.027807
565500000 -2.073729 46.711468 -19.238905 165.72136 -52.969009 133.21915 -24.380701 -93.374947
575000000 -2.0422821 18.898209 -19.679905 63.439434 -53.128212 40.830467 -19.889025 -163.0538
584500000 -2.0086823 -8.6752615 -19.974443 -34.358952 -53.083096 -48.430031 -17.731554 142.27328
594000000 -1.9890661 -36.211777 -19.705231 -133.89056 -52.57547 -141.20146 -17.177805 90.30098
603500000 -1.9988357 -63.941658 -19.744278 124.98465 -52.290947 126.83454 -18.138737 34.622261
613000000 -2.0293312 -92.037842 -19.603468 24.876823 -52.009228 33.973831 -20.643478 -31.92568
622500000 -2.0686653 -120.53432 -19.694336 -78.162582 -52.11729 -60.166325 -22.46884 -118.38342
632000000 -2.1214206 -149.40205 -20.125021 -176.34334 -52.398853 -149.93916 -20.226162 158.54654
641500000 -2.1715355 -178.52612 -19.629892 84.778374 -51.718372 118.96346 -17.580091 94.902504
651000000 -2.2102411 152.21147 -19.606735 -19.607058 -51.516685 23.449366 -16.458389 39.101578
660500000 -2.2311847 123.02578 -20.056702 -119.84884 -51.887405 -67.98037 -17.037464 -14.429661
670000000 -2.2290444 94.035423 -19.933813 140.97763 -51.542187 -159.02135 -19.367491 -70.48391
679500000 -2.2116661 65.38575 -19.78965 39.115982 -51.254555 107.6625 -23.74222 -144.47862
689000000 -2.1779084 37.163113 -19.911514 -62.836327 -51.288948 14.917531 -24.031778 103.85323
698500000 -2.150172 9.1774645 -20.10404 -163.76694 -51.256584 -77.137802 -19.327913 26.757368
708000000 -2.1380837 -18.686848 -20.222759 96.494011 -51.260811 -168.46913 -16.62348 -28.445507
717500000 -2.1329546 -46.538479 -20.100883 -3.1437569 -50.934666 100.00691 -15.592089 -78.76973
727000000 -2.1549678 -74.650291 -19.85165 -104.43402 -50.539272 8.6641045 -16.132244 -130.00629
736500000 -2.2133391 -103.22967 -19.808218 152.80934 -50.353516 -86.16423 -18.662983 174.49458
746000000 -2.2756364 -132.30501 -20.051836 50.951351 -50.499657 -179.81212 -23.475126 102.83864
755500000 -2.3312302 -161.74876 -20.188309 -48.933731 -50.477386 89.408394 -24.34108 -6.7905931
765000000 -2.3926716 168.58568 -20.024515 -149.60242 -50.197498 -2.0669496 -19.600941 -83.881981
774500000 -2.4414341 138.75444 -20.010422 107.55371 -49.976116 -96.772003 -17.051731 -139.60307
784000000 -2.4545007 109.02095 -20.379311 5.8284159 -50.213703 170.06883 -16.571028 170.84129
793500000 -2.438503 79.685562 -20.536575 -93.142113 -50.261616 80.070114 -17.801014 123.1966
803000000 -2.4130039 50.814709 -20.274748 166.20775 -49.906487 -11.887252 -21.296373 72.582603
812500000 -2.3803749 22.347218 -20.370371 63.026554 -49.894604 -106.36558 -29.959496 -3.6333525
822000000 -2.3435462 -5.7441888 -20.726347 -37.352173 -50.044037 161.78568 -26.476679 -154.33054
831500000 -2.3199632 -33.586315 -20.67968 -136.99094 -49.978767 71.261658 -20.313902 146.65846
841000000 -2.3233948 -61.386948 -20.696396 121.73824 -49.917103 -20.798103 -17.884264 99.171494
850500000 -2.3511035 -89.401566 -20.697081 21.733191 -49.754379 -112.18168 -17.604105 53.032104
860000000 -2.3952446 -117.78943 -20.453112 -80.580734 -49.359364 154.00269 -19.496428 6.9615006
869500000 -2.4448571 -146.53352 -20.869862 176.18004 -49.653942 59.935902 -24.743422 -40.287846
879000000 -2.4963253 -175.52538 -21.183048 78.150261 -49.917049 -29.223217 -42.906013 -171.38988
888500000 -2.5381081 155.3157 -20.75403 -22.418276 -49.321316 -121.415 -24.863995 67.325333
898000000 -2.5574334 126.14368 -20.997179 -126.54215 -49.447632 143.57809 -20.170664 20.972937
907500000 -2.5461302 97.198265 -21.444933 134.5614 -49.750874 53.165909 -18.787138 -22.364901
917000000 -2.5148575 68.683388 -21.205076 35.00074 -49.476456 -37.083706 -19.501638 -64.164345
926500000 -2.4703515 40.623199 -21.269878 -67.57959 -49.328346 -131.04779 -22.760197 -104.08199
936000000 -2.4181352 13.020053 -21.51096 -167.91997 -49.487103 137.53984 -32.514221 -127.91539
945500000 -2.3702343 -14.152186 -21.595585 91.499947 -49.508953 45.949188 -28.653366 -36.082539
955000000 -2.3383927 -41.091381 -21.805105 -8.0661898 -49.654118 -45.314995 -21.484024 -68.49955
964500000 -2.3335989 -68.001831 -21.605854 -107.07526 -49.270706 -135.40486 -18.831619 -108.98203
974000000 -2.348989 -95.068222 -21.515442 150.63704 -49.083103 130.93755 -18.5158 -151.32693
983500000 -2.3855634 -122.5231 -21.817989 50.586788 -49.315109 39.769226 -20.410828 165.66536
993000000 -2.4341156 -150.37947 -21.662668 -48.74683 -49.214325 -50.828522 -25.901999 121.08915
1002500000 -2.4759636 -178.58289 -21.716309 -150.42365 -49.187855 -144.03734 -42.096897 -63.742344
1012000000 -2.5201304 152.88988 -21.856571 110.73212 -49.348377 125.63073 -23.843304 -135.99963
1021500000 -2.5479264 124.21326 -21.554426 10.304386 -49.036114 34.03849 -19.25584 179.55066
1031000000 -2.5421975 95.582832 -21.731045 -91.688385 -49.230141 -59.539547 -17.533895 136.45448
1040500000 -2.5198355 67.199493 -21.811218 169.91656 -49.148651 -149.79985 -17.607832 92.832527
1050000000 -2.4891727 39.185596 -21.410889 69.077942 -48.853767 118.4915 -19.732048 47.616611
1059500000 -2.4428577 11.491092 -21.548462 -34.108593 -48.926743 24.448351 -25.562553 -1.2202044
1069000000 -2.4014604 -15.83182 -21.897572 -133.42578 -49.269566 -66.209312 -38.185886 -166.27213
1078500000 -2.3829906 -42.872967 -21.699564 128.08441 -49.101585 -156.14162 -23.54081 110.57281
1088000000 -2.3815045 -69.921005 -21.422024 26.324869 -48.623711 111.65965 -19.132126 63.252285
1097500000 -2.4101479 -97.214317 -21.568083 -75.578735 -48.796791 18.005606 -17.696768 17.343784
1107000000 -2.4617305 -124.87108 -21.639061 -175.11003 -48.966461 -72.688477 -18.264786 -28.306383
1116500000 -2.5244882 -153.08006 -21.449549 84.127373 -48.674702 -164.25372 -20.846468 -76.100716
1126000000 -2.5929179 178.19702 -21.54425 -17.341387 -48.757328 103.30466 -26.896149 -138.36549
1135500000 -2.654618 149.08745 -21.508499 -116.7131 -48.695766 13.107085 -29.288546 84.147034
1145000000 -2.6995041 119.6478 -21.213734 141.61942 -48.402328 -79.737801 -21.929789 9.9300556
1154500000 -2.7185605 90.156372 -21.420864 39.341724 -48.608406 -172.89006 -18.603722 -38.76038
1164000000 -2.7081077 60.908218 -21.442307 -59.531075 -48.61874 97.376862 -17.425495 -83.235085
1173500000 -2.6816101 31.962219 -21.041103 -161.27086 -48.172112 5.0873542 -18.03031 -126.33958
1183000000 -2.6485651 3.4209538 -21.237141 95.093513 -48.369591 -89.882256 -20.776026 -166.87407
1192500000 -2.6116033 -24.647951 -21.557877 -4.832427 -48.649063 179.28979 -27.349728 162.73332
1202000000 -2.5905938 -52.372192 -21.486958 -104.56391 -48.557373 88.942535 -33.012367 -127.82384
1211500000 -2.5973516 -79.984161 -21.407564 154.49142 -48.432846 -3.0689592 -23.491215 -137.21651
1221000000 -2.6279204 -107.74746 -21.362391 53.034863 -48.368065 -95.712776 -20.046011 -173.95819
1230500000 -2.6802497 -135.77609 -21.495964 -48.516506 -48.489506 172.11217 -19.169531 146.92294
1240000000 -2.7370346 -164.18648 -21.603756 -148.49466 -48.514507 81.43676 -20.145933 108.00587
1249500000 -2.7965138 166.95866 -21.484804 111.01299 -48.454967 -9.8882685 -23.412622 70.671417
1259000000 -2.8572061 137.77361 -21.463154 9.6533337 -48.442329 -102.88472 -31.966005 46.872478
1268500000 -2.8918114 108.39267 -21.435219 -91.476463 -48.384174 166.14343 -31.468529 134.76903
1278000000 -2.8856187 79.082146 -21.48354 166.97972 -48.478897 73.889824 -23.817108 109.90549
1287500000 -2.8549352 50.153076 -21.543659 66.614807 -48.525692 -17.000229 -21.139185 73.743401
1297000000 -2.8142149 21.649275 -21.361279 -35.022621 -48.259323 -109.63505 -20.848362 37.605122
1306500000 -2.7614443 -6.3606353 -21.624367 -138.07347 -48.573128 156.55864 -22.521366 6.0631123
1316000000 -2.6964929 -33.764805 -22.019392 122.98763 -48.866947 66.988716 -25.98279 -10.261962
1325500000 -2.6561718 -60.748959 -21.831285 24.006655 -48.630878 -22.846418 -26.978951 2.350174
1335000000 -2.6526487 -87.623894 -21.801926 -77.820152 -48.633366 -115.6371 -23.257036 -4.2772188
1344500000 -2.659796 -114.53056 -21.98514 -177.64099 -48.796349 154.08192 -20.73032 -32.265274
1354000000 -2.678278 -141.55554 -21.892736 82.666458 -48.606716 62.108578 -19.971746 -66.994507
1363500000 -2.720777 -168.87434 -21.88846 -17.839828 -48.684757 -28.719053 -20.99596 -104.3148
1373000000 -2.7758253 163.32114 -21.82218 -117.62359 -48.686211 -119.9124 -24.539009 -142.06987
1382500000 -2.821799 135.14911 -21.731705 141.57347 -48.632053 148.50015 -35.254105 -171.33968
1392000000 -2.8448853 106.8061 -21.768713 41.567616 -48.741894 57.996429 -30.696859 -53.978325
1401500000 -2.8500166 78.358475 -21.562897 -58.584896 -48.575333 -33.506454 -23.336433 -88.909988
1411000000 -2.8394539 49.972534 -21.530739 -160.52505 -48.535244 -126.07999 -20.767178 -127.67944
1420500000 -2.8079338 21.887972 -21.664478 99.35051 -48.725399 143.73311 -20.602421 -165.94397
1430000000 -2.7528572 -5.7614241 -21.533289 -1.1497734 -48.652737 51.463921 -22.619799 159.36998
1439500000 -2.7018661 -32.923656 -21.661287 -102.63811 -48.856926 -40.735722 -27.77475 138.28357
1449000000 -2.6714096 -59.736153 -21.821903 158.31412 -49.027119 -130.26506 -30.504328 -178.53659
1458500000 -2.6599231 -86.460968 -21.624165 58.988682 -48.80687 139.08427 -23.311499 178.13066
1468000000 -2.6685517 -113.24209 -21.488171 -42.022373 -48.807247 47.607048 -19.63377 146.53636
1477500000 -2.6920998 -140.13835 -21.509127 -142.33754 -48.873249 -43.492237 -18.065905 110.07645
1487000000 -2.7434223 -167.45955 -21.395344 118.11721 -48.823498 -133.70633 -18.064299 71.851929
1496500000 -2.8111696 164.71742 -21.110794 17.721767 -48.585571 135.17557 -19.733252 33.220947
1506000000 -2.8703494 136.46112 -20.94503 -84.155045 -48.501499 42.986591 -23.834297 -3.7379806
1515500000 -2.924969 107.82162 -20.940493 174.93217 -48.601608 -48.54076 -34.68483 -25.253948
1525000000 -2.9668868 78.85405 -20.760641 74.180702 -48.367737 -139.74913 -30.482691 76.200668
1534500000 -2.9796588 49.743149 -20.694479 -27.688805 -48.361553 128.16216 -23.817827 45.50684
1544000000 -2.9704635 20.778629 -20.658165 -128.45575 -48.389225 36.919468 -21.779165 9.664341
1553500000 -2.9462345 -7.8403296 -20.537477 129.60274 -48.301449 -55.33519 -22.048037 -24.651602
1563000000 -2.9083292 -36.061764 -20.775372 28.174549 -48.593582 -147.53767 -24.389019 -53.674942
1572500000 -2.8795269 -63.888134 -20.743389 -70.547676 -48.531178 123.17317 -28.978325 -62.732132
1582000000 -2.8818097 -91.511337 -20.389273 -171.95419 -48.27422 31.42569 -28.897381 -35.135979
1591500000 -2.9057529 -119.17924 -20.523172 85.986298 -48.453865 -61.423931 -24.207708 -43.312004
1601000000 -2.937284 -146.96045 -20.484526 -13.324088 -48.422379 -150.909 -21.626801 -70.068138
1610500000 -2.9873147 -175.02118 -20.196852 -114.79596 -48.191494 116.96759 -20.82905 -100.54125
1620000000 -3.0691867 156.44125 -20.248764 143.65102 -48.315758 25.179155 -21.510258 -129.81799
1629500000 -3.1456375 127.41726 -20.084709 43.431171 -48.202579 -65.720604 -23.47156 -153.17888
1639000000 -3.1916919 98.146393 -19.896502 -59.009953 -48.056911 -158.45538 -25.962786 -163.99464
1648500000 -3.2261047 68.696304 -20.011538 -160.56877 -48.234783 109.85958 -26.744608 -163.27817
1658000000 -3.2531955 39.101551 -19.90169 98.743607 -48.078785 18.792482 -25.664495 -169.62631
1667500000 -3.2419486 9.6938801 -19.840849 -3.8085887 -48.047077 -73.924706 -24.943846 175.92213
1677000000 -3.1857617 -19.188677 -20.07234 -105.43115 -48.258461 -165.9072 -24.962545 162.01231
1686500000 -3.1294465 -47.531567 -20.192062 154.78072 -48.416473 103.77744 -24.800367 153.20152
1696000000 -3.1066415 -75.496811 -20.05888 54.538448 -48.264267 13.023885 -23.533428 143.59576
1705500000 -3.0873051 -103.16956 -20.001705 -47.30225 -48.205742 -79.276924 -21.87591 126.16802
1715000000 -3.0657554 -130.62488 -20.129488 -147.94395 -48.388771 -170.15775 -20.817516 102.14897
1724500000 -3.0745478 -158.00079 -19.964388 112.06618 -48.258389 99.114792 -20.797972 75.317497
1734000000 -3.117872 174.39236 -19.893459 9.6240892 -48.218861 5.9414353 -21.992332 49.925404
1743500000 -3.1717703 146.38939 -20.137388 -90.440178 -48.509995 -84.25016 -24.274464 32.037617
1753000000 -3.2090859 118.17519 -19.808393 170.46046 -48.239395 -173.73531 -26.196278 29.094769
1762500000 -3.2343721 89.776779 -19.620173 67.027489 -48.03017 92.541374 -25.326365 28.010494
1772000000 -3.27373 61.091267 -19.916138 -33.346035 -48.404381 1.4317718 -23.782209 11.586315
1781500000 -3.2962873 32.321495 -19.577341 -132.92873 -48.124245 -87.97242 -23.579805 -13.746704
1791000000 -3.2655537 3.7306435 -19.532242 123.40532 -48.101261 177.7018 -25.389675 -40.309471
1800500000 -3.2183347 -24.479856 -19.858465 23.683134 -48.448547 87.22628 -30.426165 -55.213333
1810000000 -3.1834321 -52.26041 -19.567181 -76.176682 -48.11729 -3.2722836 -32.954006 -6.4290257
1819500000 -3.1573739 -79.810402 -19.642872 -178.63089 -48.225353 -96.753891 -25.725826 -4.8550162
1829000000 -3.1307604 -107.09743 -19.688 82.601181 -48.289169 174.18172 -21.991926 -30.951525
1838500000 -3.1041806 -134.04094 -19.234997 -18.999269 -47.991356 82.04847 -20.411554 -60.968166
1848000000 -3.1172566 -160.94348 -19.398848 -121.93407 -48.278271 -11.806636 -20.325064 -89.787636
1857500000 -3.178303 171.87672 -19.34724 138.74715 -48.276482 -101.88825 -21.349001 -113.57732
1867000000 -3.2355211 144.39441 -18.975838 35.863708 -47.931175 165.24016 -22.689842 -128.44116
1876500000 -3.2871053 116.65052 -19.206408 -66.946907 -48.309235 71.769302 -22.988224 -136.6983
1886000000 -3.3685377 88.657494 -19.099525 -167.48512 -48.245987 -18.819738 -22.057898 -149.28775
1895500000 -3.4577594 60.232388 -19.023401 88.463493 -48.230267 -112.80734 -21.23521 -169.86296
1905000000 -3.5186267 31.458492 -19.377232 -13.598899 -48.638706 154.65686 -21.277632 165.12068
1914500000 -3.538624 2.8397698 -19.299585 -115.53046 -48.615093 62.353146 -22.539141 139.35066
1924000000 -3.5418427 -25.538614 -19.689848 139.73244 -49.064182 -32.478226 -25.4076 118.63576
1933500000 -3.5438242 -53.768581 -20.347643 39.751663 -49.612347 -122.62395 -29.436003 119.35711
1943000000 -3.528455 -81.740448 -20.372734 -60.435112 -49.741661 147.07106 -28.321991 138.72653
1952500000 -3.4886668 -109.38457 -20.785463 -163.16757 -50.238869 54.305717 -24.942186 127.08373
1962000000 -3.4615979 -136.76877 -21.342365 98.105774 -50.93948 -34.834709 -23.598866 101.02655
1971500000 -3.4698884 -164.12119 -21.381924 -0.90448612 -50.859806 -123.69609 -24.535717 73.223228
1981000000 -3.4962931 168.3174 -21.565983 -101.26844 -51.030159 146.08275 -28.257109 56.101871
1990500000 -3.5239463 140.50592 -21.706818 159.59531 -51.245125 56.719948 -30.740519 85.653442
2000000000 -3.5620933 112.47704 -21.723755 59.716187 -51.303669 -33.619823 -24.657467 89.929192
