!Keysight Technologies,N5242B,MY48420967,A.15.65.19
!Date: Saturday, December 17, 2022 21:11:28
!Correction: S11(C  2-Port  ) 
!S21(C  2-Port  ) 
!S12(C  2-Port  ) 
!S22(C  2-Port  ) 
!S2P File: Measurements: S11, S21, S12, S22:
# Hz S  dB   R 50
100000000 -21.922691 -49.566551 -0.68396676 78.986885 -0.68666953 78.974396 -23.700132 -25.389843
109500000 -21.949833 -66.144417 -0.7057004 52.334034 -0.70696378 52.329548 -23.42272 -52.888756
119000000 -23.501505 -79.825005 -0.72128874 25.690361 -0.72347909 25.673254 -24.349297 -81.343117
128500000 -26.359842 -95.760971 -0.73803425 -0.98384225 -0.74068189 -0.99788266 -26.422689 -105.8519
138000000 -29.333456 -112.49083 -0.75766802 -27.645994 -0.76021075 -27.657667 -28.752016 -124.36665
147500000 -31.750921 -118.71091 -0.77793306 -54.285225 -0.78059155 -54.29805 -31.429337 -144.01947
157000000 -33.568913 -113.91283 -0.79815406 -80.9105 -0.80108178 -80.923241 -36.09877 -162.34711
166500000 -35.468456 -120.08588 -0.818214 -107.53004 -0.82095665 -107.5405 -41.307224 -166.25433
176000000 -39.034657 -159.67651 -0.83833313 -134.14203 -0.84105337 -134.15274 -42.677105 161.69626
185500000 -38.913307 116.015 -0.85860676 -160.74315 -0.86140287 -160.75365 -39.133648 99.553558
195000000 -32.972046 55.93927 -0.87856448 172.67163 -0.88141942 172.66164 -34.028027 62.400219
204500000 -28.80514 22.413372 -0.89708608 146.10152 -0.89997041 146.0925 -30.631008 34.900791
214000000 -27.308041 -4.3686619 -0.91305006 119.53439 -0.91551286 119.52888 -29.167513 11.69047
223500000 -27.705374 -33.333511 -0.92703748 92.969505 -0.92970258 92.963074 -28.796709 -9.3542709
233000000 -28.837143 -62.833172 -0.93934244 66.398415 -0.94225246 66.392311 -29.877714 -33.26841
242500000 -31.362579 -82.180435 -0.95256293 39.812958 -0.95539761 39.807472 -33.519245 -55.881802
252000000 -38.891853 -73.350174 -0.96763325 13.226084 -0.97048295 13.222384 -41.739372 -67.458031
261500000 -37.544624 20.022522 -0.98440683 -13.35366 -0.98735988 -13.357387 -43.031281 44.914536
271000000 -31.812929 19.523222 -1.001696 -39.918221 -1.0043023 -39.921173 -33.790043 30.422779
280500000 -29.73357 -4.7528744 -1.0175067 -66.464531 -1.0201977 -66.467674 -30.241093 4.6225348
290000000 -27.776327 -33.93438 -1.0320237 -93.003082 -1.0345976 -93.006622 -28.487722 -20.248167
299500000 -26.537981 -54.434433 -1.0451235 -119.54362 -1.0476676 -119.54768 -27.688473 -44.276482
309000000 -27.365974 -68.170807 -1.0570111 -146.09209 -1.0597179 -146.0963 -27.716722 -67.925804
318500000 -30.38438 -80.996147 -1.068241 -172.65125 -1.0708984 -172.65529 -28.856268 -91.503128
328000000 -33.754097 -98.28949 -1.0797588 160.78386 -1.0824728 160.77895 -31.23982 -110.57582
337500000 -33.775036 -115.06141 -1.0927289 134.21683 -1.095425 134.21277 -33.180058 -125.51514
347000000 -32.027737 -128.26923 -1.107078 107.65299 -1.1099745 107.64912 -33.95364 -154.16441
356500000 -31.952637 -152.27383 -1.1222898 81.091942 -1.1252116 81.088959 -33.981361 166.47922
366000000 -32.068314 156.35002 -1.1381344 54.528248 -1.1409588 54.526211 -31.972059 135.57234
375500000 -28.308237 106.92464 -1.1561332 27.97261 -1.1590141 27.969481 -28.491716 110.67233
385000000 -25.277626 77.224602 -1.1754684 1.4468812 -1.1783404 1.4439812 -25.432547 83.923866
394500000 -23.981329 50.636539 -1.1923393 -25.046028 -1.1949314 -25.048967 -23.622633 56.131939
404000000 -23.284012 21.400248 -1.2043523 -51.534969 -1.2071303 -51.539063 -22.891911 30.148855
413500000 -22.445507 -6.5234933 -1.2159945 -78.034843 -1.2190092 -78.037613 -22.490517 6.247241
423000000 -21.984747 -29.440596 -1.2265996 -104.52171 -1.2291998 -104.52388 -22.219387 -19.928102
432500000 -22.589869 -49.619545 -1.2310262 -131.01138 -1.2336994 -131.01396 -22.741177 -48.592499
442000000 -24.311443 -71.30101 -1.2329664 -157.54089 -1.235642 -157.54462 -24.208961 -74.467995
451500000 -26.424925 -95.659416 -1.2381036 175.90181 -1.2409251 175.89943 -25.934481 -95.37738
461000000 -28.163157 -116.05601 -1.2465156 149.34586 -1.2492568 149.34404 -27.641386 -116.9197
470500000 -29.817684 -127.84962 -1.2561361 122.79284 -1.2587734 122.7903 -30.185944 -142.76073
480000000 -31.979622 -140.9669 -1.2661902 96.23793 -1.2690651 96.234543 -33.634209 -168.9008
489500000 -34.087723 -176.89108 -1.2773304 69.682915 -1.2804404 69.679771 -35.249542 165.47426
499000000 -32.333076 132.46732 -1.2903423 43.137981 -1.2931616 43.13512 -33.189438 131.36005
508500000 -29.807106 97.190796 -1.3032274 16.611462 -1.3059247 16.610081 -30.488367 96.876717
518000000 -28.740406 64.799416 -1.3146482 -9.9052219 -1.3175793 -9.9075203 -28.71946 69.881256
527500000 -27.943748 31.536718 -1.3253603 -36.420677 -1.328349 -36.422718 -27.489046 47.442127
537000000 -27.214823 4.1304297 -1.3348129 -62.931122 -1.3378327 -62.932373 -26.915724 23.003918
546500000 -27.38702 -16.514793 -1.3421657 -89.442581 -1.344918 -89.444267 -27.579056 -4.4429402
556000000 -28.859039 -33.41069 -1.3486016 -115.96753 -1.351265 -115.96995 -29.745888 -32.988934
565500000 -31.802879 -46.767014 -1.3561416 -142.50389 -1.3585488 -142.50827 -33.589211 -62.389217
575000000 -36.665611 -47.58326 -1.3649114 -169.04523 -1.3671979 -169.05081 -41.221642 -99.958122
584500000 -38.910503 -9.391304 -1.3749163 164.41476 -1.3776115 164.40663 -45.711197 91.567963
594000000 -33.661449 0.74943483 -1.3861759 137.88269 -1.3898633 137.8734 -35.462002 44.251358
603500000 -29.87077 -15.041885 -1.3980557 111.36022 -1.4019277 111.35413 -31.477039 16.049919
613000000 -28.012812 -33.664928 -1.408704 84.843994 -1.4127171 84.842949 -29.255438 -8.558012
622500000 -28.163774 -51.546207 -1.4174947 58.333286 -1.421383 58.334755 -28.372395 -34.315128
632000000 -30.376431 -70.370255 -1.4239731 31.816383 -1.427088 31.818836 -29.431101 -59.660107
641500000 -33.966934 -92.049614 -1.4309943 5.2857065 -1.4337137 5.2874327 -32.434868 -77.448288
651000000 -37.140736 -108.08549 -1.4393166 -21.244692 -1.4419987 -21.245529 -35.937469 -85.764656
660500000 -38.673832 -102.08805 -1.4483269 -47.773067 -1.4510616 -47.774303 -40.6786 -98.078217
670000000 -39.50053 -86.30188 -1.4575411 -74.298828 -1.4604266 -74.300758 -51.443966 -78.215675
679500000 -44.93111 -62.757561 -1.4668195 -100.8267 -1.4695574 -100.82867 -48.098351 -55.521599
689000000 -43.591923 54.281456 -1.4763559 -127.35598 -1.4792418 -127.35765 -44.63372 -155.63623
698500000 -36.058216 65.975868 -1.4865001 -153.8791 -1.4895796 -153.88092 -36.923019 134.87474
708000000 -33.892723 51.24498 -1.4964062 179.60497 -1.4993697 179.60388 -33.601868 94.016541
717500000 -31.931379 18.920935 -1.5060914 153.08398 -1.5090004 153.08311 -32.361668 69.626945
727000000 -28.680693 -6.9043751 -1.5174708 126.56493 -1.5204018 126.56351 -30.336737 48.446777
736500000 -27.014523 -20.97813 -1.5275656 100.06514 -1.5305991 100.06342 -28.928087 16.198484
746000000 -28.054455 -34.191624 -1.533046 73.565048 -1.5360553 73.562798 -29.691818 -18.073345
755500000 -31.666338 -58.870625 -1.5374577 47.045078 -1.5404189 47.042847 -32.393707 -43.428059
765000000 -35.210617 -96.68502 -1.5441016 20.516132 -1.5469711 20.513149 -36.296566 -56.527943
774500000 -40.512589 -97.452171 -1.5524787 -6.0180383 -1.5555934 -6.0218167 -44.529488 -50.899864
784000000 -36.416759 -8.580389 -1.5631289 -32.560089 -1.5662209 -32.562496 -38.397228 45.968445
793500000 -29.588192 -0.73911422 -1.5754448 -59.087154 -1.5787704 -59.089764 -30.408361 24.841831
803000000 -27.682556 -10.223733 -1.5863068 -85.590034 -1.5894477 -85.591164 -27.530666 -4.221417
812500000 -27.650234 -32.39846 -1.5944766 -112.09081 -1.5975864 -112.09208 -26.877922 -29.318226
822000000 -27.006739 -59.809017 -1.6029598 -138.59918 -1.6061289 -138.60046 -26.712196 -51.484459
831500000 -26.286615 -78.994942 -1.6115451 -165.10568 -1.6148076 -165.10667 -26.778894 -77.238258
841000000 -26.932844 -93.34391 -1.6184419 168.38612 -1.6216288 168.38359 -27.501419 -105.81487
850500000 -28.773872 -112.31327 -1.6245854 141.86874 -1.6277835 141.86674 -28.590815 -133.96292
860000000 -30.236645 -140.71989 -1.6313982 115.34474 -1.6345905 115.34265 -29.554417 -159.15192
869500000 -30.426601 -170.87881 -1.6399196 88.815277 -1.6430788 88.812775 -29.556658 178.32497
879000000 -30.229452 158.14474 -1.6501833 62.284317 -1.6533315 62.281517 -28.738287 152.71284
888500000 -29.184023 121.67772 -1.6616853 35.750942 -1.6646982 35.749611 -27.715441 126.38253
898000000 -26.999548 86.176399 -1.6755919 9.2210665 -1.6784518 9.2194824 -26.140751 100.72797
907500000 -24.709045 55.18676 -1.6918428 -17.289038 -1.6946713 -17.291286 -24.298717 73.797905
917000000 -22.73535 27.43895 -1.7086031 -43.770592 -1.7115401 -43.772762 -22.641911 46.459568
926500000 -21.276548 2.6717472 -1.7237595 -70.219612 -1.7267962 -70.222908 -21.381012 18.980131
936000000 -20.566786 -20.546534 -1.7335356 -96.651192 -1.7365389 -96.656509 -20.732065 -8.1330862
945500000 -20.521637 -44.263802 -1.7383622 -123.09385 -1.7415404 -123.09924 -20.632751 -34.102173
955000000 -20.810835 -68.585411 -1.7404757 -149.54881 -1.7438114 -149.5542 -20.922543 -59.730099
964500000 -21.352537 -91.470924 -1.7401147 -176.01935 -1.7437936 -176.02457 -21.604729 -86.001541
974000000 -22.442156 -112.07868 -1.7388041 157.49052 -1.742705 157.48718 -22.685188 -113.35038
983500000 -24.269657 -132.62892 -1.7373132 130.97928 -1.7413955 130.97813 -24.292822 -141.70172
993000000 -26.471134 -156.92702 -1.7375499 104.44068 -1.7415451 104.44163 -26.357422 -167.59441
1002500000 -28.089546 175.11003 -1.7418219 77.894592 -1.7454755 77.898003 -27.826107 169.09178
1012000000 -28.975866 148.87747 -1.7488015 51.365913 -1.7521161 51.369507 -28.749352 140.46048
1021500000 -30.16168 121.31233 -1.7553056 24.843147 -1.7582958 24.846613 -29.96419 110.2622
1031000000 -30.77383 80.167053 -1.7629274 -1.6882519 -1.7659744 -1.6844668 -30.365602 86.375099
1040500000 -28.37331 40.178471 -1.773486 -28.211252 -1.7764224 -28.208937 -28.820736 62.180019
1050000000 -25.995127 16.617805 -1.7843956 -54.705914 -1.7872686 -54.703354 -26.918743 31.186815
1059500000 -25.411808 -2.8111396 -1.7906917 -81.184097 -1.7937098 -81.182114 -26.196732 -0.80336797
1069000000 -26.026371 -27.673635 -1.7944744 -107.68398 -1.7974364 -107.68119 -26.560932 -26.199665
1078500000 -26.299074 -55.415497 -1.8007244 -134.19472 -1.8037934 -134.19228 -26.726755 -47.273579
1088000000 -26.519615 -73.442245 -1.8066157 -160.69249 -1.8096403 -160.68939 -27.255516 -75.834473
1097500000 -28.293631 -78.82444 -1.8091757 172.80144 -1.8124381 172.80461 -30.188162 -112.22176
1107000000 -31.762674 -71.452812 -1.8128471 146.27254 -1.8160223 146.27596 -37.341606 -154.06746
1116500000 -34.024578 -58.317974 -1.819084 119.74246 -1.8223783 119.74528 -46.99601 97.619537
1126000000 -32.66087 -65.347664 -1.8272786 93.220001 -1.8304832 93.222183 -37.754429 31.188578
1135500000 -29.604507 -81.117638 -1.8370743 66.709274 -1.8402988 66.711876 -32.132637 1.5861727
1145000000 -27.770737 -92.271286 -1.8459898 40.219711 -1.8490423 40.222061 -29.319338 -32.991009
1154500000 -28.300323 -101.93474 -1.850768 13.730974 -1.8540351 13.732297 -29.370474 -67.429718
1164000000 -31.289505 -116.1895 -1.8545532 -12.781714 -1.8576498 -12.779615 -31.524994 -90.587799
1173500000 -35.655746 -142.89619 -1.8602735 -39.301392 -1.8631463 -39.30006 -33.316769 -102.369
1183000000 -39.079334 -167.70145 -1.8663095 -65.814888 -1.8693794 -65.814102 -35.53318 -120.08289
1192500000 -43.704777 -145.39671 -1.8727499 -92.329651 -1.8757551 -92.330185 -42.362564 -124.97278
1202000000 -40.916355 -79.773666 -1.8799816 -118.84413 -1.8829231 -118.84492 -41.474838 -70.073502
1211500000 -37.415253 -56.011047 -1.8868417 -145.35341 -1.8900298 -145.35373 -37.964828 -88.876839
1221000000 -37.233635 -39.772106 -1.8931509 -171.86107 -1.8962711 -171.86174 -40.382153 -117.2673
1230500000 -38.029636 -26.923666 -1.8993976 161.62825 -1.9025055 161.62778 -47.823483 -134.54738
1240000000 -37.295551 -32.536621 -1.9065005 135.11458 -1.9096684 135.11418 -58.18713 98.372368
1249500000 -34.306778 -51.248062 -1.914546 108.60345 -1.9176077 108.60387 -41.343651 36.284058
1259000000 -31.661888 -65.962227 -1.9218522 82.099358 -1.9249194 82.100517 -35.977112 0.066328563
1268500000 -31.09556 -78.640472 -1.9276412 55.596786 -1.9307714 55.5984 -34.60487 -32.498234
1278000000 -32.801208 -91.984024 -1.9328485 29.087976 -1.936022 29.0912 -35.57954 -62.661346
1287500000 -37.154678 -97.700058 -1.9385673 2.5661261 -1.9415025 2.5700204 -39.626644 -99.150688
1297000000 -41.082714 -47.1492 -1.9457352 -23.967354 -1.9487147 -23.962379 -47.141819 142.45668
1306500000 -33.822926 -19.477879 -1.9552116 -50.498978 -1.9582329 -50.493858 -35.527374 59.135292
1316000000 -29.343397 -30.532961 -1.9659561 -77.018372 -1.9691914 -77.014297 -30.136705 25.736622
1325500000 -26.550587 -50.711941 -1.9782386 -103.52631 -1.981573 -103.52588 -26.869387 -0.42202693
1335000000 -24.419149 -71.477356 -1.9919236 -130.01436 -1.9954008 -130.01619 -24.544933 -26.736258
1344500000 -23.230322 -89.765076 -2.0030327 -156.48004 -2.0065823 -156.4825 -23.301889 -54.540337
1354000000 -23.2656 -109.26598 -2.0090301 177.05083 -2.0126979 177.04759 -23.086206 -81.056
1363500000 -23.879356 -134.44856 -2.0137885 150.5621 -2.0175016 150.55908 -23.297852 -104.91161
1373000000 -23.959122 -161.22928 -2.0194831 124.07644 -2.0233037 124.07274 -23.516417 -129.92209
1382500000 -24.069691 177.92101 -2.0233722 97.595482 -2.0272861 97.593628 -24.237375 -158.04405
1392000000 -25.36833 158.13297 -2.0256968 71.089294 -2.029696 71.089264 -25.503805 175.31311
1401500000 -27.209932 126.42261 -2.0315909 44.555687 -2.035428 44.555786 -26.221844 152.12476
1411000000 -26.53334 86.567497 -2.0414765 18.021761 -2.0453212 18.022575 -25.799906 126.60471
1420500000 -24.758457 58.442413 -2.0530884 -8.49335 -2.0568581 -8.4913883 -24.992807 97.050949
1430000000 -24.077816 32.265285 -2.0641215 -34.994686 -2.0675783 -34.992027 -24.246529 68.400032
1439500000 -23.386742 -0.71314508 -2.0767713 -61.493404 -2.0801299 -61.490608 -23.210709 42.895103
1449000000 -21.61121 -30.797743 -2.0928395 -87.963615 -2.0963917 -87.960999 -21.822716 16.580328
1458500000 -20.205816 -51.928295 -2.1060073 -114.38728 -2.1094837 -114.38526 -20.814142 -12.393099
1468000000 -20.0221 -70.909744 -2.110878 -140.81021 -2.1141191 -140.8078 -20.54624 -40.801872
1477500000 -20.546173 -94.413239 -2.1131206 -167.26399 -2.116276 -167.26289 -20.612663 -66.675087
1487000000 -20.681313 -120.95113 -2.11691 166.28371 -2.1199582 166.28455 -20.733168 -92.761925
1496500000 -20.627588 -142.87083 -2.1175358 139.84807 -2.1204212 139.84766 -21.248922 -120.93793
1506000000 -21.514177 -160.70096 -2.112916 113.39137 -2.1160595 113.39139 -22.438841 -149.70749
1515500000 -23.538273 178.6189 -2.1080964 86.891533 -2.1112664 86.890327 -24.125648 -176.78668
1525000000 -25.466036 151.16626 -2.1070557 60.36903 -2.1102316 60.367138 -25.794411 156.9556
1534500000 -26.391872 126.26611 -2.1085835 33.846088 -2.1118162 33.845207 -27.415211 127.86874
1544000000 -27.83123 106.7376 -2.111016 7.321949 -2.1142504 7.3201299 -29.236835 97.101654
1553500000 -30.39333 77.370453 -2.1148243 -19.205687 -2.1181314 -19.207672 -30.629694 69.705956
1563000000 -30.654123 31.663412 -2.120657 -45.725239 -2.1240029 -45.726845 -30.466694 44.294044
1572500000 -28.674911 -0.059797332 -2.1271613 -72.231285 -2.1306345 -72.234032 -29.446234 15.926846
1582000000 -27.800926 -22.920475 -2.1336169 -98.73365 -2.1369832 -98.736557 -28.545948 -12.157415
1591500000 -27.541918 -46.664818 -2.1398437 -125.23647 -2.1433384 -125.2391 -27.778746 -39.452824
1601000000 -27.128719 -68.063576 -2.1452446 -151.73833 -2.1488724 -151.74013 -27.448658 -67.762886
1610500000 -27.007959 -85.195084 -2.1503508 -178.23648 -2.1539373 -178.23785 -27.654322 -96.884933
1620000000 -27.320721 -102.36013 -2.1551011 155.2715 -2.1586587 155.27089 -28.373049 -128.22038
1629500000 -27.526695 -119.04893 -2.1593485 128.77922 -2.1629398 128.77901 -29.725771 -162.94563
1639000000 -27.752615 -129.0486 -2.1637144 102.27814 -2.1670711 102.2776 -31.722836 157.24033
1648500000 -28.569572 -132.48288 -2.168236 75.768166 -2.1716609 75.767593 -34.166874 109.69064
1658000000 -29.772354 -137.68448 -2.1730893 49.257404 -2.1764448 49.257069 -35.834362 54.490177
1667500000 -30.195137 -152.38104 -2.1782165 22.750635 -2.1816366 22.750555 -35.349628 1.5092043
1677000000 -29.406357 -168.63824 -2.1838086 -3.7476377 -2.1871479 -3.7485416 -33.90551 -41.286163
1686500000 -29.512287 -179.06447 -2.1889374 -30.240582 -2.1923287 -30.241425 -33.207882 -76.712845
1696000000 -32.41087 170.01463 -2.1929827 -56.739929 -2.1964514 -56.741394 -34.083755 -104.87125
1705500000 -39.01939 137.08565 -2.197015 -83.25119 -2.2003229 -83.253014 -36.699203 -121.34479
1715000000 -41.060013 67.247437 -2.2016175 -109.76736 -2.2049592 -109.76995 -39.558384 -111.56478
1724500000 -42.636799 25.945786 -2.2067683 -136.27829 -2.2103746 -136.28194 -37.513294 -98.610809
1734000000 -41.479519 -61.644321 -2.2124145 -162.78342 -2.2161484 -162.7865 -35.485012 -105.54636
1743500000 -34.263588 -92.197456 -2.2190421 170.71439 -2.222929 170.71161 -33.653587 -117.04751
1753000000 -31.547075 -104.63507 -2.2265027 144.21529 -2.23037 144.21275 -32.092724 -139.66974
1762500000 -31.44113 -121.39287 -2.2326748 117.71894 -2.2367532 117.71671 -32.062656 -169.57928
1772000000 -32.003132 -146.42664 -2.2371154 91.216629 -2.2413795 91.215866 -33.763981 162.92799
1781500000 -32.205635 -169.64584 -2.2415755 64.706734 -2.2457473 64.707397 -35.715214 146.79607
1791000000 -33.226322 175.92284 -2.247241 38.197975 -2.2514768 38.199734 -36.221352 129.01778
1800500000 -36.139664 164.6319 -2.2533438 11.69455 -2.2576053 11.697959 -38.182705 101.87229
1810000000 -42.289944 141.00226 -2.2590227 -14.809305 -2.2631717 -14.804396 -42.469231 97.010315
1819500000 -47.026218 35.270027 -2.2651384 -41.322929 -2.2688909 -41.317139 -38.764839 101.64092
1829000000 -38.242592 -24.047434 -2.2726278 -67.839935 -2.2763202 -67.834427 -34.470974 62.291599
1838500000 -32.918671 -52.459728 -2.2808189 -94.351807 -2.284457 -94.345421 -32.052265 20.31794
1848000000 -29.383581 -74.50737 -2.289269 -120.85975 -2.2927856 -120.85424 -30.004827 -10.772944
1857500000 -27.190685 -95.190086 -2.29935 -147.36235 -2.3026958 -147.35764 -27.473494 -36.546528
1867000000 -25.771381 -117.49932 -2.3111553 -173.84229 -2.3144555 -173.83791 -25.152876 -64.618103
1876500000 -24.525188 -140.64519 -2.3211443 159.70293 -2.3241749 159.70656 -23.856707 -94.614853
1886000000 -23.496361 -161.96469 -2.3268218 133.23904 -2.3297555 133.24294 -23.615709 -122.40915
1895500000 -23.164074 177.66109 -2.3320396 106.75243 -2.3351958 106.75523 -23.679234 -146.34233
1905000000 -23.605419 154.40364 -2.3390012 80.278946 -2.3420985 80.28038 -23.609564 -170.65236
1914500000 -24.225279 126.88663 -2.3429112 53.828636 -2.3459864 53.829449 -23.908493 162.45695
1924000000 -24.745438 100.08153 -2.3423133 27.362522 -2.3455758 27.36348 -24.908175 136.5995
1933500000 -25.93424 75.329628 -2.3428118 0.86057705 -2.3461268 0.86154491 -26.090858 115.35825
1943000000 -27.832472 43.961243 -2.3468101 -25.653982 -2.3501718 -25.653423 -26.672495 95.528732
1952500000 -28.148653 3.8274827 -2.3524868 -52.162159 -2.3559468 -52.161861 -26.871239 70.78756
1962000000 -26.829807 -26.424606 -2.3575757 -78.662094 -2.3611956 -78.661461 -27.344831 41.226902
1971500000 -26.23217 -49.136837 -2.3631568 -105.16506 -2.3666892 -105.1648 -27.741022 12.156119
1981000000 -26.200569 -75.783318 -2.3709581 -131.66481 -2.3746269 -131.66486 -27.017101 -16.702477
1990500000 -25.300804 -105.25914 -2.380074 -158.14499 -2.3838098 -158.14461 -25.668447 -48.728539
