!Keysight Technologies,N5242B,MY48420967,A.15.65.19
!Date: Sunday, December 18, 2022 01:34:17
!Correction: S11(C  2-Port  ) 
!S21(C  2-Port  ) 
!S12(C  2-Port  ) 
!S22(C  2-Port  ) 
!S2P File: Measurements: S11, S21, S12, S22:
# Hz S  dB   R 50
100000000 -22.250225 -49.893978 -0.73025012 78.92511 -0.73264265 78.916161 -24.113913 -25.998306
109500000 -22.161701 -65.990814 -0.75540978 52.285892 -0.75635344 52.284786 -23.691498 -53.438938
119000000 -23.609159 -79.383492 -0.77404451 25.658875 -0.77591902 25.644503 -24.501537 -81.824974
128500000 -26.340403 -95.36441 -0.79341322 -0.99770635 -0.79578179 -1.0089202 -26.441292 -106.26946
138000000 -29.135651 -112.70937 -0.8153519 -27.642208 -0.81760466 -27.651417 -28.60261 -124.98322
147500000 -31.412619 -120.66866 -0.83779973 -54.264538 -0.84010905 -54.274658 -31.062113 -145.21371
157000000 -33.420929 -118.51205 -0.8601411 -80.872856 -0.86270607 -80.883316 -35.323902 -165.30949
166500000 -35.717861 -126.43342 -0.88228738 -107.4755 -0.88468683 -107.48387 -40.158916 -175.28749
176000000 -39.18372 -169.34642 -0.90458071 -134.06999 -0.90699124 -134.07825 -41.281528 151.94655
185500000 -38.062874 110.45664 -0.92689806 -160.65204 -0.92936558 -160.66029 -37.965107 97.025772
195000000 -32.509529 54.887627 -0.94873774 172.78221 -0.95128667 172.7744 -33.454773 61.458786
204500000 -28.585571 21.971918 -0.96898746 146.23129 -0.97155571 146.22423 -30.339544 34.171261
214000000 -27.186419 -4.6385064 -0.9865281 119.68263 -0.98870236 119.67918 -29.004562 10.949803
223500000 -27.640905 -33.510647 -1.0021532 93.136223 -1.0044755 93.131851 -28.726589 -10.138667
233000000 -28.818634 -62.999126 -1.0161091 66.582558 -1.0187008 66.578964 -29.880543 -34.020435
242500000 -31.396236 -82.377838 -1.0311226 40.015919 -1.0336241 40.011955 -33.600739 -56.818874
252000000 -39.08239 -72.854706 -1.0480014 13.447658 -1.0505713 13.445337 -42.210873 -68.959618
261500000 -37.351234 21.211063 -1.0666419 -13.113014 -1.0691471 -13.114773 -42.641533 48.613743
271000000 -31.653744 19.899157 -1.0856813 -39.656868 -1.0879614 -39.658707 -33.606621 31.652613
280500000 -29.581934 -4.3929377 -1.1032522 -66.182465 -1.1055886 -66.184776 -30.094532 5.5888515
290000000 -27.629173 -33.471558 -1.1193752 -92.700027 -1.1216972 -92.701576 -28.340576 -19.472889
299500000 -26.373322 -54.062786 -1.1340555 -119.21877 -1.1363453 -119.22128 -27.528685 -43.614105
309000000 -27.142826 -68.142281 -1.1474861 -145.74536 -1.1498585 -145.74802 -27.522858 -67.376869
318500000 -30.05509 -81.71627 -1.1600678 -172.2825 -1.1623849 -172.28557 -28.604591 -91.06395
328000000 -33.330521 -100.20709 -1.1729385 161.17369 -1.1753073 161.17009 -30.883215 -110.58318
337500000 -33.497311 -117.74813 -1.1873657 134.62773 -1.1897509 134.62471 -32.805157 -126.47932
347000000 -31.985676 -130.77502 -1.2032129 108.08583 -1.2057123 108.08287 -33.646725 -155.17189
356500000 -32.036022 -154.27835 -1.2198664 81.546883 -1.2223995 81.54541 -33.743492 165.675
366000000 -32.159683 154.69768 -1.2370088 55.00618 -1.239494 55.005596 -31.899508 134.715
375500000 -28.395761 105.88367 -1.2561129 28.474226 -1.2587385 28.472132 -28.553989 110.00735
385000000 -25.392256 76.618164 -1.2765728 1.9716538 -1.2790798 1.9693843 -25.561403 83.540215
394500000 -24.134838 50.255898 -1.2942938 -24.499321 -1.2964983 -24.501261 -23.786791 55.946903
404000000 -23.471949 21.061872 -1.3071598 -50.9674 -1.309673 -50.970245 -23.087234 30.071165
413500000 -22.650068 -6.8051658 -1.3198107 -77.446419 -1.3224516 -77.447823 -22.722631 6.2570248
423000000 -22.208601 -29.536755 -1.3314449 -103.91396 -1.3337131 -103.91475 -22.485346 -19.843987
432500000 -22.85693 -49.482162 -1.3371276 -130.38383 -1.3393621 -130.3853 -23.040092 -48.539768
442000000 -24.658718 -70.956062 -1.3403978 -156.8933 -1.3428131 -156.89566 -24.568626 -74.544075
451500000 -26.890249 -95.156868 -1.3469765 176.57088 -1.3494725 176.57011 -26.400436 -95.463646
461000000 -28.761263 -115.1273 -1.3567402 150.03722 -1.359193 150.03642 -28.25016 -116.92221
470500000 -30.540031 -125.53594 -1.3677202 123.50615 -1.3700199 123.50517 -31.040207 -143.00237
480000000 -32.842514 -136.33516 -1.3790846 96.975655 -1.3815485 96.973183 -34.972172 -169.9272
489500000 -35.42144 -171.60361 -1.3913308 70.444298 -1.3940787 70.442307 -36.985653 163.54961
499000000 -33.625462 133.54431 -1.4051906 43.922485 -1.4076537 43.920448 -34.545444 128.62564
508500000 -30.743776 97.361847 -1.4189594 17.41683 -1.4213381 17.417116 -31.402449 94.289101
518000000 -29.524035 64.801979 -1.4315103 -9.0788555 -1.4340125 -9.0796442 -29.434263 68.045052
527500000 -28.597078 31.261374 -1.443397 -35.573101 -1.4459274 -35.573616 -28.09267 46.487404
537000000 -27.739029 4.0030322 -1.4540747 -62.061901 -1.4566621 -62.061947 -27.43301 22.655169
546500000 -27.83662 -16.095442 -1.4628309 -88.551498 -1.4651982 -88.552116 -28.048304 -4.4874387
556000000 -29.275959 -32.302216 -1.4706781 -115.05363 -1.4728673 -115.05472 -30.20661 -32.873283
565500000 -32.179787 -44.791428 -1.4794791 -141.56584 -1.481427 -141.56911 -34.091614 -62.234703
575000000 -36.858112 -44.296204 -1.4895399 -168.08286 -1.4912808 -168.08797 -41.931988 -100.19355
584500000 -38.666229 -7.787744 -1.5006006 165.40216 -1.5029322 165.39284 -45.473484 90.3993
594000000 -33.626232 0.95131689 -1.5128666 138.89449 -1.5163667 138.88426 -35.538708 44.657494
603500000 -29.947268 -14.793362 -1.525618 112.39552 -1.5296124 112.39042 -31.615843 16.488527
613000000 -28.120747 -33.192436 -1.5373254 85.902008 -1.5414225 85.903862 -29.422583 -7.9141316
622500000 -28.272181 -50.822815 -1.5473089 59.414555 -1.5509323 59.420071 -28.541971 -33.550793
632000000 -30.516455 -69.417076 -1.5549268 32.921291 -1.557658 32.928143 -29.631275 -58.784946
641500000 -34.243523 -91.064987 -1.5630206 6.41642 -1.5651945 6.4207554 -32.704853 -76.547417
651000000 -37.690243 -106.7983 -1.57226 -20.089024 -1.5744247 -20.088079 -36.49128 -84.263153
660500000 -39.330059 -97.27594 -1.5821772 -46.592579 -1.5844803 -46.592941 -41.831638 -93.332832
670000000 -39.479992 -77.006088 -1.5923516 -73.094215 -1.5947759 -73.095375 -51.98563 -42.279789
679500000 -42.690716 -51.159336 -1.6025187 -99.596786 -1.6047893 -99.597839 -45.863804 -32.268234
689000000 -43.66885 32.912033 -1.6127995 -126.10054 -1.6152067 -126.10155 -47.674618 -130.78252
698500000 -37.332668 59.10294 -1.6234906 -152.59988 -1.6261342 -152.60071 -39.100323 135.39047
708000000 -35.196476 47.564255 -1.6340896 -179.09279 -1.6366476 -179.09311 -35.092503 92.398788
717500000 -32.991055 15.569463 -1.6445358 154.40955 -1.6470429 154.4093 -33.692558 68.641159
727000000 -29.443485 -8.7401257 -1.6565763 127.91351 -1.6591035 127.91232 -31.451803 48.626945
736500000 -27.676998 -21.207874 -1.6674765 101.43362 -1.6700851 101.43282 -29.845852 16.379866
746000000 -28.745167 -33.003517 -1.6742268 74.954926 -1.6768192 74.953575 -30.549736 -18.38562
755500000 -32.608418 -56.610691 -1.680019 48.458897 -1.6825376 48.456734 -33.395687 -44.119984
765000000 -36.527565 -95.26712 -1.6878575 21.954182 -1.6903487 21.951759 -37.740543 -55.873081
774500000 -42.122749 -89.420418 -1.6974256 -4.5554276 -1.7001256 -4.5581155 -47.081501 -37.77597
784000000 -35.68298 -5.4451714 -1.7093174 -31.071129 -1.7118895 -31.072926 -37.63205 50.177528
793500000 -29.249891 -0.45133799 -1.7225878 -57.571808 -1.7255119 -57.573269 -30.215569 27.362577
803000000 -27.45524 -10.179617 -1.7342734 -84.047493 -1.7370305 -84.047531 -27.438007 -1.7725006
812500000 -27.479263 -32.270908 -1.7432696 -110.52164 -1.7458907 -110.52218 -26.801994 -26.918076
822000000 -26.895039 -59.683609 -1.7524916 -137.00426 -1.7551754 -137.00449 -26.655792 -49.140202
831500000 -26.219654 -78.944756 -1.7617221 -163.48451 -1.7645379 -163.48459 -26.760448 -74.806183
841000000 -26.92392 -93.27562 -1.7692676 170.03313 -1.77198 170.03119 -27.527992 -103.24474
850500000 -28.880119 -112.11025 -1.775982 143.54175 -1.7787431 143.53993 -28.687559 -131.44702
860000000 -30.52157 -140.42775 -1.7834162 117.04317 -1.786178 117.04229 -29.774887 -156.90976
869500000 -30.892031 -170.44711 -1.7924737 90.539917 -1.7952594 90.538239 -29.933384 -179.68599
879000000 -30.88427 158.7393 -1.8032072 64.035408 -1.8059691 64.033211 -29.249563 154.43523
888500000 -29.950039 121.84466 -1.815075 37.527916 -1.8176507 37.52721 -28.329374 127.87691
898000000 -27.721138 85.959244 -1.8291061 11.023258 -1.8314911 11.022669 -26.793169 102.14917
907500000 -25.34771 54.980453 -1.8452518 -15.462379 -1.8476197 -15.463451 -24.933538 75.220467
917000000 -23.293537 27.421463 -1.861955 -41.922066 -1.864388 -41.92358 -23.233736 47.913616
926500000 -21.774586 2.9874394 -1.877126 -68.35199 -1.8797454 -68.354683 -21.928354 20.505125
936000000 -21.036835 -19.863014 -1.8874389 -94.765778 -1.8900425 -94.771027 -21.243231 -6.5384073
945500000 -20.982786 -43.318317 -1.8930601 -121.18938 -1.8959523 -121.19512 -21.129419 -32.433388
955000000 -21.266708 -67.466003 -1.8962708 -147.62523 -1.8993407 -147.63107 -21.418989 -57.919212
964500000 -21.812155 -90.077354 -1.8971637 -174.07527 -1.9006542 -174.08028 -22.110651 -84.104576
974000000 -22.931522 -110.20502 -1.8970519 159.4559 -1.9008559 159.45322 -23.229702 -111.44368
983500000 -24.830658 -130.09291 -1.8970631 132.96806 -1.9010816 132.96825 -24.903542 -139.88814
993000000 -27.170979 -153.7018 -1.8986757 106.45506 -1.9024501 106.45818 -27.089699 -166.07784
1002500000 -28.959362 178.7384 -1.9039748 79.935173 -1.9073321 79.941788 -28.721218 170.51152
1012000000 -29.949137 152.97472 -1.9118521 53.431873 -1.9147866 53.437969 -29.735554 141.45203
1021500000 -31.269955 126.12154 -1.9193667 26.934393 -1.9218998 26.940586 -31.044819 110.15482
1031000000 -32.088337 83.482307 -1.9277401 0.42984137 -1.9302598 0.43588817 -31.506655 85.953079
1040500000 -29.357924 41.356709 -1.9388621 -26.06839 -1.9413058 -26.063904 -29.787113 62.319862
1050000000 -26.648056 18.139645 -1.95051 -52.54113 -1.9527829 -52.536617 -27.624701 31.663162
1059500000 -25.887058 -0.57273263 -1.9579017 -78.996803 -1.9603895 -78.992973 -26.692947 -0.15436336
1069000000 -26.397202 -25.028145 -1.9629344 -105.47098 -1.9653883 -105.46694 -26.920063 -25.40201
1078500000 -26.527737 -52.843204 -1.9702381 -131.95592 -1.9727643 -131.95265 -26.976891 -45.953812
1088000000 -26.524424 -71.004944 -1.9774055 -158.42693 -1.9798599 -158.42339 -27.323624 -73.764305
1097500000 -28.015652 -76.994385 -1.9809533 175.09599 -1.9837101 175.09978 -29.957613 -109.01926
1107000000 -31.243061 -72.453682 -1.9850436 148.59602 -1.9877633 148.6003 -36.378738 -146.70287
1116500000 -33.915497 -63.674747 -1.9916086 122.09269 -1.9944013 122.09657 -48.527637 136.68184
1126000000 -33.079533 -70.438393 -2.0000658 95.596222 -2.0029364 95.599228 -40.15226 37.908051
1135500000 -30.137981 -84.09845 -2.0102308 69.110046 -2.0129812 69.1138 -33.548935 5.8669543
1145000000 -28.357317 -93.48394 -2.0194118 42.64328 -2.022069 42.646572 -30.394062 -29.754353
1154500000 -29.005161 -101.66172 -2.025048 16.176445 -2.0277975 16.178921 -30.401199 -64.949898
1164000000 -32.311619 -114.19225 -2.0298398 -10.312312 -2.0325084 -10.309359 -32.782097 -88.015244
1173500000 -37.52467 -139.61369 -2.0364401 -36.805996 -2.0388646 -36.803726 -34.885319 -97.438416
1183000000 -42.242344 -162.32333 -2.0433512 -63.295296 -2.0458975 -63.293247 -37.527672 -111.44727
1192500000 -45.111137 -110.34221 -2.0507152 -89.784409 -2.0532799 -89.784058 -45.146267 -94.990967
1202000000 -37.957428 -70.271736 -2.0589466 -116.27177 -2.0614712 -116.27147 -39.234097 -49.421223
1211500000 -35.055248 -60.548584 -2.0665803 -142.75247 -2.0692945 -142.75211 -36.105263 -72.799156
1221000000 -35.684109 -53.998123 -2.0732536 -169.23279 -2.0759416 -169.23254 -37.721653 -96.343719
1230500000 -38.186543 -48.501678 -2.0799322 164.28244 -2.0825837 164.2831 -41.477077 -105.289
1240000000 -38.903542 -51.25069 -2.0875757 137.79454 -2.0902691 137.79547 -47.43367 -117.18877
1249500000 -35.888073 -61.473698 -2.0958896 111.30858 -2.098484 111.30986 -49.311916 28.875345
1259000000 -32.9543 -69.957687 -2.1037526 84.827858 -2.1063073 84.830154 -38.885727 -3.8788517
1268500000 -32.176292 -79.013489 -2.1103947 58.348949 -2.1130793 58.351654 -36.446587 -35.366871
1278000000 -33.724865 -89.81897 -2.1166055 31.865641 -2.1193483 31.870159 -36.938988 -65.060677
1287500000 -37.747383 -92.440689 -2.1233208 5.3716598 -2.125797 5.3768311 -40.552578 -102.61963
1297000000 -40.468006 -46.111813 -2.1312525 -21.132393 -2.1337445 -21.126892 -46.522339 146.42996
1306500000 -34.033459 -21.482065 -2.1410532 -47.634148 -2.14361 -47.628201 -36.175316 63.664974
1316000000 -29.773977 -31.290279 -2.1519136 -74.124817 -2.1547422 -74.120201 -30.810822 29.131313
1325500000 -27.039042 -50.714619 -2.1641872 -100.60512 -2.1670663 -100.60448 -27.52482 2.7055418
1335000000 -24.909613 -70.939476 -2.1776373 -127.06682 -2.180752 -127.06917 -25.168772 -23.539698
1344500000 -23.725687 -88.609482 -2.1887498 -153.50928 -2.1919839 -153.51227 -23.894758 -51.312664
1354000000 -23.819731 -107.42805 -2.1949577 -179.95483 -2.1983659 -179.95866 -23.691942 -77.853958
1363500000 -24.554377 -132.20497 -2.1999629 153.58038 -2.2035184 153.57672 -23.963913 -101.53429
1373000000 -24.718435 -158.91846 -2.2059886 127.11809 -2.2097352 127.11519 -24.255257 -126.28716
1382500000 -24.884209 -179.11227 -2.2103193 100.66131 -2.2142549 100.65891 -25.101128 -154.41182
1392000000 -26.379948 162.64909 -2.2133567 74.180008 -2.217411 74.180923 -26.602091 178.77852
1401500000 -28.750528 131.69601 -2.2194846 47.67487 -2.2233739 47.676922 -27.608681 155.7216
1411000000 -28.271086 89.116661 -2.2290754 21.1675 -2.2328198 21.170862 -27.338659 130.28198
1420500000 -26.280157 60.515388 -2.2402639 -5.3245006 -2.2438271 -5.3194613 -26.546619 100.10316
1430000000 -25.567276 34.593552 -2.2510667 -31.803732 -2.2542081 -31.797684 -25.774807 70.799088
1439500000 -24.842154 0.59574717 -2.263268 -58.280796 -2.2661729 -58.274811 -24.656658 45.328049
1449000000 -22.805355 -30.017071 -2.2786586 -84.73423 -2.2816343 -84.728775 -23.10046 19.20681
1458500000 -21.190266 -50.419411 -2.2919912 -111.14617 -2.2947881 -111.14243 -21.932423 -9.8660679
1468000000 -20.922981 -68.4571 -2.2980807 -137.55649 -2.3007176 -137.55217 -21.56805 -38.419022
1477500000 -21.450888 -91.396156 -2.3017378 -163.99329 -2.3042493 -163.99022 -21.580227 -64.234131
1487000000 -21.560007 -117.91263 -2.3068657 169.57173 -2.3092227 169.57388 -21.647036 -90.143753
1496500000 -21.402966 -139.51653 -2.3094923 143.15338 -2.3116903 143.15396 -22.111778 -118.27
1506000000 -22.204288 -156.3815 -2.3072371 116.71907 -2.3096883 116.71931 -23.283945 -147.22545
1515500000 -24.24696 -175.71951 -2.3045013 90.246803 -2.3070645 90.246094 -25.020355 -174.58847
1525000000 -26.307693 157.58214 -2.3049488 63.753033 -2.3075185 63.751381 -26.774929 158.97751
1534500000 -27.234964 132.87279 -2.3077638 37.257938 -2.3104358 37.257397 -28.464643 129.37827
1544000000 -28.589806 114.67504 -2.3114212 10.762974 -2.3139906 10.761183 -30.359846 97.44136
1553500000 -31.375025 87.302307 -2.3160872 -15.735666 -2.318749 -15.737936 -31.824898 69.032745
1563000000 -31.993732 38.634727 -2.3224511 -42.227886 -2.3252625 -42.229454 -31.566864 43.871365
1572500000 -29.606516 4.4558086 -2.3297086 -68.708275 -2.3325803 -68.710915 -30.289227 16.178583
1582000000 -28.400991 -18.696907 -2.337054 -95.185196 -2.339864 -95.187988 -29.134331 -11.125288
1591500000 -27.909824 -42.75396 -2.3443265 -121.66194 -2.3473017 -121.66483 -28.130173 -37.562195
1601000000 -27.258898 -64.728989 -2.3508554 -148.13644 -2.3539717 -148.13837 -27.574177 -65.024307
1610500000 -26.907871 -82.528275 -2.3569567 -174.60655 -2.3600562 -174.60818 -27.551559 -93.139046
1620000000 -27.026846 -100.59414 -2.3626752 158.93015 -2.3657818 158.92978 -28.016499 -123.09456
1629500000 -27.078701 -118.63496 -2.3677135 132.46915 -2.3707597 132.46866 -29.089556 -155.66798
1639000000 -27.233303 -130.71567 -2.3724804 105.99831 -2.3753769 105.99769 -30.834703 168.37738
1648500000 -28.188635 -136.88216 -2.3771577 79.517487 -2.3800189 79.516525 -33.290508 127.66875
1658000000 -29.782425 -144.4586 -2.3819354 53.033718 -2.3848317 53.033485 -35.937023 80.173637
1667500000 -30.598738 -159.93582 -2.3871498 26.551888 -2.3900824 26.551502 -37.135483 26.321148
1677000000 -30.075224 -175.00951 -2.3929944 0.077200569 -2.3958077 0.076087125 -36.354897 -23.1213
1686500000 -30.494822 176.36363 -2.3985751 -26.393299 -2.4014673 -26.394447 -35.689522 -62.872772
1696000000 -34.044937 166.61969 -2.4034855 -52.869099 -2.4064355 -52.871067 -36.687782 -91.47599
1705500000 -42.481384 124.05454 -2.4085174 -79.355713 -2.4113019 -79.358696 -39.466675 -101.63321
1715000000 -41.583385 40.023273 -2.4140553 -105.84538 -2.4169247 -105.84909 -40.243832 -81.186226
1724500000 -41.909111 -2.7499173 -2.4201057 -132.32881 -2.4233241 -132.33345 -36.485741 -78.094818
1734000000 -38.700722 -71.434464 -2.4264758 -158.80614 -2.4297438 -158.81042 -34.236568 -91.112617
1743500000 -33.047771 -95.887657 -2.4337592 174.7189 -2.4373672 174.7149 -32.494663 -106.46571
1753000000 -30.835644 -107.86494 -2.4418628 148.24785 -2.4454949 148.2446 -31.147024 -130.03571
1762500000 -30.864544 -124.35295 -2.4485943 121.77969 -2.4524381 121.777 -31.161509 -159.4463
1772000000 -31.45039 -148.5627 -2.4535255 95.305588 -2.4574864 95.304077 -32.72916 173.44431
1781500000 -31.745428 -170.7878 -2.4584191 68.822243 -2.4623497 68.822914 -34.535835 155.92479
1791000000 -32.855232 175.58443 -2.4646001 42.341095 -2.468683 42.343513 -35.268421 136.64328
1800500000 -35.695869 166.18736 -2.4712052 15.865818 -2.4752486 15.870208 -37.475655 109.30678
1810000000 -41.293926 150.87328 -2.4774644 -10.609402 -2.4813344 -10.603203 -42.353344 101.50648
1819500000 -52.575287 68.332253 -2.483855 -37.092113 -2.4873111 -37.085201 -39.94416 110.4443
1829000000 -41.591366 -27.857874 -2.4912975 -63.579445 -2.4945724 -63.572689 -36.080456 71.792664
1838500000 -35.151211 -55.202187 -2.4993951 -90.063438 -2.5024948 -90.055313 -33.93676 27.080658
1848000000 -31.197161 -75.557289 -2.5075619 -116.54291 -2.5105534 -116.53576 -31.959274 -5.8861036
1857500000 -28.816587 -94.904938 -2.516932 -143.01843 -2.5197189 -143.01181 -29.263126 -31.772135
1867000000 -27.309326 -116.27515 -2.5277693 -169.47501 -2.5304799 -169.46936 -26.683542 -60.009762
1876500000 -25.980112 -138.72209 -2.5372584 164.08832 -2.5396662 164.09332 -25.225325 -90.478523
1886000000 -24.850124 -159.11769 -2.5432467 137.64331 -2.545552 137.64815 -24.944994 -118.60275
1895500000 -24.461475 -178.20042 -2.5487697 111.17879 -2.5512164 111.18216 -25.040512 -142.45236
1905000000 -24.957117 159.78554 -2.5557625 84.724205 -2.5582087 84.726425 -25.000044 -166.45084
1914500000 -25.716963 132.75859 -2.5604982 58.291111 -2.5628715 58.2924 -25.332653 166.69249
1924000000 -26.338287 106.25931 -2.5614076 31.845686 -2.564049 31.847143 -26.472126 140.64064
1933500000 -27.738041 82.853165 -2.5630317 5.3710198 -2.565726 5.3716631 -27.934057 119.99686
1943000000 -30.298281 52.095203 -2.5675201 -21.117083 -2.5702419 -21.116718 -28.733347 101.92631
1952500000 -31.01915 6.9036059 -2.573452 -47.601189 -2.5762827 -47.6008 -29.041695 78.316429
1962000000 -29.243792 -25.314817 -2.5790026 -74.078316 -2.582 -74.078049 -29.716898 48.547459
1971500000 -28.435595 -47.047363 -2.5851707 -100.55708 -2.5880387 -100.55669 -30.334719 18.838764
1981000000 -28.359957 -73.782471 -2.5930431 -127.03241 -2.5960374 -127.03217 -29.480749 -10.904859
1990500000 -27.16082 -104.17516 -2.6022167 -153.49277 -2.6052949 -153.49269 -27.746233 -44.296864
2000000000 -25.330278 -125.99188 -2.6101875 -179.94286 -2.6132538 -179.94212 -26.3153 -77.691353
