!Keysight Technologies,N5242B,MY48420967,A.15.65.19
!Date: Saturday, December 17, 2022 18:14:16
!Correction: S11(C  2-Port  ) 
!S21(C  2-Port  ) 
!S12(C  2-Port  ) 
!S22(C  2-Port  ) 
!S2P File: Measurements: S11, S21, S12, S22:
# Hz S  dB   R 50
100000000 -21.655552 -48.830891 -0.60005301 79.252945 -0.60262495 79.238434 -23.454779 -26.240131
109500000 -21.836611 -65.723091 -0.6173442 52.59042 -0.61845827 52.584358 -23.357845 -53.442802
119000000 -23.543428 -79.22599 -0.62919372 25.935148 -0.63120013 25.916206 -24.4771 -81.817436
128500000 -26.615692 -94.102089 -0.64271623 -0.75027323 -0.64529109 -0.76588774 -26.85343 -106.12619
138000000 -29.860199 -108.30434 -0.65949118 -27.421915 -0.66193247 -27.435192 -29.603506 -123.2871
147500000 -32.190186 -109.75414 -0.67693585 -54.070137 -0.67949504 -54.084061 -32.827324 -140.16714
157000000 -33.006149 -101.58628 -0.69443297 -80.703217 -0.69723898 -80.716873 -38.609325 -149.80626
166500000 -33.847477 -107.61922 -0.71142936 -107.33022 -0.71404314 -107.3419 -42.887211 -128.61081
176000000 -36.864498 -139.66661 -0.72831959 -133.95256 -0.73096961 -133.96439 -44.434853 -153.48709
185500000 -39.998352 143.47275 -0.7456587 -160.56712 -0.74839807 -160.57854 -43.463604 114.65251
195000000 -34.588455 64.124878 -0.76315832 172.83318 -0.76590163 172.82231 -36.078087 66.02874
204500000 -29.698267 26.34363 -0.77969593 146.24889 -0.78246081 146.23909 -31.708155 36.966064
214000000 -27.902678 -1.2732341 -0.79380727 119.66962 -0.79619062 119.66376 -29.831457 13.491878
223500000 -28.187473 -30.477486 -0.80599368 93.09481 -0.8085652 93.087898 -29.189909 -7.6425343
233000000 -29.244299 -60.025631 -0.81639516 66.514381 -0.81922799 66.507713 -30.080877 -31.894613
242500000 -31.637421 -78.561813 -0.82743955 39.920982 -0.83016831 39.91481 -33.54195 -54.725845
252000000 -38.462234 -66.945366 -0.8400563 13.324114 -0.84291649 13.319961 -41.170177 -67.549011
261500000 -37.281662 15.486238 -0.85446316 -13.267259 -0.85723954 -13.27082 -44.309628 41.462528
271000000 -32.002876 17.546093 -0.86921018 -39.843636 -0.87170905 -39.847542 -34.414009 30.001675
280500000 -29.998981 -5.7892289 -0.88262075 -66.404449 -0.88521463 -66.408096 -30.76292 4.1922202
290000000 -28.069057 -34.523846 -0.89499503 -92.95826 -0.89750969 -92.961861 -28.995527 -20.622444
299500000 -26.867867 -54.430435 -0.90617537 -119.51435 -0.90868825 -119.51886 -28.214365 -44.60165
309000000 -27.776991 -67.077812 -0.91633207 -146.07797 -0.91891831 -146.08261 -28.30344 -68.15844
318500000 -30.917566 -77.611382 -0.92595834 -172.65181 -0.92844421 -172.65634 -29.582304 -91.586411
328000000 -34.324131 -91.103256 -0.9358561 160.77022 -0.93847358 160.76511 -32.252377 -109.54772
337500000 -33.970684 -106.52576 -0.94693011 134.19006 -0.949561 134.18619 -34.320007 -121.86839
347000000 -31.7768 -121.22324 -0.95939237 107.61147 -0.96214521 107.60731 -35.056576 -150.28662
356500000 -31.4839 -145.94862 -0.97273403 81.034531 -0.97551256 81.031525 -35.024414 168.92001
366000000 -31.819017 163.16078 -0.98679513 54.454231 -0.98950171 54.451859 -32.617706 137.57353
375500000 -28.278513 111.34219 -1.003212 27.879913 -1.0059804 27.87686 -28.742481 112.36556
385000000 -25.181217 80.117462 -1.0215728 1.3361753 -1.0242999 1.3326169 -25.466963 85.156441
394500000 -23.809959 52.865337 -1.0376915 -25.172392 -1.0401508 -25.175585 -23.545034 57.037758
404000000 -23.062447 23.276989 -1.0487593 -51.674763 -1.0514606 -51.678722 -22.737825 30.889828
413500000 -22.190189 -5.0104427 -1.0594913 -78.187141 -1.0623903 -78.189812 -22.261749 6.8820133
423000000 -21.684416 -28.373817 -1.0691292 -104.6849 -1.0716351 -104.6871 -21.921209 -19.423567
432500000 -22.21715 -48.985176 -1.0721978 -131.18404 -1.074744 -131.18675 -22.377483 -48.141327
442000000 -23.829237 -71.050522 -1.0724304 -157.7244 -1.0749789 -157.72849 -23.752501 -73.989182
451500000 -25.803705 -95.751846 -1.0757672 175.70552 -1.0785016 175.70285 -25.339195 -95.007202
461000000 -27.411198 -116.85516 -1.082486 149.13535 -1.0851616 149.13304 -26.868515 -116.76452
470500000 -28.965868 -130.3101 -1.0903857 122.56716 -1.0929735 122.56432 -29.131647 -142.55856
480000000 -31.005262 -145.68547 -1.0988601 95.996811 -1.1015995 95.992569 -32.096973 -168.30121
489500000 -32.72234 178.24498 -1.1086251 69.424538 -1.1117527 69.420944 -33.385235 166.64186
499000000 -31.056763 131.13478 -1.1206166 42.864777 -1.1234363 42.86116 -31.662289 133.72154
508500000 -28.835405 96.620338 -1.1323996 16.324472 -1.1350626 16.322725 -29.381336 99.557549
518000000 -27.902016 64.328758 -1.1425153 -10.204894 -1.1453723 -10.207446 -27.830477 71.982063
527500000 -27.219076 31.235863 -1.1518414 -36.73333 -1.1547015 -36.735935 -26.727045 48.72514
537000000 -26.610456 3.5406053 -1.1596091 -63.256966 -1.1625456 -63.258568 -26.236048 23.720404
546500000 -26.861824 -17.832155 -1.1652483 -89.782478 -1.1679776 -89.784576 -26.925003 -4.0612235
556000000 -28.388134 -35.7742 -1.1699156 -116.32388 -1.1725252 -116.32661 -29.054827 -32.844345
565500000 -31.426624 -50.704472 -1.1756945 -142.87737 -1.1781927 -142.8815 -32.762203 -62.418674
575000000 -36.728592 -54.264748 -1.1831282 -169.43718 -1.1853278 -169.44157 -39.84325 -99.530754
584500000 -39.981529 -10.030639 -1.1917865 164.00491 -1.1943499 163.99792 -46.719284 99.472115
594000000 -33.923454 2.842134 -1.2019718 137.45515 -1.2052855 137.4471 -35.611481 45.257778
603500000 -29.861162 -13.801143 -1.2127764 110.91613 -1.2161623 110.91026 -31.436306 16.58342
613000000 -27.909983 -33.120594 -1.2223607 84.384407 -1.2258426 84.381401 -29.130114 -8.3578453
622500000 -28.025553 -51.567909 -1.2298197 57.858109 -1.2334102 57.856861 -28.213379 -34.332428
632000000 -30.199179 -70.895454 -1.2349302 31.324722 -1.2380524 31.324709 -29.236868 -59.884491
641500000 -33.700054 -93.020126 -1.2406732 4.7765594 -1.2435428 4.7768226 -32.196373 -77.685738
651000000 -36.746029 -109.71504 -1.2478718 -21.771418 -1.2507274 -21.773205 -35.486713 -86.145493
660500000 -38.306438 -105.81455 -1.2557904 -48.316628 -1.2586745 -48.31868 -39.779869 -99.939667
670000000 -39.536194 -92.678856 -1.2639427 -74.860107 -1.2668673 -74.862 -49.147331 -94.779381
679500000 -46.705715 -74.000275 -1.2721018 -101.4054 -1.2748532 -101.40746 -47.924034 -78.138199
689000000 -42.770462 67.437737 -1.2807499 -127.95211 -1.2835643 -127.95393 -42.221733 -162.60051
698500000 -35.172226 69.670059 -1.2901006 -154.492 -1.293155 -154.49414 -35.553356 136.00858
708000000 -33.02779 53.288124 -1.2991338 178.97646 -1.3020269 178.97502 -32.600391 95.543648
717500000 -31.201595 20.97682 -1.3078727 152.43953 -1.3106575 152.43825 -31.448353 70.445946
727000000 -28.137665 -5.6424046 -1.3183454 125.90498 -1.3212247 125.90293 -29.52869 48.370171
736500000 -26.532129 -20.770269 -1.3274721 99.390717 -1.3304503 99.388878 -28.201725 15.812716
746000000 -27.5422 -34.974125 -1.3316323 72.876823 -1.3346074 72.874321 -28.963936 -18.613256
755500000 -30.978245 -60.393635 -1.3345792 46.340336 -1.3374745 46.337505 -31.546083 -44.562534
765000000 -34.299156 -97.795174 -1.3398421 19.793755 -1.3427211 19.790752 -35.207054 -60.107441
774500000 -39.44043 -102.56382 -1.346931 -6.7582808 -1.3500062 -6.7623963 -43.137787 -66.247452
784000000 -37.004105 -10.66259 -1.3563503 -33.318501 -1.3594033 -33.321442 -39.496109 48.443218
793500000 -29.802341 -0.77091151 -1.3675628 -59.86488 -1.3708454 -59.868198 -30.653807 25.461353
803000000 -27.802992 -10.286511 -1.3773808 -86.386467 -1.3805748 -86.388123 -27.651756 -4.3986135
812500000 -27.726849 -32.669201 -1.3847196 -112.90572 -1.3877693 -112.90762 -26.975811 -29.722221
822000000 -27.04574 -60.183475 -1.3923441 -139.43294 -1.3954624 -139.43463 -26.780802 -51.911339
831500000 -26.308037 -79.409988 -1.4000152 -165.95746 -1.4032137 -165.95938 -26.808973 -77.791649
841000000 -26.934385 -93.863533 -1.4061713 167.51607 -1.4092408 167.51254 -27.5084 -106.49135
850500000 -28.713264 -113.02572 -1.4113541 140.98044 -1.4145434 140.97693 -28.573633 -134.50688
860000000 -30.054186 -141.58417 -1.4174395 114.43768 -1.4205436 114.43492 -29.47117 -159.27837
869500000 -30.106451 -171.83055 -1.4251626 87.888702 -1.4282455 87.885864 -29.348898 178.5883
879000000 -29.754429 157.12856 -1.4347556 61.338898 -1.4379131 61.335426 -28.410088 153.15959
888500000 -28.593145 121.06168 -1.4457608 34.785603 -1.4487866 34.783817 -27.290009 126.91756
898000000 -26.406652 85.981384 -1.459432 8.2362843 -1.4622153 8.2344093 -25.653807 101.18461
907500000 -24.153965 55.089172 -1.4755945 -18.291351 -1.4783561 -18.293591 -23.792574 74.062729
917000000 -22.223043 27.249453 -1.4924499 -44.788563 -1.4953169 -44.790855 -22.140623 46.511864
926500000 -20.795479 2.2297523 -1.5075625 -71.250748 -1.510559 -71.253685 -20.889299 18.810513
936000000 -20.093174 -21.31571 -1.5169224 -97.693115 -1.5198597 -97.697929 -20.246351 -8.4928141
945500000 -20.03706 -45.31884 -1.5209981 -124.1467 -1.5241024 -124.15161 -20.135548 -34.626225
955000000 -20.309814 -69.872612 -1.522084 -150.61298 -1.5252277 -150.61826 -20.399717 -60.451347
964500000 -20.829294 -93.083763 -1.5204819 -177.09605 -1.5239506 -177.10071 -21.045469 -86.864449
974000000 -21.874601 -114.24009 -1.5177829 156.40019 -1.5213387 156.39639 -22.062689 -114.27209
983500000 -23.611736 -135.54208 -1.5146827 129.87436 -1.5184258 129.87189 -23.580729 -142.59575
993000000 -25.647001 -160.52773 -1.5134505 103.31735 -1.517114 103.31625 -25.507898 -168.32777
1002500000 -27.07737 171.32141 -1.5166816 76.752289 -1.5200918 76.752953 -26.820057 168.33279
1012000000 -27.851406 144.96774 -1.5226004 50.205967 -1.52581 50.206814 -27.64628 140.02106
1021500000 -28.879328 117.24878 -1.5280447 23.664469 -1.5309994 23.665678 -28.761776 110.59215
1031000000 -29.334776 78.145432 -1.534784 -2.8856163 -1.5379195 -2.8841712 -29.128044 86.811844
1040500000 -27.286394 40.148254 -1.5448725 -29.426548 -1.5478938 -29.425747 -27.757689 62.272079
1050000000 -25.2178 16.168552 -1.5551786 -55.935757 -1.5580051 -55.934139 -26.081036 31.163691
1059500000 -24.773754 -3.9809284 -1.5602117 -82.4282 -1.5632796 -82.426865 -25.526201 -0.95857191
1069000000 -25.457926 -29.178904 -1.5626259 -108.94515 -1.5656915 -108.94305 -25.994635 -26.637735
1078500000 -25.851799 -56.905575 -1.5676866 -135.47389 -1.5707631 -135.47241 -26.245989 -48.291107
1088000000 -26.260681 -75.169685 -1.5722991 -161.98981 -1.5753882 -161.9872 -26.887278 -77.514954
1097500000 -28.262379 -80.727539 -1.5736589 171.48331 -1.5769429 171.48558 -29.947353 -114.89192
1107000000 -31.986919 -72.034294 -1.5765246 144.93248 -1.5797076 144.93526 -37.276783 -160.1819
1116500000 -34.036404 -55.882603 -1.5822725 118.38251 -1.5854863 118.38449 -44.592854 88.282822
1126000000 -32.31221 -62.79887 -1.5898908 91.841019 -1.5931708 91.842545 -36.43615 30.13879
1135500000 -29.177731 -79.657547 -1.5993444 65.311974 -1.6025038 65.314262 -31.228958 0.059928052
1145000000 -27.316753 -91.950188 -1.6077287 38.806423 -1.6107626 38.808697 -28.57498 -34.688267
1154500000 -27.782036 -102.74703 -1.6116141 12.302251 -1.614834 12.303261 -28.644981 -69.236382
1164000000 -30.590473 -118.36626 -1.6143763 -14.227846 -1.6174877 -14.225907 -30.703487 -92.958984
1173500000 -34.495289 -146.06418 -1.6192187 -40.765419 -1.6221358 -40.764187 -32.377628 -106.25297
1183000000 -37.366936 -171.69502 -1.624488 -67.296875 -1.6275264 -67.296318 -34.41003 -126.22505
1192500000 -41.951633 -162.74237 -1.6300149 -93.83007 -1.632946 -93.830063 -40.750721 -140.22525
1202000000 -43.483173 -90.555275 -1.6362163 -120.36365 -1.6391897 -120.36498 -43.17078 -85.573586
1211500000 -39.351555 -51.161095 -1.642404 -146.89313 -1.6456394 -146.89395 -39.280418 -100.09071
1221000000 -38.11657 -27.957119 -1.6481746 -173.41989 -1.651358 -173.42084 -42.202225 -134.84056
1230500000 -37.566334 -13.703331 -1.6538466 160.05095 -1.6569481 160.05099 -52.506393 173.18628
1240000000 -36.293156 -22.547268 -1.6604233 133.51884 -1.6635575 133.51933 -47.52161 65.60231
1249500000 -33.501595 -45.077606 -1.6679413 106.99033 -1.6709673 106.99065 -38.55328 32.513885
1259000000 -31.03824 -62.721115 -1.6745968 80.469345 -1.6776297 80.470909 -34.417183 -2.1622612
1268500000 -30.579388 -77.040962 -1.6794821 53.949539 -1.6826504 53.951542 -33.434971 -35.148899
1278000000 -32.37833 -91.140579 -1.6837504 27.422243 -1.6868947 27.425627 -34.577084 -66.620842
1287500000 -36.87104 -96.561203 -1.6886185 0.87954128 -1.6915798 0.88444132 -38.483688 -106.01517
1297000000 -40.421375 -44.329685 -1.6951907 -25.674683 -1.6980964 -25.669142 -44.186359 146.61475
1306500000 -33.140518 -19.814144 -1.7042137 -52.227173 -1.7071946 -52.220753 -34.744465 62.912266
1316000000 -28.748755 -31.713985 -1.7147157 -78.766251 -1.7179568 -78.761475 -29.545721 27.291849
1325500000 -26.002821 -52.206863 -1.7269014 -105.29279 -1.7301835 -105.29179 -26.316158 0.091715708
1335000000 -23.924545 -73.204445 -1.7404872 -131.79767 -1.7439911 -131.79886 -24.02002 -26.962778
1344500000 -22.77338 -91.922562 -1.7513369 -158.27905 -1.7547981 -158.28091 -22.808464 -55.208462
1354000000 -22.793493 -112.01343 -1.7567594 175.23538 -1.7603025 175.23338 -22.594122 -81.934891
1363500000 -23.330904 -137.6019 -1.7610402 148.7301 -1.7645137 148.72792 -22.769669 -106.03754
1373000000 -23.36202 -164.41254 -1.7663064 122.22849 -1.7697835 122.22547 -22.943159 -131.34544
1382500000 -23.46323 174.35258 -1.7693698 95.730721 -1.7728801 95.728447 -23.597143 -159.58031
1392000000 -24.654434 153.54907 -1.7709508 69.204865 -1.774534 69.204063 -24.742617 173.84084
1401500000 -26.152676 121.51411 -1.7764131 42.650814 -1.7799625 42.649288 -25.30592 150.61531
1411000000 -25.341185 83.670212 -1.786471 16.097834 -1.7900627 16.096186 -24.796589 124.98731
1420500000 -23.694262 56.236706 -1.7981819 -10.433325 -1.8017559 -10.434242 -23.98176 95.593147
1430000000 -23.030361 30.154671 -1.8092095 -36.951214 -1.8125297 -36.951115 -23.249607 67.124138
1439500000 -22.351631 -2.0022333 -1.8220589 -63.464813 -1.8254662 -63.464642 -22.250832 41.471561
1449000000 -20.735998 -31.568048 -1.8384429 -89.946144 -1.8420898 -89.946152 -20.940548 14.909347
1458500000 -19.467249 -53.055756 -1.8512908 -116.37674 -1.8548644 -116.37722 -20.007389 -14.182182
1468000000 -19.330744 -72.595428 -1.8550175 -142.80856 -1.8583772 -142.80795 -19.78628 -42.68766
1477500000 -19.840214 -96.392143 -1.8559576 -169.27502 -1.859336 -169.2755 -19.879189 -68.750298
1487000000 -19.985636 -122.87637 -1.8586354 164.26106 -1.8618449 164.26068 -20.019625 -95.087158
1496500000 -19.990475 -145.0078 -1.8576312 137.81372 -1.8607081 137.81267 -20.547802 -123.49416
1506000000 -20.907602 -163.49673 -1.8508967 111.34171 -1.8542192 111.34077 -21.727217 -152.41098
1515500000 -22.872202 175.00917 -1.8444427 84.82209 -1.8476751 84.820313 -23.359516 -179.62021
1525000000 -24.669744 147.33879 -1.8420265 58.278603 -1.8453227 58.276207 -24.946686 153.955
1534500000 -25.562717 122.45831 -1.8424921 31.73517 -1.845866 31.7339 -26.475254 124.96427
1544000000 -26.97094 102.098 -1.8438169 5.1904693 -1.8472687 5.1886206 -28.183121 94.713692
1553500000 -29.259676 72.177086 -1.84697 -21.35792 -1.850337 -21.360428 -29.485233 67.862427
1563000000 -29.402124 29.25939 -1.8521029 -47.897369 -1.855546 -47.89912 -29.371632 42.67894
1572500000 -27.750786 -1.3638363 -1.8579992 -74.421608 -1.861475 -74.424423 -28.503496 14.454759
1582000000 -27.083508 -24.393919 -1.8636847 -100.94175 -1.8670654 -100.94476 -27.763933 -13.724177
1591500000 -26.969446 -48.166138 -1.8690037 -127.4627 -1.8725523 -127.46523 -27.15155 -41.293972
1601000000 -26.715792 -69.530762 -1.8735332 -153.98302 -1.8772479 -153.98535 -26.959005 -69.969666
1610500000 -26.743431 -86.676056 -1.8777055 179.49982 -1.8813508 179.49786 -27.292196 -99.615585
1620000000 -27.179914 -103.68999 -1.8815731 152.98747 -1.88518 152.98666 -28.141619 -131.7067
1629500000 -27.507872 -119.90322 -1.8851469 126.47533 -1.8887084 126.47457 -29.613855 -167.58009
1639000000 -27.830511 -129.0508 -1.8887751 99.953354 -1.8922275 99.952423 -31.670269 150.65277
1648500000 -28.624317 -131.33134 -1.8928667 73.422958 -1.8962916 73.421585 -33.960945 100.25999
1658000000 -29.648951 -135.68587 -1.8973798 46.892643 -1.9007781 46.892258 -35.098484 43.799339
1667500000 -29.891333 -150.25644 -1.9022179 20.36824 -1.9056413 20.367571 -34.230892 -7.0950155
1677000000 -29.022997 -167.08392 -1.9073827 -6.147193 -1.9106776 -6.1486359 -32.797829 -48.094707
1686500000 -29.06571 -178.44868 -1.9118083 -32.657314 -1.9152111 -32.658592 -32.212543 -82.84359
1696000000 -31.807669 169.66681 -1.9151423 -59.173801 -1.918594 -59.175919 -33.147156 -111.36454
1705500000 -37.854908 137.71341 -1.9183439 -85.703522 -1.9216306 -85.705788 -35.856213 -130.04263
1715000000 -40.205612 74.305473 -1.9221976 -112.23848 -1.9255928 -112.24162 -39.495415 -123.47992
1724500000 -42.127537 35.480141 -1.9267513 -138.76866 -1.9303285 -138.77226 -38.122452 -106.17553
1734000000 -42.477776 -56.118282 -1.931762 -165.29265 -1.9354161 -165.29559 -36.130474 -110.35864
1743500000 -34.690193 -91.084137 -1.9377671 168.18597 -1.9415842 168.18314 -34.150143 -120.27081
1753000000 -31.827032 -104.16973 -1.9445454 141.66837 -1.9483328 141.66579 -32.451801 -143.2276
1762500000 -31.74329 -121.35844 -1.9501239 115.15273 -1.9540391 115.15012 -32.45562 -173.93469
1772000000 -32.371395 -147.13034 -1.9541016 88.63166 -1.9580731 88.629768 -34.313023 158.36632
1781500000 -32.607079 -171.0471 -1.9579188 62.102528 -1.9618207 62.102234 -36.383259 143.68178
1791000000 -33.729057 174.13486 -1.9629717 35.575169 -1.9670459 35.574852 -36.716236 127.14477
1800500000 -36.963978 161.93668 -1.9684016 9.0518417 -1.9724805 9.0528145 -38.611374 100.67042
1810000000 -44.064629 130.42046 -1.973616 -17.47258 -1.9775248 -17.4702 -42.40126 100.59701
1819500000 -44.080353 17.442389 -1.979254 -44.006889 -1.9829369 -44.004147 -37.673882 100.55598
1829000000 -36.331059 -26.74675 -1.9866818 -70.544258 -1.9901851 -70.541351 -33.378582 59.581863
1838500000 -31.578318 -53.853519 -1.9946591 -97.074806 -1.9982324 -97.071991 -30.982393 18.161863
1848000000 -28.318699 -76.00959 -2.0029342 -123.60203 -2.0064869 -123.60006 -28.945393 -12.558609
1857500000 -26.262426 -97.022072 -2.0131955 -150.12375 -2.0165854 -150.1219 -26.482903 -38.716213
1867000000 -24.908785 -119.62638 -2.0252688 -176.61906 -2.0286691 -176.61758 -24.28116 -67.114944
1876500000 -23.717598 -142.99603 -2.0350792 156.91298 -2.0382602 156.91354 -23.071074 -97.237221
1886000000 -22.753967 -164.70461 -2.040241 130.43509 -2.0433176 130.43561 -22.870768 -125.16117
1895500000 -22.464706 174.26758 -2.0449166 103.93221 -2.0482194 103.93238 -22.940681 -149.28349
1905000000 -22.885353 150.31316 -2.0514071 77.443764 -2.0547023 77.443298 -22.86125 -173.89868
1914500000 -23.43837 122.48201 -2.0543282 50.980007 -2.0576255 50.979145 -23.154665 158.9483
1924000000 -23.916313 95.479515 -2.0525315 24.496674 -2.0559337 24.495808 -24.119665 132.97685
1933500000 -25.012659 70.031967 -2.0522151 -2.0253077 -2.0556717 -2.0264945 -25.211843 111.41962
1943000000 -26.611841 38.392147 -2.055814 -28.559774 -2.059236 -28.560513 -25.704565 90.908112
1952500000 -26.734997 0.39552915 -2.0612566 -55.085197 -2.0647607 -55.086815 -25.829824 65.652573
1962000000 -25.578039 -28.736006 -2.0658567 -81.601524 -2.0694976 -81.603218 -26.189545 36.039715
1971500000 -25.066307 -51.681114 -2.0709169 -108.12288 -2.0745344 -108.1245 -26.465326 7.2156038
1981000000 -25.028797 -78.189407 -2.078603 -134.63962 -2.0823228 -134.64186 -25.737152 -21.146606
1990500000 -24.233776 -107.04179 -2.0875163 -161.13348 -2.0912971 -161.13489 -24.491112 -52.511654
