!Keysight Technologies,N5242B,MY48420967,A.15.65.19
!Date: Saturday, December 17, 2022 17:46:13
!Correction: S11(C  2-Port  ) 
!S21(C  2-Port  ) 
!S12(C  2-Port  ) 
!S22(C  2-Port  ) 
!S2P File: Measurements: S11, S21, S12, S22:
# Hz S  dB   R 50
100000000 -21.675505 -48.847549 -0.60235465 79.242867 -0.60515112 79.228058 -23.471745 -26.191637
109500000 -21.85537 -65.723343 -0.61977506 52.580017 -0.62113851 52.573627 -23.373072 -53.401695
119000000 -23.563337 -79.206306 -0.63171864 25.92503 -0.6339919 25.905684 -24.491203 -81.790016
128500000 -26.638847 -94.050209 -0.64539468 -0.76041722 -0.64818782 -0.7764529 -26.869375 -106.10429
138000000 -29.885546 -108.20022 -0.66221529 -27.432053 -0.66491395 -27.44561 -29.619667 -123.26854
147500000 -32.210213 -109.57867 -0.67974114 -54.080193 -0.68255186 -54.094559 -32.848209 -140.17343
157000000 -33.013584 -101.38911 -0.69731796 -80.713074 -0.70038587 -80.727135 -38.654686 -149.84695
166500000 -33.850224 -107.42779 -0.71439099 -107.34003 -0.71728075 -107.35215 -42.963985 -128.37125
176000000 -36.880527 -139.42625 -0.73140275 -133.96243 -0.73427838 -133.97459 -44.559513 -153.2838
185500000 -40.055878 143.51289 -0.7488234 -160.57669 -0.75171554 -160.58864 -43.539307 113.90303
195000000 -34.606934 63.983204 -0.7663309 172.82368 -0.7693342 172.812 -36.090366 65.611343
204500000 -29.705946 26.260366 -0.78292179 146.23924 -0.7859481 146.22887 -31.713247 36.692638
214000000 -27.907343 -1.3392599 -0.79713851 119.66037 -0.79974061 119.65358 -29.838642 13.268383
223500000 -28.188908 -30.536465 -0.80935699 93.085411 -0.81215465 93.077415 -29.199512 -7.8275566
233000000 -29.243488 -60.066677 -0.81986105 66.505081 -0.82284373 66.497795 -30.091331 -32.098457
242500000 -31.635286 -78.570869 -0.83096814 39.91156 -0.83388734 39.904491 -33.559933 -54.999592
252000000 -38.451675 -67.009193 -0.84357816 13.314725 -0.8467024 13.309726 -41.222473 -68.095291
261500000 -37.299854 15.373462 -0.85799295 -13.276544 -0.86103737 -13.280829 -44.348343 42.230484
271000000 -32.021015 17.519827 -0.87286025 -39.852562 -0.87560785 -39.857296 -34.419281 30.216587
280500000 -30.016428 -5.8165236 -0.88634753 -66.41317 -0.88919359 -66.417961 -30.767998 4.3123202
290000000 -28.082697 -34.559479 -0.89874995 -92.967339 -0.90154713 -92.97187 -29.000347 -20.530022
299500000 -26.87999 -54.457413 -0.90999901 -119.52301 -0.91272551 -119.52842 -28.21731 -44.526211
309000000 -27.791224 -67.07933 -0.92024463 -146.08649 -0.92303014 -146.09196 -28.305986 -68.098534
318500000 -30.939434 -77.578087 -0.9299174 -172.6601 -0.93265933 -172.66541 -29.585888 -91.526436
328000000 -34.351803 -91.037628 -0.93990904 160.76233 -0.94266409 160.75613 -32.255352 -109.49144
337500000 -33.994576 -106.48822 -0.95101273 134.18236 -0.95387125 134.17696 -34.323711 -121.85345
347000000 -31.796516 -121.16652 -0.96344668 107.6036 -0.96649319 107.59843 -35.063385 -150.33049
356500000 -31.507843 -145.89748 -0.97686017 81.027298 -0.97990894 81.02253 -35.032688 168.83405
366000000 -31.848791 163.13469 -0.99098474 54.446678 -0.99393249 54.443565 -32.623718 137.45012
375500000 -28.296961 111.27182 -1.0074255 27.873209 -1.0105327 27.868416 -28.751059 112.26251
385000000 -25.194822 80.055161 -1.025842 1.329484 -1.0288013 1.3247225 -25.475462 85.079384
394500000 -23.821695 52.812382 -1.0420029 -25.179033 -1.0447115 -25.183504 -23.552675 56.963436
404000000 -23.071962 23.238365 -1.0531045 -51.681267 -1.0560118 -51.686756 -22.746321 30.815411
413500000 -22.198999 -5.0440865 -1.0638965 -78.193573 -1.0670427 -78.197586 -22.27055 6.8113041
423000000 -21.692493 -28.403049 -1.07358 -104.69141 -1.076254 -104.69513 -21.930012 -19.492176
432500000 -22.225061 -49.003139 -1.0767144 -131.19003 -1.0794504 -131.19463 -22.386354 -48.211487
442000000 -23.837055 -71.05426 -1.076926 -157.73036 -1.0797485 -157.73564 -23.761833 -74.068909
451500000 -25.811726 -95.754898 -1.0803931 175.69922 -1.0833108 175.69521 -25.351351 -95.100258
461000000 -27.41749 -116.85917 -1.0870715 149.12961 -1.090031 149.12552 -26.883108 -116.87109
470500000 -28.970606 -130.31671 -1.0950572 122.56193 -1.0979234 122.55758 -29.149136 -142.70129
480000000 -31.009211 -145.69473 -1.1036032 95.991165 -1.1066093 95.986008 -32.117718 -168.51405
489500000 -32.722603 178.2343 -1.11344 69.419731 -1.1167415 69.414368 -33.405315 166.3745
499000000 -31.055182 131.14125 -1.1254222 42.859924 -1.1284822 42.85495 -31.67746 133.48694
508500000 -28.834717 96.635155 -1.1372278 16.319883 -1.1401328 16.316668 -29.389212 99.385796
518000000 -27.901411 64.34848 -1.1474597 -10.209116 -1.1505059 -10.213417 -27.836613 71.834152
527500000 -27.219156 31.272213 -1.156716 -36.737648 -1.1598485 -36.74168 -26.735178 48.607853
537000000 -26.612045 3.5961971 -1.1646295 -63.261089 -1.1677184 -63.264568 -26.243906 23.623955
546500000 -26.862782 -17.768291 -1.1702979 -89.78643 -1.1732278 -89.790321 -26.933044 -4.1517797
556000000 -28.385805 -35.690651 -1.1749465 -116.32735 -1.1777927 -116.332 -29.063387 -32.929089
565500000 -31.419857 -50.581074 -1.1808269 -142.88092 -1.1834763 -142.88676 -32.772709 -62.513245
575000000 -36.709595 -54.069511 -1.1882528 -169.44006 -1.1907283 -169.44643 -39.863186 -99.688484
584500000 -39.935066 -10.104714 -1.196982 164.00191 -1.1997768 163.99371 -46.672188 99.383797
594000000 -33.915943 2.7221417 -1.2072608 137.45261 -1.2107201 137.44315 -35.601833 45.257263
603500000 -29.857748 -13.851047 -1.2180499 110.9143 -1.2215438 110.90631 -31.431486 16.567142
613000000 -27.907095 -33.146507 -1.2276689 84.382835 -1.2313052 84.377541 -29.128725 -8.390892
622500000 -28.02507 -51.581081 -1.2351527 57.856895 -1.2388924 57.85302 -28.214411 -34.362877
632000000 -30.199257 -70.887901 -1.24019 31.323713 -1.2435796 31.320868 -29.236437 -59.942234
641500000 -33.69508 -92.958244 -1.2459917 4.7757092 -1.2490647 4.7733769 -32.200989 -77.781631
651000000 -36.733597 -109.61105 -1.2532229 -21.772617 -1.256294 -21.77655 -35.499355 -86.30883
660500000 -38.290768 -105.76956 -1.2611905 -48.317398 -1.2642984 -48.321415 -39.828209 -100.1954
670000000 -39.516479 -92.67437 -1.269379 -74.860458 -1.2725636 -74.86467 -49.336178 -94.805946
679500000 -46.644436 -74.142662 -1.2775798 -101.40584 -1.2805552 -101.40962 -48.082558 -77.254311
689000000 -42.827068 67.415161 -1.2862355 -127.95194 -1.289323 -127.95607 -42.35878 -162.77553
698500000 -35.194393 69.73642 -1.295616 -154.49185 -1.2988681 -154.49591 -35.605453 135.71898
708000000 -33.045105 53.380966 -1.3046849 178.97702 -1.3078108 178.97307 -32.630882 95.282227
717500000 -31.220249 21.046652 -1.3134248 152.44023 -1.3165276 152.43689 -31.478876 70.212929
727000000 -28.152708 -5.5988936 -1.3239633 125.90611 -1.3270993 125.90166 -29.55736 48.212757
736500000 -26.543694 -20.707594 -1.3331304 99.391838 -1.3363106 99.387428 -28.225344 15.691524
746000000 -27.552511 -34.877167 -1.3373184 72.87793 -1.3404659 72.873001 -28.985579 -18.737823
755500000 -30.992331 -60.240822 -1.3402953 46.342094 -1.3434145 46.336559 -31.574455 -44.700314
765000000 -34.322727 -97.588814 -1.3456491 19.795916 -1.3487043 19.789743 -35.248634 -60.215099
774500000 -39.456161 -102.1158 -1.3527541 -6.7562203 -1.3561066 -6.7626815 -43.235558 -66.183762
784000000 -36.96154 -10.742766 -1.3622758 -33.316315 -1.3654988 -33.321835 -39.449039 48.539043
793500000 -29.794735 -0.85563523 -1.3734802 -59.862331 -1.3769479 -59.867756 -30.643248 25.466301
803000000 -27.800182 -10.35546 -1.3833497 -86.383438 -1.3867354 -86.387672 -27.645029 -4.3904185
812500000 -27.723007 -32.717403 -1.3907257 -112.90248 -1.394003 -112.90704 -26.968651 -29.730974
822000000 -27.041788 -60.197144 -1.3983353 -139.42931 -1.4016396 -139.43381 -26.775389 -51.938267
831500000 -26.305641 -79.418587 -1.4061123 -165.95383 -1.4094249 -165.95831 -26.804602 -77.825775
841000000 -26.93248 -93.876945 -1.4122208 167.51994 -1.4155219 167.51414 -27.504307 -106.5408
850500000 -28.709719 -113.0242 -1.417447 140.98521 -1.4208443 140.97859 -28.570267 -134.58301
860000000 -30.050108 -141.54558 -1.4235381 114.44243 -1.4268712 114.43649 -29.468559 -159.39406
869500000 -30.104324 -171.77725 -1.4313016 87.893852 -1.4346114 87.888176 -29.351725 178.43163
879000000 -29.755421 157.18831 -1.4409622 61.344116 -1.4443098 61.338581 -28.417038 153.0013
888500000 -28.598408 121.12304 -1.451962 34.791363 -1.4552113 34.787418 -27.299122 126.75849
898000000 -26.415442 86.033295 -1.465657 8.2425308 -1.4686655 8.2382364 -25.665615 101.0399
907500000 -24.163973 55.13385 -1.4817295 -18.284903 -1.4848088 -18.290071 -23.805632 73.941101
917000000 -22.233879 27.295439 -1.4986616 -44.781929 -1.5017896 -44.787086 -22.153772 46.410294
926500000 -20.805683 2.2762399 -1.5137571 -71.243782 -1.5169502 -71.249382 -20.902367 18.72156
936000000 -20.102657 -21.268852 -1.5231202 -97.68602 -1.5263021 -97.693703 -20.260042 -8.5705814
945500000 -20.047098 -45.263855 -1.5272223 -124.13953 -1.5305277 -124.14705 -20.14905 -34.694427
955000000 -20.321196 -69.806053 -1.5283663 -150.60574 -1.5317721 -150.61334 -20.414574 -60.515236
964500000 -20.840546 -93.012047 -1.5267428 -177.08858 -1.5304158 -177.09644 -21.061844 -86.920082
974000000 -21.885916 -114.15761 -1.5240936 156.4082 -1.5279063 156.40123 -22.080563 -114.32407
983500000 -23.624624 -135.43361 -1.5210147 129.8822 -1.5250096 129.87671 -23.601126 -142.65364
993000000 -25.663422 -160.3889 -1.5198632 103.32558 -1.5236595 103.32137 -25.532812 -168.39517
1002500000 -27.096962 171.46169 -1.5230708 76.760643 -1.5266365 76.758278 -26.848269 168.27119
1012000000 -27.872656 145.09988 -1.5290349 50.214931 -1.532391 50.212151 -27.676601 139.9599
1021500000 -28.906445 117.37104 -1.5345554 23.67347 -1.5376569 23.671175 -28.792183 110.53239
1031000000 -29.366798 78.215057 -1.5412771 -2.8759444 -1.5445293 -2.8783724 -29.158712 86.769051
1040500000 -27.312483 40.169395 -1.5513704 -29.417004 -1.5545965 -29.419798 -27.785143 62.254654
1050000000 -25.238579 16.189476 -1.5616975 -55.926128 -1.5647799 -55.928265 -26.104065 31.154993
1059500000 -24.791553 -3.960279 -1.5667701 -82.418465 -1.5699886 -82.420868 -25.546608 -0.9553833
1069000000 -25.474539 -29.163641 -1.5692886 -108.93475 -1.5724953 -108.9369 -26.012747 -26.611271
1078500000 -25.869032 -56.892742 -1.5743521 -135.46324 -1.5776654 -135.46552 -26.262535 -48.237812
1088000000 -26.277493 -75.14872 -1.5790169 -161.97905 -1.5822893 -161.98053 -26.903912 -77.423279
1097500000 -28.278387 -80.694756 -1.5804678 171.49406 -1.5838435 171.4928 -29.969181 -114.72565
1107000000 -32.002071 -71.958778 -1.5832874 144.94398 -1.5866619 144.94286 -37.332664 -159.83398
1116500000 -34.046917 -55.753033 -1.589085 118.39412 -1.5925174 118.39252 -44.737877 87.665688
1126000000 -32.324684 -62.671112 -1.5967159 91.852859 -1.6001817 91.850883 -36.470722 29.751778
1135500000 -29.19161 -79.546173 -1.606181 65.324532 -1.6095872 65.322945 -31.256222 -0.14627135
1145000000 -27.326933 -91.839172 -1.6145568 38.819206 -1.6178228 38.817715 -28.598192 -34.819927
1154500000 -27.790928 -102.61017 -1.6185532 12.315336 -1.6219229 12.312366 -28.665876 -69.36573
1164000000 -30.601719 -118.1572 -1.621281 -14.214665 -1.6246396 -14.216642 -30.733564 -93.120331
1173500000 -34.521313 -145.73399 -1.6262324 -40.751823 -1.629281 -40.754601 -32.421894 -106.35528
1183000000 -37.408768 -171.25087 -1.6315007 -67.2836 -1.634684 -67.286392 -34.466942 -126.28529
1192500000 -41.96162 -161.83855 -1.6369947 -93.816383 -1.6402118 -93.820091 -40.874878 -140.06158
1202000000 -43.319347 -90.454353 -1.6433426 -120.34957 -1.646522 -120.35411 -43.142738 -84.474007
1211500000 -39.290741 -51.688763 -1.6494691 -146.87822 -1.6529001 -146.88297 -39.23938 -99.377968
1221000000 -38.123398 -28.569071 -1.6552982 -173.40521 -1.6586366 -173.40927 -42.151085 -133.6653
1230500000 -37.621563 -14.206266 -1.6610292 160.0663 -1.6642517 160.06248 -52.517075 177.32391
1240000000 -36.35376 -22.913368 -1.667603 133.53445 -1.6709509 133.53119 -47.854973 65.960686
1249500000 -33.543011 -45.329727 -1.6750913 107.006 -1.6783577 107.00246 -38.673103 32.628933
1259000000 -31.071384 -62.886017 -1.6817939 80.485512 -1.6849884 80.483307 -34.491329 -2.0566599
1268500000 -30.612223 -77.160141 -1.6867371 53.966434 -1.6899862 53.964306 -33.498466 -35.026398
1278000000 -32.413548 -91.243599 -1.6910189 27.439133 -1.6944151 27.438065 -34.647049 -66.44812
1287500000 -36.924999 -96.659637 -1.6959399 0.89750534 -1.6990001 0.89717364 -38.590153 -105.744
1297000000 -40.476948 -43.978691 -1.7025691 -25.65678 -1.7056355 -25.656075 -44.336445 145.66615
1306500000 -33.151562 -19.602507 -1.7115908 -52.208706 -1.7147084 -52.207058 -34.749382 62.468452
1316000000 -28.756573 -31.569853 -1.7221137 -78.747307 -1.7255019 -78.747353 -29.552795 27.035519
1325500000 -26.012243 -52.097687 -1.7342966 -105.27382 -1.7378052 -105.27708 -26.327145 -0.087486953
1335000000 -23.935431 -73.104179 -1.7479157 -131.77817 -1.7515256 -131.78351 -24.03196 -27.09581
1344500000 -22.785141 -91.813721 -1.7586874 -158.25964 -1.7623497 -158.26538 -22.821726 -55.31741
1354000000 -22.804941 -111.88611 -1.7641956 175.25539 -1.7679034 175.24904 -22.60924 -82.02504
1363500000 -23.344694 -137.45801 -1.7685401 148.75034 -1.7721349 148.74387 -22.787762 -106.12362
1373000000 -23.379555 -164.26813 -1.7737259 122.24909 -1.7773374 122.24165 -22.965803 -131.42349
1382500000 -23.482891 174.50731 -1.7768269 95.75148 -1.780457 95.74469 -23.623655 -159.65892
1392000000 -24.6768 153.74301 -1.778496 69.226494 -1.7821193 69.220955 -24.774143 173.74994
1401500000 -26.185581 121.72068 -1.7838833 42.672832 -1.7875018 42.666298 -25.343266 150.52898
1411000000 -25.381567 83.802673 -1.7939457 16.120308 -1.797555 16.113655 -24.835295 124.92104
1420500000 -23.731321 56.332703 -1.805567 -10.410957 -1.809235 -10.416774 -24.020277 95.535118
1430000000 -23.066387 30.246363 -1.8165272 -36.928577 -1.8200557 -36.93293 -23.287834 67.079956
1439500000 -22.387085 -1.9454274 -1.8293755 -63.441727 -1.8328986 -63.446892 -22.287138 41.440285
1449000000 -20.766981 -31.540348 -1.8457313 -89.923065 -1.8494806 -89.928314 -20.974363 14.891018
1458500000 -19.494785 -53.026031 -1.8585758 -116.35419 -1.8622714 -116.35977 -20.038401 -14.190054
1468000000 -19.35788 -72.549042 -1.8623799 -142.78636 -1.865875 -142.79039 -19.815376 -42.685936
1477500000 -19.868349 -96.339256 -1.8633041 -169.25314 -1.866835 -169.258 -19.908321 -68.734489
1487000000 -20.012796 -122.82956 -1.8660023 164.28281 -1.8694463 164.27765 -20.048611 -95.051109
1496500000 -20.016445 -144.95616 -1.8651372 137.83562 -1.8683941 137.83015 -20.577738 -123.44899
1506000000 -20.935034 -163.43243 -1.8584503 111.36381 -1.861967 111.35809 -21.760477 -152.35497
1515500000 -22.904455 175.08838 -1.8520271 84.844193 -1.855556 84.837784 -23.395208 -179.54742
1525000000 -24.706739 147.41434 -1.8497267 58.301189 -1.8533136 58.294216 -24.985411 154.04617
1534500000 -25.601019 122.52631 -1.8501908 31.758242 -1.853832 31.75246 -26.517277 125.0723
1544000000 -27.011913 102.17064 -1.8516662 5.2138252 -1.855252 5.2073669 -28.227509 94.848793
1553500000 -29.306761 72.207878 -1.8547604 -21.33424 -1.8583705 -21.341164 -29.529716 68.008575
1563000000 -29.44268 29.187475 -1.8599739 -47.872856 -1.8636874 -47.879669 -29.412727 42.832184
1572500000 -27.778692 -1.4486156 -1.8659165 -74.396957 -1.8696278 -74.404541 -28.535284 14.593172
1582000000 -27.104235 -24.473288 -1.8716651 -100.91673 -1.8752145 -100.92418 -27.786991 -13.601627
1591500000 -26.982946 -48.250519 -1.8770055 -127.43751 -1.8807691 -127.44476 -27.168657 -41.168201
1601000000 -26.724718 -69.612312 -1.8815651 -153.9576 -1.8854557 -153.96387 -26.969503 -69.817467
1610500000 -26.749252 -86.763809 -1.8857335 179.52592 -1.8896163 179.51949 -27.297972 -99.436966
1620000000 -27.18277 -103.79517 -1.8896266 153.01408 -1.8934696 153.00859 -28.146017 -131.49049
1629500000 -27.508808 -120.02738 -1.8932343 126.5022 -1.8970039 126.49702 -29.618931 -167.29723
1639000000 -27.835228 -129.20654 -1.8969783 99.980751 -1.9005455 99.974922 -31.679398 151.02713
1648500000 -28.639757 -131.51944 -1.9010712 73.451012 -1.9045973 73.444756 -33.989269 100.7429
1658000000 -29.677437 -135.8866 -1.9055189 46.920898 -1.9091325 46.915466 -35.165478 44.288639
1667500000 -29.926157 -150.44542 -1.9103572 20.396627 -1.9140127 20.390936 -34.311802 -6.7416992
1677000000 -29.0609 -167.24248 -1.9155611 -6.1184602 -1.9191082 -6.124393 -32.873283 -47.879871
1686500000 -29.111191 -178.56699 -1.9200357 -32.628124 -1.9236525 -32.634617 -32.287968 -82.652222
1696000000 -31.874363 169.57147 -1.9233539 -59.144657 -1.9270598 -59.151886 -33.223518 -111.09328
1705500000 -37.975574 137.37315 -1.9266609 -85.674362 -1.9301956 -85.680862 -35.938194 -129.54808
1715000000 -40.276623 73.295044 -1.9305457 -112.20874 -1.9340775 -112.21606 -39.524635 -122.38706
1724500000 -42.148113 34.074661 -1.9350967 -138.73836 -1.9388763 -138.74689 -38.034569 -105.43865
1734000000 -42.280426 -56.646881 -1.9401649 -165.26176 -1.9439825 -165.26971 -36.03492 -110.04307
1743500000 -34.6064 -91.136459 -1.9462267 168.21727 -1.9501867 168.20969 -34.071297 -120.19402
1753000000 -31.768913 -104.23754 -1.9530609 141.69975 -1.9569438 141.69246 -32.390945 -143.23801
1762500000 -31.688795 -121.41949 -1.9586368 115.18524 -1.9627078 115.17807 -32.400669 -173.94412
1772000000 -32.313942 -147.1246 -1.9626337 88.664589 -1.9666351 88.657875 -34.243958 158.32669
1781500000 -32.547108 -171.00224 -1.9664047 62.135735 -1.9705168 62.130215 -36.307152 143.40385
1791000000 -33.661633 174.18994 -1.9715132 35.608406 -1.9756718 35.60387 -36.6651 126.75215
1800500000 -36.868114 162.01814 -1.9769236 9.0861597 -1.9811187 9.0821838 -38.560078 100.16927
1810000000 -43.853203 131.01892 -1.9820633 -17.437634 -1.9860691 -17.440857 -42.433773 99.64315
1819500000 -44.203117 19.014856 -1.9877281 -43.971729 -1.9915518 -43.974224 -37.757519 100.24976
1829000000 -36.432865 -26.286304 -1.995052 -70.508736 -1.9988115 -70.511124 -33.442455 59.361935
1838500000 -31.648907 -53.662113 -2.0030792 -97.039009 -2.0067401 -97.041222 -31.037127 17.958549
1848000000 -28.372166 -75.879936 -2.0113759 -123.5664 -2.0150166 -123.5696 -28.993378 -12.707528
1857500000 -26.309855 -96.896736 -2.0215535 -150.0872 -2.0251687 -150.09091 -26.525045 -38.815571
1867000000 -24.954481 -119.50879 -2.0335584 -176.58266 -2.0371549 -176.58667 -24.320492 -67.163078
1876500000 -23.759109 -142.8882 -2.0434506 156.94875 -2.0468102 156.94441 -23.107569 -97.258698
1886000000 -22.791908 -164.59578 -2.0485656 130.47075 -2.0518796 130.467 -22.908531 -125.17486
1895500000 -22.503345 174.38641 -2.0532703 103.96828 -2.0567987 103.96337 -22.981249 -149.27406
1905000000 -22.927128 150.43948 -2.0597544 77.479446 -2.0632946 77.474152 -22.901739 -173.86472
1914500000 -23.483475 122.60583 -2.0627897 51.015968 -2.0662603 51.009995 -23.196264 158.99335
1924000000 -23.964342 95.600571 -2.0610614 24.532524 -2.0646772 24.526608 -24.164923 133.04671
1933500000 -25.066486 70.150658 -2.0607162 -1.9889063 -2.0644021 -1.9948214 -25.260719 111.53949
1943000000 -26.675297 38.476578 -2.0643306 -28.523117 -2.0680866 -28.529192 -25.754692 91.070061
1952500000 -26.798559 0.39151254 -2.0698035 -55.048141 -2.0735929 -55.054714 -25.881546 65.836983
1962000000 -25.632292 -28.770947 -2.0744462 -81.564362 -2.0782814 -81.57077 -26.243145 36.223946
1971500000 -25.114468 -51.708862 -2.0795708 -108.08508 -2.0833952 -108.09209 -26.519566 7.38449
1981000000 -25.073269 -78.222267 -2.087312 -134.6022 -2.0911455 -134.60883 -25.786642 -20.998697
1990500000 -24.271845 -107.07961 -2.0962515 -161.09514 -2.1001518 -161.10214 -24.532627 -52.389072
