!Keysight Technologies,N5242B,MY48420967,A.15.65.19
!Date: Saturday, December 17, 2022 23:11:37
!Correction: S11(C  2-Port  ) 
!S21(C  2-Port  ) 
!S12(C  2-Port  ) 
!S22(C  2-Port  ) 
!S2P File: Measurements: S11, S21, S12, S22:
# Hz S  dB   R 50
100000000 -22.121765 -49.657734 -0.71256572 78.929878 -0.71512645 78.919243 -23.949686 -25.790833
109500000 -22.086802 -65.960442 -0.7363137 52.283672 -0.73746455 52.280869 -23.596294 -53.275681
119000000 -23.586243 -79.44558 -0.75369465 25.648176 -0.75577176 25.632532 -24.465523 -81.739197
128500000 -26.38685 -95.323097 -0.77200752 -1.0173858 -0.77457106 -1.0296711 -26.482437 -106.2662
138000000 -29.280163 -112.24494 -0.79304379 -27.670578 -0.79546404 -27.681009 -28.747334 -124.90162
147500000 -31.625761 -119.17451 -0.81461149 -54.301533 -0.81712031 -54.312752 -31.345881 -144.8999
157000000 -33.518314 -115.49525 -0.83608282 -80.918198 -0.83889771 -80.929733 -35.893341 -164.2399
166500000 -35.603687 -122.22557 -0.85736221 -107.52925 -0.85998142 -107.53827 -41.102242 -170.92055
176000000 -39.235992 -162.95415 -0.87871593 -134.13222 -0.88135946 -134.1418 -42.411377 156.28409
185500000 -38.736248 113.19343 -0.90013188 -160.72383 -0.90285569 -160.73305 -38.767948 97.122284
195000000 -32.8466 54.947613 -0.92119116 172.70058 -0.92393529 172.69171 -33.855782 61.202766
204500000 -28.753668 21.848511 -0.94073611 146.13991 -0.94349647 146.13194 -30.560551 34.090885
214000000 -27.28936 -4.7819009 -0.95762962 119.58145 -0.96004039 119.5772 -29.147316 11.017241
223500000 -27.703012 -33.679241 -0.97263008 93.025787 -0.97516906 93.02066 -28.814934 -9.9395599
233000000 -28.845549 -63.141438 -0.98592645 66.463585 -0.98873717 66.458794 -29.922821 -33.778847
242500000 -31.38751 -82.457558 -1.0001794 39.887794 -1.0029373 39.883232 -33.59877 -56.441532
252000000 -38.969723 -73.395264 -1.0162942 13.310278 -1.0191169 13.307611 -41.98114 -68.196419
261500000 -37.511879 20.311882 -1.0341145 -13.259884 -1.0369811 -13.262028 -42.915108 46.444027
271000000 -31.790955 19.558495 -1.0524032 -39.814087 -1.0549093 -39.81601 -33.755779 30.894917
280500000 -29.712418 -4.7519579 -1.0691303 -66.3498 -1.0717909 -66.352013 -30.222281 4.9956899
290000000 -27.748327 -33.926208 -1.0846398 -92.877769 -1.087162 -92.879799 -28.468466 -19.924175
299500000 -26.495977 -54.461781 -1.0986375 -119.40759 -1.1011455 -119.41056 -27.662127 -43.961304
309000000 -27.300238 -68.369736 -1.1114244 -145.94485 -1.1140432 -145.94824 -27.674803 -67.612411
318500000 -30.284058 -81.641052 -1.1234097 -172.49284 -1.1260114 -172.4962 -28.788555 -91.169151
328000000 -33.634518 -99.750214 -1.1357908 160.95303 -1.1384126 160.94867 -31.122765 -110.33686
337500000 -33.729912 -116.99142 -1.1496338 134.39702 -1.1522399 134.39371 -33.045036 -125.61419
347000000 -32.09655 -129.97273 -1.1647949 107.8437 -1.1675972 107.84119 -33.847 -154.26234
356500000 -32.086277 -153.8033 -1.1808453 81.294373 -1.1836963 81.292244 -33.911716 166.41687
366000000 -32.158257 154.74942 -1.1974168 54.742157 -1.2002313 54.741093 -31.968481 135.36926
375500000 -28.348974 105.89807 -1.216103 28.198372 -1.218977 28.196785 -28.542606 110.45128
385000000 -25.332125 76.59919 -1.2360728 1.6849259 -1.23886 1.6831164 -25.513557 83.77655
394500000 -24.057831 50.208393 -1.2534499 -24.796753 -1.2559688 -24.798698 -23.719765 56.046188
404000000 -23.379879 21.058046 -1.2659272 -51.275059 -1.2686685 -51.277847 -23.005217 30.080139
413500000 -22.554668 -6.7759786 -1.2781534 -77.764267 -1.2810252 -77.765846 -22.624958 6.1934562
423000000 -22.109632 -29.550827 -1.2892811 -104.24133 -1.2918243 -104.24215 -22.373564 -19.980242
432500000 -22.742876 -49.551441 -1.2944267 -130.72098 -1.2969756 -130.72272 -22.915806 -48.708035
442000000 -24.512844 -71.054626 -1.2971041 -157.24059 -1.2997364 -157.24309 -24.420403 -74.704727
451500000 -26.69693 -95.245605 -1.3030912 176.21298 -1.3058316 176.21161 -26.210819 -95.696671
461000000 -28.508999 -115.30914 -1.3122743 149.6684 -1.314947 149.66713 -28.007317 -117.28749
470500000 -30.222389 -126.22998 -1.3226837 123.12701 -1.3252459 123.12527 -30.696499 -143.41101
480000000 -32.449539 -137.96442 -1.3334945 96.584343 -1.3362281 96.581848 -34.420528 -170.27625
489500000 -34.824749 -173.46095 -1.3452538 70.041214 -1.3481789 70.039223 -36.254463 163.45184
499000000 -33.076347 133.46536 -1.3587512 43.508221 -1.3615068 43.506184 -33.961018 129.0873
508500000 -30.360363 97.519508 -1.3720911 16.992323 -1.3746974 16.991936 -31.004396 94.903389
518000000 -29.209463 64.930817 -1.3841425 -9.5139828 -1.3869585 -9.514822 -29.123852 68.455353
527500000 -28.338442 31.459637 -1.3955145 -36.019051 -1.3983461 -36.019497 -27.834726 46.590183
537000000 -27.534552 4.1123414 -1.4056575 -62.518642 -1.4085455 -62.51873 -27.21596 22.555868
546500000 -27.661745 -16.235733 -1.4138881 -89.018997 -1.4165164 -89.019691 -27.853533 -4.6826773
556000000 -29.113157 -32.739742 -1.421115 -115.53221 -1.4236343 -115.53359 -30.019218 -33.131283
565500000 -32.034927 -45.560005 -1.4293239 -142.05621 -1.4316522 -142.05937 -33.894089 -62.485447
575000000 -36.790947 -45.473061 -1.4388887 -168.58511 -1.4410088 -168.58977 -41.656437 -100.36745
584500000 -38.73344 -8.3454905 -1.4494939 164.88771 -1.4520879 164.87971 -45.512333 90.678596
594000000 -33.623833 0.75048208 -1.4613324 138.36844 -1.465035 138.35948 -35.497063 44.389999
603500000 -29.906862 -15.027647 -1.4736652 111.85822 -1.4776453 111.85293 -31.555536 16.235977
613000000 -28.074286 -33.523949 -1.4849057 85.353653 -1.4890134 85.354469 -29.354485 -8.2655497
622500000 -28.233234 -51.281452 -1.49433 58.854752 -1.4981456 58.8587 -28.479744 -33.923912
632000000 -30.471056 -70.015198 -1.5014143 32.349861 -1.5044202 32.354942 -29.558241 -59.176178
641500000 -34.148125 -91.742813 -1.5090195 5.8321238 -1.5115756 5.8361673 -32.612221 -76.873917
651000000 -37.492939 -107.64808 -1.5178629 -20.685791 -1.520454 -20.684542 -36.271381 -84.672684
660500000 -39.121655 -99.578316 -1.5274644 -47.20126 -1.5300634 -47.200855 -41.34161 -95.020706
670000000 -39.583408 -80.856979 -1.5371586 -73.714584 -1.5399402 -73.71508 -51.946606 -57.02042
679500000 -43.656845 -54.86586 -1.5469482 -100.22934 -1.54959 -100.23019 -46.803993 -40.978905
689000000 -43.71101 41.953182 -1.5569098 -126.74565 -1.559607 -126.74583 -46.4492 -143.32997
698500000 -36.767612 62.147045 -1.5673356 -153.25613 -1.570325 -153.25694 -38.123135 134.99561
708000000 -34.619675 49.248409 -1.577639 -179.7608 -1.5805025 -179.76038 -34.433632 92.93235
717500000 -32.535439 17.139439 -1.5878061 153.73038 -1.5906028 153.73082 -33.10775 68.799294
727000000 -29.122717 -7.8515816 -1.5994784 127.22307 -1.6023166 127.22264 -30.96833 48.21804
736500000 -27.398888 -20.987005 -1.6100451 100.7331 -1.612995 100.73281 -29.448696 15.930397
746000000 -28.454185 -33.314442 -1.6162368 74.243767 -1.6191515 74.243095 -30.175161 -18.697567
755500000 -32.21188 -57.194954 -1.621475 47.736027 -1.6242882 47.734909 -32.954723 -44.419289
765000000 -35.990627 -95.11335 -1.62871 21.219301 -1.6315455 21.217857 -37.120197 -57.194752
774500000 -41.372646 -91.314034 -1.6377873 -5.3020759 -1.6407901 -5.3041391 -46.26701 -46.314617
784000000 -35.851166 -7.3396659 -1.6491559 -31.830271 -1.65214 -31.831533 -38.000568 49.42094
793500000 -29.366846 -1.0962503 -1.6620668 -58.343605 -1.6652023 -58.344311 -30.321104 26.620556
803000000 -27.555494 -10.662542 -1.6732705 -84.832245 -1.6763352 -84.832138 -27.505898 -2.6274512
812500000 -27.564186 -32.766224 -1.6819175 -111.31905 -1.68483 -111.3193 -26.865828 -27.790203
822000000 -26.957325 -60.10611 -1.6907809 -137.81424 -1.693845 -137.81448 -26.71427 -50.013912
831500000 -26.272814 -79.253517 -1.6997075 -164.30745 -1.7028155 -164.30736 -26.807344 -75.755608
841000000 -26.964417 -93.525955 -1.7070143 169.19775 -1.7100489 169.19646 -27.564674 -104.30783
850500000 -28.88063 -112.35374 -1.7133989 142.69368 -1.7164975 142.69215 -28.703108 -132.53244
860000000 -30.450676 -140.64915 -1.7206204 116.18261 -1.7236937 116.18176 -29.742544 -157.93849
869500000 -30.743502 -170.68262 -1.7294399 89.666641 -1.7324916 89.665848 -29.833551 179.33652
879000000 -30.651089 158.47284 -1.7399361 63.149273 -1.7429683 63.148834 -29.085911 153.5083
888500000 -29.664398 121.76758 -1.7515883 36.629593 -1.754529 36.630108 -28.115299 126.99194
898000000 -27.448656 86.034218 -1.7655585 10.113112 -1.7682756 10.113078 -26.554649 101.27245
907500000 -25.106419 55.04739 -1.7816371 -16.38434 -1.7843783 -16.384964 -24.695997 74.325394
917000000 -23.08597 27.414043 -1.798297 -42.854866 -1.8011131 -42.855576 -23.011543 47.003693
926500000 -21.593222 2.842212 -1.8133777 -69.294739 -1.8163141 -69.296577 -21.724257 19.56274
936000000 -20.869017 -20.154615 -1.8233294 -95.718483 -1.8263218 -95.72242 -21.057455 -7.5158095
945500000 -20.823103 -43.70155 -1.828604 -122.15213 -1.8317661 -122.15611 -20.954409 -33.44445
955000000 -21.115528 -67.897774 -1.8312985 -148.59779 -1.8346732 -148.60237 -21.249834 -59.008163
964500000 -21.664419 -90.594292 -1.8316739 -175.05853 -1.8353727 -175.06256 -21.945993 -85.254372
974000000 -22.776154 -110.86285 -1.8311753 158.46129 -1.8350792 158.4597 -23.057268 -112.64067
983500000 -24.653196 -130.92761 -1.8305247 131.96211 -1.8346194 131.9628 -24.713835 -141.12877
993000000 -26.947193 -154.71402 -1.8316438 105.4366 -1.8355808 105.43951 -26.865877 -167.27182
1002500000 -28.670506 177.61769 -1.8365266 78.904221 -1.8400781 78.910187 -28.438011 169.29724
1012000000 -29.612581 151.69344 -1.8440125 52.388329 -1.8471946 52.394199 -29.412598 140.31331
1021500000 -30.877056 124.55932 -1.85112 25.878767 -1.8539879 25.884315 -30.674696 109.37443
1031000000 -31.613953 82.431229 -1.8591049 -0.6383884 -1.8620477 -0.63294882 -31.098501 85.28894
1040500000 -29.005724 41.067379 -1.8699858 -27.149309 -1.8727392 -27.144775 -29.432735 61.527828
1050000000 -26.416964 17.677925 -1.8812784 -53.633171 -1.8839695 -53.628273 -27.356133 30.80512
1059500000 -25.720896 -1.3186314 -1.8882133 -80.100128 -1.8910935 -80.095917 -26.50267 -1.0644797
1069000000 -26.271593 -25.906967 -1.8927323 -106.58665 -1.895601 -106.58202 -26.78797 -26.360029
1078500000 -26.4625 -53.650764 -1.8995717 -133.08443 -1.9025108 -133.0802 -26.892937 -47.138252
1088000000 -26.545881 -71.691322 -1.9062467 -159.56816 -1.9091574 -159.56319 -27.318035 -75.309303
1097500000 -28.125168 -77.309662 -1.9094254 173.94083 -1.9125082 173.94572 -30.06896 -111.20496
1107000000 -31.381346 -71.567833 -1.9133507 147.42729 -1.9163433 147.43225 -36.749245 -151.21547
1116500000 -33.820023 -61.414917 -1.9197897 120.91166 -1.9229463 120.916 -47.592186 117.48444
1126000000 -32.786217 -68.574226 -1.9280387 94.402153 -1.9312918 94.406403 -38.904331 35.848419
1135500000 -29.84164 -83.210274 -1.9380482 67.904404 -1.9411787 67.90905 -32.866459 4.4414439
1145000000 -28.073112 -93.394066 -1.9470948 41.42651 -1.9500594 41.431015 -29.910566 -30.870127
1154500000 -28.697802 -102.26682 -1.9523251 14.948943 -1.9553573 14.952044 -29.964184 -65.729866
1164000000 -31.896448 -115.69044 -1.9565656 -11.551569 -1.9596317 -11.547768 -32.254719 -88.723701
1173500000 -36.750935 -142.02756 -1.962857 -38.057827 -1.9656326 -38.054375 -34.206429 -99.119095
1183000000 -40.884747 -166.06491 -1.9693519 -64.559418 -1.9722836 -64.556168 -36.659611 -114.81675
1192500000 -45.119785 -125.83792 -1.9763119 -91.061165 -1.979265 -91.059021 -44.059238 -108.28133
1202000000 -39.072548 -72.935417 -1.9840722 -117.56182 -1.9869808 -117.55997 -40.063194 -57.080437
1211500000 -35.929108 -58.904179 -1.9913338 -144.05568 -1.9945456 -144.05417 -36.834709 -78.958008
1221000000 -36.341717 -48.933651 -1.9978391 -170.54939 -2.0009625 -170.5477 -38.802517 -103.6507
1230500000 -38.301353 -39.799137 -2.0043306 162.9534 -2.0073185 162.95576 -43.72308 -112.68019
1240000000 -38.37109 -42.832787 -2.0117011 136.45279 -2.0147755 136.45518 -53.457947 -124.60094
1249500000 -35.281364 -56.804256 -2.0198486 109.95454 -2.0228415 109.95731 -45.16748 32.60041
1259000000 -32.450352 -68.107544 -2.0275259 83.462288 -2.030452 83.465927 -37.578407 -2.6634767
1268500000 -31.765564 -78.708237 -2.0337601 56.971718 -2.0367639 56.975891 -35.646244 -34.829845
1278000000 -33.395458 -90.426735 -2.0395732 30.4758 -2.0426505 30.481524 -36.364452 -64.983223
1287500000 -37.568993 -93.7631 -2.0458477 3.9685326 -2.0486968 3.9752722 -40.151081 -102.72655
1297000000 -40.51231 -45.585758 -2.0534801 -22.549799 -2.0563843 -22.54213 -46.280071 144.62244
1306500000 -33.833221 -20.948591 -2.0631592 -49.065441 -2.0660672 -49.057339 -35.821484 62.324993
1316000000 -29.536999 -31.335423 -2.0739043 -75.569855 -2.077107 -75.563248 -30.499189 27.948927
1325500000 -26.803064 -51.050381 -2.0861518 -102.06274 -2.08938 -102.0602 -27.236624 1.5013373
1335000000 -24.691051 -71.465073 -2.0996463 -128.53723 -2.1030757 -128.53719 -24.904821 -24.866091
1344500000 -23.519505 -89.371071 -2.1106646 -154.9908 -2.1141696 -154.99178 -23.656313 -52.698265
1354000000 -23.599537 -108.46264 -2.1167283 178.55188 -2.120331 178.55031 -23.457439 -79.240562
1363500000 -24.29039 -133.40338 -2.1216011 152.07539 -2.1253397 152.07388 -23.71191 -103.00872
1373000000 -24.424726 -160.12061 -2.1274321 125.60137 -2.1312912 125.60017 -23.980303 -127.89655
1382500000 -24.575413 179.45256 -2.1314764 99.132469 -2.1355205 99.131905 -24.783361 -156.05176
1392000000 -25.995924 160.5778 -2.1342187 72.639107 -2.1383743 72.641289 -26.193378 177.19339
1401500000 -28.138052 129.22371 -2.1401417 46.120049 -2.1441107 46.122971 -27.07263 154.06906
1411000000 -27.551855 87.84153 -2.1498353 19.599611 -2.153837 19.603621 -26.726067 128.52626
1420500000 -25.648474 59.50499 -2.1611376 -6.9041853 -2.1649275 -6.8989792 -25.9186 98.549202
1430000000 -24.945583 33.495064 -2.1720362 -33.394974 -2.1754467 -33.388493 -25.148815 69.501175
1439500000 -24.230402 -0.02856189 -2.1843171 -59.882515 -2.1876383 -59.876286 -24.05768 43.987553
1449000000 -22.305954 -30.378799 -2.1999993 -86.345375 -2.2034409 -86.339066 -22.569885 17.754593
1458500000 -20.780947 -51.074539 -2.2132163 -112.76454 -2.2165334 -112.75934 -21.469023 -11.29784
1468000000 -20.549334 -69.498962 -2.2188196 -139.18245 -2.2218616 -139.17683 -21.147078 -39.807014
1477500000 -21.073608 -92.657082 -2.2218921 -165.62863 -2.2248526 -165.62439 -21.1831 -65.663422
1487000000 -21.19095 -119.14672 -2.2264817 167.92729 -2.2293782 167.93086 -21.273531 -91.684921
1496500000 -21.075848 -140.84885 -2.2283628 141.49922 -2.2310753 141.50204 -21.761639 -119.88019
1506000000 -21.909016 -158.08766 -2.2251322 115.05428 -2.2280567 115.05633 -22.941393 -148.81876
1515500000 -23.934069 -177.94565 -2.2216535 88.568466 -2.2245786 88.569801 -24.653849 -176.14801
1525000000 -25.921932 155.11897 -2.2214367 62.061237 -2.224484 62.0616 -26.363499 157.37675
1534500000 -26.829884 130.39471 -2.2237492 35.553257 -2.2268207 35.55434 -28.00626 127.85795
1544000000 -28.193127 111.63178 -2.2268929 9.0441551 -2.2299366 9.0447807 -29.838491 96.29866
1553500000 -30.838478 83.484566 -2.2312074 -17.46806 -2.2342796 -17.468119 -31.232813 68.218117
1563000000 -31.298935 36.435505 -2.2373183 -43.973228 -2.2405705 -43.972927 -30.997263 42.940845
1572500000 -29.118969 3.2828488 -2.2442415 -70.46611 -2.2475255 -70.466629 -29.823004 15.074962
1582000000 -28.05549 -19.850786 -2.2512963 -96.95533 -2.2545056 -96.95575 -28.776413 -12.468596
1591500000 -27.65733 -43.827488 -2.25809 -123.44458 -2.2614768 -123.44476 -27.878284 -39.192078
1601000000 -27.10199 -65.650108 -2.2641666 -149.93204 -2.2676616 -149.93156 -27.420242 -66.936234
1610500000 -26.83827 -83.316223 -2.2698321 -176.41464 -2.2732987 -176.41441 -27.490801 -95.416435
1620000000 -27.029341 -101.16222 -2.2750983 157.1087 -2.278625 157.11006 -28.057261 -125.87107
1629500000 -27.145172 -118.82175 -2.2798154 130.63306 -2.2832325 130.63478 -29.235371 -159.16957
1639000000 -27.340902 -130.30534 -2.2842577 104.14818 -2.287595 104.14973 -31.073004 163.59146
1648500000 -28.269558 -135.65759 -2.2888243 77.653671 -2.2920303 77.654961 -33.560505 120.61576
1658000000 -29.748629 -142.46815 -2.2935085 51.156551 -2.2967522 51.158775 -35.945229 70.203247
1667500000 -30.442556 -157.62016 -2.2986174 24.662796 -2.3018768 24.66427 -36.509148 15.912805
1677000000 -29.84124 -173.0376 -2.3042703 -1.8238121 -2.3074887 -1.8228015 -35.422157 -31.11754
1686500000 -30.169533 177.74295 -2.3096061 -28.30584 -2.3129358 -28.305218 -34.751385 -69.102409
1696000000 -33.51247 167.68362 -2.31409 -54.793514 -2.3174629 -54.793545 -35.73365 -97.608665
1705500000 -41.368034 129.44296 -2.3187251 -81.292976 -2.3218794 -81.293297 -38.567219 -110.49136
1715000000 -41.792973 48.417194 -2.3238897 -107.79522 -2.3271899 -107.79643 -40.358643 -92.224915
1724500000 -42.57151 4.6396723 -2.3296151 -134.29172 -2.3331301 -134.2939 -36.977463 -84.615776
1734000000 -39.539131 -70.452667 -2.335681 -160.78264 -2.3393073 -160.7843 -34.736721 -95.673111
1743500000 -33.437538 -95.715469 -2.3426769 172.72942 -2.3465903 172.7281 -32.932625 -109.88018
1753000000 -31.103228 -107.64577 -2.3504381 146.24525 -2.3543305 146.24461 -31.518551 -133.33134
1762500000 -31.11936 -124.20171 -2.3568749 119.76338 -2.3609757 119.76327 -31.552523 -162.97179
1772000000 -31.713892 -148.72853 -2.3615849 93.275986 -2.3657644 93.276764 -33.203419 169.95953
1781500000 -31.989826 -171.26186 -2.36623 66.779724 -2.3704004 66.782127 -35.061596 153.24185
1791000000 -33.102585 174.92033 -2.3721673 40.285091 -2.3765061 40.289322 -35.704487 134.57204
1800500000 -36.038219 164.93251 -2.3785093 13.796206 -2.3828628 13.802162 -37.863331 107.53859
1810000000 -42.018345 146.35023 -2.3844986 -12.692416 -2.3886204 -12.684845 -42.450455 102.11238
1819500000 -50.19466 45.007248 -2.3906968 -39.190025 -2.3945374 -39.181515 -39.33057 107.9413
1829000000 -39.946251 -26.743546 -2.3981075 -65.691528 -2.4017961 -65.683189 -35.36655 68.175575
1838500000 -34.122051 -54.294197 -2.4062204 -92.188362 -2.4097555 -92.179199 -33.139988 24.363541
1848000000 -30.392345 -75.30764 -2.4144073 -118.6815 -2.4178398 -118.67323 -31.133259 -7.9021745
1857500000 -28.114977 -95.16745 -2.4239366 -145.17038 -2.4271874 -145.16229 -28.506523 -33.899078
1867000000 -26.658886 -116.90588 -2.4351137 -171.63852 -2.4383318 -171.63141 -26.049629 -62.181728
1876500000 -25.37109 -139.62061 -2.4446585 161.91496 -2.4476578 161.9216 -24.671095 -92.506706
1886000000 -24.2903 -160.3699 -2.4505317 135.46037 -2.4533608 135.46634 -24.418125 -120.53793
1895500000 -23.934174 -179.97223 -2.4558504 108.98425 -2.4589238 108.98949 -24.508636 -144.44496
1905000000 -24.415012 157.49818 -2.4627962 82.519058 -2.4657838 82.523621 -24.460844 -168.61491
1914500000 -25.118769 130.29767 -2.4671175 56.076656 -2.4701078 56.079971 -24.788145 164.44809
1924000000 -25.701252 103.74056 -2.4674227 29.620605 -2.4705687 29.623686 -25.881678 138.42477
1933500000 -27.014526 79.833046 -2.4686053 3.1321411 -2.4718633 3.135555 -27.233829 117.49406
1943000000 -29.280891 48.857525 -2.4728475 -23.369101 -2.4760931 -23.366077 -27.942678 98.565002
1952500000 -29.815178 6.1058989 -2.478657 -49.865261 -2.4819632 -49.862938 -28.204794 74.302544
1962000000 -28.249523 -25.199598 -2.4840248 -76.354218 -2.4874842 -76.351097 -28.780548 44.407665
1971500000 -27.522442 -47.33633 -2.489897 -102.8446 -2.4933684 -102.84248 -29.278334 14.800559
1981000000 -27.459202 -73.962212 -2.4977398 -129.33258 -2.5013084 -129.33028 -28.456135 -14.558938
1990500000 -26.395222 -103.97252 -2.5069187 -155.80344 -2.5104859 -155.80113 -26.868328 -47.263828
2000000000 -24.729593 -126.17684 -2.5145998 177.73723 -2.5182889 177.7401 -25.601021 -80.169678
