!Keysight Technologies,N5242B,MY48420967,A.15.65.19
!Date: Saturday, December 17, 2022 19:18:50
!Correction: S11(C  2-Port  ) 
!S21(C  2-Port  ) 
!S12(C  2-Port  ) 
!S22(C  2-Port  ) 
!S2P File: Measurements: S11, S21, S12, S22:
# Hz S  dB   R 50
100000000 -21.757252 -49.404568 -0.62260699 79.174126 -0.62547338 79.159653 -23.508089 -25.644518
109500000 -21.912045 -66.248665 -0.6409058 52.512421 -0.64232099 52.506214 -23.370644 -52.945671
119000000 -23.605652 -79.856445 -0.65355551 25.858644 -0.6558947 25.839649 -24.443007 -81.326698
128500000 -26.667374 -95.160507 -0.66785032 -0.82558453 -0.67074549 -0.84115523 -26.733696 -105.6264
138000000 -29.90797 -110.22543 -0.68527806 -27.496187 -0.68804628 -27.50934 -29.343794 -123.1267
147500000 -32.362617 -112.68792 -0.70334822 -54.143497 -0.70622969 -54.157509 -32.372753 -140.88875
157000000 -33.485229 -104.32584 -0.72149777 -80.776207 -0.72462809 -80.790138 -37.747452 -153.73439
166500000 -34.586842 -109.76582 -0.73924816 -107.40295 -0.74221009 -107.41461 -42.627956 -141.69182
176000000 -37.925556 -144.11618 -0.75694317 -134.02411 -0.75991446 -134.03592 -44.30608 -170.34714
185500000 -40.076065 131.97766 -0.77503085 -160.63655 -0.77805817 -160.6479 -41.660488 107.65212
195000000 -33.947063 60.218678 -0.79305649 172.76657 -0.79617351 172.75551 -35.191582 64.450966
204500000 -29.296045 24.721792 -0.81004477 146.18488 -0.81315529 146.175 -31.198936 35.982101
214000000 -27.597794 -2.3618731 -0.82453728 119.60756 -0.82724255 119.60148 -29.470654 12.492728
223500000 -27.90023 -31.281656 -0.83700144 93.034248 -0.83988637 93.026901 -28.92271 -8.7682762
233000000 -28.959038 -60.571449 -0.84768683 66.454643 -0.85085344 66.447739 -29.859316 -33.117844
242500000 -31.336334 -79.230042 -0.85916293 39.860996 -0.86221921 39.854599 -33.322575 -56.463696
252000000 -38.09977 -69.563766 -0.87225139 13.264367 -0.87543052 13.260184 -41.00436 -71.558731
261500000 -37.575565 14.16321 -0.88715744 -13.325767 -0.89026368 -13.329949 -44.736103 45.249878
271000000 -32.126919 17.164196 -0.90249598 -39.90152 -0.90535581 -39.905388 -34.404316 31.294134
280500000 -30.048588 -6.267818 -0.91653574 -66.460426 -0.91943139 -66.464462 -30.692717 5.0275855
290000000 -28.062603 -35.020672 -0.92942363 -93.012291 -0.93230194 -93.016312 -28.884951 -19.993126
299500000 -26.833462 -54.965405 -0.94103444 -119.56585 -0.94385964 -119.57058 -28.067513 -44.105816
309000000 -27.727867 -67.872444 -0.95159411 -146.12753 -0.95459485 -146.13283 -28.113367 -67.789673
318500000 -30.864967 -79.128204 -0.96159571 -172.69945 -0.96451843 -172.70451 -29.323353 -91.343704
328000000 -34.298969 -93.85157 -0.97188663 160.72418 -0.97482854 160.71877 -31.859755 -109.8078
337500000 -34.031895 -109.54666 -0.98339874 134.14531 -0.98639035 134.14084 -33.846355 -123.38856
347000000 -31.920158 -123.6332 -0.99627167 107.56882 -0.99944288 107.56439 -34.559116 -152.14931
356500000 -31.658777 -148.23795 -1.0101241 80.994049 -1.0133069 80.990402 -34.498459 167.56985
366000000 -31.865536 160.5882 -1.024718 54.416096 -1.0278094 54.413635 -32.23806 136.47231
375500000 -28.223671 109.77016 -1.0415412 27.845606 -1.0447161 27.84211 -28.534468 111.4517
385000000 -25.148304 79.125618 -1.0601475 1.3051674 -1.0632339 1.3014443 -25.3568 84.461868
394500000 -23.797752 52.116356 -1.0763817 -25.200592 -1.0792483 -25.204233 -23.482885 56.487381
404000000 -23.061981 22.689556 -1.0875651 -51.70071 -1.0906899 -51.705093 -22.704582 30.392361
413500000 -22.200974 -5.4512486 -1.0984864 -78.211449 -1.1016819 -78.214462 -22.25547 6.4050817
423000000 -21.708693 -28.684185 -1.1081984 -104.70803 -1.1111201 -104.71032 -21.939318 -19.855957
432500000 -22.255924 -49.188065 -1.1115869 -131.20589 -1.1144313 -131.20905 -22.413261 -48.542526
442000000 -23.883949 -71.15947 -1.1119908 -157.74556 -1.1149985 -157.74965 -23.809448 -74.40889
451500000 -25.875845 -95.75148 -1.1157236 175.68506 -1.1188622 175.68234 -25.431084 -95.444344
461000000 -27.499083 -116.68999 -1.1228241 149.1169 -1.1258476 149.11438 -27.006239 -117.18382
470500000 -29.063406 -129.87698 -1.1310545 122.5508 -1.1340337 122.54779 -29.333605 -142.99974
480000000 -31.114159 -144.89514 -1.1399393 95.98201 -1.1429777 95.977997 -32.402355 -168.83847
489500000 -32.890457 179.20779 -1.1499877 69.412239 -1.1534096 69.408394 -33.766693 166.0675
499000000 -31.242119 131.68364 -1.1621785 42.854218 -1.1653436 42.850685 -31.993011 133.06422
508500000 -28.995874 97.029312 -1.1742117 16.315615 -1.1771942 16.313341 -29.63809 98.909721
518000000 -28.056234 64.717728 -1.1845973 -10.212626 -1.1877717 -10.215579 -28.050928 71.508621
527500000 -27.367296 31.579695 -1.1942232 -36.739708 -1.1974769 -36.742512 -26.925991 48.469357
537000000 -26.743937 3.9323316 -1.2024931 -63.261711 -1.2056949 -63.263821 -26.423683 23.62104
546500000 -26.984161 -17.26453 -1.2084645 -89.785774 -1.211524 -89.788269 -27.118376 -4.0560842
556000000 -28.502684 -34.891602 -1.213513 -116.32461 -1.2165229 -116.32782 -29.278934 -32.732601
565500000 -31.521494 -49.275932 -1.2197821 -142.87564 -1.2225264 -142.88023 -33.062866 -62.163273
575000000 -36.686901 -51.654781 -1.2274646 -169.43295 -1.2300615 -169.43796 -40.439014 -99.274391
584500000 -39.477905 -9.4510021 -1.2364867 164.01193 -1.2394248 164.00455 -46.128807 94.198662
594000000 -33.731091 2.0451131 -1.2469096 137.46538 -1.2506497 137.45653 -35.424679 44.42326
603500000 -29.783274 -14.341798 -1.2579081 110.92858 -1.2618263 110.92241 -31.352621 16.104834
613000000 -27.87142 -33.451984 -1.2677457 84.399239 -1.2717721 84.396263 -29.091265 -8.6789732
622500000 -27.995396 -51.764732 -1.2755088 57.875069 -1.2795405 57.874367 -28.193436 -34.572765
632000000 -30.158062 -71.013092 -1.2808566 31.344072 -1.2844114 31.344654 -29.224352 -60.077923
641500000 -33.629776 -93.06881 -1.2869282 4.7983937 -1.2900259 4.7988276 -32.17609 -77.980591
651000000 -36.637516 -109.73462 -1.2943544 -21.746807 -1.2974848 -21.748655 -35.505016 -86.766472
660500000 -38.175556 -106.02717 -1.3024684 -48.289627 -1.3056746 -48.29187 -39.883263 -100.84796
670000000 -39.408634 -93.228638 -1.3108742 -74.830498 -1.314151 -74.83255 -49.759796 -96.139931
679500000 -46.502262 -75.91333 -1.3192892 -101.37315 -1.3223555 -101.37571 -48.558025 -75.286987
689000000 -43.046047 68.141731 -1.3281089 -127.91769 -1.3312788 -127.91978 -42.726933 -163.44412
698500000 -35.315773 70.284264 -1.3376837 -154.45546 -1.3410115 -154.45741 -35.787811 134.88327
708000000 -33.176292 53.939285 -1.3468885 179.01537 -1.350197 179.01395 -32.778759 94.630684
717500000 -31.369257 21.444891 -1.3557762 152.48068 -1.3589516 152.47934 -31.631351 69.732178
727000000 -28.282982 -5.2957129 -1.3664153 125.94835 -1.3696591 125.94607 -29.714165 47.918949
736500000 -26.662479 -20.291595 -1.3757957 99.435715 -1.3791347 99.433365 -28.383934 15.478829
746000000 -27.684021 -34.188419 -1.3802671 72.923271 -1.383533 72.920464 -29.164089 -18.940626
755500000 -31.203005 -59.152374 -1.3836042 46.389172 -1.3868164 46.386108 -31.813353 -44.835495
765000000 -34.685551 -96.457817 -1.3891646 19.845133 -1.3923495 19.84166 -35.625908 -59.784866
774500000 -39.935463 -98.834084 -1.3965552 -6.7046194 -1.4000092 -6.7090416 -44.008121 -62.232216
784000000 -36.534962 -9.664938 -1.4063084 -33.262047 -1.4097884 -33.265938 -38.897644 48.464115
793500000 -29.605762 -1.0197234 -1.4179249 -59.805607 -1.4214928 -59.808403 -30.458212 25.326883
803000000 -27.666454 -10.575596 -1.4279733 -86.323463 -1.4314239 -86.325317 -27.524229 -4.4139223
812500000 -27.602949 -32.83297 -1.4354904 -112.83949 -1.4388075 -112.84185 -26.85994 -29.762569
822000000 -26.939106 -60.170654 -1.4432671 -139.36371 -1.4466923 -139.36578 -26.675056 -52.067478
831500000 -26.215544 -79.333015 -1.4511288 -165.88507 -1.454671 -165.8876 -26.716518 -78.009453
841000000 -26.842688 -93.752571 -1.4573861 167.59146 -1.4608182 167.58717 -27.419512 -106.75664
850500000 -28.616528 -112.8177 -1.4627453 141.05843 -1.4662937 141.05443 -28.484695 -134.90623
860000000 -29.971235 -141.1545 -1.4689552 114.51835 -1.4724516 114.51551 -29.399464 -159.90817
869500000 -30.065001 -171.20456 -1.4767673 87.972923 -1.4802842 87.969528 -29.32312 177.78017
879000000 -29.772139 157.90378 -1.4865777 61.425579 -1.4900615 61.422268 -28.431858 152.32143
888500000 -28.677361 121.79402 -1.4976288 34.87553 -1.5009608 34.874111 -27.351574 126.12873
898000000 -26.526981 86.509666 -1.5112786 8.3295422 -1.5144663 8.3276291 -25.744705 100.51342
907500000 -24.28385 55.454716 -1.5274154 -18.195425 -1.5305984 -18.198149 -23.899292 73.536972
917000000 -22.351978 27.527655 -1.5442278 -44.690765 -1.5474273 -44.693325 -22.25375 46.117825
926500000 -20.921345 2.4951556 -1.5592229 -71.151764 -1.5625407 -71.154846 -21.00617 18.526625
936000000 -20.220694 -21.013435 -1.568588 -97.59362 -1.5719362 -97.59832 -20.366976 -8.6891193
945500000 -20.170525 -44.972862 -1.5728133 -124.04642 -1.5763301 -124.05176 -20.263605 -34.749924
955000000 -20.450321 -69.492729 -1.5741926 -150.5119 -1.57775 -150.51759 -20.53805 -60.493622
964500000 -20.977627 -92.641258 -1.5729036 -176.9942 -1.5767345 -176.9993 -21.195621 -86.843193
974000000 -22.037495 -113.67193 -1.5705097 156.50325 -1.5745349 156.49971 -22.231787 -114.20383
983500000 -23.800934 -134.80266 -1.5678444 129.97894 -1.5720456 129.97693 -23.774338 -142.4812
993000000 -25.879221 -159.66649 -1.567005 103.42525 -1.5711099 103.42418 -25.733986 -168.17291
1002500000 -27.35354 172.14296 -1.5704821 76.86274 -1.5743377 76.864273 -27.075972 168.58612
1012000000 -28.151922 145.73041 -1.5767212 50.319309 -1.5802969 50.320637 -27.917719 140.26572
1021500000 -29.213614 117.92406 -1.5824366 23.780445 -1.5857466 23.781937 -29.050894 110.76511
1031000000 -29.685661 78.21743 -1.5893672 -2.766295 -1.5928028 -2.7644494 -29.410368 87.046829
1040500000 -27.540236 39.790401 -1.5996085 -29.304609 -1.6029186 -29.30349 -27.990358 62.527302
1050000000 -25.401424 15.936824 -1.6100444 -55.811543 -1.6131951 -55.810261 -26.2686 31.371439
1059500000 -24.930796 -4.0659451 -1.6153235 -82.302063 -1.6186539 -82.301003 -25.683662 -0.72525275
1069000000 -25.602005 -29.244812 -1.6180789 -108.81615 -1.6214201 -108.81499 -26.128202 -26.298555
1078500000 -25.968569 -57.014229 -1.623395 -135.34206 -1.6268295 -135.34105 -26.355888 -47.814152
1088000000 -26.344625 -75.227959 -1.628307 -161.85509 -1.6316693 -161.85309 -26.978231 -76.872383
1097500000 -28.326075 -80.749886 -1.6298714 171.6208 -1.6334418 171.62311 -30.033905 -113.87193
1107000000 -32.063057 -72.19294 -1.6328597 145.07372 -1.6363152 145.07614 -37.424507 -157.76901
1116500000 -34.20113 -56.105042 -1.6386977 118.52695 -1.642312 118.52858 -45.577526 88.350594
1126000000 -32.518303 -62.9067 -1.6464566 91.988037 -1.6500754 91.989243 -36.831173 29.228172
1135500000 -29.360865 -79.6119 -1.6559796 65.462006 -1.6594809 65.464127 -31.492138 -0.26939052
1145000000 -27.483177 -91.639587 -1.6644301 38.958416 -1.6677734 38.959888 -28.789164 -34.854538
1154500000 -27.957401 -102.0552 -1.6686027 12.455717 -1.6720943 12.45647 -28.860285 -69.378174
1164000000 -30.81736 -117.07271 -1.6715546 -14.071631 -1.6750079 -14.070185 -30.965511 -92.97332
1173500000 -34.877743 -144.08812 -1.6767061 -40.60651 -1.6798613 -40.606049 -32.697716 -105.81623
1183000000 -37.914364 -169.04686 -1.6820906 -67.135811 -1.6854607 -67.135124 -34.809265 -125.21402
1192500000 -42.342987 -155.71382 -1.6878468 -93.66584 -1.6911339 -93.666496 -41.434425 -136.88937
1202000000 -42.320488 -88.028328 -1.6943287 -120.19624 -1.6975905 -120.19753 -42.748619 -79.579834
1211500000 -38.743717 -54.423832 -1.7006429 -146.72223 -1.7041605 -146.7235 -38.917587 -96.337685
1221000000 -38.025204 -32.505375 -1.7064722 -173.24614 -1.7098969 -173.24733 -41.750191 -129.05603
1230500000 -37.887283 -17.491306 -1.7122412 160.22757 -1.7156521 160.22705 -51.810696 -166.33699
1240000000 -36.685883 -25.193911 -1.7189487 133.69815 -1.7224205 133.6978 -49.48661 69.228149
1249500000 -33.777969 -46.880524 -1.7265323 107.17192 -1.7298642 107.172 -39.212574 33.500114
1259000000 -31.239506 -63.838638 -1.733338 80.653351 -1.7366996 80.654297 -34.816631 -1.5307978
1268500000 -30.754969 -77.795792 -1.7384251 54.136154 -1.7418841 54.137604 -33.759914 -34.364338
1278000000 -32.553085 -91.818214 -1.7428941 27.611422 -1.7463942 27.614199 -34.891243 -65.415916
1287500000 -37.09584 -97.455261 -1.7479347 1.0727917 -1.7512009 1.0764588 -38.927128 -103.94492
1297000000 -40.793274 -43.816734 -1.7546271 -25.478436 -1.7579559 -25.474102 -45.139782 143.36719
1306500000 -33.317833 -18.988762 -1.7637852 -52.027409 -1.7670922 -52.022408 -34.904449 60.825863
1316000000 -28.89456 -30.995905 -1.7743225 -78.56321 -1.7779011 -78.56015 -29.6668 26.156822
1325500000 -26.142132 -51.545723 -1.7864612 -105.08721 -1.7900678 -105.08721 -26.439816 -0.63826996
1335000000 -24.055595 -72.563377 -1.8000402 -131.58987 -1.8038357 -131.59148 -24.144697 -27.435064
1344500000 -22.898115 -91.203445 -1.8108364 -158.06932 -1.8147058 -158.07166 -22.9324 -55.534218
1354000000 -22.92638 -111.14435 -1.8163967 175.44714 -1.8203042 175.44479 -22.72513 -82.189575
1363500000 -23.49004 -136.62839 -1.820745 148.94377 -1.8246418 148.94104 -22.916113 -106.21684
1373000000 -23.537308 -163.44841 -1.8261003 122.44387 -1.8300272 122.44062 -23.104811 -131.44272
1382500000 -23.641232 175.40846 -1.829338 95.948296 -1.833378 95.94606 -23.778246 -159.65326
1392000000 -24.862444 154.8596 -1.8311509 69.425476 -1.8351885 69.424942 -24.954012 173.76729
1401500000 -26.450647 122.83006 -1.8367273 42.874249 -1.8406843 42.872707 -25.548288 150.59248
1411000000 -25.662823 84.376091 -1.8467573 16.323923 -1.850722 16.322777 -25.047913 125.03567
1420500000 -23.974516 56.705238 -1.8584479 -10.205276 -1.8624038 -10.205521 -24.224697 95.650597
1430000000 -23.301441 30.525362 -1.8695176 -36.72094 -1.8732352 -36.720036 -23.482153 67.197182
1439500000 -22.611979 -1.8962307 -1.8823197 -63.232903 -1.8860364 -63.231789 -22.468485 41.626587
1449000000 -20.951517 -31.60216 -1.8986753 -89.713272 -1.9025613 -89.712341 -21.136465 15.143431
1458500000 -19.649141 -53.017235 -1.9116828 -116.14365 -1.9154907 -116.1436 -20.186106 -13.898673
1468000000 -19.502726 -72.461548 -1.9156653 -142.57509 -1.9192979 -142.57355 -19.954576 -42.339691
1477500000 -20.015385 -96.248764 -1.9169736 -169.04012 -1.9206097 -169.03983 -20.039043 -68.318932
1487000000 -20.155054 -122.79251 -1.9198815 164.49751 -1.9233696 164.49712 -20.17309 -94.569771
1496500000 -20.147215 -144.90399 -1.9193225 138.05133 -1.9226135 138.05038 -20.697824 -122.87354
1506000000 -21.063301 -163.30873 -1.9131186 111.58157 -1.9166368 111.58052 -21.876745 -151.67613
1515500000 -23.046661 175.23233 -1.906994 85.064598 -1.9106004 85.063004 -23.513109 -178.74425
1525000000 -24.866293 147.41548 -1.9049485 58.524776 -1.9085367 58.522591 -25.103111 154.99936
1534500000 -25.759686 122.3959 -1.9056312 31.984703 -1.9092839 31.983795 -26.636971 126.13509
1544000000 -27.181341 102.00958 -1.9072096 5.4436331 -1.9109138 5.4416957 -28.352537 96.005211
1553500000 -29.503979 71.780586 -1.9105096 -21.101816 -1.9142202 -21.103996 -29.643734 69.227493
1563000000 -29.585546 28.320496 -1.9159124 -47.637527 -1.9196656 -47.639793 -29.50106 43.947662
1572500000 -27.857811 -2.2129383 -1.9219264 -74.159004 -1.9257683 -74.161644 -28.607159 15.567612
1582000000 -27.157549 -25.115175 -1.9278046 -100.67643 -1.9315091 -100.67889 -27.841059 -12.699155
1591500000 -27.01586 -48.838711 -1.9332643 -127.19383 -1.9372042 -127.19674 -27.202991 -40.320541
1601000000 -26.737997 -70.155495 -1.938024 -153.71115 -1.9419992 -153.71306 -26.988554 -68.983543
1610500000 -26.750795 -87.28775 -1.9423105 179.7747 -1.9463083 179.77313 -27.300171 -98.54303
1620000000 -27.176138 -104.34242 -1.9462811 153.26604 -1.9502536 153.26506 -28.128649 -130.46324
1629500000 -27.49382 -120.62759 -1.9499985 126.75674 -1.9538507 126.7562 -29.584803 -166.01912
1639000000 -27.821589 -129.90257 -1.9536911 100.23765 -1.9574605 100.23721 -31.646263 152.76485
1648500000 -28.656013 -132.35736 -1.9578973 73.710236 -1.9616324 73.709412 -34.013172 103.14816
1658000000 -29.744341 -136.80284 -1.9624275 47.182678 -1.9661425 47.182709 -35.315468 46.859348
1667500000 -30.021708 -151.33929 -1.9673188 20.660416 -1.9711044 20.660049 -34.536129 -4.7442856
1677000000 -29.155308 -167.95242 -1.9725931 -5.8526998 -1.9762865 -5.8536725 -33.084488 -46.221107
1686500000 -29.211304 -179.05171 -1.9771998 -32.360229 -1.9809541 -32.361729 -32.460285 -81.083527
1696000000 -32.000874 169.17274 -1.9807241 -58.874409 -1.9845481 -58.876369 -33.365379 -109.35333
1705500000 -38.150333 136.29826 -1.9841868 -85.401291 -1.9877903 -85.403389 -35.996315 -127.15227
1715000000 -40.235302 71.626129 -1.9882089 -111.93355 -1.9919096 -111.9362 -39.252792 -120.01759
1724500000 -41.976154 32.813213 -1.9928622 -138.46075 -1.9968133 -138.46432 -37.734669 -105.40462
1734000000 -42.105881 -55.659344 -1.9980228 -164.98193 -2.0020382 -164.98457 -35.85627 -110.75328
1743500000 -34.581787 -90.418602 -2.0041599 168.50003 -2.008347 168.49745 -34.014996 -121.07312
1753000000 -31.752172 -103.54569 -2.0110435 141.98511 -2.0152326 141.98241 -32.395054 -143.80695
1762500000 -31.662292 -120.58669 -2.016748 115.47242 -2.0210812 115.47041 -32.410469 -174.37328
1772000000 -32.291294 -146.05995 -2.0208287 88.953789 -2.0251591 88.952461 -34.266384 157.6976
1781500000 -32.530628 -169.72449 -2.0248129 62.427887 -2.0291293 62.427608 -36.403843 142.55818
1791000000 -33.608505 175.73906 -2.0299745 35.902451 -2.034373 35.903725 -36.836349 125.94638
1800500000 -36.712662 164.22853 -2.0355611 9.3821468 -2.0400603 9.3843765 -38.819233 99.154907
1810000000 -43.582607 136.73381 -2.040885 -17.138817 -2.0451586 -17.135061 -42.965904 99.054146
1819500000 -45.313354 20.844046 -2.0465817 -43.669804 -2.0506384 -43.665852 -38.170654 101.17591
1829000000 -36.925629 -26.735693 -2.0539844 -70.204155 -2.0579286 -70.200226 -33.760345 59.976574
1838500000 -31.95982 -53.89397 -2.0620239 -96.732368 -2.0659213 -96.727531 -31.30397 18.25893
1848000000 -28.605581 -75.918877 -2.0703318 -123.25669 -2.0742004 -123.25327 -29.229221 -12.501566
1857500000 -26.503574 -96.818153 -2.0805607 -149.77591 -2.0843451 -149.77248 -26.727207 -38.522594
1867000000 -25.126623 -119.34464 -2.0925934 -176.26904 -2.0962322 -176.26653 -24.486801 -66.833214
1876500000 -23.91633 -142.65817 -2.1025119 157.26363 -2.1059637 157.2661 -23.255539 -96.912842
1886000000 -22.934784 -164.27968 -2.1077483 130.78755 -2.111088 130.78986 -23.044971 -124.76328
1895500000 -22.635967 174.82768 -2.1126215 104.28712 -2.1162212 104.28812 -23.107534 -148.81512
1905000000 -23.062365 150.99641 -2.1192002 77.800133 -2.1227894 77.800995 -23.026411 -173.35422
1914500000 -23.628597 123.1941 -2.1224456 51.338081 -2.1259794 51.338112 -23.317904 159.5798
1924000000 -24.113312 96.197693 -2.1209996 24.857023 -2.1246722 24.856745 -24.283346 133.67607
1933500000 -25.228205 70.839668 -2.120857 -1.6620997 -2.1246028 -1.661639 -25.381239 112.22989
1943000000 -26.879467 39.133942 -2.124608 -28.193659 -2.1283851 -28.19347 -25.875257 91.84642
1952500000 -27.014641 0.67176694 -2.1301513 -54.716213 -2.1340013 -54.716312 -26.004433 66.667618
1962000000 -25.814114 -28.638296 -2.1348932 -81.230194 -2.1388478 -81.230453 -26.375238 37.079891
1971500000 -25.280733 -51.548058 -2.1401548 -107.74866 -2.144078 -107.74904 -26.659065 8.2348661
1981000000 -25.23525 -78.118576 -2.1479366 -134.26282 -2.1519537 -134.26343 -25.924589 -20.229118
1990500000 -24.410852 -107.07512 -2.156908 -160.75426 -2.1610394 -160.75482 -24.664732 -51.703732
