!Keysight Technologies,N5242B,MY48420967,A.15.65.19
!Date: Saturday, December 17, 2022 17:18:11
!Correction: S11(C  2-Port  ) 
!S21(C  2-Port  ) 
!S12(C  2-Port  ) 
!S22(C  2-Port  ) 
!S2P File: Measurements: S11, S21, S12, S22:
# Hz S  dB   R 50
100000000 -21.697042 -48.856178 -0.60550582 79.232124 -0.60807955 79.217148 -23.494907 -26.147465
109500000 -21.874319 -65.704781 -0.6230967 52.56934 -0.62412739 52.562584 -23.394079 -53.375298
119000000 -23.581713 -79.155251 -0.63510996 25.914244 -0.63716584 25.894495 -24.5124 -81.77742
128500000 -26.657717 -93.95578 -0.64891601 -0.77104342 -0.6514383 -0.78724843 -26.892469 -106.10315
138000000 -29.901756 -108.04886 -0.6658417 -27.442673 -0.66824883 -27.456484 -29.64712 -123.28459
147500000 -32.214622 -109.39082 -0.6835013 -54.090679 -0.68600953 -54.105282 -32.88699 -140.22217
157000000 -33.004086 -101.2422 -0.70114815 -80.72348 -0.70394325 -80.7379 -38.731586 -149.903
166500000 -33.837372 -107.31116 -0.71831906 -107.35046 -0.72093421 -107.36276 -43.087383 -127.92656
176000000 -36.865891 -139.25703 -0.73531526 -133.97279 -0.7379778 -133.98518 -44.733757 -152.78114
185500000 -40.073441 143.74527 -0.7528221 -160.58719 -0.75552624 -160.59924 -43.664761 113.01597
195000000 -34.626755 64.006096 -0.7704187 172.81325 -0.77315575 172.80157 -36.119953 65.084816
204500000 -29.719107 26.255283 -0.78709447 146.22899 -0.78985137 146.21848 -31.731285 36.354099
214000000 -27.919491 -1.3426542 -0.80130935 119.64985 -0.80370861 119.64303 -29.855921 12.999487
223500000 -28.200485 -30.532513 -0.81369162 93.074837 -0.81622714 93.067184 -29.218498 -8.0623503
233000000 -29.255165 -60.048443 -0.82423431 66.494621 -0.82697576 66.487373 -30.111549 -32.330212
242500000 -31.64736 -78.517471 -0.83541632 39.901096 -0.83808792 39.894062 -33.589645 -55.30019
252000000 -38.45097 -66.84272 -0.8481617 13.304603 -0.85094661 13.299608 -41.298832 -68.595093
261500000 -37.284855 15.29326 -0.86261386 -13.286238 -0.86543429 -13.290896 -44.345936 42.989315
271000000 -32.019924 17.460716 -0.87758917 -39.862667 -0.88005793 -39.867443 -34.411339 30.403095
280500000 -30.017014 -5.850719 -0.89111215 -66.423103 -0.89370626 -66.42775 -30.765461 4.4028835
290000000 -28.084435 -34.579151 -0.90358716 -92.976761 -0.90612692 -92.98127 -28.99995 -20.474468
299500000 -26.883205 -54.469044 -0.91488266 -119.5326 -0.91738135 -119.53777 -28.218586 -44.501354
309000000 -27.795069 -67.063629 -0.92514783 -146.09564 -0.92780185 -146.10129 -28.310579 -68.090202
318500000 -30.942482 -77.533997 -0.93488997 -172.66914 -0.9375149 -172.67485 -29.591562 -91.546028
328000000 -34.354919 -90.985809 -0.94495136 160.75327 -0.94756788 160.7467 -32.268089 -109.55633
337500000 -33.999622 -106.42175 -0.95613277 134.17374 -0.95877671 134.16806 -34.347927 -121.94147
347000000 -31.801802 -121.09521 -0.96862054 107.59515 -0.97145277 107.59003 -35.09697 -150.48662
356500000 -31.516613 -145.80632 -0.9820984 81.019028 -0.98497188 81.014679 -35.070499 168.59164
366000000 -31.869009 163.19934 -0.99629313 54.438808 -0.99902517 54.435585 -32.654133 137.22635
375500000 -28.316822 111.26816 -1.0127561 27.865028 -1.0156276 27.860825 -28.776859 112.10122
385000000 -25.21212 80.044601 -1.031203 1.3217944 -1.0339499 1.3173392 -25.496754 84.960503
394500000 -23.838558 52.800762 -1.0473846 -25.186632 -1.0498543 -25.191113 -23.571428 56.866535
404000000 -23.088572 23.227062 -1.0585855 -51.688663 -1.0612625 -51.694183 -22.763874 30.728649
413500000 -22.214302 -5.0550489 -1.0693935 -78.200844 -1.0722654 -78.204887 -22.288534 6.7367606
423000000 -21.707851 -28.411617 -1.0790412 -104.6989 -1.0815817 -104.70219 -21.948156 -19.555033
432500000 -22.240915 -49.007187 -1.0823207 -131.19751 -1.0848266 -131.20178 -22.404585 -48.272335
442000000 -23.854565 -71.050453 -1.0826099 -157.73776 -1.085235 -157.74266 -23.781752 -74.126747
451500000 -25.831514 -95.745934 -1.0861291 175.69243 -1.0888155 175.68829 -25.372746 -95.156624
461000000 -27.437149 -116.85032 -1.0929112 149.1227 -1.0955845 149.11877 -26.906254 -116.92705
470500000 -28.989502 -130.29077 -1.1009437 122.5555 -1.1035578 122.55083 -29.172764 -142.7662
480000000 -31.029013 -145.65652 -1.1095839 95.985245 -1.1122835 95.979736 -32.142658 -168.61591
489500000 -32.746284 178.22037 -1.1194561 69.413628 -1.1224567 69.408562 -33.428783 166.25415
499000000 -31.071625 131.0757 -1.1314844 42.854023 -1.1343191 42.849079 -31.690472 133.36534
508500000 -28.845963 96.575516 -1.1433412 16.314579 -1.1460053 16.311321 -29.397089 99.29364
518000000 -27.908424 64.293686 -1.1535531 -10.214483 -1.1563778 -10.21841 -27.839911 71.76786
527500000 -27.222929 31.240395 -1.1629229 -36.742489 -1.1657801 -36.746403 -26.736496 48.545517
537000000 -26.613432 3.585988 -1.1708744 -63.265312 -1.1737651 -63.268803 -26.244436 23.578096
546500000 -26.862766 -17.773005 -1.1765717 -89.790466 -1.1793014 -89.794464 -26.931526 -4.1828871
556000000 -28.384266 -35.69717 -1.1812723 -116.33131 -1.1839061 -116.33588 -29.059576 -32.953033
565500000 -31.415047 -50.578453 -1.1871663 -142.88484 -1.1896801 -142.89027 -32.76371 -62.516129
575000000 -36.695843 -54.067753 -1.1946676 -169.44377 -1.1969635 -169.44971 -39.833763 -99.642265
584500000 -39.927788 -10.297339 -1.2034103 163.99857 -1.2060373 163.99072 -46.737236 99.628899
594000000 -33.929596 2.6114929 -1.2137307 137.44946 -1.2169793 137.44086 -35.630112 45.253632
603500000 -29.868423 -13.896993 -1.2246227 110.91138 -1.227852 110.90396 -31.451012 16.575485
613000000 -27.915821 -33.171227 -1.2342426 84.380409 -1.2376583 84.375305 -29.143417 -8.3912392
622500000 -28.034746 -51.584988 -1.2417608 57.854614 -1.2453227 57.850685 -28.228535 -34.357304
632000000 -30.210367 -70.866478 -1.2468202 31.321507 -1.2500184 31.319115 -29.248758 -59.932446
641500000 -33.708736 -92.888725 -1.2526627 4.7739639 -1.2555803 4.7716322 -32.21603 -77.774483
651000000 -36.749638 -109.50633 -1.2599488 -21.773998 -1.2628745 -21.777838 -35.520138 -86.269875
660500000 -38.302044 -105.62168 -1.2679759 -48.318752 -1.2708855 -48.32243 -39.86298 -100.14735
670000000 -39.516808 -92.477646 -1.2761744 -74.861549 -1.2791878 -74.865494 -49.442326 -94.274353
679500000 -46.577858 -73.795815 -1.2844473 -101.4062 -1.2872578 -101.41003 -48.139549 -76.504433
689000000 -42.871113 67.102081 -1.2931079 -127.9529 -1.2960664 -127.95599 -42.453491 -162.82034
698500000 -35.221928 69.683739 -1.3025897 -154.49208 -1.3056543 -154.49554 -35.648335 135.54466
708000000 -33.069016 53.368858 -1.3116363 178.97691 -1.314666 178.97391 -32.654926 95.121124
717500000 -31.241358 21.026459 -1.320457 152.44075 -1.3232702 152.43779 -31.501482 70.057487
727000000 -28.168568 -5.6119418 -1.3309802 125.90646 -1.3338917 125.90279 -29.579283 48.110271
736500000 -26.556473 -20.693314 -1.340179 99.392784 -1.3432399 99.389107 -28.242586 15.606299
746000000 -27.564497 -34.824589 -1.344406 72.879181 -1.3474764 72.874779 -29.001255 -18.826307
755500000 -31.005039 -60.138607 -1.347487 46.343163 -1.350387 46.338581 -31.589561 -44.789436
765000000 -34.339405 -97.428917 -1.3529164 19.797466 -1.3557299 19.792374 -35.267723 -60.316936
774500000 -39.460495 -101.77213 -1.3600163 -6.7545381 -1.3631371 -6.7600393 -43.281059 -66.25824
784000000 -36.929981 -10.850593 -1.3695374 -33.31385 -1.3726034 -33.318924 -39.44313 48.607544
793500000 -29.792276 -0.94072634 -1.3808889 -59.859737 -1.3841047 -59.864445 -30.645126 25.478859
803000000 -27.803514 -10.415425 -1.3907415 -86.380638 -1.3939171 -86.384293 -27.64888 -4.3742199
812500000 -27.726099 -32.758297 -1.3981714 -112.89926 -1.4011774 -112.90285 -26.971779 -29.718416
822000000 -27.044823 -60.220036 -1.4057984 -139.4259 -1.4089067 -139.42937 -26.779432 -51.93642
831500000 -26.309671 -79.424858 -1.4136214 -165.94987 -1.4167984 -165.95355 -26.809481 -77.829575
841000000 -26.937189 -93.872787 -1.4197559 167.52434 -1.4228432 167.51897 -27.509254 -106.56018
850500000 -28.714018 -113.00798 -1.4250473 140.98911 -1.428224 140.98404 -28.575119 -134.62125
860000000 -30.055445 -141.50398 -1.4311656 114.44703 -1.4343265 114.44275 -29.47365 -159.47156
869500000 -30.113384 -171.71335 -1.4389156 87.899323 -1.442055 87.894356 -29.361324 178.32318
879000000 -29.768652 157.25281 -1.4486005 61.349655 -1.4517388 61.345036 -28.430693 152.88487
888500000 -28.615557 121.16769 -1.4595994 34.797661 -1.4626924 34.794144 -27.314835 126.63976
898000000 -26.433718 86.057137 -1.4733138 8.2489281 -1.476161 8.2455473 -25.682598 100.93042
907500000 -24.181358 55.149677 -1.4894774 -18.277809 -1.4923623 -18.282026 -23.822384 73.844902
917000000 -22.249966 27.312962 -1.5064033 -44.774708 -1.5093141 -44.779121 -22.170221 46.330952
926500000 -20.82126 2.2983496 -1.521471 -71.236275 -1.5244977 -71.240852 -20.918036 18.657223
936000000 -20.11746 -21.241693 -1.5308448 -97.678749 -1.5338221 -97.685219 -20.27599 -8.6254101
945500000 -20.062113 -45.228363 -1.5350121 -124.13148 -1.5381265 -124.13846 -20.165712 -34.7379
955000000 -20.337166 -69.762939 -1.5362087 -150.59796 -1.5393184 -150.60487 -20.431644 -60.555981
964500000 -20.857004 -92.958847 -1.5346361 -177.08049 -1.5380335 -177.08751 -21.081013 -86.954987
974000000 -21.902128 -114.09225 -1.5320492 156.41602 -1.535534 156.41029 -22.100275 -114.35156
983500000 -23.642044 -135.34526 -1.5290183 129.89116 -1.5327071 129.88638 -23.622107 -142.68973
993000000 -25.684879 -160.27824 -1.5278151 103.33463 -1.5314251 103.33107 -25.557531 -168.42744
1002500000 -27.122999 171.57506 -1.5310661 76.770279 -1.534415 76.768433 -26.875498 168.24431
1012000000 -27.899986 145.2 -1.5370816 50.224472 -1.540275 50.222542 -27.706301 139.92677
1021500000 -28.935541 117.45972 -1.5425758 23.683653 -1.5455742 23.681887 -28.822649 110.50242
1031000000 -29.398973 78.244354 -1.5493295 -2.8660462 -1.5525035 -2.8674564 -29.186899 86.736122
1040500000 -27.336868 40.159184 -1.5594851 -29.406519 -1.5625194 -29.408401 -27.809408 62.24419
1050000000 -25.256472 16.1856 -1.5698248 -55.915371 -1.5727355 -55.916523 -26.122753 31.163309
1059500000 -24.80674 -3.9555249 -1.5749102 -82.407257 -1.5780704 -82.408745 -25.562454 -0.93401569
1069000000 -25.487907 -29.157675 -1.5775024 -108.92365 -1.5805058 -108.92484 -26.026855 -26.563358
1078500000 -25.879885 -56.882027 -1.5826031 -135.45172 -1.5857577 -135.45297 -26.274311 -48.171818
1088000000 -26.286041 -75.134117 -1.5873128 -161.96719 -1.5904369 -161.9679 -26.915159 -77.336044
1097500000 -28.283041 -80.68689 -1.5887431 171.50626 -1.5920243 171.5061 -29.980925 -114.56874
1107000000 -32.004509 -71.986023 -1.5916685 144.95677 -1.5949004 144.95663 -37.354214 -159.45038
1116500000 -34.055996 -55.808941 -1.5974256 118.4072 -1.6007109 118.40675 -44.886189 87.563133
1126000000 -32.338814 -62.7043 -1.6051028 91.866409 -1.6084579 91.865356 -36.524441 29.548256
1135500000 -29.207865 -79.557732 -1.6145992 65.337875 -1.6178329 65.337708 -31.289482 -0.25799254
1145000000 -27.344172 -91.820755 -1.6230361 38.833149 -1.6260705 38.83239 -28.625111 -34.881325
1154500000 -27.808596 -102.54971 -1.6270211 12.329356 -1.6302428 12.327661 -28.691172 -69.407913
1164000000 -30.624298 -118.03781 -1.6298401 -14.199998 -1.6329358 -14.201131 -30.765921 -93.157616
1173500000 -34.56163 -145.54996 -1.6347104 -40.736916 -1.6376715 -40.738754 -32.466599 -106.32531
1183000000 -37.469856 -171.00912 -1.6400744 -67.268303 -1.6431305 -67.26976 -34.523354 -126.18762
1192500000 -42.021317 -161.13661 -1.6456065 -93.800819 -1.6486726 -93.803513 -40.977928 -139.69389
1202000000 -43.196468 -89.970726 -1.6519786 -120.3334 -1.6549473 -120.33716 -43.092995 -83.609406
1211500000 -39.207504 -51.990925 -1.6581796 -146.86214 -1.6614159 -146.8656 -39.19035 -98.874374
1221000000 -38.101124 -29.124241 -1.6639782 -173.38803 -1.6671311 -173.39175 -42.084328 -132.8291
1230500000 -37.650925 -14.748969 -1.6696736 160.08342 -1.6727799 160.08076 -52.391216 -179.46977
1240000000 -36.391987 -23.35902 -1.676307 133.552 -1.6794894 133.54927 -48.131767 66.659546
1249500000 -33.567963 -45.622173 -1.6838377 107.02394 -1.6868985 107.02146 -38.771709 32.821224
1259000000 -31.0926 -63.066021 -1.6905688 80.503548 -1.6935762 80.502518 -34.549316 -1.9372959
1268500000 -30.633097 -77.288704 -1.6955054 53.984386 -1.6986032 53.983612 -33.543102 -34.898525
1278000000 -32.434593 -91.360413 -1.699873 27.457628 -1.7030239 27.458553 -34.690948 -66.24231
1287500000 -36.946716 -96.791794 -1.7047749 0.91640669 -1.7077135 0.91775215 -38.656269 -105.34621
1297000000 -40.517635 -43.981781 -1.7113885 -25.637255 -1.7143899 -25.634579 -44.491489 145.18893
1306500000 -33.173546 -19.538157 -1.7205192 -52.188992 -1.7235482 -52.18589 -34.77174 62.134811
1316000000 -28.776056 -31.524435 -1.7310295 -78.727104 -1.7342978 -78.725403 -29.570545 26.861267
1325500000 -26.031034 -52.050514 -1.7432363 -105.25296 -1.7465497 -105.2552 -26.346714 -0.1907796
1335000000 -23.953426 -73.050446 -1.7568136 -131.75694 -1.7603444 -131.76047 -24.051949 -27.168941
1344500000 -22.802525 -91.745605 -1.7676436 -158.23811 -1.7710458 -158.24187 -22.842144 -55.374279
1354000000 -22.823008 -111.80075 -1.7731472 175.27711 -1.7766551 175.27275 -22.629963 -82.073486
1363500000 -23.365604 -137.35951 -1.7774645 148.7724 -1.780885 148.76778 -22.809856 -106.16853
1373000000 -23.403723 -164.16293 -1.7827171 122.27147 -1.7861062 122.26579 -22.990721 -131.45261
1382500000 -23.508821 174.63129 -1.7858051 95.774406 -1.7892469 95.769524 -23.650963 -159.67804
1392000000 -24.706234 153.89996 -1.7875003 69.249634 -1.7909259 69.245743 -24.807507 173.72664
1401500000 -26.225035 121.87888 -1.7929403 42.696564 -1.7963542 42.691425 -25.383055 150.51251
1411000000 -25.424837 83.881111 -1.8029163 16.144545 -1.8063953 16.139315 -24.876343 124.90174
1420500000 -23.771004 56.386154 -1.8145428 -10.386253 -1.8180728 -10.391211 -24.059992 95.510231
1430000000 -23.104799 30.293552 -1.8254887 -36.903458 -1.8288608 -36.907352 -23.324492 67.060013
1439500000 -22.423914 -1.926307 -1.838331 -63.41716 -1.8417222 -63.420765 -22.32127 41.434307
1449000000 -20.798079 -31.54125 -1.8546619 -89.898384 -1.8583065 -89.90226 -21.006495 14.904136
1458500000 -19.521601 -53.015217 -1.8675023 -116.32977 -1.8711414 -116.33337 -20.068544 -14.167625
1468000000 -19.384113 -72.519768 -1.8713322 -142.7617 -1.8747776 -142.76491 -19.845066 -42.663864
1477500000 -19.895504 -96.301308 -1.8723583 -169.2287 -1.8757483 -169.23177 -19.937677 -68.704254
1487000000 -20.039248 -122.79157 -1.8750852 164.30756 -1.8784008 164.30392 -20.076859 -95.013191
1496500000 -20.040783 -144.90735 -1.874284 137.86009 -1.8773669 137.85606 -20.605486 -123.40157
1506000000 -20.959671 -163.36345 -1.8676878 111.38847 -1.8710418 111.38439 -21.789446 -152.29468
1515500000 -22.932287 175.17978 -1.8613045 84.869179 -1.864705 84.864471 -23.427315 -179.4684
1525000000 -24.73752 147.50798 -1.8591326 58.326714 -1.8625098 58.321301 -25.021038 154.13367
1534500000 -25.631069 122.62236 -1.8596268 31.784224 -1.8630743 31.779816 -26.557104 125.15701
1544000000 -27.043018 102.2767 -1.8611228 5.2402678 -1.8645908 5.2355037 -28.269146 94.919418
1553500000 -29.344221 72.294388 -1.8643367 -21.307528 -1.8677427 -21.312923 -29.568697 68.073708
1563000000 -29.476883 29.195408 -1.8696059 -47.845875 -1.8730869 -47.850658 -29.444332 42.907028
1572500000 -27.801783 -1.4499079 -1.8754867 -74.369232 -1.8790623 -74.375122 -28.560463 14.683778
1582000000 -27.120049 -24.475576 -1.8812836 -100.88905 -1.8847189 -100.89458 -27.807703 -13.510807
1591500000 -26.99201 -48.253078 -1.8866303 -127.40912 -1.8902502 -127.41453 -27.185925 -41.077282
1601000000 -26.72822 -69.615906 -1.8912704 -153.92867 -1.8949615 -153.93344 -26.982523 -69.724426
1610500000 -26.749287 -86.773117 -1.8954705 179.55525 -1.899121 179.5502 -27.304836 -99.339348
1620000000 -27.178053 -103.81605 -1.8994461 153.0439 -1.90309 153.04021 -28.147581 -131.36327
1629500000 -27.499804 -120.06876 -1.9030114 126.53256 -1.906582 126.52887 -29.616632 -167.09802
1639000000 -27.825661 -129.2908 -1.9067225 100.0113 -1.9102315 100.00731 -31.680017 151.32956
1648500000 -28.635977 -131.67215 -1.9108818 73.482048 -1.9143003 73.477699 -34.008266 101.14211
1658000000 -29.684195 -136.09235 -1.9153527 46.952435 -1.9187301 46.949055 -35.21109 44.683285
1667500000 -29.942169 -150.65277 -1.920194 20.428288 -1.9236808 20.424362 -34.362576 -6.4423509
1677000000 -29.081337 -167.40443 -1.9254129 -6.0859008 -1.9288023 -6.0907607 -32.922085 -47.638874
1686500000 -29.138842 -178.70091 -1.9299296 -32.595776 -1.9333773 -32.600273 -32.341057 -82.417023
1696000000 -31.917383 169.43634 -1.9332565 -59.111969 -1.9368763 -59.116722 -33.281048 -110.79868
1705500000 -38.056442 137.05736 -1.9366102 -85.640923 -1.9399573 -85.646446 -35.999603 -129.13156
1715000000 -40.319397 72.568787 -1.9405494 -112.17508 -1.9439719 -112.18109 -39.543018 -121.63403
1724500000 -42.150295 33.157753 -1.9451109 -138.70428 -1.9487284 -138.7112 -37.979805 -105.01356
1734000000 -42.151981 -56.916798 -1.9502305 -165.22762 -1.9538693 -165.2337 -35.975655 -109.90044
1743500000 -34.553375 -91.169014 -1.9562882 168.25195 -1.9600846 168.2462 -34.02137 -120.19566
1753000000 -31.732811 -104.27848 -1.9631954 141.73535 -1.9669365 141.72963 -32.350777 -143.24876
1762500000 -31.655895 -121.43356 -1.9687214 115.22112 -1.9726709 115.21561 -32.365166 -173.90683
1772000000 -32.280495 -147.08701 -1.9727275 88.700775 -1.9766612 88.695976 -34.203033 158.36873
1781500000 -32.512836 -170.9216 -1.9765714 62.172604 -1.9804399 62.168777 -36.26989 143.29961
1791000000 -33.620632 174.28108 -1.9816657 35.645969 -1.9856242 35.642612 -36.652161 126.56812
1800500000 -36.812016 162.17467 -1.9870421 9.1240845 -1.9910723 9.1218023 -38.553783 99.870949
1810000000 -43.748917 131.73207 -1.9921979 -17.399509 -1.9960508 -17.400908 -42.486149 99.046951
1819500000 -44.35511 19.826288 -1.9978038 -43.932655 -2.0015121 -43.93364 -37.827385 100.13429
1829000000 -36.52573 -26.180435 -2.0051348 -70.469704 -2.0086951 -70.470749 -33.493015 59.322285
1838500000 -31.710598 -53.647671 -2.0131319 -96.999451 -2.0167441 -97.000267 -31.087688 17.928509
1848000000 -28.420828 -75.868454 -2.0214114 -123.52639 -2.0249677 -123.52793 -29.043131 -12.715565
1857500000 -26.353712 -96.867149 -2.0316479 -150.04718 -2.0350628 -150.04921 -26.57082 -38.812622
1867000000 -24.995785 -119.47207 -2.043611 -176.5425 -2.0470059 -176.54466 -24.361811 -67.154251
1876500000 -23.797676 -142.84709 -2.0534427 156.98917 -2.0566492 156.98651 -23.144339 -97.239227
1886000000 -22.828743 -164.53084 -2.0586193 130.51134 -2.0617559 130.50883 -22.943747 -125.15036
1895500000 -22.539417 174.47198 -2.0632925 104.0088 -2.0666816 104.00551 -23.018461 -149.22321
1905000000 -22.965599 150.5354 -2.0698483 77.520134 -2.0732892 77.516487 -22.939434 -173.78641
1914500000 -23.524385 122.70569 -2.0728598 51.056587 -2.0762055 51.052113 -23.236414 159.07922
1924000000 -24.008612 95.707169 -2.0711958 24.57333 -2.0746784 24.569023 -24.210188 133.14191
1933500000 -25.116503 70.270576 -2.0709448 -1.9480997 -2.0744967 -1.9520959 -25.308207 111.6589
1943000000 -26.734808 38.579361 -2.0746057 -28.481787 -2.0781829 -28.485971 -25.802242 91.216591
1952500000 -26.85887 0.41149971 -2.0800626 -55.006859 -2.0836718 -55.011131 -25.929111 66.002472
1962000000 -25.684011 -28.776871 -2.0847619 -81.522636 -2.0884748 -81.527008 -26.291981 36.399437
1971500000 -25.160612 -51.70195 -2.0898848 -108.04325 -2.0935862 -108.04774 -26.571365 7.550705
1981000000 -25.117466 -78.212234 -2.097688 -134.55945 -2.101414 -134.56441 -25.837645 -20.85268
1990500000 -24.310921 -107.07835 -2.1066587 -161.05293 -2.1104534 -161.05725 -24.57799 -52.288815
