!Keysight Technologies,N5242B,MY48420967,A.15.65.19
!Date: Saturday, December 17, 2022 18:40:18
!Correction: S11(C  2-Port  ) 
!S21(C  2-Port  ) 
!S12(C  2-Port  ) 
!S22(C  2-Port  ) 
!S2P File: Measurements: S11, S21, S12, S22:
# Hz S  dB   R 50
100000000 -21.702642 -49.272625 -0.6089583 79.224281 -0.6119948 79.209656 -23.45536 -25.792456
109500000 -21.879482 -66.153511 -0.62661046 52.562099 -0.62814629 52.555698 -23.343697 -53.029545
119000000 -23.592258 -79.725517 -0.63872343 25.907284 -0.64121789 25.888205 -24.442863 -81.383598
128500000 -26.680002 -94.833 -0.65255362 -0.77757597 -0.65557349 -0.79345012 -26.779083 -105.64431
138000000 -29.95265 -109.43363 -0.6695177 -27.448938 -0.67243725 -27.462299 -29.456127 -122.91711
147500000 -32.369148 -111.12447 -0.68722898 -54.096867 -0.69026607 -54.111073 -32.573856 -140.17201
157000000 -33.307598 -102.48817 -0.70496106 -80.729912 -0.70822173 -80.743591 -38.123741 -151.32291
166500000 -34.239529 -108.13548 -0.72226715 -107.35674 -0.72533655 -107.36839 -42.682896 -134.90076
176000000 -37.425514 -141.25465 -0.73949552 -133.97879 -0.74258387 -133.9906 -44.337967 -161.66402
185500000 -40.142475 137.7487 -0.75710803 -160.59219 -0.76028049 -160.60355 -42.509514 111.24317
195000000 -34.260494 62.051285 -0.7748065 172.80925 -0.77805817 172.79845 -35.612488 65.295525
204500000 -29.47706 25.565102 -0.7915116 146.22629 -0.79473567 146.21637 -31.432751 36.446003
214000000 -27.721945 -1.7275584 -0.80575961 119.64829 -0.80856705 119.64201 -29.62648 12.89125
223500000 -28.002857 -30.720255 -0.81799179 93.073723 -0.82101893 93.066605 -29.027685 -8.3651304
233000000 -29.04587 -60.051113 -0.82841682 66.493965 -0.83171737 66.487213 -29.931383 -32.756302
242500000 -31.394493 -78.590637 -0.83958703 39.900055 -0.84282029 39.894024 -33.372246 -56.075947
252000000 -38.037331 -68.532692 -0.85233772 13.303238 -0.855699 13.299454 -40.979599 -71.054703
261500000 -37.538296 13.409744 -0.866898 -13.287689 -0.87016684 -13.291398 -44.896599 44.510548
271000000 -32.17334 16.855825 -0.88183421 -39.864414 -0.88489187 -39.867764 -34.505577 31.226423
280500000 -30.110415 -6.4027791 -0.8955549 -66.424133 -0.89861017 -66.428101 -30.785799 5.0003591
290000000 -28.128269 -35.085091 -0.90806442 -92.977737 -0.91110897 -92.981285 -28.981417 -19.990234
299500000 -26.903521 -54.922359 -0.91942757 -119.53279 -0.92243016 -119.53733 -28.169033 -44.075424
309000000 -27.80868 -67.620949 -0.92982763 -146.09584 -0.93285573 -146.10019 -28.225595 -67.710632
318500000 -30.962286 -78.440727 -0.93956035 -172.66878 -0.94259781 -172.67336 -29.459309 -91.197533
328000000 -34.392578 -92.487793 -0.94957584 160.75388 -0.95268416 160.74854 -32.041389 -109.39578
337500000 -34.050781 -108.03418 -0.96079892 134.17406 -0.96400577 134.16977 -34.036896 -122.43745
347000000 -31.864679 -122.47551 -0.97348803 107.59596 -0.97675288 107.59182 -34.740669 -151.14926
356500000 -31.566265 -147.25218 -0.9870671 81.020157 -0.99035877 81.016907 -34.676182 168.30318
366000000 -31.799562 161.69626 -1.0013325 54.440598 -1.0045596 54.438259 -32.343723 137.02296
375500000 -28.200235 110.54884 -1.0179982 27.868002 -1.0212872 27.864944 -28.573893 111.8542
385000000 -25.118427 79.652641 -1.0365024 1.3261172 -1.0397297 1.3224113 -25.360294 84.743668
394500000 -23.75634 52.535915 -1.0526123 -25.180851 -1.0555685 -25.184126 -23.466867 56.692657
404000000 -23.013557 23.052122 -1.0637718 -51.681877 -1.0669143 -51.686222 -22.675882 30.551245
413500000 -22.148945 -5.1519876 -1.0745205 -78.193352 -1.0778751 -78.196053 -22.215103 6.5311313
423000000 -21.650845 -28.463003 -1.0841328 -104.69035 -1.0870996 -104.69255 -21.88784 -19.766237
432500000 -22.18705 -49.040733 -1.087283 -131.18857 -1.0902227 -131.19156 -22.351137 -48.480362
442000000 -23.797523 -71.069984 -1.0874025 -157.72867 -1.0905311 -157.73254 -23.73259 -74.371658
451500000 -25.769461 -95.710831 -1.0908599 175.70142 -1.0940527 175.69847 -25.335363 -95.463463
461000000 -27.377491 -116.75744 -1.0976272 149.13197 -1.1008183 149.1292 -26.889334 -117.26711
470500000 -28.933718 -130.1687 -1.1057013 122.56436 -1.1087605 122.56148 -29.183172 -143.12361
480000000 -30.973787 -145.43636 -1.1142114 95.994026 -1.1174992 95.990562 -32.19902 -168.99179
489500000 -32.712421 178.74461 -1.1241763 69.423164 -1.1276814 69.419296 -33.539413 165.95721
499000000 -31.093893 131.63188 -1.1361251 42.863739 -1.1394284 42.860176 -31.808769 133.16255
508500000 -28.890171 97.022217 -1.1479968 16.323595 -1.1511445 16.321934 -29.505228 99.116463
518000000 -27.97179 64.690918 -1.1582373 -10.20542 -1.1614974 -10.208161 -27.947971 71.681343
527500000 -27.300983 31.539259 -1.1675729 -36.733543 -1.1709192 -36.73608 -26.843685 48.576622
537000000 -26.695763 3.8265986 -1.1755139 -63.256794 -1.178901 -63.258713 -26.354692 23.684202
546500000 -26.95075 -17.473194 -1.1813049 -89.781998 -1.1845051 -89.784248 -27.057373 -4.0314107
556000000 -28.487724 -35.232399 -1.1861825 -116.32279 -1.1892354 -116.32565 -29.222874 -32.744534
565500000 -31.543974 -49.770466 -1.1921761 -142.87567 -1.1950806 -142.87984 -33.012711 -62.217976
575000000 -36.82769 -52.197613 -1.199711 -169.43446 -1.2024395 -169.43898 -40.399975 -99.459755
584500000 -39.632038 -8.1887512 -1.2086014 164.00874 -1.2116016 164.00179 -46.008144 94.211182
594000000 -33.711563 2.9181345 -1.2188607 137.46063 -1.222645 137.45242 -35.354454 44.448738
603500000 -29.740219 -13.827605 -1.2297317 110.92278 -1.2336648 110.91697 -31.289686 16.094828
613000000 -27.822189 -33.139355 -1.2394161 84.392479 -1.2434525 84.389282 -29.032314 -8.7426205
622500000 -27.941265 -51.574242 -1.2470078 57.867172 -1.2510402 57.865574 -28.137175 -34.666409
632000000 -30.094992 -70.889893 -1.2521073 31.334488 -1.255695 31.334538 -29.164114 -60.240643
641500000 -33.551617 -92.960823 -1.2578676 4.7873039 -1.2611933 4.7872934 -32.117348 -78.272438
651000000 -36.547535 -109.69907 -1.265147 -21.759933 -1.268471 -21.762066 -35.442448 -87.189644
660500000 -38.100227 -106.30051 -1.2731764 -48.304153 -1.2764623 -48.306629 -39.807648 -101.54073
670000000 -39.37653 -93.774429 -1.2813252 -74.846931 -1.2847824 -74.84906 -49.655407 -97.970947
679500000 -46.578117 -77.065681 -1.2895738 -101.39133 -1.2928193 -101.39344 -48.52462 -77.02346
689000000 -42.993206 68.898743 -1.2983114 -127.93729 -1.3016373 -127.93901 -42.528889 -163.57527
698500000 -35.258659 70.447563 -1.3077506 -154.47659 -1.3112081 -154.47844 -35.682781 135.23347
708000000 -33.117615 53.968704 -1.316854 178.99268 -1.3202107 178.99127 -32.70319 94.944458
717500000 -31.312124 21.45645 -1.3255749 152.45673 -1.3288519 152.45547 -31.563456 69.980972
727000000 -28.23605 -5.3249402 -1.3361018 125.9229 -1.3394198 125.92063 -29.645077 48.101482
736500000 -26.620293 -20.404448 -1.3453255 99.409088 -1.3487461 99.406784 -28.315485 15.602113
746000000 -27.640749 -34.427914 -1.3496088 72.895233 -1.3530196 72.892792 -29.094637 -18.845339
755500000 -31.139954 -59.580036 -1.352722 46.359562 -1.3560656 46.356647 -31.732298 -44.763981
765000000 -34.583992 -96.998177 -1.3581452 19.814005 -1.361441 19.810162 -35.508217 -59.895
774500000 -39.855618 -100.12727 -1.3653637 -6.7374187 -1.3688828 -6.7413678 -43.802422 -63.449692
784000000 -36.654945 -9.5575705 -1.3749739 -33.296535 -1.3784896 -33.29987 -39.018959 48.624767
793500000 -29.638491 -0.84212524 -1.3863653 -59.841534 -1.3900565 -59.844692 -30.487026 25.396795
803000000 -27.680788 -10.468781 -1.3962882 -86.361526 -1.3998666 -86.363396 -27.537218 -4.417604
812500000 -27.610516 -32.781693 -1.4036586 -112.87925 -1.4070885 -112.88104 -26.870451 -29.791813
822000000 -26.942652 -60.166237 -1.4113142 -139.40498 -1.4148682 -139.40663 -26.683249 -52.080967
831500000 -26.21703 -79.369316 -1.4190032 -165.92851 -1.4226938 -165.93031 -26.718184 -78.015518
841000000 -26.84189 -93.832687 -1.4251888 167.54587 -1.4287603 167.5426 -27.41766 -106.76031
850500000 -28.608103 -112.94131 -1.4304307 141.01166 -1.4340817 141.00835 -28.481052 -134.86627
860000000 -29.946959 -141.31313 -1.4364978 114.47 -1.4401435 114.46724 -29.387653 -159.79323
869500000 -30.021402 -171.37045 -1.4442853 87.922379 -1.4478613 87.919502 -29.295382 177.95506
879000000 -29.705229 157.75233 -1.4539304 61.373432 -1.4575557 61.37014 -28.387922 152.51831
888500000 -28.59342 121.73064 -1.4649101 34.821697 -1.4684218 34.819729 -27.294476 126.31992
898000000 -26.442825 86.534561 -1.4785669 8.273428 -1.4818481 8.2717648 -25.679008 100.68121
907500000 -24.205994 55.513435 -1.4946185 -18.253164 -1.4979131 -18.255398 -23.830389 73.662506
917000000 -22.280514 27.585135 -1.511411 -44.749836 -1.5148382 -44.752167 -22.185499 46.201588
926500000 -20.854275 2.5241365 -1.5264578 -71.211533 -1.5299102 -71.214622 -20.938486 18.568392
936000000 -20.154173 -21.022657 -1.5357991 -97.654228 -1.5392462 -97.658951 -20.299828 -8.6882849
945500000 -20.102732 -45.01453 -1.5399038 -124.1077 -1.5434655 -124.1128 -20.194546 -34.784298
955000000 -20.381308 -69.558922 -1.5410955 -150.57407 -1.544714 -150.57945 -20.46587 -60.569149
964500000 -20.906717 -92.746361 -1.5395919 -177.0571 -1.5434843 -177.06189 -21.119761 -86.94738
974000000 -21.961548 -113.8387 -1.5370517 156.43965 -1.5410922 156.43587 -22.148825 -114.32831
983500000 -23.7155 -135.0434 -1.5340844 129.91391 -1.5383611 129.91187 -23.682938 -142.62773
993000000 -25.778725 -159.95975 -1.5330518 103.35769 -1.5372165 103.35722 -25.632391 -168.32379
1002500000 -27.238512 171.8553 -1.536378 76.793938 -1.5403012 76.795227 -26.963741 168.4261
1012000000 -28.030273 145.43669 -1.5424256 50.248234 -1.5460471 50.249554 -27.800369 140.14746
1021500000 -29.081873 117.62445 -1.5479636 23.708237 -1.5514233 23.709307 -28.928921 110.73574
1031000000 -29.546494 78.104706 -1.5547739 -2.8406899 -1.558359 -2.8392923 -29.292255 87.060928
1040500000 -27.436686 39.830257 -1.5649625 -29.380808 -1.5683826 -29.379889 -27.890657 62.560135
1050000000 -25.326847 15.90864 -1.5751948 -55.88903 -1.5785295 -55.887676 -26.187988 31.409636
1059500000 -24.868464 -4.1842318 -1.5803486 -82.381195 -1.583914 -82.37986 -25.618475 -0.71059042
1069000000 -25.545412 -29.420244 -1.5829866 -108.89729 -1.5864414 -108.89542 -26.074665 -26.31061
1078500000 -25.924259 -57.208176 -1.5881498 -135.42461 -1.5916699 -135.42351 -26.310085 -47.867908
1088000000 -26.321932 -75.468117 -1.5928532 -161.93916 -1.5963734 -161.93729 -26.941595 -76.99765
1097500000 -28.333654 -81.021858 -1.5943817 171.53452 -1.5980457 171.53694 -30.011761 -114.12691
1107000000 -32.111095 -72.267365 -1.5971949 144.98531 -1.6008501 144.98799 -37.431553 -158.50159
1116500000 -34.219986 -55.694702 -1.6029954 118.43653 -1.6067188 118.43848 -45.273579 87.154953
1126000000 -32.481541 -62.47718 -1.6106688 91.896057 -1.614416 91.897446 -36.665573 29.097433
1135500000 -29.30827 -79.371231 -1.6201159 65.367744 -1.6237377 65.36998 -31.377478 -0.40913546
1145000000 -27.423414 -91.581116 -1.6285191 38.86293 -1.6320461 38.864708 -28.691986 -35.003189
1154500000 -27.888988 -102.18363 -1.632598 12.359349 -1.6362273 12.360252 -28.762506 -69.548569
1164000000 -30.728867 -117.4351 -1.6353811 -14.169532 -1.6389862 -14.168425 -30.856215 -93.230072
1173500000 -34.734772 -144.71001 -1.6403391 -40.706093 -1.6436967 -40.70562 -32.575977 -106.23008
1183000000 -37.71944 -169.94571 -1.6456715 -67.237007 -1.6491362 -67.236534 -34.660774 -125.84971
1192500000 -42.224548 -158.21034 -1.6512471 -93.769371 -1.6546787 -93.769592 -41.207973 -138.47588
1202000000 -42.707958 -88.703087 -1.6576105 -120.30156 -1.6610471 -120.30262 -42.906212 -81.558632
1211500000 -38.942978 -53.267433 -1.6638314 -146.82924 -1.6675088 -146.83038 -39.026348 -97.734329
1221000000 -38.044975 -30.932278 -1.6696386 -173.35497 -1.6732293 -173.3559 -41.875813 -131.26941
1230500000 -37.756966 -16.238699 -1.6753509 160.11705 -1.6788648 160.1163 -51.970406 -173.87462
1240000000 -36.525627 -24.398697 -1.6818671 133.58601 -1.6854924 133.58562 -48.650105 68.878738
1249500000 -33.661385 -46.387806 -1.6894048 107.0577 -1.6929015 107.05791 -38.945076 33.563656
1259000000 -31.158035 -63.625557 -1.6961859 80.537888 -1.6995991 80.53891 -34.662201 -1.5116144
1268500000 -30.691282 -77.758125 -1.7010987 54.019005 -1.7046273 54.020779 -33.644333 -34.487625
1278000000 -32.507454 -91.900024 -1.7054051 27.492523 -1.7090708 27.495485 -34.795193 -65.753204
1287500000 -37.090565 -97.581558 -1.7103866 0.95181966 -1.7137761 0.955634 -38.816589 -104.69799
1297000000 -40.782951 -43.185188 -1.7169722 -25.601603 -1.7203749 -25.596832 -44.777039 143.64165
1306500000 -33.234528 -18.763439 -1.726072 -52.152573 -1.7295034 -52.14698 -34.788734 61.3507
1316000000 -28.811567 -30.974564 -1.7365744 -78.690529 -1.7403229 -78.686424 -29.579966 26.422844
1325500000 -26.063019 -51.60947 -1.7487183 -105.21584 -1.7525355 -105.21547 -26.358938 -0.49634066
1335000000 -23.982216 -72.681831 -1.7622954 -131.71971 -1.7662404 -131.72151 -24.066982 -27.382959
1344500000 -22.827507 -91.398178 -1.7730966 -158.20053 -1.7770482 -158.20299 -22.857521 -55.539989
1354000000 -22.851692 -111.42526 -1.7785599 175.31454 -1.7825786 175.31215 -22.649807 -82.227135
1363500000 -23.404163 -136.9576 -1.7829037 148.80998 -1.786801 148.80711 -22.836508 -106.29595
1373000000 -23.446505 -163.78218 -1.7881457 122.30872 -1.7921091 122.30527 -23.019995 -131.56795
1382500000 -23.55055 175.02362 -1.7912633 95.811882 -1.7952965 95.809349 -23.685232 -159.79965
1392000000 -24.757574 154.35768 -1.7929094 69.287331 -1.7970463 69.285812 -24.847521 173.61316
1401500000 -26.305721 122.33591 -1.7983927 42.734089 -1.8024247 42.73209 -25.427876 150.43501
1411000000 -25.511812 84.14563 -1.8083788 16.182358 -1.8124005 16.180096 -24.922197 124.88494
1420500000 -23.843248 56.553955 -1.8200132 -10.348536 -1.8241158 -10.349698 -24.102674 95.529587
1430000000 -23.174187 30.390903 -1.8310084 -36.865574 -1.8348769 -36.866024 -23.365339 67.096046
1439500000 -22.489096 -1.936218 -1.8438644 -63.378704 -1.8476985 -63.379063 -22.358166 41.505333
1449000000 -20.849247 -31.601263 -1.8601849 -89.860123 -1.8642647 -89.860359 -21.035189 14.998524
1458500000 -19.56284 -53.07021 -1.8731037 -116.29143 -1.8771331 -116.29188 -20.09198 -14.058914
1468000000 -19.421188 -72.582176 -1.8769541 -142.72342 -1.8807588 -142.72299 -19.865084 -42.52037
1477500000 -19.931782 -96.399216 -1.8780756 -169.18988 -1.8818617 -169.19046 -19.953182 -68.521683
1487000000 -20.073097 -122.93726 -1.8809009 164.34666 -1.8845252 164.34595 -20.089493 -94.800674
1496500000 -20.071611 -145.08029 -1.880067 137.89967 -1.8835905 137.89833 -20.615555 -123.14457
1506000000 -20.990215 -163.56596 -1.8735445 111.42792 -1.8773557 111.4268 -21.793653 -151.98267
1515500000 -22.965748 174.8947 -1.8672719 84.909538 -1.871092 84.907326 -23.424044 -179.08345
1525000000 -24.771639 147.07414 -1.8651233 58.367096 -1.8688337 58.364773 -25.005878 154.62688
1534500000 -25.661585 122.07048 -1.8656021 31.825428 -1.8694133 31.823761 -26.529753 125.77337
1544000000 -27.075487 101.60899 -1.8671362 5.2820411 -1.8709339 5.279623 -28.233997 95.691162
1553500000 -29.364748 71.381256 -1.8703309 -21.265541 -1.8741937 -21.267931 -29.519913 68.960709
1563000000 -29.440826 28.24995 -1.8756194 -47.803192 -1.8795327 -47.805737 -29.383747 43.723373
1572500000 -27.748791 -2.1966307 -1.8815647 -74.326027 -1.88557 -74.329353 -28.500744 15.374559
1582000000 -27.066683 -25.129601 -1.8873813 -100.84519 -1.8912079 -100.8483 -27.745739 -12.896901
1591500000 -26.937769 -48.856281 -1.8927503 -127.36464 -1.8968084 -127.36777 -27.119432 -40.536312
1601000000 -26.674809 -70.178299 -1.8973645 -153.88356 -1.9014325 -153.88611 -26.915382 -69.223625
1610500000 -26.699369 -87.324402 -1.9015621 179.60069 -1.90563 179.59822 -27.236279 -98.842422
1620000000 -27.132763 -104.37945 -1.9054602 153.0901 -1.9095057 153.08836 -28.074099 -130.8528
1629500000 -27.460493 -120.63893 -1.9090135 126.57887 -1.9130366 126.57784 -29.534933 -166.53798
1639000000 -27.798023 -129.86893 -1.9127117 100.05796 -1.9165434 100.05647 -31.586895 152.05476
1648500000 -28.628618 -132.26366 -1.9167736 73.528595 -1.9206436 73.527061 -33.919243 102.24021
1658000000 -29.695187 -136.67609 -1.9212482 46.999329 -1.9251451 46.998268 -35.173637 46.042431
1667500000 -29.951214 -151.22166 -1.9260885 20.475153 -1.9300075 20.474432 -34.379726 -5.2976775
1677000000 -29.080702 -167.89497 -1.9313011 -6.0389786 -1.9350907 -6.0409336 -32.939117 -46.690033
1686500000 -29.131651 -179.13475 -1.9358474 -32.548336 -1.9396842 -32.550461 -32.328632 -81.546089
1696000000 -31.897602 168.86652 -1.9392028 -59.064144 -1.9431596 -59.066631 -33.231327 -109.87885
1705500000 -37.937634 135.93105 -1.9425538 -85.592834 -1.9462895 -85.595497 -35.858536 -127.98244
1715000000 -40.003487 72.400162 -1.9464829 -112.12669 -1.9502816 -112.12991 -39.191494 -121.39426
1724500000 -41.753773 34.116943 -1.9510589 -138.65547 -1.9551052 -138.65993 -37.778187 -106.41611
1734000000 -42.175095 -53.885719 -1.9561777 -165.1785 -1.9601671 -165.18205 -35.923965 -111.43005
1743500000 -34.623222 -89.847107 -1.9621826 168.3015 -1.9664381 168.29817 -34.073635 -121.48858
1753000000 -31.768095 -103.22429 -1.969063 141.78467 -1.9732368 141.78142 -32.432163 -144.25613
1762500000 -31.676348 -120.36166 -1.9746373 115.27003 -1.9789931 115.26726 -32.444618 -174.94591
1772000000 -32.312576 -145.94191 -1.9786011 88.750084 -1.9830124 88.748131 -34.310562 157.05516
1781500000 -32.555317 -169.73647 -1.9824841 62.222034 -1.9868457 62.221127 -36.461983 142.01161
1791000000 -33.641071 175.62387 -1.9875604 35.695271 -1.9920403 35.695206 -36.875629 125.60901
1800500000 -36.773602 163.95555 -1.9930072 9.1729937 -1.9975681 9.1745043 -38.842342 98.914978
1810000000 -43.72966 135.45381 -1.998264 -17.349737 -2.0026841 -17.347761 -42.956261 99.312576
1819500000 -44.944164 19.644749 -2.0039673 -43.883144 -2.0080922 -43.880226 -38.050854 101.10542
1829000000 -36.711468 -26.785072 -2.0112627 -70.419632 -2.015291 -70.416451 -33.633663 59.754074
1838500000 -31.80459 -53.944809 -2.0192754 -96.949379 -2.0232675 -96.946274 -31.177382 18.102007
1848000000 -28.478489 -76.023994 -2.0275774 -123.47598 -2.031563 -123.47358 -29.10186 -12.604861
1857500000 -26.390173 -96.976044 -2.0378036 -149.9966 -2.0416489 -149.99461 -26.605831 -38.664001
1867000000 -25.018726 -119.55207 -2.0498269 -176.49178 -2.0536637 -176.49004 -24.37871 -67.000961
1876500000 -23.812811 -142.90912 -2.0597277 157.04039 -2.0633068 157.04124 -23.155317 -97.09613
1886000000 -22.837618 -164.59015 -2.064909 130.56306 -2.0684302 130.56392 -22.94824 -124.98061
1895500000 -22.542809 174.42192 -2.0696898 104.06083 -2.073446 104.06099 -23.0117 -149.06105
1905000000 -22.96463 150.49451 -2.0762901 77.572876 -2.0799839 77.572662 -22.926645 -173.63341
1914500000 -23.51989 122.64325 -2.0793414 51.109673 -2.0830662 51.108456 -23.214479 159.26576
1924000000 -23.996664 95.619453 -2.0776966 24.627054 -2.0815175 24.625774 -24.174814 133.35149
1933500000 -25.09787 70.161369 -2.0774736 -1.8937367 -2.0813498 -1.8946844 -25.261486 111.87407
1943000000 -26.708904 38.433281 -2.0811141 -28.427319 -2.0850906 -28.428156 -25.747534 91.420624
1952500000 -26.822693 0.25093621 -2.0866017 -54.951408 -2.090575 -54.953018 -25.869165 66.196182
1962000000 -25.645117 -28.912994 -2.0913148 -81.466667 -2.0954034 -81.468079 -26.227734 36.603855
1971500000 -25.124075 -51.84713 -2.096452 -107.98719 -2.1005015 -107.98864 -26.499725 7.7791739
1981000000 -25.079195 -78.378098 -2.1042442 -134.50323 -2.1083868 -134.50499 -25.767422 -20.627138
1990500000 -24.270334 -107.23695 -2.1132531 -160.99541 -2.1174195 -160.99741 -24.518721 -52.028915
