!CSV A.01.01
!Keysight Technologies,N5242B,MY48420967,A.15.65.19
!Date: Saturday, February 04, 2023 04:13:30
!Source: Standard

BEGIN CH1_DATA
Freq(Hz),SYSNPDI(DB),SYSNPDI(DEG)
100000000,-166.51823,0.018186904
109500000,-166.36682,0.013213649
119000000,-166.32286,0.012264291
128500000,-166.26442,0.013389361
138000000,-166.23889,0.016620655
147500000,-165.812,0.013426119
157000000,-166.26357,0.016641803
166500000,-166.16626,0.016045239
176000000,-166.1488,0.016047543
185500000,-166.15546,0.015824823
195000000,-166.14572,0.015334318
204500000,-166.0773,0.014387442
214000000,-166.08667,0.013505906
223500000,-166.04324,0.012594043
233000000,-165.99014,0.011935396
242500000,-165.93851,0.011406701
252000000,-165.92345,0.011037455
261500000,-165.91429,0.010682498
271000000,-165.92204,0.010412965
280500000,-165.94467,0.010260581
290000000,-165.95692,0.010208562
299500000,-165.9444,0.01029148
309000000,-165.96301,0.010821072
318500000,-165.94833,0.011445631
328000000,-165.88028,0.011696968
337500000,-165.90521,0.011517017
347000000,-165.75584,0.0088555738
356500000,-165.75291,0.0098933075
366000000,-165.79005,0.0098027885
375500000,-165.93649,0.0099529661
385000000,-166.00372,0.0098369448
394500000,-165.96216,0.0094745578
404000000,-165.90405,0.0092946244
413500000,-165.88074,0.009480319
423000000,-165.78398,0.0095013771
432500000,-165.71219,0.0097074006
442000000,-165.66661,0.0099997129
451500000,-165.64624,0.010287807
461000000,-165.5853,0.01017568
470500000,-165.61685,0.010281254
480000000,-165.64676,0.010218517
489500000,-165.6617,0.0099701034
499000000,-165.6993,0.0097706849
508500000,-165.72594,0.0095147062
518000000,-165.71001,0.0091616157
527500000,-165.68219,0.0088393213
537000000,-165.68756,0.0087333545
546500000,-165.65129,0.0085445968
556000000,-165.60912,0.0084175533
565500000,-165.5569,0.0083136698
575000000,-165.48395,0.0081720473
584500000,-165.41609,0.0080513377
594000000,-165.35605,0.007946685
603500000,-165.30902,0.007874893
613000000,-165.30453,0.0078938426
622500000,-165.34261,0.0079906089
632000000,-165.34132,0.0079068029
641500000,-165.34634,0.0077956729
651000000,-165.35646,0.0076992582
660500000,-165.39221,0.0077000535
670000000,-165.41237,0.0076726503
679500000,-165.44623,0.0077529359
689000000,-165.50456,0.0079726614
698500000,-165.5188,0.0081141181
708000000,-165.54414,0.0083666993
717500000,-165.55667,0.0086133424
727000000,-165.55174,0.0087783458
736500000,-165.49312,0.0086572757
746000000,-165.50485,0.0086775478
755500000,-165.51584,0.010300552
765000000,-165.46393,0.010638844
774500000,-165.42708,0.011005663
784000000,-165.42123,0.011447193
793500000,-165.422,0.01181095
803000000,-165.32654,0.01152153
812500000,-165.26585,0.011329748
822000000,-165.24956,0.011255364
831500000,-165.26906,0.011274072
841000000,-165.26607,0.011148894
850500000,-165.2569,0.010988247
860000000,-165.24388,0.010818223
869500000,-165.22729,0.010640749
879000000,-165.21919,0.010560164
888500000,-165.23877,0.010651304
898000000,-165.248,0.010717442
907500000,-165.24405,0.010750907
917000000,-165.22961,0.010759301
926500000,-165.21381,0.010785772
936000000,-165.19846,0.010812872
945500000,-165.19585,0.010871698
955000000,-165.19724,0.010940548
964500000,-165.15546,0.010758899
974000000,-165.10927,0.010493225
983500000,-165.08188,0.010276366
993000000,-165.06294,0.010081394
1002500000,-165.04919,0.0098870229
1012000000,-165.02596,0.0096376417
1021500000,-164.99255,0.0093685612
1031000000,-164.94128,0.0090657715
1040500000,-164.88351,0.0087557249
1050000000,-164.92091,0.0088740811
1059500000,-164.95946,0.0090290969
1069000000,-164.97223,0.0091320565
1078500000,-164.98331,0.0092317201
1088000000,-164.9973,0.0093625179
1097500000,-165.01627,0.0095299268
1107000000,-165.03198,0.0096913707
1116500000,-165.06125,0.0098846536
1126000000,-165.10233,0.010080458
1135500000,-165.05838,0.0098530501
1145000000,-165.03897,0.0096838791
1154500000,-165.06772,0.0096220179
1164000000,-165.1181,0.0096066473
1173500000,-165.09819,0.0092243804
1183000000,-165.05063,0.0087076128
1192500000,-164.98828,0.0081731798
1202000000,-164.89772,0.007602626
1211500000,-164.81729,0.0071314494
1221000000,-164.79292,0.0068860548
1230500000,-164.7442,0.0066061043
1240000000,-164.67476,0.0063013337
1249500000,-164.56578,0.0059503168
1259000000,-164.59106,0.0060072127
1268500000,-164.61977,0.0060813921
1278000000,-164.63406,0.0061358907
1287500000,-164.62929,0.0061636963
1297000000,-164.62878,0.0062003131
1306500000,-164.65123,0.0062722336
1316000000,-164.67792,0.0063509564
1325500000,-164.71587,0.0064472361
1335000000,-164.76999,0.006527192
1344500000,-164.73042,0.0062730256
1354000000,-164.71649,0.0060584391
1363500000,-164.69481,0.0058347643
1373000000,-164.67116,0.0056105787
1382500000,-164.66747,0.0054527507
1392000000,-164.62189,0.0052547152
1401500000,-164.52934,0.0050056772
1411000000,-164.4126,0.0047384901
1420500000,-164.34163,0.0046071839
1430000000,-164.33748,0.004663235
1439500000,-164.30875,0.0046926495
1449000000,-164.26913,0.0047096722
1458500000,-164.21581,0.0047133756
1468000000,-164.27136,0.0049693314
1477500000,-164.32069,0.0052235876
1487000000,-164.39407,0.0055134697
1496500000,-164.49374,0.0058470103
1506000000,-164.56673,0.010278909
1515500000,-164.55344,0.010098019
1525000000,-164.57336,0.0099942908
1534500000,-164.60779,0.0099224132
1544000000,-164.62891,0.0098186685
1553500000,-164.65245,0.0097190961
1563000000,-164.67258,0.009610516
1572500000,-164.65634,0.0094098412
1582000000,-164.59755,0.0091072749
1591500000,-164.51483,0.0087626874
1601000000,-164.42888,0.0084216353
1610500000,-164.31917,0.0080463663
1620000000,-164.19096,0.0076519796
1629500000,-164.06389,0.0072756163
1639000000,-163.99654,0.0070869359
1648500000,-164.03889,0.0072804447
1658000000,-164.08063,0.0074760797
1667500000,-164.12357,0.0076768668
1677000000,-164.18202,0.0079090092
1686500000,-164.22592,0.0081188902
1696000000,-164.27087,0.0083342968
1705500000,-164.31541,0.0085388832
1715000000,-164.30711,0.0085195489
1724500000,-164.28957,0.0084823873
1734000000,-164.27107,0.0084433155
1743500000,-164.25755,0.0084142899
1753000000,-164.24332,0.0083837602
1762500000,-164.2106,0.0083179977
1772000000,-164.16917,0.0082360739
1781500000,-164.13078,0.0081818402
1791000000,-164.08755,0.008120588
1800500000,-164.02159,0.0080176573
1810000000,-163.9324,0.0078737149
1819500000,-163.85483,0.0077530709
1829000000,-163.79005,0.0076567628
1838500000,-163.72878,0.007567714
1848000000,-163.72519,0.0076771327
1857500000,-163.76117,0.0078910999
1867000000,-163.82811,0.0081659537
1876500000,-163.90118,0.0084593697
1886000000,-163.99117,0.0087948013
1895500000,-164.11414,0.0092099868
1905000000,-164.24689,0.0096637979
1914500000,-164.29633,0.0097598406
1924000000,-164.27966,0.0095696142
1933500000,-164.26823,0.0093917027
1943000000,-164.24667,0.0091934754
1952500000,-164.19724,0.0089391833
1962000000,-164.12978,0.0086534191
1971500000,-164.06659,0.0083828829
1981000000,-164.00061,0.0081367362
1990500000,-163.94283,0.0079477979
2000000000,-163.88371,0.0077600712
END

