!CSV A.01.01
!Keysight Technologies,N5242B,MY48420967,A.15.65.19
!Date: Saturday, February 04, 2023 00:38:35
!Source: Standard

BEGIN CH1_DATA
Freq(Hz),B_1(DB),B_1(DEG)
100000000,-104.06738,-52.082642
109500000,-103.02843,159.01529
119000000,-103.71695,105.68885
128500000,-104.15023,19.742113
138000000,-104.47701,-45.423531
147500000,-102.67136,128.18985
157000000,-102.93703,-98.408066
166500000,-103.19975,69.614532
176000000,-103.54015,102.86223
185500000,-104.41238,-125.75503
195000000,-104.48495,26.786413
204500000,-105.04965,105.6967
214000000,-102.32741,-152.32478
223500000,-102.63902,52.38504
233000000,-103.05006,-43.040138
242500000,-103.16134,92.747757
252000000,-98.560226,-88.384979
261500000,-98.738373,-93.261734
271000000,-99.050819,-158.46974
280500000,-99.329674,-73.950218
290000000,-99.269341,-110.88236
299500000,-99.885078,52.851582
309000000,-100.11593,-93.715157
318500000,-100.52784,-6.3133855
328000000,-100.63812,-89.138481
337500000,-100.58649,112.63592
347000000,-100.84928,35.73468
356500000,-101.28891,164.87144
366000000,-101.11197,53.824554
375500000,-101.66196,26.671619
385000000,-101.59084,96.840034
394500000,-102.02095,-32.24345
404000000,-102.18758,-5.3024435
413500000,-102.25883,143.66641
423000000,-102.24387,79.160286
432500000,-102.67616,169.23547
442000000,-102.83143,44.869663
451500000,-102.93335,-88.266479
461000000,-103.23514,118.21634
470500000,-103.30901,-63.44067
480000000,-103.09668,117.12144
489500000,-103.33844,-75.958405
499000000,-103.54943,-119.07237
508500000,-102.8138,-41.634537
518000000,-102.86664,-156.39354
527500000,-103.28321,170.50105
537000000,-103.4323,-75.138687
546500000,-103.38857,-76.557259
556000000,-103.55712,-13.719765
565500000,-103.67187,-114.62292
575000000,-103.75573,-41.457897
584500000,-103.67348,63.596027
594000000,-104.06634,-78.867195
603500000,-104.01693,112.6734
613000000,-103.97803,63.736423
622500000,-104.34303,123.87869
632000000,-103.02748,-139.43842
641500000,-103.31701,-75.803635
651000000,-103.61015,142.70204
660500000,-103.60793,105.16276
670000000,-103.79958,-166.35954
679500000,-103.86431,40.117252
689000000,-103.58307,-81.483696
698500000,-103.55038,37.158806
708000000,-103.79387,-115.73358
717500000,-103.70431,160.32964
727000000,-104.0696,137.78439
736500000,-103.90137,-7.4985914
746000000,-104.06787,-125.19214
755500000,-104.29714,-85.214485
765000000,-104.2725,0.37256774
774500000,-104.24122,142.39673
784000000,-104.46267,-40.025406
793500000,-104.42475,-57.65498
803000000,-104.70407,-69.790497
812500000,-104.53127,9.2510862
822000000,-104.66739,-79.824905
831500000,-104.59579,115.42318
841000000,-104.44231,84.411751
850500000,-104.60992,-132.92494
860000000,-104.46665,-126.33991
869500000,-104.58078,43.513287
879000000,-104.85965,-53.321217
888500000,-104.89948,109.4871
898000000,-105.09794,87.26606
907500000,-105.01845,-48.268837
917000000,-104.98241,-108.75832
926500000,-105.09499,156.16023
936000000,-105.11646,-45.142921
945500000,-104.82545,-58.28273
955000000,-105.0461,-9.3693199
964500000,-105.33643,26.022959
974000000,-105.16299,-144.33176
983500000,-105.34776,39.21566
993000000,-105.56326,16.766382
1002500000,-105.11777,-148.29813
1012000000,-105.31037,-169.16855
1021500000,-105.18483,100.06953
1031000000,-105.05482,-173.7226
1040500000,-105.22551,-40.499874
1050000000,-105.30516,-154.30017
1059500000,-105.55326,-89.172234
1069000000,-105.42851,-87.342506
1078500000,-105.36429,162.34331
1088000000,-105.42416,156.95935
1097500000,-105.59407,-109.36639
1107000000,-105.40468,156.07133
1116500000,-105.62091,176.97527
1126000000,-105.3004,90.003036
1135500000,-105.31844,-177.71413
1145000000,-105.36197,-127.43066
1154500000,-105.44508,-2.5870523
1164000000,-105.56769,31.117157
1173500000,-105.45733,165.80225
1183000000,-105.41422,-167.41975
1192500000,-105.45781,-83.033295
1202000000,-105.51953,-147.30742
1211500000,-105.62128,-88.221764
1221000000,-105.605,21.259974
1230500000,-105.42256,119.66855
1240000000,-105.75262,-134.96436
1249500000,-105.43435,-147.00946
1259000000,-105.46743,-131.40883
1268500000,-105.61983,67.845322
1278000000,-105.66149,-30.88159
1287500000,-105.75152,5.0656323
1297000000,-105.5014,87.986626
1306500000,-105.43623,-127.84672
1316000000,-105.20458,-63.882111
1325500000,-105.31553,-96.532906
1335000000,-105.23418,-61.812023
1344500000,-105.32515,101.33086
1354000000,-105.2231,-57.089657
1363500000,-105.10281,-153.26375
1373000000,-105.16529,-117.26414
1382500000,-105.49831,-20.967989
1392000000,-105.29881,18.137907
1401500000,-105.24963,-36.55912
1411000000,-105.28944,-124.21909
1420500000,-105.08504,-104.67629
1430000000,-105.47546,-131.32146
1439500000,-105.39712,99.226936
1449000000,-105.14725,39.756859
1458500000,-105.14413,154.46405
1468000000,-105.13712,172.37621
1477500000,-104.95601,-149.35468
1487000000,-105.04949,22.077251
1496500000,-105.22685,15.42063
1506000000,-104.94356,-132.51952
1515500000,-104.96568,42.64901
1525000000,-105.14597,63.89336
1534500000,-105.05235,105.94337
1544000000,-105.28646,117.7675
1553500000,-104.88995,-158.65314
1563000000,-104.77324,120.82578
1572500000,-105.0041,133.52928
1582000000,-104.96335,135.52696
1591500000,-104.38367,126.64198
1601000000,-104.93501,-89.811348
1610500000,-104.79588,171.15552
1620000000,-104.83408,25.797472
1629500000,-104.50037,-122.59376
1639000000,-104.79279,40.553123
1648500000,-104.49691,73.422592
1658000000,-104.70927,156.11673
1667500000,-104.69682,-156.4787
1677000000,-104.63144,-69.748993
1686500000,-104.65487,149.07974
1696000000,-104.43076,-146.76712
1705500000,-104.5128,179.75583
1715000000,-104.5379,-150.8578
1724500000,-104.4382,-100.44088
1734000000,-104.46471,-101.02565
1743500000,-104.67867,-27.018494
1753000000,-104.45998,-111.41682
1762500000,-104.3099,3.2683783
1772000000,-104.33048,43.264172
1781500000,-104.13988,104.21227
1791000000,-104.09346,6.2294779
1800500000,-104.15193,136.97722
1810000000,-104.2728,-124.92743
1819500000,-104.25376,-95.973701
1829000000,-104.285,-38.784111
1838500000,-104.13148,-74.366661
1848000000,-104.32394,-106.47891
1857500000,-104.16486,113.41499
1867000000,-104.16998,65.512291
1876500000,-103.98811,84.172928
1886000000,-104.45779,-1.3029597
1895500000,-103.99153,36.091778
1905000000,-104.15483,-139.30638
1914500000,-103.9314,128.49818
1924000000,-103.89464,-176.94064
1933500000,-104.10714,15.820052
1943000000,-103.86211,41.202724
1952500000,-103.82699,138.66994
1962000000,-103.82643,93.903893
1971500000,-103.77572,-69.322746
1981000000,-103.71159,-93.707123
1990500000,-104.0295,-21.873844
2000000000,-103.82074,-34.964748
END

