!CSV A.01.01
!Keysight Technologies,N5242B,MY48420967,A.15.65.19
!Date: Saturday, February 04, 2023 04:13:30
!Source: Standard

BEGIN CH1_DATA
Freq(Hz),DUTNPD(DB),DUTNPD(DEG)
100000000,-174.88815,80.332848
109500000,-174.29581,79.129265
119000000,-174.11855,78.733109
128500000,-173.80304,77.922791
138000000,-173.70024,77.666466
147500000,-171.83493,71.577309
157000000,-174.05865,78.731369
166500000,-173.53806,77.36187
176000000,-173.49785,77.283272
185500000,-173.49007,77.233124
195000000,-173.52298,77.380898
204500000,-173.32115,76.912102
214000000,-173.59898,77.836205
223500000,-173.6127,78.023415
233000000,-173.6181,78.211555
242500000,-173.51103,78.033379
252000000,-173.49438,78.028168
261500000,-173.48932,78.041405
271000000,-173.47447,77.967918
280500000,-173.52144,78.04705
290000000,-173.54796,78.09314
299500000,-173.56294,78.181458
309000000,-173.69518,78.538849
318500000,-173.52766,78.055298
328000000,-173.11307,76.872192
337500000,-173.40508,77.795197
347000000,-172.7749,76.077164
356500000,-172.54727,75.182167
366000000,-172.71675,75.716927
375500000,-173.48787,77.964539
385000000,-174.0685,79.516937
394500000,-173.98907,79.410461
404000000,-173.87973,79.264229
413500000,-174.09509,79.92598
423000000,-173.8297,79.463387
432500000,-173.55533,78.876076
442000000,-173.40288,78.551308
451500000,-173.37553,78.529671
461000000,-172.98625,77.462112
470500000,-173.12148,77.810646
480000000,-173.22763,78.060249
489500000,-173.22844,78.014603
499000000,-173.35941,78.313652
508500000,-173.5536,78.829552
518000000,-173.5087,78.742348
527500000,-173.40419,78.507324
537000000,-173.52899,78.870735
546500000,-173.40323,78.599602
556000000,-173.42676,78.799438
565500000,-173.49545,79.15696
575000000,-173.43039,79.179924
584500000,-173.42206,79.350838
594000000,-173.45735,79.618423
603500000,-173.38443,79.546623
613000000,-173.26733,79.227318
622500000,-173.41957,79.550972
632000000,-173.39081,79.473961
641500000,-173.42732,79.562057
651000000,-173.48228,79.686134
660500000,-173.57796,79.849236
670000000,-173.5708,79.775139
679500000,-173.61621,79.806557
689000000,-173.78168,80.092522
698500000,-173.65288,79.708565
708000000,-173.63666,79.593941
717500000,-173.54538,79.301727
727000000,-173.38754,78.853912
736500000,-173.05922,78.012497
746000000,-173.14334,78.24514
755500000,-173.36856,78.904694
765000000,-173.20238,78.55806
774500000,-173.12666,78.437584
784000000,-173.23453,78.78627
793500000,-173.40239,79.277954
803000000,-173.04506,78.496384
812500000,-172.90137,78.235741
822000000,-173.01648,78.645523
831500000,-173.35992,79.589676
841000000,-173.47809,79.919785
850500000,-173.53368,80.091644
860000000,-173.56363,80.20369
869500000,-173.56909,80.260849
879000000,-173.57837,80.305519
888500000,-173.70435,80.574059
898000000,-173.75946,80.687241
907500000,-173.72147,80.603531
917000000,-173.61208,80.364792
926500000,-173.52252,80.175026
936000000,-173.43745,79.991745
945500000,-173.43794,80.000008
955000000,-173.46518,80.068451
964500000,-173.33145,79.822739
974000000,-173.23602,79.688698
983500000,-173.26158,79.832916
993000000,-173.34276,80.099564
1002500000,-173.48271,80.493866
1012000000,-173.62199,80.892258
1021500000,-173.6891,81.129196
1031000000,-173.62167,81.091545
1040500000,-173.50346,80.949135
1050000000,-173.63564,81.171173
1059500000,-173.71269,81.259895
1069000000,-173.59735,80.961456
1078500000,-173.47264,80.632813
1088000000,-173.3783,80.361244
1097500000,-173.32649,80.178993
1107000000,-173.25316,79.944275
1116500000,-173.26952,79.909645
1126000000,-173.37602,80.083626
1135500000,-173.03273,79.260353
1145000000,-172.85832,78.804535
1154500000,-172.97974,79.079704
1164000000,-173.24211,79.681015
1173500000,-173.44327,80.269073
1183000000,-173.61896,80.825661
1192500000,-173.68735,81.135017
1202000000,-173.53949,81.000786
1211500000,-173.42867,80.928871
1221000000,-173.67166,81.541573
1230500000,-173.73132,81.776878
1240000000,-173.62196,81.691208
1249500000,-173.20895,81.004074
1259000000,-173.34738,81.266907
1268500000,-173.48933,81.521324
1278000000,-173.52177,81.561386
1287500000,-173.40797,81.317924
1297000000,-173.22882,80.901649
1306500000,-173.14272,80.6381
1316000000,-173.08672,80.431717
1325500000,-173.10753,80.388252
1335000000,-173.31636,80.772507
1344500000,-173.2263,80.648956
1354000000,-173.3181,80.905357
1363500000,-173.35414,81.042274
1373000000,-173.37524,81.146629
1382500000,-173.96582,82.413406
1392000000,-174.37595,83.250397
1401500000,-174.35068,83.36515
1411000000,-174.07755,83.094994
1420500000,-173.98514,83.057045
1430000000,-174.17139,83.386444
1439500000,-174.12459,83.355843
1449000000,-173.97374,83.164612
1458500000,-173.68652,82.742638
1468000000,-173.55064,82.376053
1477500000,-173.36272,81.893265
1487000000,-173.36458,81.741371
1496500000,-173.56453,81.953644
1506000000,-173.18729,80.950569
1515500000,-173.02145,80.58007
1525000000,-173.09224,80.705559
1534500000,-173.26894,81.046616
1544000000,-173.35092,81.188141
1553500000,-173.45207,81.365166
1563000000,-173.52835,81.490852
1572500000,-173.72844,81.956406
1582000000,-174.10252,82.806313
1591500000,-174.27235,83.256401
1601000000,-174.40158,83.615791
1610500000,-174.27592,83.589874
1620000000,-173.94911,83.257523
1629500000,-173.62224,82.903915
1639000000,-173.47874,82.764069
1648500000,-173.42577,82.584549
1658000000,-173.36467,82.385475
1667500000,-173.31102,82.193108
1677000000,-173.38196,82.218231
1686500000,-173.32767,82.017914
1696000000,-173.27876,81.821129
1705500000,-173.28102,81.73082
1715000000,-173.38377,81.96579
1724500000,-173.41273,82.062134
1734000000,-173.43344,82.142311
1743500000,-173.49518,82.293602
1753000000,-173.55135,82.432442
1762500000,-173.45029,82.297829
1772000000,-173.27791,82.032318
1781500000,-173.51869,82.586472
1791000000,-173.76099,83.10994
1800500000,-173.79257,83.27951
1810000000,-173.59531,83.091476
1819500000,-173.49597,83.052864
1829000000,-173.5049,83.182411
1838500000,-173.53813,83.344841
1848000000,-173.09592,82.553703
1857500000,-172.71271,81.7005
1867000000,-172.58577,81.269859
1876500000,-172.49919,80.896957
1886000000,-172.5247,80.741264
1895500000,-172.7737,81.042763
1905000000,-173.08504,81.451591
1914500000,-173.33546,81.887222
1924000000,-173.52649,82.311981
1933500000,-173.77235,82.804611
1943000000,-173.93718,83.140022
1952500000,-173.84372,83.062256
1962000000,-173.5853,82.714294
1971500000,-173.36909,82.421638
1981000000,-173.16794,82.152344
1990500000,-173.0874,82.106041
2000000000,-172.99127,82.030022
END

