!CSV A.01.01
!Keysight Technologies,N5242B,MY48420967,A.15.65.19
!Date: Tuesday, January 24, 2023 23:14:12
!Source: Standard

BEGIN CH1_DATA
Freq(Hz),SYSNPDI(REAL),SYSNPDI(IMAG)
100000000,1614.353,0.51254231
109500000,1673.3363,0.38559818
119000000,1691.6614,0.36153439
128500000,1714.1364,0.40004772
138000000,1724.5085,0.49951899
147500000,1901.4675,0.44518986
157000000,1714.3948,0.49732241
166500000,1754.3705,0.49035847
176000000,1761.35,0.49240384
185500000,1758.8003,0.48482752
195000000,1763.2745,0.47085434
204500000,1789.1948,0.44879463
214000000,1785.7786,0.42038849
223500000,1805.0922,0.39594486
233000000,1827.2054,0.37985355
242500000,1847.1321,0.36736998
252000000,1856.0543,0.35671192
261500000,1859.0839,0.34596974
271000000,1853.2863,0.336638
280500000,1843.4124,0.32998776
290000000,1839.6973,0.32739007
299500000,1842.4155,0.3310034
309000000,1836.0037,0.34654719
318500000,1842.2781,0.36779049
328000000,1871.3617,0.38180327
337500000,1860.1465,0.37377709
347000000,1926.9365,0.29745799
356500000,1927.6176,0.33253956
366000000,1907.5984,0.32669154
375500000,1847.7445,0.32069793
385000000,1818.9907,0.31209147
394500000,1834.384,0.30348501
404000000,1856.2773,0.30173081
413500000,1869.161,0.30941555
423000000,1912.3971,0.31708983
432500000,1943.7073,0.3293649
442000000,1964.1582,0.34286278
451500000,1972.8516,0.35439852
461000000,2002.5885,0.35548967
470500000,1988.1888,0.3565782
480000000,1973.382,0.3519702
489500000,1966.2915,0.34223393
499000000,1950.2843,0.3324984
508500000,1940.2719,0.32180724
518000000,1946.7135,0.3110036
527500000,1956.267,0.30199027
537000000,1957.4629,0.29800132
546500000,1972.667,0.29400569
556000000,1991.2297,0.29246134
565500000,2014.4857,0.29234576
575000000,2050.573,0.2922335
584500000,2080.5952,0.29245082
594000000,2109.2788,0.29266739
603500000,2133.2939,0.29318169
613000000,2133.2756,0.29419032
622500000,2114.6055,0.2951974
632000000,2114.7112,0.2921882
641500000,2117.3347,0.28774807
651000000,2109.4099,0.28352833
660500000,2090.4653,0.28123307
670000000,2082.5303,0.27893433
679500000,2065.8086,0.27966464
689000000,2037.0812,0.28375331
698500000,2030.7202,0.28784266
708000000,2020.0308,0.29507533
717500000,2014.3663,0.30289939
727000000,2013.958,0.30905238
736500000,2042.0348,0.30893263
746000000,2039.2667,0.30881956
755500000,2033.0659,0.36565426
765000000,2059.7576,0.38220373
774500000,2076.7168,0.39875096
784000000,2078.8843,0.4153069
793500000,2078.1467,0.42842963
803000000,2124.6091,0.42721871
812500000,2152.3481,0.4260191
822000000,2161.9265,0.42481264
831500000,2151.8142,0.42361233
841000000,2153.3342,0.41919738
850500000,2156.5115,0.41402987
860000000,2164.2549,0.40884712
869500000,2173.2068,0.4036797
879000000,2175.833,0.4013699
888500000,2168.135,0.40301344
898000000,2163.0964,0.40465486
907500000,2166.5913,0.40628844
917000000,2175.1272,0.40795839
926500000,2181.2034,0.41045442
936000000,2187.6582,0.41294247
945500000,2189.4502,0.41543782
955000000,2189.2991,0.41793606
964500000,2208.3025,0.41496938
974000000,2232.8032,0.40904954
983500000,2249.1978,0.40313002
993000000,2258.6328,0.39720958
1002500000,2265.1538,0.39078617
1012000000,2277.5042,0.38297322
1021500000,2292.8821,0.3751556
1031000000,2319.5647,0.36734185
1040500000,2354.2832,0.35952902
1050000000,2333.4722,0.36126462
1059500000,2311.5115,0.36432821
1069000000,2302.0212,0.36739975
1078500000,2300.3562,0.37046346
1088000000,2292.3442,0.37450427
1097500000,2282.1101,0.37953955
1107000000,2272.9561,0.38457507
1116500000,2258.8972,0.3896105
1126000000,2238.7791,0.39358792
1135500000,2258.8499,0.38862106
1145000000,2268.3579,0.38366005
1154500000,2256.2371,0.37869418
1164000000,2227.9082,0.37372735
1173500000,2239.0254,0.36050558
1183000000,2263.3413,0.34405681
1192500000,2293.3162,0.32760939
1202000000,2341.634,0.31116101
1211500000,2389.6423,0.29733208
1221000000,2402.6455,0.28871682
1230500000,2425.5769,0.28010389
1240000000,2469.0291,0.27148807
1249500000,2532.9465,0.26287851
1259000000,2515.6113,0.26385149
1268500000,2500.5063,0.26535043
1278000000,2490.0862,0.26684889
1287500000,2492.4563,0.26835319
1297000000,2493.2783,0.26997826
1306500000,2481.5103,0.27170169
1316000000,2464.6702,0.27342701
1325500000,2440.804,0.27515727
1335000000,2412.3416,0.27511945
1344500000,2434.6814,0.26682642
1354000000,2445.8423,0.25852659
1363500000,2458.459,0.2502284
1373000000,2468.9451,0.24192744
1382500000,2471.7493,0.2353218
1392000000,2499.8618,0.2291681
1401500000,2554.2271,0.22300877
1411000000,2620.4993,0.21685684
1420500000,2664.4128,0.21432194
1430000000,2666.0605,0.2171369
1439500000,2686.7751,0.2199565
1449000000,2711.5227,0.22277725
1458500000,2743.6584,0.22570693
1468000000,2708.2461,0.23493882
1477500000,2677.5527,0.24417049
1487000000,2634.6125,0.25340286
1496500000,2571.291,0.2626355
1506000000,2534.5298,0.45401272
1515500000,2540.5701,0.44738978
1525000000,2524.3352,0.4407669
1534500000,2508.1375,0.43414176
1544000000,2496.3787,0.42751923
1553500000,2483.4087,0.42089626
1563000000,2471.0098,0.41426912
1572500000,2480.3022,0.40713814
1582000000,2517.9443,0.39941719
1591500000,2560.24,0.39169511
1601000000,2613.4492,0.38397375
1610500000,2679.0625,0.37625059
1620000000,2759.6499,0.3685289
1629500000,2840.6809,0.36080718
1639000000,2888.2717,0.35694209
1648500000,2859.0784,0.36313009
1658000000,2835.3484,0.36932153
1667500000,2804.3438,0.37550983
1677000000,2765.8833,0.38169211
1686500000,2741.3962,0.38788044
1696000000,2711.8887,0.39407131
1705500000,2684.1184,0.39962551
1715000000,2689.408,0.39948314
1724500000,2701.4597,0.39935085
1734000000,2715.0842,0.39920849
1743500000,2721.5281,0.39907619
1753000000,2729.6377,0.39893383
1762500000,2747.9363,0.39879721
1772000000,2776.0281,0.39865452
1781500000,2798.7751,0.39954573
1791000000,2827.1829,0.40052098
1800500000,2875.2163,0.4014973
1810000000,2931.7327,0.40246895
1819500000,2984.1187,0.40344509
1829000000,3028.3955,0.40442094
1838500000,3074.6155,0.40539706
1848000000,3076.4648,0.4115985
1857500000,3049.533,0.41957936
1867000000,3001.7947,0.42755279
1876500000,2952.2539,0.43552503
1886000000,2893.6631,0.44350982
1895500000,2812.2712,0.45148033
1905000000,2725.2085,0.45946535
1914500000,2695.3081,0.45877907
1924000000,2705.334,0.45156646
1933500000,2711.6392,0.44433865
1943000000,2725.7571,0.43712592
1952500000,2759.3381,0.42989993
1962000000,2800.2095,0.42267221
1971500000,2842.6189,0.41545823
1981000000,2884.3853,0.40943322
1990500000,2922.8599,0.405283
2000000000,2963.8789,0.40113264
END

