!CSV A.01.01
!Keysight Technologies,N5242B,MY48420967,A.15.65.19
!Date: Saturday, February 04, 2023 08:27:51
!Source: Standard

BEGIN CH1_DATA
Freq(Hz),DUTNPDI(DB),DUTNPDI(DEG)
100000000,-174.89595,80.349869
109500000,-174.29623,79.130287
119000000,-174.08794,78.655457
128500000,-173.79529,77.901886
138000000,-173.69441,77.650429
147500000,-171.83772,71.588356
157000000,-174.05891,78.732025
166500000,-173.5144,77.29509
176000000,-173.51389,77.328636
185500000,-173.47556,77.191795
195000000,-173.51219,77.35051
204500000,-173.33472,76.95153
214000000,-173.59895,77.836113
223500000,-173.60112,77.992371
233000000,-173.61235,78.196404
242500000,-173.53644,78.101166
252000000,-173.48018,77.990089
261500000,-173.48117,78.019623
271000000,-173.48537,77.997192
280500000,-173.52109,78.04615
290000000,-173.5475,78.091934
299500000,-173.58331,78.235245
309000000,-173.68378,78.509491
318500000,-173.51375,78.018059
328000000,-173.08963,76.803635
337500000,-173.40901,77.805939
347000000,-172.75992,76.030922
356500000,-172.56114,75.227356
366000000,-172.72116,75.73082
375500000,-173.48279,77.950851
385000000,-174.05841,79.493088
394500000,-173.97586,79.378937
404000000,-173.89978,79.312523
413500000,-174.11685,79.975304
423000000,-173.79974,79.392113
432500000,-173.57622,78.928162
442000000,-173.40955,78.568443
451500000,-173.37732,78.534271
461000000,-172.97751,77.437645
470500000,-173.11121,77.782654
480000000,-173.2477,78.113747
489500000,-173.24753,78.065674
499000000,-173.38062,78.369041
508500000,-173.54095,78.797813
518000000,-173.51132,78.748978
527500000,-173.40538,78.510391
537000000,-173.54698,78.915611
546500000,-173.41194,78.621834
556000000,-173.40753,78.75103
565500000,-173.45113,79.048416
575000000,-173.41663,79.1464
584500000,-173.4086,79.318542
594000000,-173.43036,79.555107
603500000,-173.38821,79.555511
613000000,-173.28452,79.268837
622500000,-173.40765,79.522888
632000000,-173.41362,79.527855
641500000,-173.40222,79.502884
651000000,-173.47414,79.667213
660500000,-173.58189,79.858223
670000000,-173.56451,79.760605
679500000,-173.61801,79.810684
689000000,-173.7729,80.072861
698500000,-173.68489,79.782562
708000000,-173.64676,79.617592
717500000,-173.5426,79.295059
727000000,-173.38322,78.843124
736500000,-173.09683,78.112923
746000000,-173.14699,78.254738
755500000,-173.36319,78.891312
765000000,-173.17929,78.498711
774500000,-173.13837,78.46788
784000000,-173.22041,78.750671
793500000,-173.40504,79.28434
803000000,-173.04744,78.502556
812500000,-172.9044,78.243759
822000000,-173.03873,78.702049
831500000,-173.37794,79.631836
841000000,-173.49004,79.946877
850500000,-173.54375,80.114151
860000000,-173.55779,80.190735
869500000,-173.58604,80.298058
879000000,-173.58263,80.314857
888500000,-173.71509,80.596924
898000000,-173.75162,80.670677
907500000,-173.7094,80.57785
917000000,-173.58815,80.312561
926500000,-173.50175,80.128853
936000000,-173.42741,79.969055
945500000,-173.41423,79.946365
955000000,-173.47531,80.091141
964500000,-173.34048,79.843468
974000000,-173.20909,79.625946
983500000,-173.23572,79.77346
993000000,-173.32738,80.065125
1002500000,-173.47795,80.483643
1012000000,-173.60089,80.848648
1021500000,-173.68149,81.113876
1031000000,-173.62582,81.099922
1040500000,-173.48135,80.903702
1050000000,-173.62393,81.147728
1059500000,-173.70988,81.254326
1069000000,-173.64612,81.060738
1078500000,-173.487,80.663177
1088000000,-173.36652,80.335541
1097500000,-173.30685,80.13533
1107000000,-173.28432,80.014679
1116500000,-173.25681,79.880684
1126000000,-173.33923,80.000977
1135500000,-173.05768,79.320427
1145000000,-172.85437,78.794594
1154500000,-172.95569,79.020515
1164000000,-173.26079,79.724335
1173500000,-173.4438,80.270241
1183000000,-173.62337,80.834808
1192500000,-173.70627,81.172974
1202000000,-173.52817,80.977684
1211500000,-173.40717,80.884621
1221000000,-173.62375,81.44912
1230500000,-173.73729,81.788017
1240000000,-173.61937,81.686302
1249500000,-173.19286,80.971214
1259000000,-173.38933,81.349579
1268500000,-173.50792,81.557014
1278000000,-173.49933,81.518265
1287500000,-173.38792,81.278366
1297000000,-173.22539,80.894569
1306500000,-173.12372,80.597786
1316000000,-173.06754,80.390121
1325500000,-173.13263,80.442627
1335000000,-173.33623,80.813904
1344500000,-173.27716,80.755928
1354000000,-173.28131,80.8293
1363500000,-173.33026,80.993698
1373000000,-173.38373,81.163658
1382500000,-173.93352,82.357445
1392000000,-174.33359,83.18486
1401500000,-174.3196,83.317917
1411000000,-174.05334,83.056778
1420500000,-173.98268,83.053162
1430000000,-174.16992,83.384239
1439500000,-174.11598,83.342781
1449000000,-173.94012,83.111992
1458500000,-173.71254,82.785545
1468000000,-173.54532,82.366806
1477500000,-173.34915,81.86824
1487000000,-173.34668,81.70771
1496500000,-173.57138,81.966171
1506000000,-173.16255,80.899734
1515500000,-173.03052,80.599358
1525000000,-173.12535,80.774933
1534500000,-173.25986,81.028191
1544000000,-173.34409,81.174461
1553500000,-173.47224,81.404602
1563000000,-173.54431,81.521614
1572500000,-173.68019,81.867737
1582000000,-174.05719,82.731613
1591500000,-174.2352,83.198997
1601000000,-174.40245,83.617065
1610500000,-174.2952,83.618011
1620000000,-173.96422,83.280724
1629500000,-173.62741,82.91227
1639000000,-173.47185,82.752678
1648500000,-173.40807,82.554604
1658000000,-173.33089,82.326714
1667500000,-173.31972,82.208527
1677000000,-173.35406,82.168716
1686500000,-173.33755,82.035835
1696000000,-173.2746,81.813385
1705500000,-173.26309,81.697105
1715000000,-173.3782,81.955605
1724500000,-173.4023,82.043282
1734000000,-173.42865,82.133743
1743500000,-173.45613,82.224838
1753000000,-173.53403,82.40255
1762500000,-173.47894,82.347885
1772000000,-173.24245,81.967842
1781500000,-173.51111,82.573639
1791000000,-173.74586,83.086136
1800500000,-173.78415,83.266571
1810000000,-173.58026,83.067734
1819500000,-173.48521,83.035805
1829000000,-173.52408,83.212181
1838500000,-173.52061,83.318199
1848000000,-173.05731,82.487961
1857500000,-172.7207,81.715538
1867000000,-172.61263,81.322853
1876500000,-172.50636,80.911728
1886000000,-172.53679,80.766548
1895500000,-172.76318,81.0214
1905000000,-173.05661,81.396278
1914500000,-173.30731,81.835175
1924000000,-173.53191,82.321457
1933500000,-173.80231,82.853546
1943000000,-173.94984,83.159805
1952500000,-173.78949,82.975945
1962000000,-173.58168,82.708305
1971500000,-173.34833,82.385719
1981000000,-173.16493,82.146988
1990500000,-173.09572,82.120949
2000000000,-173.00812,82.060478
END

