!CSV A.01.01
!Keysight Technologies,N5242B,MY48420967,A.15.65.19
!Date: Saturday, February 04, 2023 00:38:35
!Source: Standard

BEGIN CH1_DATA
Freq(Hz),SYSNPDI(DB),SYSNPDI(DEG)
100000000,-166.52568,0.018218154
109500000,-166.36359,0.013203828
119000000,-166.32175,0.012261125
128500000,-166.26384,0.013387605
138000000,-166.23856,0.016619345
147500000,-165.81151,0.013424613
157000000,-166.26805,0.016659001
166500000,-166.16139,0.016027253
176000000,-166.14848,0.016046343
185500000,-166.15457,0.015821639
195000000,-166.14487,0.015331325
204500000,-166.07901,0.014393118
214000000,-166.08267,0.013493503
223500000,-166.0441,0.012596532
233000000,-165.98679,0.011926164
242500000,-165.94641,0.011427485
252000000,-165.92307,0.011036489
261500000,-165.91006,0.01067214
271000000,-165.92348,0.010416374
280500000,-165.94139,0.010252825
290000000,-165.95656,0.010207691
299500000,-165.9469,0.010297439
309000000,-165.96062,0.010815114
318500000,-165.94992,0.011449823
328000000,-165.88176,0.011700993
337500000,-165.90926,0.011527737
347000000,-165.75328,0.0088503407
356500000,-165.75742,0.0099035697
366000000,-165.78851,0.009799324
375500000,-165.93524,0.0099500874
385000000,-166.0015,0.0098319137
394500000,-165.96422,0.0094790664
404000000,-165.90895,0.0093051139
413500000,-165.88091,0.0094806561
423000000,-165.78491,0.0095034316
432500000,-165.71304,0.0097093182
442000000,-165.66748,0.010001728
451500000,-165.65013,0.010297007
461000000,-165.58211,0.010168197
470500000,-165.61853,0.010285252
480000000,-165.65073,0.010227868
489500000,-165.66373,0.009974747
499000000,-165.69957,0.0097713079
508500000,-165.7242,0.0095108906
518000000,-165.71283,0.0091675734
527500000,-165.68286,0.0088406866
537000000,-165.68677,0.0087317573
546500000,-165.65152,0.0085450541
556000000,-165.60962,0.0084185461
565500000,-165.55586,0.0083116991
575000000,-165.48291,0.0081700971
584500000,-165.41609,0.0080513386
594000000,-165.35588,0.0079463599
603500000,-165.30713,0.0078714667
613000000,-165.30313,0.0078912787
622500000,-165.34097,0.0079876091
632000000,-165.34244,0.0079088518
641500000,-165.34286,0.0077894107
651000000,-165.35445,0.0076956758
660500000,-165.39262,0.0077008009
670000000,-165.41301,0.0076737758
679500000,-165.44855,0.0077570914
689000000,-165.506,0.0079752915
698500000,-165.52304,0.0081220437
708000000,-165.54533,0.0083689773
717500000,-165.55588,0.0086117843
727000000,-165.554,0.0087829242
736500000,-165.49738,0.0086657899
746000000,-165.50214,0.0086721182
755500000,-165.51552,0.010299802
765000000,-165.45847,0.010625446
774500000,-165.42831,0.01100879
784000000,-165.42262,0.011450855
793500000,-165.42467,0.011818241
803000000,-165.32315,0.011512564
812500000,-165.27272,0.011347674
822000000,-165.25278,0.011263709
831500000,-165.26915,0.011274328
841000000,-165.26509,0.011146378
850500000,-165.25671,0.010987773
860000000,-165.24261,0.010815054
869500000,-165.22621,0.010638095
879000000,-165.22049,0.010563302
888500000,-165.23859,0.010650855
898000000,-165.24593,0.010712335
907500000,-165.24098,0.010743339
917000000,-165.22411,0.010745667
926500000,-165.20897,0.010773799
936000000,-165.19702,0.010809305
945500000,-165.19324,0.010865169
955000000,-165.19823,0.010943071
964500000,-165.15851,0.010766463
974000000,-165.10667,0.010486951
983500000,-165.08119,0.010274752
993000000,-165.06125,0.010077441
1002500000,-165.04749,0.0098831225
1012000000,-165.02528,0.0096361395
1021500000,-164.99174,0.0093668243
1031000000,-164.94571,0.009075026
1040500000,-164.8783,0.0087451963
1050000000,-164.92114,0.0088745365
1059500000,-164.95982,0.0090298699
1069000000,-164.97697,0.0091420226
1078500000,-164.98256,0.009230121
1088000000,-164.99356,0.0093544582
1097500000,-165.01318,0.009523184
1107000000,-165.03151,0.0096903434
1116500000,-165.05998,0.0098817907
1126000000,-165.10115,0.010077734
1135500000,-165.05467,0.0098446468
1145000000,-165.03673,0.0096788844
1154500000,-165.0562,0.009596549
1164000000,-165.1234,0.0096183643
1173500000,-165.09662,0.00922105
1183000000,-165.04823,0.0087028304
1192500000,-164.99529,0.0081863543
1202000000,-164.89856,0.0076040966
1211500000,-164.81348,0.0071251849
1221000000,-164.79202,0.0068846205
1230500000,-164.7449,0.006607167
1240000000,-164.67418,0.0063005011
1249500000,-164.56122,0.0059440536
1259000000,-164.5912,0.0060074031
1268500000,-164.62061,0.0060825567
1278000000,-164.63303,0.0061344388
1287500000,-164.63181,0.0061672749
1297000000,-164.63399,0.0062077534
1306500000,-164.64709,0.0062662475
1316000000,-164.67598,0.0063481349
1325500000,-164.71881,0.0064516095
1335000000,-164.77243,0.0065308665
1344500000,-164.73505,0.0062797084
1354000000,-164.71107,0.0060508843
1363500000,-164.68732,0.0058247047
1373000000,-164.67032,0.0056094904
1382500000,-164.66624,0.0054512159
1392000000,-164.6156,0.0052471105
1401500000,-164.52762,0.0050036912
1411000000,-164.41435,0.004740396
1420500000,-164.33929,0.0046047042
1430000000,-164.33806,0.0046638655
1439500000,-164.30927,0.0046932083
1449000000,-164.26843,0.0047089029
1458500000,-164.21788,0.0047156322
1468000000,-164.27151,0.0049695023
1477500000,-164.31924,0.0052218391
1487000000,-164.39259,0.005511587
1496500000,-164.49634,0.0058505125
1506000000,-164.56615,0.01027755
1515500000,-164.55147,0.010093446
1525000000,-164.57593,0.010000195
1534500000,-164.60805,0.0099229831
1544000000,-164.6308,0.0098229442
1553500000,-164.64833,0.0097098937
1563000000,-164.67369,0.0096129812
1572500000,-164.6546,0.0094060637
1582000000,-164.59465,0.0091011859
1591500000,-164.51701,0.0087671019
1601000000,-164.43217,0.0084280251
1610500000,-164.31749,0.0080432538
1620000000,-164.19405,0.0076574101
1629500000,-164.06871,0.0072837006
1639000000,-163.99915,0.007091172
1648500000,-164.03749,0.0072781043
1658000000,-164.07718,0.0074701309
1667500000,-164.12424,0.0076780459
1677000000,-164.17769,0.0079011144
1686500000,-164.22643,0.0081198234
1696000000,-164.26665,0.0083261849
1705500000,-164.31915,0.0085462397
1715000000,-164.30479,0.0085149854
1724500000,-164.28848,0.008480275
1734000000,-164.27097,0.0084431171
1743500000,-164.25436,0.0084081115
1753000000,-164.24088,0.0083790384
1762500000,-164.21138,0.008319499
1772000000,-164.16577,0.0082296198
1781500000,-164.13046,0.0081812358
1791000000,-164.08856,0.0081224609
1800500000,-164.0211,0.0080167744
1810000000,-163.93602,0.0078802705
1819500000,-163.85852,0.0077596577
1829000000,-163.7934,0.0076626567
1838500000,-163.72394,0.0075592794
1848000000,-163.72331,0.0076738168
1857500000,-163.7636,0.0078955023
1867000000,-163.82751,0.0081648305
1876500000,-163.90714,0.0084709562
1886000000,-163.99084,0.0087941401
1895500000,-164.11206,0.0092055816
1905000000,-164.24863,0.0096676787
1914500000,-164.2946,0.0097559569
1924000000,-164.27623,0.0095620491
1933500000,-164.27023,0.0093960315
1943000000,-164.24739,0.0091950111
1952500000,-164.20024,0.008945358
1962000000,-164.1273,0.0086484915
1971500000,-164.06316,0.0083762426
1981000000,-164.00294,0.0081411107
1990500000,-163.94229,0.0079468163
2000000000,-163.88264,0.0077581694
END

