!Keysight Technologies,N5242B,MY48420967,A.15.65.19
!Date: Sunday, January 22, 2023 21:22:48
!Correction: S11(C  1-Port  ) 
!S21(Off) 
!S12(Off) 
!S22(Off) 
!S2P File: Measurements: S11, S21, S12, S22:
# Hz S  dB   R 50
100000000 -1.2835243 40.535748 -81.789001 -114.18633 -86.926437 175.22942 -5.8177729 -107.5409
109500000 -1.1987699 11.179543 -82.375465 162.58466 -92.72506 24.824999 -5.6997414 -179.62399
119000000 -1.1048783 -17.497648 -80.805573 53.122768 -99.193665 57.33028 -5.6251321 116.37816
128500000 -1.0300068 -45.87867 -77.114372 -58.518227 -96.916443 -42.633034 -5.4026036 53.581757
138000000 -1.0222954 -74.452225 -76.383263 -151.18195 -96.620163 176.63943 -5.7248893 -15.951624
147500000 -1.0718485 -103.34213 -78.409866 98.792999 -91.572426 6.06072 -7.1546741 -90.691956
157000000 -1.1320838 -132.54314 -80.590546 -12.296528 -87.688713 159.81616 -8.1595325 -164.14452
166500000 -1.2203132 -162.13654 -76.413506 -107.37119 -95.51461 135.98546 -7.4025049 126.09332
176000000 -1.3391651 167.83612 -75.830162 151.86867 -90.593315 155.97636 -5.754169 57.566044
185500000 -1.433696 137.60789 -77.986 48.43145 -93.038528 -116.89149 -5.0852594 -12.005373
195000000 -1.4735345 107.60284 -76.007637 -50.036587 -86.365532 97.541046 -5.8774371 -77.645424
204500000 -1.4842509 77.950851 -77.404068 -159.37309 -94.853172 156.63188 -6.9374475 -141.03482
214000000 -1.4780564 48.560413 -76.135582 103.32896 -94.816925 12.018148 -7.4853911 149.53
223500000 -1.4415914 19.539471 -76.224167 8.2594347 -88.29567 115.7011 -7.4504957 72.475044
233000000 -1.3952118 -9.1626282 -75.331955 -105.0777 -104.11797 -52.940823 -7.1096358 -1.8968797
242500000 -1.3784946 -37.783588 -73.363289 155.18457 -92.955948 153.35056 -6.5043535 -68.016441
252000000 -1.38035 -66.5103 -75.591393 40.907391 -90.29216 -170.78691 -5.8132577 -132.03568
261500000 -1.4078281 -95.487724 -72.380341 -53.352428 -89.544029 77.780357 -5.8230615 159.50711
271000000 -1.4777712 -124.80956 -72.750404 -145.69859 -100.21599 -35.085144 -6.9308872 88.462875
280500000 -1.563674 -154.54893 -75.569237 113.17774 -89.562004 173.09247 -7.8323946 17.808483
290000000 -1.6377941 175.45009 -72.883934 8.8841 -88.092957 108.04451 -7.3313222 -53.348038
299500000 -1.7157615 145.36061 -74.056915 -97.053741 -93.805962 -109.14486 -6.0999832 -125.57
309000000 -1.7768689 115.2045 -73.446411 167.36281 -85.270035 47.676785 -5.6706729 163.84915
318500000 -1.791666 85.336197 -72.93055 76.415894 -89.777351 125.08517 -6.0410833 98.75322
328000000 -1.7669884 55.959076 -72.735992 -35.370667 -83.587036 91.984718 -6.3540893 34.710426
337500000 -1.7505873 26.803053 -71.386971 -143.75105 -94.046364 130.90552 -6.4785581 -35.437832
347000000 -1.7414041 -2.217272 -71.300316 124.34702 -86.657898 64.023422 -6.7901912 -110.57336
356500000 -1.7133502 -31.092295 -73.265976 24.353477 -101.22665 174.26122 -6.9831171 178.26523
366000000 -1.7075263 -60.06068 -71.576141 -77.430183 -98.412575 2.0745988 -6.4896631 112.41423
375500000 -1.7545949 -89.393318 -69.696915 179.97951 -92.919014 -168.14742 -5.667109 45.103718
385000000 -1.8151274 -119.18064 -70.537788 79.95507 -92.897453 -92.047218 -5.7047038 -27.073942
394500000 -1.874992 -149.23451 -70.758339 -24.439436 -86.376175 129.44496 -6.7059226 -97.849014
404000000 -1.9368278 -179.38033 -70.741547 -125.98421 -90.732857 61.4496 -7.1517606 -165.10918
413500000 -1.9965628 150.35661 -71.457512 141.15503 -96.566925 -103.65208 -6.4042377 127.20341
423000000 -2.0377843 120.18528 -70.069008 41.137913 -93.886757 -100.29528 -5.4355083 56.310802
432500000 -2.0344143 90.472374 -69.862206 -71.411713 -87.513954 69.832191 -5.5010581 -13.520808
442000000 -2.0054843 61.229656 -69.589172 -163.98344 -99.244179 50.902534 -6.0935016 -78.13002
451500000 -1.9848739 32.373096 -69.42971 102.16832 -89.989265 -22.314047 -6.3217058 -143.097
461000000 -1.9594378 3.776777 -68.183937 -2.9550288 -88.917755 148.51636 -6.2277222 145.08713
470500000 -1.9310908 -24.630083 -68.368607 -103.8548 -90.414894 -177.74463 -6.3815718 69.956177
480000000 -1.9179224 -52.955013 -67.496666 160.9731 -98.028328 -128.05733 -6.5089936 0.80830747
489500000 -1.9387715 -81.533875 -66.565857 63.171062 -101.2985 174.9749 -6.101757 -63.153713
499000000 -1.9844732 -110.49384 -64.530846 -39.353168 -91.030991 -142.13094 -5.5502887 -129.3335
508500000 -2.0233302 -139.64674 -62.229908 -149.92348 -93.340836 128.96156 -5.858974 159.38802
518000000 -2.0578825 -168.9418 -61.737057 90.80899 -93.158981 93.522186 -6.8932486 88.183907
527500000 -2.1005313 161.64014 -63.153831 -23.072689 -88.945183 -112.55096 -7.1759534 18.410629
537000000 -2.1270735 132.29399 -63.565327 -130.75345 -90.347641 145.43129 -6.291162 -52.085915
546500000 -2.12269 103.30119 -65.052109 127.19898 -96.460709 175.51817 -5.4842606 -123.21674
556000000 -2.0968325 74.795715 -66.19075 27.693489 -91.158195 11.66313 -5.6818666 170.07262
565500000 -2.0652945 46.67601 -66.858063 -65.794014 -91.133278 104.69458 -6.1983438 108.26226
575000000 -2.03456 18.853712 -66.69503 -164.77377 -100.7241 115.13874 -6.4198685 43.578518
584500000 -2.0015833 -8.721117 -66.973068 94.958488 -96.207672 74.113548 -6.6081905 -30.577702
594000000 -1.9810402 -36.262287 -66.933922 -3.8689616 -92.32254 9.397624 -7.0839639 -107.85435
603500000 -1.99019 -64.004128 -67.81739 -111.02951 -103.28941 -64.608231 -7.1349263 -177.39153
613000000 -2.0212893 -92.10685 -67.065674 158.25111 -97.340576 105.54887 -6.4276247 118.65086
622500000 -2.060364 -120.60995 -66.781891 54.691502 -89.258904 91.178596 -5.7722931 52.334015
632000000 -2.1130188 -149.47385 -66.747536 -50.325169 -91.934044 -113.5314 -6.2473001 -18.08795
641500000 -2.1624675 -178.59511 -66.239548 -136.6012 -88.274559 -93.96225 -7.375216 -88.684082
651000000 -2.2007499 152.1442 -65.899162 117.96055 -95.426277 57.712334 -7.6465697 -160.37547
660500000 -2.2217903 122.96412 -66.495361 18.45985 -100.333 50.891903 -6.7835317 126.29642
670000000 -2.2203424 93.984863 -65.900284 -87.036362 -99.458977 -21.600636 -6.0642762 55.180164
679500000 -2.2010863 65.343697 -65.885384 174.66197 -85.665977 -119.6933 -6.0824833 -9.2785101
689000000 -2.1684475 37.123375 -65.999863 76.562805 -95.445244 -165.67578 -6.2855611 -70.48671
698500000 -2.1410689 9.1466846 -65.543228 -23.717558 -86.781143 92.644196 -6.531332 -137.38538
708000000 -2.1288397 -18.711342 -65.364326 -133.31435 -93.806 90.215363 -7.2741256 145.69116
717500000 -2.12374 -46.562225 -65.53894 130.78905 -92.925522 172.80704 -7.9301658 67.609505
727000000 -2.1447151 -74.68177 -66.412506 32.905792 -91.216255 154.16975 -7.3884573 -2.4528697
736500000 -2.2039452 -103.26259 -65.136353 -67.890495 -88.617317 70.757172 -6.1022396 -67.477631
746000000 -2.2660103 -132.34288 -64.463921 -171.48889 -105.0143 -37.672958 -5.4037137 -134.13324
755500000 -2.3212087 -161.78972 -65.544144 85.847717 -94.252487 -161.81284 -6.1531858 158.7263
765000000 -2.3823898 168.53342 -65.285072 -13.74656 -92.63102 117.28516 -7.4051332 92.274734
774500000 -2.4310241 138.69301 -64.789589 -111.83766 -91.917412 167.60895 -7.7641845 20.745657
784000000 -2.4437494 108.95577 -64.665482 145.40237 -103.07625 22.588301 -6.9899426 -56.485352
793500000 -2.4281182 79.618637 -65.014702 42.326435 -89.512131 -156.34335 -6.3495975 -129.84314
803000000 -2.4015186 50.74308 -65.26088 -58.829445 -100.55242 84.982948 -6.1792865 166.98526
812500000 -2.3693829 22.269464 -64.870369 -156.33493 -86.077057 67.412842 -5.9719386 108.13277
822000000 -2.3329532 -5.8227358 -65.068794 109.16364 -91.802071 -76.116638 -5.8946028 43.614491
831500000 -2.3100238 -33.658669 -64.471207 4.184339 -93.053413 -102.23331 -6.7603927 -30.622395
841000000 -2.3119965 -61.460064 -64.512299 -100.70249 -93.110474 126.4325 -7.9135962 -107.18411
850500000 -2.3392992 -89.482422 -64.50222 165.01154 -95.185356 -20.282919 -7.6319032 -178.65459
860000000 -2.3843184 -117.87167 -64.083229 64.938286 -97.521194 -89.554924 -6.2369847 114.68349
869500000 -2.4343009 -146.61168 -64.00769 -41.428692 -91.549469 -149.74457 -5.2909813 48.252735
879000000 -2.4846165 -175.60957 -64.217934 -140.94131 -90.158821 118.62639 -5.706285 -16.834066
888500000 -2.5266843 155.2243 -63.934418 121.28494 -93.263573 84.456093 -6.7691183 -80.415031
898000000 -2.5465512 126.05128 -64.589508 17.210724 -90.010216 -142.46317 -7.4979911 -149.38438
907500000 -2.5353091 97.098862 -64.034286 -82.4384 -90.635323 -127.70305 -7.4500518 133.26335
917000000 -2.5036592 68.583809 -64.091858 176.95229 -86.873314 100.22215 -6.945519 57.820736
926500000 -2.4589546 40.516396 -64.433723 76.484688 -94.985329 79.990578 -6.3559499 -7.5289407
936000000 -2.4073389 12.909162 -64.727844 -21.97501 -89.666893 -129.54788 -5.7350993 -67.598984
945500000 -2.3598409 -14.264253 -63.536972 -122.91682 -90.875587 -174.84793 -5.5386748 -130.59138
955000000 -2.3280888 -41.207623 -63.835602 136.59624 -86.224861 123.92298 -6.4598665 160.56062
964500000 -2.3226199 -68.118668 -63.652908 35.820023 -97.85685 75.68956 -7.9062109 88.077003
974000000 -2.3381927 -95.185738 -63.464371 -62.614822 -86.224617 -94.619774 -8.1620893 13.743128
983500000 -2.3748779 -122.64064 -63.615955 -160.76712 -88.085815 154.96893 -7.0450397 -58.500927
993000000 -2.4224727 -150.49515 -63.198257 102.93386 -95.911629 83.123283 -6.0993352 -126.39143
1002500000 -2.4644103 -178.69556 -63.401131 -2.2497566 -93.14463 40.715912 -6.0478511 170.97166
1012000000 -2.5076642 152.77943 -62.628681 -96.775978 -86.127037 -143.84497 -6.4607406 110.02462
1021500000 -2.5369532 124.11282 -61.663513 159.64859 -87.755142 155.24538 -7.0991902 42.636173
1031000000 -2.5301566 95.48761 -62.155426 56.398418 -99.17778 -77.296867 -8.0134478 -35.056328
1040500000 -2.5071847 67.112816 -62.630234 -46.85651 -89.753891 5.4362788 -8.357501 -113.23998
1050000000 -2.4772561 39.094086 -62.098042 -141.12985 -85.388481 -114.41967 -7.4885588 178.21901
1059500000 -2.4320917 11.398122 -61.847561 118.75912 -91.54332 175.1244 -6.0673838 114.96723
1069000000 -2.3904526 -15.915348 -61.298386 12.77509 -84.17231 61.719093 -5.3470607 48.882549
1078500000 -2.3710527 -42.958172 -61.34734 -88.589493 -85.337662 36.084328 -6.3192129 -18.857885
1088000000 -2.3694422 -70.014168 -61.383221 170.03828 -92.313736 -133.47517 -7.9855566 -85.64431
1097500000 -2.3987992 -97.315552 -61.455956 74.058891 -84.384087 -168.66779 -8.6665993 -156.81429
1107000000 -2.450366 -124.97604 -61.137634 -25.521868 -85.137543 16.229052 -7.819973 127.12515
1116500000 -2.5122938 -153.17844 -60.249672 -129.30669 -88.753006 -8.9405146 -6.8257909 53.796383
1126000000 -2.5803318 178.0954 -60.832027 129.22855 -95.630852 -145.08578 -6.5362077 -11.37433
1135500000 -2.6413417 148.97731 -60.59193 31.509216 -83.755806 -169.05309 -6.5600848 -72.688026
1145000000 -2.6866586 119.53967 -59.777458 -71.836708 -80.955109 69.175179 -6.9316816 -139.08485
1154500000 -2.7054679 90.056381 -59.923504 -177.5015 -85.27076 -15.596583 -7.9994793 145.82817
1164000000 -2.6940649 60.807625 -60.817707 85.563797 -86.905991 -88.99836 -8.7024174 68.731781
1173500000 -2.6677325 31.857058 -60.224846 -14.567512 -85.025513 178.56067 -7.8037047 -2.1795545
1183000000 -2.6365702 3.3194518 -59.626858 -115.86176 -87.586296 40.234917 -6.1043453 -68.401482
1192500000 -2.599853 -24.749424 -59.624599 141.31032 -83.34053 -30.805174 -5.2541771 -135.16774
1202000000 -2.5777707 -52.467987 -60.016678 38.581535 -83.549385 -163.02988 -6.018301 160.32431
1211500000 -2.5846906 -80.101357 -60.106934 -61.638306 -83.074463 141.82358 -7.3952169 98.327797
1221000000 -2.6156154 -107.86906 -59.892784 -157.5795 -85.397339 55.722179 -8.2932005 30.81736
1230500000 -2.6686244 -135.90396 -59.167789 100.45296 -84.953445 -25.491877 -8.1339655 -46.402454
1240000000 -2.7250433 -164.32419 -59.085346 -4.7603846 -83.701218 -164.00131 -7.3445215 -123.57175
1249500000 -2.7836113 166.80161 -59.06213 -104.13273 -85.257286 130.45731 -6.6431265 168.79088
1259000000 -2.8449278 137.60201 -59.03355 156.73317 -81.242302 53.305359 -6.1292911 106.93492
1268500000 -2.8789182 108.22163 -58.901741 54.637196 -85.597176 -28.169476 -6.1505303 43.272388
1278000000 -2.8721771 78.894363 -58.860565 -50.287102 -83.49157 -163.35263 -7.1196113 -24.906971
1287500000 -2.8407733 49.966866 -58.842926 -147.83484 -91.175987 153.16133 -8.2416592 -96.697647
1297000000 -2.8011866 21.462727 -58.822159 113.35258 -82.482178 45.456451 -8.0074663 -170.76651
1306500000 -2.748239 -6.5454264 -58.551807 9.8393068 -97.350838 17.582666 -6.6275001 116.56702
1316000000 -2.6835978 -33.944954 -58.706696 -91.008194 -84.616867 -142.64696 -5.7786565 48.143742
1325500000 -2.6420813 -60.923416 -58.662395 169.55191 -87.220528 106.53747 -5.9195857 -13.772426
1335000000 -2.6394432 -87.803284 -58.471409 69.943588 -87.770164 76.816727 -6.4347167 -72.894669
1344500000 -2.6472697 -114.70126 -58.41399 -30.877937 -88.413193 -41.957661 -7.0807853 -137.18605
1354000000 -2.6647959 -141.72244 -57.480122 -132.11714 -85.209862 -165.57747 -7.906249 148.9483
1363500000 -2.7068861 -169.04021 -57.844105 125.90873 -84.266159 114.06314 -8.2307091 72.082542
1373000000 -2.7617016 163.15504 -57.615108 25.298172 -88.218597 7.7133884 -7.4096236 1.7604278
1382500000 -2.8073473 134.98972 -57.150127 -77.8396 -82.882538 -61.020329 -6.1313796 -63.880295
1392000000 -2.8303051 106.65874 -57.704384 178.29431 -82.818565 179.6097 -5.6903367 -130.73088
1401500000 -2.8350587 78.207558 -57.679844 83.720978 -89.365723 81.862526 -6.7151322 162.45026
1411000000 -2.8250344 49.818726 -57.265335 -16.11245 -87.687149 27.285458 -8.12644 95.972221
1420500000 -2.793268 21.733446 -56.779667 -117.20909 -84.812805 -33.995022 -8.3878565 24.470972
1430000000 -2.7393963 -5.9032097 -56.315487 138.62302 -80.13076 179.0751 -7.2123947 -51.641502
1439500000 -2.6879838 -33.060753 -56.402908 34.091717 -83.168991 129.19316 -6.2517858 -124.51431
1449000000 -2.6569912 -59.876629 -57.1073 -66.954514 -90.020508 -2.4153821 -6.189045 172.0705
1458500000 -2.6458132 -86.602379 -56.452179 -167.72787 -83.933517 -68.307281 -6.4248958 114.00327
1468000000 -2.6546924 -113.38961 -56.171162 90.815681 -83.886345 -165.79352 -6.8880987 52.249683
1477500000 -2.6788027 -140.28267 -56.426945 -15.694706 -84.212746 56.724651 -7.943398 -19.230892
1487000000 -2.7292097 -167.60037 -57.683914 -119.83519 -87.243683 13.485886 -8.8511572 -97.921776
1496500000 -2.7973511 164.57036 -57.206768 144.05429 -85.613045 -146.91803 -8.16224 -174.20135
1506000000 -2.855643 136.31902 -57.790115 39.692219 -83.75563 171.73816 -6.6279049 115.61001
1515500000 -2.9087172 107.68542 -58.894825 -57.679405 -83.093506 84.240295 -5.9312677 48.104103
1525000000 -2.9505992 78.712257 -57.806179 -160.03841 -87.971909 -15.268001 -6.562932 -16.037727
1534500000 -2.9632399 49.59412 -59.424496 102.04781 -94.540855 -115.37893 -7.5906129 -79.24987
1544000000 -2.9551136 20.630705 -59.913811 6.9335985 -87.384773 143.04311 -8.0671339 -149.19948
1553500000 -2.9310603 -7.9784737 -59.519581 -88.008369 -86.440025 86.462669 -7.6820574 133.02373
1563000000 -2.8928487 -36.202396 -59.304157 175.80182 -89.291451 18.221447 -7.0853829 58.937347
1572500000 -2.864326 -64.03746 -59.285679 82.134346 -90.466042 -106.92117 -6.6121225 -4.9792833
1582000000 -2.8677981 -91.665581 -58.299671 -14.896981 -84.144226 148.60049 -6.2093148 -64.880035
1591500000 -2.8923182 -119.33627 -57.260529 -118.0736 -82.577843 90.085388 -6.3378487 -129.16174
1601000000 -2.9231727 -147.13152 -56.880341 141.74704 -85.9655 8.3101835 -7.5321436 159.78357
1610500000 -2.9724498 -175.20767 -56.794556 40.392334 -80.497284 -88.654915 -8.675642 84.919884
1620000000 -3.0552757 156.23576 -56.582294 -59.51392 -83.358513 -158.85025 -8.0762014 10.734413
1629500000 -3.1318085 127.20536 -55.606277 -159.132 -82.021034 81.378143 -6.4367208 -59.805492
1639000000 -3.1767879 97.924149 -55.03841 97.284752 -81.17186 -5.2757549 -5.6245103 -127.50734
1648500000 -3.2095847 68.468788 -55.465401 -6.0056396 -86.878906 -127.72552 -6.0839357 169.26854
1658000000 -3.2371335 38.868385 -55.162331 -105.14974 -83.067589 172.48378 -6.9881806 107.04644
1667500000 -3.2260087 9.4620991 -54.789463 154.69609 -80.59214 70.916634 -7.7038484 37.723938
1677000000 -3.1695986 -19.414982 -54.500965 50.58276 -80.398918 4.8468556 -7.8221264 -39.749825
1686500000 -3.1134553 -47.764858 -54.780235 -49.832237 -82.913712 -120.87257 -7.2408471 -113.48254
1696000000 -3.089833 -75.729103 -54.583515 -148.32005 -83.099815 174.77838 -6.3052669 -177.56651
1705500000 -3.0718234 -103.39576 -53.972847 111.61012 -81.943481 56.576847 -5.492157 121.81132
1715000000 -3.0500491 -130.84738 -53.683601 7.8670835 -83.197159 -24.4671 -5.562922 58.33091
1724500000 -3.0581002 -158.22552 -53.665726 -93.922661 -83.648712 -104.0743 -6.8991976 -8.1688766
1734000000 -3.1014171 174.15674 -53.533352 166.37151 -81.062416 154.34778 -8.3577776 -78.230011
1743500000 -3.156158 146.15501 -53.465656 68.369476 -79.418884 69.504021 -8.2483215 -153.30804
1753000000 -3.1930122 117.94656 -52.401428 -33.170258 -80.663071 -9.2891884 -6.7784629 131.81975
1762500000 -3.2167408 89.553276 -52.151928 -139.4319 -82.189934 -131.81194 -5.8609414 62.036991
1772000000 -3.2556181 60.867348 -52.658962 119.3736 -82.006851 152.87228 -5.9634142 -1.1069016
1781500000 -3.2782094 32.100754 -52.375721 20.999073 -78.822098 65.009804 -6.4951458 -62.698639
1791000000 -3.2473581 3.5207119 -51.992119 -83.16851 -80.94886 -22.779375 -7.1976871 -130.14859
1800500000 -3.2007599 -24.688797 -52.324524 175.9584 -81.08519 -122.54461 -7.786037 155.69159
1810000000 -3.1658702 -52.460197 -52.03804 77.885307 -81.010132 145.72049 -7.5490794 83.614731
1819500000 -3.1409111 -80.001457 -51.710926 -22.82078 -81.819374 66.413658 -6.5111556 18.711021
1829000000 -3.1142404 -107.27671 -51.122761 -120.89941 -78.577515 -38.868584 -5.4948606 -43.989914
1838500000 -3.087265 -134.2079 -50.219017 134.23335 -80.24498 -124.42155 -5.583343 -109.20742
1848000000 -3.099602 -161.12138 -50.373814 28.555428 -77.6595 145.65422 -7.0525951 -175.92339
1857500000 -3.1617069 171.70744 -50.118294 -71.580498 -78.492569 54.111252 -8.5944643 113.44173
1867000000 -3.2187335 144.22838 -49.45863 -175.98677 -81.612366 -53.860653 -8.4472322 35.883099
1876500000 -3.269804 116.48455 -49.565548 77.554855 -77.55159 -149.20561 -6.8657093 -40.735825
1886000000 -3.3504753 88.484612 -49.725021 -26.171423 -77.120682 133.68765 -5.8245196 -109.5722
1895500000 -3.4394438 60.047424 -49.977345 -129.82393 -80.893234 41.763157 -5.6840763 -170.84071
1905000000 -3.5019779 31.267361 -50.378338 129.53423 -81.175499 -66.431335 -6.0433316 129.09169
1914500000 -3.5216017 2.6437693 -49.922779 27.238907 -78.346756 -157.66136 -6.9070196 63.328922
1924000000 -3.5247996 -25.743633 -50.009941 -80.358963 -81.257416 116.75875 -7.9727473 -9.7369699
1933500000 -3.5280554 -53.976749 -50.866501 179.88942 -79.014626 18.41563 -8.0156946 -84.249496
1943000000 -3.5136263 -81.954987 -50.638866 78.964157 -80.918159 -69.804298 -6.8285351 -153.93703
1952500000 -3.4726326 -109.60101 -50.726849 -29.019955 -79.558907 -179.57327 -5.6926165 139.01605
1962000000 -3.4454062 -136.99889 -52.094574 -132.21684 -81.526642 109.71561 -5.7723188 72.3395
1971500000 -3.4548669 -164.35222 -52.591076 129.36116 -80.264091 12.747707 -6.8978243 6.5462718
1981000000 -3.4817824 168.06929 -53.158192 30.233458 -83.4655 -84.662903 -7.9031916 -62.505554
1990500000 -3.5092766 140.25713 -53.565727 -67.998512 -81.418762 -178.67488 -7.7690043 -137.41808
2000000000 -3.5470037 112.22182 -53.541271 -165.78236 -81.661415 97.643295 -6.7816763 148.92473
