!Keysight Technologies,N5242B,MY48420967,A.15.65.19
!Date: Monday, January 23, 2023 08:38:49
!Correction: S11(C  1-Port  ) 
!S21(Off) 
!S12(Off) 
!S22(Off) 
!S2P File: Measurements: S11, S21, S12, S22:
# Hz S  dB   R 50
100000000 -1.4808331 40.377323 -80.427177 -126.10792 -96.813438 108.69952 -4.9359503 -108.90807
109500000 -1.4050386 10.880053 -81.294945 154.96538 -87.170776 -161.37465 -4.9109888 179.29572
119000000 -1.3171232 -17.893845 -81.015678 51.900852 -101.45391 -158.52551 -4.8976903 115.56359
128500000 -1.2493936 -46.329834 -79.073372 -78.754135 -98.398956 98.054527 -4.6379037 52.709244
138000000 -1.2495416 -74.915817 -77.448372 -164.00244 -93.261261 134.14488 -4.8818331 -17.352179
147500000 -1.3034469 -103.79538 -82.752235 100.40324 -93.546494 148.44676 -6.292089 -92.207825
157000000 -1.3674926 -132.94682 -78.536232 -10.311934 -94.40448 -73.832413 -7.3226452 -164.68016
166500000 -1.4579568 -162.4696 -79.453102 -110.40194 -96.353203 -110.55846 -6.6227255 126.51476
176000000 -1.5748554 167.57849 -75.561005 143.91637 -95.56044 98.982964 -5.0007024 57.96624
185500000 -1.6652931 137.43851 -76.903145 42.391644 -103.68424 -38.116791 -4.3720469 -12.430451
195000000 -1.6995674 107.52018 -77.419136 -76.923645 -99.982384 92.017792 -5.2319894 -78.59964
204500000 -1.7036232 77.936577 -75.273796 -164.9958 -92.634445 104.1744 -6.2771173 -142.03572
214000000 -1.6916682 48.608936 -76.363037 112.30364 -93.144791 -92.300537 -6.7384882 148.71906
223500000 -1.6505649 19.647257 -76.260544 -10.954192 -89.383362 -111.13103 -6.6747823 71.941063
233000000 -1.601091 -9.0103674 -74.841911 -110.1425 -97.272858 130.11234 -6.4212298 -2.1781244
242500000 -1.5836877 -37.603539 -74.564011 150.65218 -100.2537 117.4181 -5.8898511 -68.192505
252000000 -1.587536 -66.303894 -73.18351 51.131996 -92.614822 -92.75592 -5.2017369 -132.39424
261500000 -1.6199118 -95.273651 -75.48381 -55.794483 -84.872765 16.677351 -5.1889114 158.6474
271000000 -1.6973127 -124.59901 -72.836487 -142.29533 -90.237 175.57149 -6.2963147 87.413208
280500000 -1.7912618 -154.3524 -75.366112 110.63974 -85.310883 -96.781723 -7.1901674 17.25975
290000000 -1.8759935 175.61722 -74.209625 -9.6521769 -95.932022 162.43448 -6.6858869 -53.236671
299500000 -1.9630767 145.47644 -73.113838 -109.10223 -100.07613 100.44415 -5.470222 -125.3744
309000000 -2.0335064 115.28281 -72.603798 158.67905 -86.823906 1.9082118 -5.0944834 163.71449
318500000 -2.057977 85.357002 -74.508118 37.107635 -97.55941 -136.2916 -5.5070491 98.516953
328000000 -2.0431705 55.923206 -72.740479 -54.660007 -88.067078 21.812202 -5.8003421 34.579788
337500000 -2.0363629 26.734011 -73.418633 -141.8541 -86.233231 -30.013832 -5.8677421 -35.466782
347000000 -2.0400064 -2.3277764 -73.743942 112.16904 -97.909149 -144.7081 -6.1750541 -110.46935
356500000 -2.0263748 -31.227049 -73.326447 10.162951 -89.547012 104.0843 -6.4262433 178.68593
366000000 -2.0358374 -60.203609 -73.583321 -89.011398 -95.128685 92.866112 -5.9656954 113.14449
375500000 -2.1011074 -89.527359 -71.860527 172.4283 -92.111298 134.47356 -5.1188111 45.860722
385000000 -2.1789215 -119.31009 -71.720276 61.614811 -93.414536 -173.91615 -5.1393237 -26.629086
394500000 -2.2535703 -149.3392 -70.492653 -37.182381 -90.215759 119.95783 -6.1747584 -97.405968
404000000 -2.3292565 -179.44095 -72.35527 -135.87672 -94.881622 57.595127 -6.6572042 -164.25972
413500000 -2.3991418 150.34171 -71.580688 129.30701 -89.567009 52.006725 -5.9237046 128.42348
423000000 -2.4465814 120.22269 -70.194962 32.157501 -90.216324 177.92343 -4.9512315 57.426983
432500000 -2.4472835 90.572968 -69.451012 -77.807625 -87.883209 -154.3447 -5.0426049 -12.763177
442000000 -2.421804 61.409855 -70.43045 -177.59579 -89.611168 -75.115868 -5.6604018 -77.451683
451500000 -2.404916 32.632481 -70.643196 94.7621 -89.004326 66.109726 -5.8708124 -142.27252
461000000 -2.3846295 4.1269674 -69.481735 -11.443096 -99.500977 -170.95232 -5.7440333 146.00211
470500000 -2.3624909 -24.183727 -69.211235 -112.2709 -87.842316 93.797646 -5.9169946 70.796967
480000000 -2.3586817 -52.416164 -67.844398 151.27475 -98.977463 76.297035 -6.1013055 1.6403823
489500000 -2.3910079 -80.904213 -68.012634 55.642555 -93.958786 167.40623 -5.7158308 -62.287365
499000000 -2.4485021 -109.79178 -65.49073 -54.124908 -86.979691 130.69983 -5.1368232 -128.56554
508500000 -2.5007324 -138.89891 -63.936974 -162.69672 -91.566193 179.02347 -5.4170465 159.87737
518000000 -2.5470715 -168.15805 -64.358185 88.536247 -96.276268 168.15627 -6.4582186 88.658989
527500000 -2.5995493 162.47418 -65.487968 -22.755194 -95.972137 -175.48848 -6.7584891 19.192669
537000000 -2.6323206 133.14243 -65.474052 -121.5819 -91.964684 138.40974 -5.8842301 -51.118214
546500000 -2.6265819 104.1378 -66.0308 131.58543 -96.94162 80.249619 -5.0870304 -122.47301
556000000 -2.599153 75.634285 -67.870491 32.42823 -99.068512 66.939758 -5.3114438 170.55002
565500000 -2.5680106 47.510803 -67.66082 -67.193764 -92.990425 -149.69687 -5.829771 108.7127
575000000 -2.5391257 19.685299 -67.350281 -166.35956 -89.183693 17.357147 -6.0014234 44.151608
584500000 -2.5092134 -7.8866487 -67.337891 97.913956 -93.692406 -158.7737 -6.1287847 -29.90946
594000000 -2.4968147 -35.396992 -67.717445 -7.2321262 -92.037842 54.866417 -6.6242137 -107.1106
603500000 -2.5185001 -63.115353 -68.315056 -107.67451 -93.187485 -174.51724 -6.7397575 -176.45723
613000000 -2.5644166 -91.200668 -67.337547 159.34424 -94.144402 124.91746 -6.0556536 119.71372
622500000 -2.6184628 -119.67336 -66.319382 55.067532 -96.129547 81.825134 -5.3692465 53.335655
632000000 -2.6882997 -148.53406 -66.948395 -43.8545 -89.933258 -148.07681 -5.8122478 -17.286285
641500000 -2.7515812 -177.64876 -67.067848 -146.85481 -90.014076 149.47363 -6.9367051 -87.742867
651000000 -2.7986414 153.07913 -67.44072 111.80708 -88.401764 116.80653 -7.2245531 -158.97545
660500000 -2.8276088 123.87524 -67.105087 15.636132 -87.494751 -170.53235 -6.3916535 127.93475
670000000 -2.827745 94.861984 -65.917221 -88.621277 -99.379951 -172.64487 -5.7017574 56.625622
679500000 -2.8097448 66.199158 -66.834389 172.252 -95.83239 -157.74547 -5.7458491 -8.0366535
689000000 -2.779351 37.980339 -66.533386 77.643402 -92.138985 -177.18066 -5.9371214 -69.193001
698500000 -2.7562814 10.011363 -65.651802 -24.582199 -92.189064 -174.18817 -6.1215358 -135.86882
708000000 -2.7509811 -17.828804 -65.739334 -129.79001 -97.186226 33.356991 -6.8161349 147.44931
717500000 -2.7567286 -45.619164 -65.629097 126.23657 -97.451714 140.00031 -7.534328 69.630188
727000000 -2.7944615 -73.658127 -66.804962 26.543005 -97.615746 167.44241 -7.087194 -0.31850553
736500000 -2.8721099 -102.1689 -65.311081 -70.654335 -94.459717 106.24768 -5.8315973 -65.352859
746000000 -2.9544053 -131.16614 -64.889763 -171.84892 -97.617294 -49.441814 -5.0984635 -132.15291
755500000 -3.0256464 -160.53082 -65.548309 86.667694 -88.238274 171.44438 -5.8195987 160.52522
765000000 -3.1003129 169.87273 -65.823334 -13.107793 -91.798973 138.41034 -7.0684276 94.29557
774500000 -3.1580863 140.11198 -64.533417 -112.38964 -93.309486 31.887018 -7.4514298 23.359505
784000000 -3.173367 110.4331 -65.110329 144.68774 -95.3274 -157.49068 -6.719708 -53.632538
793500000 -3.1550558 81.161156 -65.31855 41.86974 -91.698036 -179.83528 -6.1166387 -127.37125
803000000 -3.1225216 52.371212 -65.959076 -60.374592 -86.982063 61.89299 -5.9781232 169.11923
812500000 -3.0864301 23.999973 -65.637604 -153.26395 -90.586189 95.604591 -5.7696905 110.28217
822000000 -3.0488024 -3.9908741 -65.201172 108.30289 -96.64547 143.35132 -5.6422248 46.035191
831500000 -3.0253844 -31.694038 -64.591606 2.201967 -87.956787 -164.38724 -6.4535704 -27.977583
841000000 -3.0330021 -59.341736 -65.005928 -100.70758 -86.898643 102.08353 -7.653892 -104.39802
850500000 -3.0720234 -87.202011 -65.355118 163.16293 -104.55807 72.333237 -7.4729972 -175.8996
860000000 -3.1309457 -115.44603 -64.727608 66.313774 -89.389595 -66.916252 -6.1148868 117.29541
869500000 -3.1934922 -144.06226 -64.365173 -42.331871 -105.70381 1.3118459 -5.1369095 50.67823
879000000 -3.2570553 -172.94772 -64.460487 -141.17334 -99.429672 53.237724 -5.5143495 -14.636862
888500000 -3.3070312 157.96175 -65.147934 121.34538 -85.77803 48.84758 -6.564239 -78.16024
898000000 -3.3308613 128.81406 -64.516624 18.745987 -88.469376 -22.079607 -7.2995334 -146.74124
907500000 -3.3174288 99.866188 -64.256424 -82.155678 -98.359322 143.52638 -7.2853971 136.14153
917000000 -3.2792506 71.33326 -63.922619 176.86581 -96.923836 -166.44623 -6.82375 60.362602
926500000 -3.2256935 43.247879 -64.902611 77.66172 -96.634399 -105.49553 -6.257915 -5.3969436
936000000 -3.1653268 15.636122 -64.571037 -18.6415 -94.75563 -59.689434 -5.6313515 -65.61628
945500000 -3.1120634 -11.52922 -63.562645 -119.66315 -96.965988 66.379738 -5.3934479 -128.56879
955000000 -3.0768642 -38.457035 -63.774815 140.29453 -85.662086 103.46843 -6.2672057 162.62706
964500000 -3.0752242 -65.321648 -63.930531 37.141487 -99.323433 -105.01455 -7.7174063 90.280037
974000000 -3.1014659 -92.331863 -63.967716 -60.337967 -91.601524 -89.019409 -8.0315771 16.062344
983500000 -3.1540985 -119.74856 -63.254028 -159.97255 -84.686592 160.15462 -6.9525089 -56.34193
993000000 -3.2187436 -147.57904 -63.020077 101.07182 -86.364792 120.0778 -5.9966149 -124.51786
1002500000 -3.2774293 -175.76607 -63.352253 -3.3319378 -87.098175 73.087509 -5.9252262 172.63058
1012000000 -3.3374887 155.68201 -63.02689 -100.30454 -90.375191 21.644672 -6.3141685 111.7039
1021500000 -3.3754292 126.95266 -61.993084 161.11806 -91.71846 -39.706749 -6.9136348 44.582718
1031000000 -3.3742521 98.241928 -62.113384 52.818653 -90.721443 137.45346 -7.8131661 -32.818306
1040500000 -3.3501496 69.778008 -62.636826 -46.586575 -100.81713 -60.41885 -8.2129965 -111.00098
1050000000 -3.3151364 41.67144 -62.548645 -141.82663 -89.467667 -152.30122 -7.3981485 -179.71167
1059500000 -3.2631323 13.923414 -61.830177 119.11096 -90.642311 114.27544 -5.9775252 117.00117
1069000000 -3.2182794 -13.417734 -61.4851 13.847664 -88.569901 73.110901 -5.2033229 50.94418
1078500000 -3.1986187 -40.462711 -61.205582 -89.808891 -88.904457 -28.563839 -6.1203561 -16.851021
1088000000 -3.2026293 -67.467178 -61.597828 170.17786 -88.420555 -135.62547 -7.7784252 -83.40345
1097500000 -3.2450964 -94.67691 -61.764893 72.469109 -83.008446 168.68752 -8.5028849 -154.0107
1107000000 -3.3165147 -122.24471 -61.073093 -28.760078 -85.791832 95.042847 -7.7147388 130.24046
1116500000 -3.4016049 -150.35762 -60.712898 -130.03651 -85.815277 -6.6661053 -6.729043 56.717396
1126000000 -3.4906137 -178.97705 -61.055664 127.38923 -85.832283 -127.43568 -6.4319429 -8.6950026
1135500000 -3.5728319 152.00417 -61.08115 29.653038 -90.555756 120.50842 -6.4385366 -69.903053
1145000000 -3.6331286 122.62561 -60.205608 -71.837738 -88.333206 90.362694 -6.7690797 -135.84624
1154500000 -3.658798 93.176376 -60.160946 -178.15524 -88.587006 23.895658 -7.8199286 149.56099
1164000000 -3.6455359 63.969421 -60.990059 82.769722 -91.32618 -170.73335 -8.6200724 72.574196
1173500000 -3.6121876 35.063721 -60.548813 -15.600823 -86.274078 159.95047 -7.8274908 1.3418387
1183000000 -3.5710647 6.5846953 -59.770283 -115.76231 -90.667191 12.907462 -6.1388645 -65.056816
1192500000 -3.5230179 -21.382318 -59.771076 140.57155 -89.751617 -21.890743 -5.2173252 -131.89572
1202000000 -3.4955523 -48.984238 -60.206467 37.351658 -93.655624 -157.4614 -5.916821 163.42578
1211500000 -3.5017223 -76.43631 -60.599987 -62.26759 -83.316025 138.70547 -7.2870212 101.59222
1221000000 -3.5390084 -103.99108 -60.025707 -158.58337 -81.909843 69.010094 -8.2349367 34.711205
1230500000 -3.6050735 -131.82089 -59.148144 99.501152 -84.689514 -40.544552 -8.1675911 -42.076954
1240000000 -3.6792166 -160.03491 -59.741276 -5.3881192 -84.791245 -147.10789 -7.4208531 -119.6636
1249500000 -3.7552269 171.29494 -59.487782 -104.48233 -83.542213 139.92783 -6.7120676 172.09634
1259000000 -3.832104 142.24667 -59.357594 155.31274 -89.031746 58.523739 -6.1772518 110.03408
1268500000 -3.8799257 112.94463 -59.168171 52.884926 -95.94651 -41.271332 -6.1599536 46.50745
1278000000 -3.8749301 83.638199 -59.296883 -50.673573 -83.949203 -162.16811 -7.104589 -21.450386
1287500000 -3.8378685 54.686028 -59.495964 -149.21971 -87.500992 115.46677 -8.2811499 -93.094139
1297000000 -3.786799 26.145668 -59.028893 111.74635 -82.302612 52.102779 -8.144434 -167.3401
1306500000 -3.7179322 -1.9181569 -58.645103 7.1774607 -88.134216 -73.09407 -6.7830453 119.61328
1316000000 -3.6375709 -29.349396 -58.762421 -95.130264 -83.092468 -175.01366 -5.8797941 50.820694
1325500000 -3.5849595 -56.32386 -58.739834 164.31396 -84.140175 150.08784 -5.9778972 -11.382267
1335000000 -3.5781605 -83.174995 -59.062077 64.712196 -84.958855 54.115101 -6.4784584 -70.49202
1344500000 -3.5893767 -110.03693 -58.769924 -36.287121 -85.244125 -44.602795 -7.1272235 -134.44835
1354000000 -3.6169398 -136.99503 -58.461609 -139.79909 -81.970497 -179.65488 -7.9791741 151.99203
1363500000 -3.674324 -164.27644 -59.228188 117.88983 -88.220604 160.81964 -8.3596535 74.924179
1373000000 -3.7497582 167.95261 -60.135578 22.768667 -85.682068 56.254463 -7.5652471 4.164402
1382500000 -3.8145149 139.77669 -59.022274 -73.298744 -83.153595 -81.532852 -6.267868 -61.633327
1392000000 -3.8550241 111.37137 -57.688812 -176.16907 -82.26284 -160.38864 -5.7731791 -128.45108
1401500000 -3.8707891 82.802147 -57.771374 74.827309 -83.380508 154.82976 -6.7592115 164.73529
1411000000 -3.8603625 54.271378 -58.658501 -27.44256 -83.438576 -24.127998 -8.1895676 98.349525
1420500000 -3.8243132 26.023232 -58.812305 -123.16183 -82.675346 -71.451492 -8.5187864 26.955423
1430000000 -3.7602088 -1.7749733 -58.145683 134.5981 -81.997406 -170.91022 -7.3765755 -49.243557
1439500000 -3.6960099 -29.055285 -58.688347 26.528437 -88.696434 97.012184 -6.3734069 -122.328
1449000000 -3.6575363 -55.927551 -59.996944 -73.396095 -86.376526 7.0581183 -6.2659621 174.04536
1458500000 -3.6452422 -82.675049 -60.884666 -167.06529 -85.917397 -56.478493 -6.4796028 116.0503
1468000000 -3.6592042 -109.44804 -60.611347 101.00101 -88.988136 -178.1871 -6.923192 54.70182
1477500000 -3.6967769 -136.28273 -60.032139 2.0001724 -83.757523 89.876816 -7.9703031 -16.165192
1487000000 -3.766654 -163.52267 -59.472004 -98.775543 -84.491852 1.3922812 -8.9400377 -94.549004
1496500000 -3.8592689 168.71632 -59.138836 165.76303 -83.528122 -115.1475 -8.3229771 -171.08669
1506000000 -3.9425006 140.54701 -58.337673 64.595978 -84.410019 -176.41074 -6.7790842 118.5089
1515500000 -4.0203991 111.97795 -58.260948 -42.185959 -81.362297 110.0969 -6.0214462 50.976261
1525000000 -4.0827541 83.031242 -58.806744 -141.23605 -84.850861 20.984772 -6.5997925 -13.123955
1534500000 -4.1051974 53.913219 -59.022598 123.88633 -87.28363 -102.87349 -7.6311393 -76.049004
1544000000 -4.0960031 24.949396 -58.434216 25.280825 -83.367348 174.61324 -8.1695948 -145.42393
1553500000 -4.0666108 -3.6718123 -57.630955 -77.561707 -83.692116 89.530746 -7.851707 137.03439
1563000000 -4.0174403 -31.861658 -57.971466 -179.83057 -83.773766 4.5262899 -7.2535706 62.553188
1572500000 -3.9775007 -59.604836 -57.898251 83.359261 -85.329872 -72.427788 -6.7584372 -1.7140965
1582000000 -3.9781184 -87.081703 -57.322723 -13.72464 -86.32518 -137.47661 -6.3369408 -61.470303
1591500000 -4.0061684 -114.57627 -56.728928 -117.27608 -82.774017 94.11113 -6.4276843 -125.14017
1601000000 -4.0466299 -142.1552 -56.521992 140.179 -85.255264 -11.026051 -7.6028295 164.4778
1610500000 -4.1133771 -169.96442 -56.518559 39.284306 -89.938744 -79.862534 -8.8533583 89.870461
1620000000 -4.2189422 161.74265 -56.308941 -58.591351 -85.451508 142.73122 -8.3942509 15.234299
1629500000 -4.3194585 132.93462 -55.472645 -159.24747 -88.154053 90.31076 -6.7627935 -55.697033
1639000000 -4.3873591 103.83973 -55.067837 95.77594 -83.247734 10.35218 -5.858273 -123.52128
1648500000 -4.4389296 74.530403 -55.385044 -6.2347403 -87.130844 -108.7009 -6.2453375 173.18016
1658000000 -4.475884 44.989632 -55.285553 -104.92606 -81.886986 164.925 -7.1521797 111.21024
1667500000 -4.4636726 15.571565 -54.851212 153.68605 -81.850235 85.906677 -7.9450531 42.427738
1677000000 -4.3961654 -13.33512 -54.890198 52.369629 -80.693512 -0.99053574 -8.1627026 -35.104996
1686500000 -4.3217602 -41.695667 -54.855064 -50.155945 -84.692711 -118.56771 -7.5975738 -109.68447
1696000000 -4.2832022 -69.650154 -54.711205 -146.83064 -81.874428 174.53003 -6.6285214 -174.36972
1705500000 -4.2542219 -97.288544 -54.24308 111.57389 -80.123169 79.17659 -5.7748671 125.00867
1715000000 -4.2262287 -124.69238 -53.922894 8.1133871 -84.68998 16.825809 -5.7901545 61.913589
1724500000 -4.2353001 -151.98491 -53.898384 -95.034027 -84.37838 -92.215416 -7.1010218 -4.2240868
1734000000 -4.2896552 -179.47267 -53.785892 164.97408 -82.288048 158.96906 -8.6532459 -74.106949
1743500000 -4.3626256 152.60094 -53.665451 67.457695 -80.310524 74.993698 -8.6928377 -149.60677
1753000000 -4.4202695 124.41893 -52.736851 -33.33564 -83.366768 4.5981927 -7.2383361 134.94218
1762500000 -4.4625068 96.041321 -52.425804 -140.41324 -82.927635 -97.715706 -6.2288704 64.896088
1772000000 -4.5210681 67.316696 -52.970802 118.24407 -80.121223 144.47237 -6.2603312 1.6071475
1781500000 -4.5572538 38.401371 -52.649624 20.470295 -82.326416 72.919403 -6.7807884 -59.886292
1791000000 -4.526895 9.6245117 -52.176342 -82.964691 -81.403702 -39.135784 -7.5181952 -127.07101
1800500000 -4.4726148 -18.767971 -52.252609 175.02844 -82.407585 -131.34354 -8.1571884 158.68683
1810000000 -4.4292645 -46.704918 -52.160198 75.496727 -78.879257 145.24977 -7.9339995 86.042473
1819500000 -4.3922853 -74.402824 -51.912552 -24.751152 -80.54026 54.785358 -6.8756485 20.784275
1829000000 -4.3592153 -101.80173 -50.962772 -124.94028 -78.523796 -31.362377 -5.8306079 -41.732864
1838500000 -4.3306866 -128.78593 -50.105267 127.37164 -77.637817 -140.57916 -5.8717217 -106.44908
1848000000 -4.3500199 -155.68837 -50.525738 19.40884 -79.536858 131.90727 -7.3176231 -172.73599
1857500000 -4.4310541 177.21289 -50.810715 -80.685524 -79.945152 47.598194 -8.945755 116.89247
1867000000 -4.5175209 149.83081 -50.221798 175.65068 -80.310677 -48.386681 -8.9327526 38.989845
1876500000 -4.5990505 122.21389 -50.274429 69.335487 -80.473549 -164.71184 -7.3375659 -38.076942
1886000000 -4.7117772 94.422325 -50.608456 -37.1096 -80.280022 110.24027 -6.1937008 -107.02312
1895500000 -4.8333883 66.226379 -51.252045 -142.2066 -79.95623 15.617682 -5.9775834 -168.22566
1905000000 -4.9148932 37.627289 -51.816216 117.51197 -80.570587 -88.374702 -6.3075433 132.08653
1914500000 -4.9274669 9.1642733 -51.905231 13.286592 -80.31337 179.38475 -7.1798663 67.000214
1924000000 -4.9004226 -19.021078 -52.792629 -94.251144 -79.72628 101.32619 -8.3131237 -5.5941968
1933500000 -4.859499 -47.145805 -54.290482 166.20126 -92.033913 -46.875919 -8.4508123 -80.379684
1943000000 -4.7970877 -75.149345 -54.835396 70.932121 -89.378639 -93.730675 -7.2864337 -150.40939
1952500000 -4.7063375 -102.81407 -55.343918 -29.921024 -83.241478 -176.21797 -6.1010795 142.78606
1962000000 -4.6453648 -130.20726 -55.79557 -126.53606 -85.287979 114.55131 -6.0925159 76.559669
1971500000 -4.6348519 -157.51074 -55.970776 135.76172 -86.837044 -25.548502 -7.1864524 11.176147
1981000000 -4.6562977 174.98906 -56.066628 37.471558 -84.251289 -85.57415 -8.2838249 -57.477245
1990500000 -4.6940989 147.30734 -55.985348 -62.526638 -82.268356 -169.33743 -8.286725 -132.48265
2000000000 -4.7524762 119.4952 -56.327076 -162.51302 -84.257828 115.98197 -7.3036103 153.29152
