!Keysight Technologies,N5242B,MY48420967,A.15.65.19
!Date: Saturday, February 04, 2023 18:42:34
!Correction: S11(C  1-Port  ) 
!S21(Off) 
!S12(Off) 
!S22(Off) 
!S2P File: Measurements: S11, S21, S12, S22:
# Hz S  dB   R 50
100000000 -1.4955945 40.211334 -77.068611 -137.14641 -93.88652 82.928322 -4.9917259 -109.47749
109500000 -1.4346759 10.759273 -79.749702 158.16425 -99.33168 18.646688 -4.9433179 179.01871
119000000 -1.3672808 -18.210447 -80.275223 24.018953 -91.506966 -150.36067 -4.9349737 115.41367
128500000 -1.2854943 -46.648327 -80.06337 -87.492699 -90.447914 -31.443769 -4.7070084 52.525391
138000000 -1.2761811 -75.086769 -78.364868 -167.77371 -90.889679 -17.288645 -5.002882 -17.647551
147500000 -1.349777 -104.02372 -79.061317 87.103371 -89.484222 104.59772 -6.443851 -92.637802
157000000 -1.4185536 -133.28864 -82.566521 -35.973263 -86.01754 101.43431 -7.4512968 -165.30234
166500000 -1.4941741 -162.7421 -75.561798 -122.02906 -92.383919 103.11257 -6.7122431 125.85756
176000000 -1.6202253 167.35736 -76.144363 152.19971 -97.031715 -10.916561 -5.0765238 57.459488
185500000 -1.7240163 137.12486 -77.594414 28.086248 -98.925926 -110.53722 -4.4551282 -12.726494
195000000 -1.7434927 107.20193 -76.339027 -77.477867 -95.822617 128.61818 -5.3249846 -78.787415
204500000 -1.7446101 77.707695 -74.037155 -165.94075 -94.37413 111.3923 -6.3931336 -142.28845
214000000 -1.7530416 48.330055 -77.077484 85.714211 -99.973923 140.75899 -6.8791533 148.25076
223500000 -1.7096825 19.288616 -77.041328 -9.9457541 -94.850624 -115.01499 -6.8174124 71.310135
233000000 -1.6424285 -9.3052292 -74.633621 -113.65309 -93.174202 46.600605 -6.5342517 -2.7739079
242500000 -1.6352363 -37.844723 -74.816391 156.66144 -90.168617 93.123482 -5.9816728 -68.683128
252000000 -1.658596 -66.647476 -73.736839 46.40255 -86.580063 54.059944 -5.2957358 -132.79413
261500000 -1.6761851 -95.650574 -73.420219 -49.675419 -85.593964 63.724751 -5.3056831 158.34912
271000000 -1.7415154 -124.87035 -74.903732 -156.66965 -95.326782 21.18222 -6.4319105 87.161682
280500000 -1.858741 -154.61008 -73.93174 103.55587 -93.33429 -63.977268 -7.33284 16.889551
290000000 -1.9514171 175.24823 -73.465714 2.7969086 -99.024635 -36.426533 -6.822021 -53.792213
299500000 -2.0155139 145.11977 -73.43914 -103.55372 -88.733971 -7.3297629 -5.6017842 -125.92851
309000000 -2.0878463 115.02608 -69.838463 145.22409 -103.02642 -78.324097 -5.2159381 163.28979
318500000 -2.1320956 85.080956 -72.489891 59.279922 -92.231621 83.496964 -5.6220088 98.167168
328000000 -2.111639 55.554768 -72.027138 -51.328053 -101.00432 -108.52258 -5.924242 34.213856
337500000 -2.0917208 26.38851 -71.583656 -155.94171 -94.584839 -141.37642 -6.0115809 -35.89386
347000000 -2.106977 -2.6286879 -71.983765 118.39884 -88.842323 -13.102237 -6.3258815 -110.9073
356500000 -2.1044056 -31.55559 -72.485657 10.001281 -86.972198 -167.01416 -6.5614138 178.23405
366000000 -2.0994487 -60.533112 -71.156387 -79.205994 -93.281898 175.89156 -6.0902357 112.66238
375500000 -2.1624062 -89.857285 -71.46656 175.53146 -98.651497 -98.991287 -5.253696 45.40546
385000000 -2.2583847 -119.65636 -70.965881 63.550198 -91.806999 56.059071 -5.2890296 -26.970051
394500000 -2.328311 -149.6701 -71.063599 -45.104706 -85.616074 -110.34777 -6.3245053 -97.719063
404000000 -2.3904994 -179.74759 -71.430565 -132.9955 -84.41835 76.996056 -6.8005748 -164.68118
413500000 -2.4755418 150.00594 -71.109093 132.57935 -94.695229 140.31888 -6.0655289 127.87307
423000000 -2.532635 119.8473 -71.022346 29.972521 -93.435234 -169.24257 -5.0942836 56.918636
432500000 -2.5161407 90.246132 -69.440277 -73.394005 -89.180908 151.08488 -5.1773634 -13.114497
442000000 -2.4864004 61.112183 -70.490784 -178.70343 -89.937248 45.404095 -5.787313 -77.733345
451500000 -2.4877486 32.258701 -70.829491 89.524803 -102.36932 38.492355 -6.010581 -142.58992
461000000 -2.4684591 3.7399042 -69.712357 -12.616875 -86.288803 -153.73048 -5.9091749 145.62321
470500000 -2.4285302 -24.484945 -68.55587 -115.63047 -106.51691 58.138073 -6.0924745 70.379555
480000000 -2.4302239 -52.725956 -68.980011 150.81702 -99.589104 -61.499264 -6.2614737 1.1602056
489500000 -2.480711 -81.299492 -67.401657 53.194637 -94.435257 -164.01187 -5.8615746 -62.823441
499000000 -2.5308108 -110.18128 -65.717377 -50.952278 -91.12397 107.01033 -5.2823148 -129.07213
508500000 -2.5682602 -139.21388 -64.750885 -159.58 -111.53911 141.83173 -5.561779 159.52034
518000000 -2.6273003 -168.47023 -64.223206 86.305809 -96.699303 157.30127 -6.5941033 88.392174
527500000 -2.6915712 162.0779 -65.426979 -23.342005 -94.647614 -96.145851 -6.8980255 18.887348
537000000 -2.7146943 132.75963 -65.680466 -124.54257 -95.048538 -174.39206 -6.0389462 -51.502617
546500000 -2.7011085 103.81403 -66.337799 129.66718 -88.707123 104.85848 -5.2572765 -122.8515
556000000 -2.6829083 75.276337 -67.723457 30.805826 -107.33921 20.092543 -5.4788995 170.20955
565500000 -2.6569955 47.123363 -67.774139 -66.545097 -101.1608 31.596773 -5.9906793 108.31862
575000000 -2.6184902 19.329332 -67.12899 -163.97662 -97.591766 122.69771 -6.1657715 43.67202
584500000 -2.5902162 -8.2341394 -67.147713 97.202538 -86.970764 130.00708 -6.2955613 -30.384127
594000000 -2.5864315 -35.779106 -67.635361 -8.9860487 -92.258049 -144.69572 -6.7712216 -107.48283
603500000 -2.6023757 -63.48518 -67.599678 -105.40572 -90.659996 -24.102922 -6.8679962 -176.78333
613000000 -2.6443071 -91.52095 -66.994995 163.3093 -89.784355 174.81677 -6.1912508 119.37074
622500000 -2.7085612 -120.02634 -66.076019 59.225178 -96.509796 157.76073 -5.5343366 52.996689
632000000 -2.78216 -148.94804 -67.088081 -51.163616 -88.625465 10.211696 -6.003119 -17.585653
641500000 -2.835247 -178.00525 -66.657158 -148.05432 -90.841835 -114.42325 -7.1334724 -88.12989
651000000 -2.884053 152.77467 -66.832474 112.52174 -86.073189 115.58505 -7.406642 -159.54337
660500000 -2.926321 123.47596 -66.972145 14.505148 -100.892 175.03429 -6.5518284 127.34601
670000000 -2.921644 94.428612 -66.393105 -92.447578 -103.1717 -125.29089 -5.8434625 56.206474
679500000 -2.8884947 65.875954 -66.194557 173.42047 -91.901329 -104.6544 -5.8744135 -8.3212605
689000000 -2.8672714 37.669155 -66.866936 74.950195 -93.097855 51.035572 -6.0751905 -69.450455
698500000 -2.8571596 9.5754967 -66.124649 -27.261578 -100.00444 48.256134 -6.2938266 -136.16393
708000000 -2.8412726 -18.250088 -65.445053 -130.42381 -101.5347 31.442533 -7.0225897 147.09842
717500000 -2.8381293 -45.904686 -66.183121 125.95545 -94.273735 150.86444 -7.7277832 69.144287
727000000 -2.8887937 -73.972664 -66.751076 31.293779 -86.428558 137.74014 -7.2475309 -0.89157224
736500000 -2.9737475 -102.61923 -65.927238 -68.953209 -89.097603 139.226 -5.9804564 -65.902977
746000000 -3.043781 -131.56339 -65.011925 -172.9642 -88.358742 -7.0961981 -5.257092 -132.55447
755500000 -3.1117904 -160.80423 -66.054779 89.247086 -93.723541 92.067924 -5.9836216 160.27141
765000000 -3.202981 169.51738 -66.043205 -12.127519 -87.105934 74.829056 -7.2419925 94.007645
774500000 -3.2620704 139.6581 -65.552719 -113.93736 -97.098549 -175.93768 -7.6390805 22.863276
784000000 -3.263113 110.05844 -64.866295 146.32463 -109.54619 -133.32007 -6.9057493 -54.232548
793500000 -3.2464471 80.848595 -65.88884 38.92268 -95.042343 -127.95054 -6.2797208 -127.8343
803000000 -3.2243497 51.986286 -65.959007 -54.598389 -87.803841 133.77185 -6.1182508 168.76952
812500000 -3.1824548 23.568979 -65.269501 -152.78821 -88.856758 61.114342 -5.9115257 109.97095
822000000 -3.1384523 -4.3392935 -65.191238 108.02824 -103.38945 -76.498779 -5.8113933 45.750515
831500000 -3.1226645 -32.006756 -64.686806 1.6987897 -92.040413 173.70338 -6.6545515 -28.220228
841000000 -3.136168 -59.726597 -65.269226 -100.62933 -91.476501 136.85876 -7.855998 -104.77194
850500000 -3.1686416 -87.608856 -65.517059 163.78224 -95.288773 146.64517 -7.6490459 -176.46356
860000000 -3.2241118 -115.7832 -64.79525 64.858673 -95.468803 -11.129967 -6.2765985 116.70123
869500000 -3.2972264 -144.39236 -64.628677 -41.184898 -88.171402 -144.55934 -5.3016915 50.242249
879000000 -3.3634906 -173.35777 -64.710617 -143.10835 -92.011467 97.878166 -5.6790886 -14.894839
888500000 -3.4046957 157.54739 -64.534706 123.27847 -90.19558 -1.9941566 -6.7340627 -78.37648
898000000 -3.4299917 128.4707 -64.849205 17.773853 -90.980209 -136.96939 -7.4885392 -147.05606
907500000 -3.4248319 99.513115 -64.433945 -86.328316 -85.816086 -163.29219 -7.4837499 135.70171
917000000 -3.3800108 70.906548 -64.238426 177.50679 -98.702309 117.63974 -6.9983168 59.927238
926500000 -3.3187716 42.862789 -65.335838 78.906303 -95.383278 60.627449 -6.4089608 -5.7658596
936000000 -3.26564 15.306454 -64.65638 -21.843992 -101.18941 44.559891 -5.7805791 -65.929375
945500000 -3.2191875 -11.912851 -64.178391 -119.745 -86.933006 174.07294 -5.5628142 -128.79497
955000000 -3.1795156 -38.885395 -63.822815 139.60361 -86.88324 116.44875 -6.4596405 162.49611
964500000 -3.1719794 -65.690117 -64.066216 37.928928 -88.165825 25.178974 -7.9235601 90.054787
974000000 -3.2038469 -92.654907 -63.917652 -63.794971 -91.634605 -84.869843 -8.2305031 15.579414
983500000 -3.2618322 -120.12744 -63.689323 -160.09944 -88.472626 -163.60222 -7.1314812 -56.899212
993000000 -3.3248596 -148.00652 -62.97855 98.904114 -85.45266 97.589386 -6.1623373 -124.93661
1002500000 -3.3812721 -176.15625 -63.250946 -4.0318069 -92.358688 -56.443977 -6.0833001 172.36296
1012000000 -3.441756 155.32845 -62.991821 -102.31836 -90.238998 -45.620041 -6.480751 111.51128
1021500000 -3.4868078 126.54314 -62.133202 160.74771 -88.628571 -176.0722 -7.1106811 44.395882
1031000000 -3.4838827 97.806168 -62.305256 53.824024 -82.889137 103.86383 -8.0308962 -33.077648
1040500000 -3.4482636 69.402039 -62.921535 -50.319267 -88.504646 -10.654811 -8.4053335 -111.40984
1050000000 -3.4143224 41.324574 -62.68922 -143.1624 -87.891296 -153.5659 -7.5542107 179.81752
1059500000 -3.3754377 13.52874 -62.040642 117.44798 -81.369064 145.95575 -6.1273217 116.58546
1069000000 -3.3276987 -13.841585 -61.827785 14.489548 -85.507729 93.876343 -5.3695068 50.711987
1078500000 -3.2961254 -40.822826 -61.787155 -90.080254 -89.192215 18.22855 -6.2978358 -16.88855
1088000000 -3.3056545 -67.777687 -62.095463 168.37634 -89.060936 -71.374252 -7.9740734 -83.474075
1097500000 -3.3628206 -95.058823 -62.047565 73.226723 -90.97242 147.78903 -8.7214336 -154.38402
1107000000 -3.4279106 -122.67842 -61.414948 -27.420607 -86.593491 92.571838 -7.9330072 129.58871
1116500000 -3.4995618 -150.70296 -60.926491 -132.97035 -82.060265 -20.51263 -6.9244752 56.119907
1126000000 -3.6026309 -179.3111 -61.421036 128.23192 -87.963921 -92.754791 -6.6012378 -9.1429462
1135500000 -3.6970747 151.55054 -61.203972 30.333204 -87.615196 -175.40817 -6.5983963 -70.247993
1145000000 -3.7393663 122.18453 -60.434669 -71.687737 -85.405212 38.354527 -6.9414649 -136.08281
1154500000 -3.7568862 92.866135 -60.335949 -176.88426 -87.066193 -13.157724 -8.0067797 149.38905
1164000000 -3.7620759 63.61813 -60.901085 82.309425 -87.154205 -145.4026 -8.8043642 72.286934
1173500000 -3.7281487 34.604889 -60.692833 -15.15274 -87.037727 159.96457 -7.9999566 0.88009608
1183000000 -3.6693461 6.2214599 -60.064159 -116.30331 -83.666443 69.485237 -6.3187933 -65.559204
1192500000 -3.6289737 -21.646502 -59.961208 140.34207 -93.047165 -132.1244 -5.4156752 -132.25056
1202000000 -3.6177981 -49.358971 -60.299057 37.242981 -83.097954 -145.90186 -6.1169734 163.2383
1211500000 -3.6163752 -76.871643 -60.542141 -60.52338 -84.92247 101.20656 -7.4895544 101.37388
1221000000 -3.6389394 -104.29721 -59.842236 -158.69455 -82.724983 38.80407 -8.4500351 34.275055
1230500000 -3.7162411 -132.09518 -59.377609 100.02612 -91.290649 -68.228737 -8.3762808 -42.739571
1240000000 -3.8066106 -160.45985 -59.337524 -5.2866669 -82.26944 -141.21558 -7.5982847 -120.27573
1249500000 -3.8693547 170.83414 -59.59959 -104.58801 -85.599075 155.12709 -6.8665514 171.65672
1259000000 -3.9362457 141.92212 -59.314789 155.7747 -85.954521 72.443192 -6.3346105 109.72129
1268500000 -3.9987302 112.63123 -59.187759 54.481804 -89.337311 -75.764809 -6.3409543 46.318371
1278000000 -4.0013742 83.196815 -59.270821 -47.898075 -82.998688 -162.40836 -7.3111587 -21.570889
1287500000 -3.9462023 54.257572 -59.369968 -147.02702 -84.590508 142.28633 -8.5024691 -93.384781
1297000000 -3.8854392 25.854263 -58.82766 112.64899 -82.39994 34.540787 -8.3520603 -167.91368
1306500000 -3.8348241 -2.2106841 -58.637814 7.7955947 -87.772247 -69.442291 -6.9700661 118.99036
1316000000 -3.7676942 -29.77553 -58.929619 -94.826073 -85.056686 -153.18555 -6.0544219 50.388226
1325500000 -3.698514 -56.74715 -58.83654 164.95981 -81.501999 132.68448 -6.1457839 -11.641738
1335000000 -3.6789119 -83.482903 -59.03302 65.485123 -92.191765 1.9823128 -6.6581984 -70.687943
1344500000 -3.7111802 -110.35632 -58.697243 -34.579887 -86.105057 -62.12154 -7.3388529 -134.67656
1354000000 -3.7502522 -137.45578 -58.108387 -136.73639 -81.799057 -158.09792 -8.2175713 151.62709
1363500000 -3.7865016 -164.75264 -58.687412 119.17519 -83.424484 77.964661 -8.5732107 74.34774
1373000000 -3.8539991 167.60223 -59.457458 21.723845 -99.491287 23.617229 -7.7368951 3.5435691
1382500000 -3.9432936 139.40968 -58.292828 -71.493492 -84.745567 -51.282383 -6.4293327 -62.126915
1392000000 -3.9889283 110.86603 -57.247337 -177.46066 -85.710472 -163.75961 -5.9466071 -128.69954
1401500000 -3.9763565 82.349014 -57.409203 78.352249 -80.32431 100.64835 -6.9433031 164.69084
1411000000 -3.963814 53.943443 -58.073463 -25.768278 -85.190765 33.486858 -8.3938723 98.252815
1420500000 -3.9522309 25.646336 -57.765305 -124.27878 -90.070061 -54.949665 -8.7424946 26.531343
1430000000 -3.8815572 -2.235002 -56.865711 133.19298 -84.600029 -167.56639 -7.5923333 -49.898323
1439500000 -3.7980299 -29.436781 -57.243313 22.007303 -82.099754 87.575905 -6.5642905 -122.86543
1449000000 -3.7731938 -56.255161 -58.550316 -79.983765 -87.86039 25.008801 -6.4338317 173.69321
1458500000 -3.7796032 -83.110397 -59.517685 -177.63606 -93.810814 -109.58702 -6.6487174 115.78815
1468000000 -3.7801614 -109.92016 -59.832813 85.609161 -86.927834 137.21902 -7.1215835 54.505814
1477500000 -3.8049657 -136.66209 -59.801201 -12.935346 -88.070915 117.95902 -8.2118492 -16.381907
1487000000 -3.8911359 -163.93581 -60.184822 -112.13808 -83.202759 6.5493898 -9.1891718 -95.026245
1496500000 -3.9910147 168.19511 -60.245071 153.05595 -86.563423 -93.522949 -8.526576 -171.77914
1506000000 -4.054493 140.08974 -59.552532 56.385788 -83.057083 170.37973 -6.9524097 117.91119
1515500000 -4.1302338 111.63038 -59.575165 -49.944107 -92.469292 111.64532 -6.1893315 50.643051
1525000000 -4.2143888 82.608383 -60.047237 -146.96536 -87.112114 10.9413 -6.7706623 -13.229981
1534500000 -4.2320437 53.408405 -60.428036 118.56757 -90.812477 -139.68829 -7.8247027 -76.109283
1544000000 -4.2020292 24.554243 -59.913849 22.994192 -85.709679 165.9866 -8.407774 -145.67009
1553500000 -4.1818309 -3.9830341 -58.882816 -78.557968 -92.476753 106.84382 -8.1024113 136.50887
1563000000 -4.1525774 -32.293091 -58.985291 178.81438 -87.906883 7.0460811 -7.4641933 61.959473
1572500000 -4.1026106 -60.096294 -58.754112 84.574043 -85.90799 -87.275902 -6.9291878 -2.2335057
1582000000 -4.087709 -87.447945 -58.261223 -13.415921 -84.221756 -175.41206 -6.4983292 -61.880463
1591500000 -4.1289287 -114.90285 -57.226009 -116.07039 -84.926102 120.50257 -6.6110411 -125.39004
1601000000 -4.1853957 -142.62234 -57.22554 142.88196 -88.448685 23.377588 -7.8177538 164.36313
1610500000 -4.2385941 -170.47954 -57.028889 40.950714 -86.295273 -94.82312 -9.0909195 89.565155
1620000000 -4.3308001 161.35817 -57.054756 -58.062256 -84.666237 -176.55867 -8.6160479 14.550345
1629500000 -4.447403 132.59218 -55.928013 -157.75273 -90.072792 91.773972 -6.9584899 -56.455414
1639000000 -4.5233912 103.38948 -55.576847 96.757339 -86.238838 13.286137 -6.0388098 -124.06734
1648500000 -4.5578866 74.073982 -55.8755 -5.5049281 -82.358414 -86.955452 -6.4131355 172.87807
1658000000 -4.5886168 44.649773 -55.756149 -104.8223 -86.027184 -171.07333 -7.3277826 111.05917
1667500000 -4.591567 15.235872 -55.142044 154.82758 -84.610344 78.332977 -8.1574421 42.290306
1677000000 -4.5282402 -13.76111 -55.088028 51.525639 -87.091187 -1.7055737 -8.4065075 -35.414772
1686500000 -4.4456706 -42.117805 -55.248718 -49.560043 -87.065987 -77.817894 -7.8200159 -110.19617
1696000000 -4.4084187 -70.024864 -55.025192 -147.12816 -81.571411 172.25983 -6.8179388 -174.96709
1705500000 -4.3827853 -97.684448 -54.481102 112.52312 -82.25251 80.364807 -5.9557071 124.44183
1715000000 -4.3515315 -125.10905 -54.203838 8.8355446 -80.043571 6.2484565 -5.9799323 61.521366
1724500000 -4.3643241 -152.38858 -54.105042 -93.564499 -83.482506 -118.61858 -7.3009453 -4.4294734
1734000000 -4.425962 -179.91962 -54.180637 165.76746 -82.48455 154.94353 -8.8723249 -74.338554
1743500000 -4.4894681 152.1319 -54.100563 67.484009 -82.832916 96.053314 -8.9250193 -150.11021
1753000000 -4.5406108 124.01038 -53.133408 -33.292564 -80.463844 -3.30689 -7.4565196 134.29649
1762500000 -4.5990882 95.656837 -52.59235 -140.15486 -80.968513 -117.21725 -6.4275002 64.37159
1772000000 -4.657752 66.835594 -53.186356 118.75536 -78.80397 150.75168 -6.4396615 1.246121
1781500000 -4.6708679 37.941658 -52.860218 19.771637 -80.765953 79.388168 -6.9593248 -60.11684
1791000000 -4.6435804 9.2894697 -52.437504 -83.667679 -81.502716 -25.197937 -7.7169757 -127.18929
1800500000 -4.6161203 -19.162569 -52.493694 174.42252 -81.329178 -124.49685 -8.3790722 158.55736
1810000000 -4.5670009 -47.254917 -52.472202 73.88562 -79.259499 156.29059 -8.1536541 85.722305
1819500000 -4.5029612 -74.87867 -52.292404 -26.225294 -84.157272 65.17662 -7.0806193 20.301304
1829000000 -4.4779983 -102.13685 -51.375061 -126.96664 -81.735992 -20.04632 -6.0369182 -42.250683
1838500000 -4.4775438 -129.21451 -50.51664 127.71554 -78.82975 -132.66583 -6.083221 -106.8501
1848000000 -4.4878464 -156.26126 -50.92168 19.616875 -81.894165 130.90521 -7.5252805 -172.99663
1857500000 -4.5436902 176.70349 -51.197483 -80.241203 -80.120674 28.866165 -9.1555958 116.60858
1867000000 -4.6373525 149.4534 -50.665119 176.22813 -80.613686 -53.99202 -9.1476812 38.571743
1876500000 -4.7421412 121.78001 -50.702648 70.443222 -79.835091 -157.36716 -7.5481391 -38.52557
1886000000 -4.8523335 93.865288 -50.918884 -35.316719 -78.529846 118.9659 -6.3934145 -107.37574
1895500000 -4.9558096 65.703773 -51.32386 -139.64008 -82.435959 10.818221 -6.1682663 -168.5166
1905000000 -5.0323081 37.203949 -51.731419 117.83817 -84.305092 -57.349594 -6.5029716 131.83029
1914500000 -5.0606818 8.751977 -51.85902 13.043585 -82.363487 -168.42236 -7.3882399 66.806938
1924000000 -5.0411911 -19.512934 -52.83194 -95.277496 -82.992424 101.1001 -8.5248919 -5.7699199
1933500000 -4.9865899 -47.670795 -54.422329 164.11072 -84.602486 20.579521 -8.6532011 -80.653755
1943000000 -4.9123335 -75.571625 -55.360153 68.047844 -83.359283 -70.888161 -7.4825635 -150.77188
1952500000 -4.8368969 -103.17066 -56.213535 -32.356136 -83.450111 168.75882 -6.3072867 142.40018
1962000000 -4.7944193 -130.6649 -56.690083 -126.71285 -85.422318 106.8815 -6.3147273 76.232933
1971500000 -4.7684875 -158.07907 -56.90377 138.44911 -89.256813 16.087601 -7.4192982 10.835052
1981000000 -4.766839 174.53996 -56.924297 42.081306 -83.187653 -56.109814 -8.520607 -57.962482
1990500000 -4.8206763 146.96501 -56.621758 -56.1563 -81.65696 -158.70485 -8.5046759 -133.07748
2000000000 -4.9037375 119.02302 -56.220383 -156.46558 -83.983284 119.58434 -7.4909468 152.82835
