!Keysight Technologies,N5242B,MY48420967,A.15.65.19
!Date: Saturday, February 04, 2023 11:40:00
!Correction: S11(C  1-Port  ) 
!S21(Off) 
!S12(Off) 
!S22(Off) 
!S2P File: Measurements: S11, S21, S12, S22:
# Hz S  dB   R 50
100000000 -1.5146173 40.248604 -80.926102 -111.83727 -87.884407 177.67261 -4.7144184 -109.01601
109500000 -1.4469314 10.878398 -80.172684 174.83273 -90.212814 150.43723 -4.6922684 179.30595
119000000 -1.3755537 -18.026262 -80.521568 50.718018 -99.728004 -130.53853 -4.6997952 115.60373
128500000 -1.2885309 -46.405624 -78.127724 -55.014225 -92.63063 80.854027 -4.4526916 52.598904
138000000 -1.2736588 -74.799408 -76.240273 -156.1535 -90.871193 177.86557 -4.7099328 -17.831947
147500000 -1.3444177 -103.70304 -78.043182 90.872986 -90.866417 105.41838 -6.1378212 -92.944382
157000000 -1.409055 -132.94725 -80.448898 -16.327959 -88.352455 -154.01939 -7.1514578 -165.32132
166500000 -1.4815493 -162.40656 -77.206497 -112.20832 -92.355942 120.21785 -6.4215341 126.17649
176000000 -1.6048316 167.6817 -74.772964 155.91626 -88.171539 38.378094 -4.7797451 57.785435
185500000 -1.7066573 137.41902 -75.605797 40.55257 -92.679749 -150.03345 -4.1570959 -12.712651
195000000 -1.7241461 107.46099 -78.977974 -73.096245 -93.828987 -153.76443 -5.0408278 -78.984039
204500000 -1.7235312 77.9245 -75.03051 -163.80208 -93.903748 139.56256 -6.0916414 -142.45976
214000000 -1.730305 48.504055 -76.871048 88.941299 -90.702835 144.77536 -6.5306659 148.24263
223500000 -1.6836691 19.413654 -75.879044 5.1745067 -90.251755 4.7062259 -6.4463162 71.472488
233000000 -1.6131001 -9.1995745 -75.040443 -106.02871 -111.10955 2.2730503 -6.1976719 -2.5180902
242500000 -1.6027973 -37.763008 -75.292557 163.76704 -99.283493 118.40966 -5.6736116 -68.386734
252000000 -1.6212498 -66.589737 -75.510094 60.425079 -91.73642 -40.437027 -4.9786983 -132.57782
261500000 -1.6341511 -95.596771 -72.516518 -61.288853 -99.012459 -83.953484 -4.9635968 158.31845
271000000 -1.6929657 -124.81817 -71.550751 -154.54256 -87.455437 -41.317974 -6.0841856 86.993347
280500000 -1.8040192 -154.5502 -73.656639 117.1524 -96.595108 -26.893871 -6.9828587 16.944403
290000000 -1.890515 175.32297 -75.041313 12.537769 -90.162994 153.08858 -6.4709864 -53.438808
299500000 -1.9486876 145.21933 -72.509476 -101.87111 -97.820572 112.31456 -5.2522211 -125.60863
309000000 -2.0139089 115.14877 -72.06855 157.65038 -102.26611 93.970413 -4.8904271 163.34019
318500000 -2.0526357 85.225464 -72.870987 55.218216 -86.931984 97.191734 -5.3165107 98.079651
328000000 -2.0264554 55.728859 -71.940941 -52.323723 -89.051338 69.472191 -5.6044669 34.093575
337500000 -2.0010996 26.570255 -72.796577 -150.35094 -90.08799 133.17862 -5.6584272 -36.066563
347000000 -2.009985 -2.4390936 -71.152679 116.83315 -87.358727 139.1248 -5.9681044 -111.14225
356500000 -1.9992343 -31.357157 -74.968666 11.968124 -95.574532 171.63773 -6.2300706 178.10446
366000000 -1.9875935 -60.350044 -71.577377 -77.03109 -88.497055 32.35368 -5.766952 112.62802
375500000 -2.042788 -89.696175 -70.647301 178.25325 -96.156105 -117.14706 -4.9099183 45.252808
385000000 -2.1305194 -119.51692 -71.284157 69.165047 -96.031197 171.75824 -4.9400368 -27.441769
394500000 -2.1932311 -149.55721 -71.230515 -38.787746 -92.319786 48.221478 -5.9944119 -98.256989
404000000 -2.2497172 -179.67461 -70.101761 -131.78653 -89.787781 143.12663 -6.473403 -165.0116
413500000 -2.3277292 150.03433 -71.178795 132.28886 -82.42466 -19.017672 -5.7237368 127.70451
423000000 -2.3806221 119.83728 -70.064056 31.414793 -88.699928 -156.70689 -4.7451763 56.606529
432500000 -2.3616998 90.200249 -69.695335 -71.054626 -91.261902 -133.17943 -4.8518891 -13.647237
442000000 -2.3286967 61.027729 -69.33448 -170.56671 -88.14817 127.23518 -5.4740624 -78.292442
451500000 -2.3265662 32.12328 -69.449615 93.057068 -90.783432 55.365997 -5.6692657 -143.11259
461000000 -2.3041604 3.5645597 -68.659119 -6.7151752 -93.728516 125.23387 -5.5294523 145.05907
470500000 -2.2597952 -24.701567 -68.359138 -110.60181 -95.156746 178.46591 -5.7206025 69.804802
480000000 -2.2558217 -52.98114 -68.021027 154.64299 -94.682777 71.885529 -5.9205408 0.7352196
489500000 -2.3002586 -81.609146 -66.709198 57.36911 -95.496193 -93.367226 -5.5253997 -63.136021
499000000 -2.3433974 -110.52512 -64.781845 -47.496075 -102.82336 -98.945671 -4.9221072 -129.50092
508500000 -2.3744566 -139.58405 -62.845779 -158.89001 -86.808693 178.00496 -5.1902757 158.83693
518000000 -2.4259942 -168.87492 -63.45039 82.080063 -102.06374 -7.9525795 -6.2261791 87.744843
527500000 -2.4866068 161.6411 -64.976059 -26.272991 -85.574501 -33.24366 -6.5234871 18.530302
537000000 -2.5063751 132.30144 -65.544067 -126.64143 -97.412872 111.35052 -5.6606159 -51.69619
546500000 -2.4920514 103.35341 -65.843071 129.13846 -88.684044 168.67108 -4.8966451 -123.20457
556000000 -2.4728255 74.80365 -67.278191 30.975286 -92.814674 11.838448 -5.1534958 169.69469
565500000 -2.4466691 46.633987 -68.06588 -71.410172 -88.162521 -90.575562 -5.6675763 107.78271
575000000 -2.4062107 18.82811 -67.078056 -161.27687 -94.70948 -73.598221 -5.7961364 43.098
584500000 -2.3757527 -8.7486687 -67.354248 96.309891 -87.965935 141.3714 -5.8735189 -31.091835
594000000 -2.367733 -36.317272 -67.52697 -7.5568242 -98.999252 162.34294 -6.3641953 -108.14062
603500000 -2.3787918 -64.047035 -68.248657 -103.92254 -95.077965 134.09172 -6.5023713 -177.19981
613000000 -2.4139326 -92.105782 -66.579048 158.63783 -87.743019 157.92711 -5.8352189 119.04976
622500000 -2.4703639 -120.638 -66.248032 53.701172 -98.945496 44.791126 -5.1597838 52.444347
632000000 -2.5365419 -149.57185 -66.781647 -50.946037 -99.490051 -89.871567 -5.6251111 -18.4757
641500000 -2.5840321 -178.62057 -66.696098 -147.55836 -91.677307 156.25298 -6.7480493 -89.01577
651000000 -2.62814 152.15332 -67.409286 118.11266 -94.018761 -172.06816 -6.9992571 -160.14497
660500000 -2.6666715 122.86591 -67.497963 11.558241 -91.025642 68.373703 -6.145257 126.90118
670000000 -2.6594813 93.844711 -66.164429 -89.482178 -90.431709 -19.22868 -5.4751387 55.635937
679500000 -2.626405 65.305801 -65.92955 174.28151 -95.422173 -110.47221 -5.5458536 -9.0148134
689000000 -2.6038969 37.094799 -66.491875 76.080231 -102.42188 -154.73061 -5.7394695 -70.27137
698500000 -2.5917583 8.9945803 -65.855927 -25.372046 -90.32074 79.056915 -5.905457 -137.26221
708000000 -2.5721648 -18.841314 -65.27906 -129.55205 -114.2541 104.88326 -6.5901518 145.74481
717500000 -2.5654485 -46.520927 -66.059563 128.53856 -109.07022 -82.663109 -7.3047519 68.070587
727000000 -2.6083672 -74.636215 -66.131607 32.294872 -92.753532 153.21385 -6.8587174 -1.5562267
736500000 -2.6862574 -103.33044 -65.240509 -68.260513 -90.189995 114.77674 -5.607511 -66.543724
746000000 -2.7472129 -132.3194 -64.938736 -172.59444 -92.38044 -41.153042 -4.8942742 -133.56941
755500000 -2.80775 -161.6131 -65.454437 84.64489 -90.628433 -164.72543 -5.6441221 158.90701
765000000 -2.8930306 168.65924 -65.763611 -14.147662 -94.321411 -88.410233 -6.8827186 92.570267
774500000 -2.9483995 138.75641 -65.311058 -114.35877 -92.39669 81.184555 -7.2149258 21.574026
784000000 -2.9481294 109.12044 -64.779099 143.23378 -90.307823 -50.152721 -6.4611144 -55.3689
793500000 -2.931366 79.870285 -65.517006 43.984753 -97.60614 137.73595 -5.8984852 -128.9317
803000000 -2.9119413 50.961075 -65.45108 -55.53632 -98.821045 -91.77417 -5.7923031 167.74081
812500000 -2.871969 22.48778 -65.217773 -154.20514 -98.245598 21.020035 -5.5845881 108.85826
822000000 -2.8287532 -5.4746428 -64.79866 105.94361 -90.195869 -19.095621 -5.4443498 44.25206
831500000 -2.8125002 -33.210686 -64.656311 0.80204934 -88.451866 -162.92189 -6.2584715 -30.162252
841000000 -2.8240235 -61.020378 -65.207657 -103.87345 -88.939987 130.19388 -7.4438705 -106.49276
850500000 -2.8523858 -88.989151 -65.150581 165.90927 -98.79084 65.001938 -7.2395473 -177.61168
860000000 -2.9010658 -117.24367 -64.467697 64.429993 -91.874077 -85.043053 -5.8835363 115.74796
869500000 -2.9679751 -145.92709 -64.448296 -39.542534 -89.239479 152.61664 -4.9350643 49.030621
879000000 -3.0270514 -174.94508 -64.379822 -142.52849 -88.970955 103.37016 -5.3477774 -16.386803
888500000 -3.0647242 155.92734 -64.720406 123.78688 -90.921463 70.304146 -6.3920465 -80.003906
898000000 -3.087853 126.83682 -64.512352 17.966789 -106.52304 66.522881 -7.0785108 -148.73073
907500000 -3.0811858 97.884148 -64.195183 -83.179268 -87.520134 136.56206 -7.02386 134.19711
917000000 -3.0383415 69.304337 -63.853153 178.62477 -89.177872 62.605919 -6.5821009 58.738369
926500000 -2.9822404 41.274979 -64.389221 76.369286 -98.982658 96.663254 -6.0506516 -6.7470222
936000000 -2.932992 13.732434 -64.541168 -18.642578 -95.859612 -56.513672 -5.4375787 -66.946426
945500000 -2.8884988 -13.48216 -63.951015 -121.65025 -89.776756 -158.70245 -5.205915 -130.15276
955000000 -2.8507192 -40.453938 -63.686516 134.4511 -93.637779 112.22684 -6.0856156 160.72581
964500000 -2.8435276 -67.280098 -64.062187 35.267899 -87.269363 16.569088 -7.5093098 88.295166
974000000 -2.87078 -94.278069 -63.733624 -65.078461 -95.524147 -102.05607 -7.7768512 14.328285
983500000 -2.9226785 -121.78383 -63.516346 -164.14388 -83.570709 170.06267 -6.6966004 -57.801079
993000000 -2.978229 -149.6841 -63.234909 98.137428 -91.066742 116.94044 -5.778924 -125.89428
1002500000 -3.027231 -177.84473 -63.404247 -4.6899719 -85.335983 -3.0253267 -5.740118 171.25543
1012000000 -3.0813179 153.63249 -63.265594 -99.222069 -93.495255 -132.58762 -6.1291494 110.20587
1021500000 -3.121474 124.86642 -61.970974 160.26726 -93.176384 -118.11031 -6.7010937 42.768665
1031000000 -3.1154244 96.16362 -62.199795 53.957741 -84.248489 82.25106 -7.5667448 -34.824673
1040500000 -3.0810721 67.794136 -62.355427 -48.962456 -89.327789 1.5543284 -7.9525261 -112.65591
1050000000 -3.0492849 39.752346 -62.399433 -144.6423 -96.245277 80.629784 -7.149642 179.02467
1059500000 -3.0133798 11.973387 -61.926132 117.1822 -87.122055 176.22751 -5.7416315 115.76082
1069000000 -2.9672735 -15.378533 -61.637402 13.400954 -84.731712 32.512115 -4.9966879 49.387642
1078500000 -2.9358771 -42.357849 -61.590508 -90.894821 -88.064819 -0.59829271 -5.959692 -18.671131
1088000000 -2.9437191 -69.352249 -61.598476 172.8266 -88.348213 -146.20894 -7.6166544 -85.377846
1097500000 -2.9951913 -96.681046 -61.734074 73.230019 -85.732361 153.72014 -8.2852058 -156.10226
1107000000 -3.0516179 -124.34282 -61.193409 -28.235018 -84.117317 88.013901 -7.4569449 128.14642
1116500000 -3.1136274 -152.42421 -60.590794 -130.32985 -89.493477 -10.113929 -6.4997406 54.690815
1126000000 -3.2073207 178.90569 -61.100395 128.11519 -85.209351 -147.49554 -6.2368188 -10.636292
1135500000 -3.2920074 149.72832 -61.251263 32.475067 -86.691368 -174.92537 -6.244184 -71.945328
1145000000 -3.3264534 120.33676 -59.854942 -72.752037 -85.747726 54.969208 -6.5560074 -138.25542
1154500000 -3.3413827 90.990059 -60.053837 -178.85332 -87.662628 17.973347 -7.582406 146.84918
1164000000 -3.3449659 61.737003 -60.692905 83.167046 -98.960556 -97.810287 -8.3458691 70.156082
1173500000 -3.3143923 32.709061 -60.319496 -14.629727 -84.457024 118.07288 -7.5482006 -0.61116403
1183000000 -3.2608416 4.3027449 -59.66328 -117.71376 -82.540413 50.254654 -5.8931484 -66.998398
1192500000 -3.2241888 -23.613108 -59.78059 139.65105 -89.696922 -52.635822 -5.0438633 -134.10719
1202000000 -3.2170217 -51.383854 -60.176277 35.009472 -86.176201 -129.43556 -5.8079739 161.07584
1211500000 -3.2174246 -78.988792 -60.442345 -61.72002 -85.543968 107.61359 -7.1726718 99.040497
1221000000 -3.2374465 -106.51528 -59.788486 -158.84749 -85.432686 61.404446 -8.0372791 31.790842
1230500000 -3.3085878 -134.43472 -59.135048 99.160202 -87.073532 -59.342186 -7.8655729 -45.0849
1240000000 -3.391036 -162.91609 -59.496552 -4.2766166 -83.844627 -164.7823 -7.1122627 -122.24498
1249500000 -3.4468536 168.28389 -59.478432 -107.44946 -85.240219 130.27791 -6.4525566 169.95439
1259000000 -3.5062118 139.28044 -59.2929 155.16364 -87.130508 36.873283 -5.9570036 107.98917
1268500000 -3.5601499 109.9405 -59.077953 52.73769 -84.022141 -51.407463 -5.9705915 44.249123
1278000000 -3.5592735 80.506004 -58.962414 -51.014969 -84.772011 -148.70592 -6.9291377 -23.975718
1287500000 -3.5072057 51.57827 -59.243614 -149.66397 -90.004387 126.08871 -8.0601082 -95.685425
1297000000 -3.4516945 23.193878 -58.611862 113.11325 -86.146393 57.085896 -7.8547845 -169.65291
1306500000 -3.4074216 -4.8487239 -58.428047 6.604002 -90.037323 -37.255451 -6.4968014 117.58546
1316000000 -3.347048 -32.3853 -58.579166 -95.694298 -84.181915 -136.05116 -5.6571107 48.932171
1325500000 -3.2833934 -59.345104 -58.976959 165.52356 -82.399284 141.41687 -5.8081403 -13.162267
1335000000 -3.2676492 -86.10968 -58.765923 65.651932 -83.447006 17.251898 -6.322082 -72.350624
1344500000 -3.2984338 -113.00952 -58.65691 -35.053867 -87.067253 -37.914017 -6.9515448 -136.63676
1354000000 -3.3334067 -140.13966 -57.82563 -136.72678 -81.185211 -154.2876 -7.7567377 149.50241
1363500000 -3.3637042 -167.46725 -57.882965 121.40704 -84.165398 77.624336 -8.083704 72.685249
1373000000 -3.4235651 164.8506 -58.242237 18.737444 -82.183662 36.483215 -7.2778912 2.3920166
1382500000 -3.50333 136.64981 -58.556988 -78.427429 -85.337517 -48.205257 -6.0008554 -63.257458
1392000000 -3.5399144 108.14137 -57.715759 -174.12486 -88.190643 -174.45987 -5.5485649 -130.21017
1401500000 -3.5222657 79.677025 -57.19381 79.659172 -82.094322 89.860092 -6.5772452 162.87364
1411000000 -3.5093362 51.328411 -57.142456 -23.983736 -84.191597 14.871467 -7.9968204 96.449303
1420500000 -3.499007 23.111265 -57.232132 -125.43155 -82.177559 -89.123405 -8.2666731 25.059639
1430000000 -3.4323945 -4.6762877 -56.66708 133.74936 -87.864967 -171.04424 -7.1002984 -51.07336
1439500000 -3.3559251 -31.809383 -56.699986 24.600784 -80.400955 96.483368 -6.147903 -124.10748
1449000000 -3.3355305 -58.606064 -57.52676 -77.625267 -87.280518 2.6446002 -6.0947533 172.37665
1458500000 -3.3426504 -85.447403 -57.822983 -178.66441 -85.141693 -98.407669 -6.3304009 114.30559
1468000000 -3.3427639 -112.25695 -58.095177 77.311203 -83.122978 -177.55402 -6.7742281 52.597317
1477500000 -3.3619807 -139.03159 -59.642815 -24.392679 -91.8451 37.70322 -7.8002405 -18.800234
1487000000 -3.4403229 -166.35052 -60.001747 -119.32155 -94.083954 -20.977417 -8.7016611 -97.334373
1496500000 -3.5304952 165.73637 -60.515678 143.38657 -86.883408 -64.890915 -8.0289354 -173.45084
1506000000 -3.5820076 137.6001 -60.606297 49.802509 -82.930138 178.72678 -6.5004711 116.37797
1515500000 -3.6459887 109.10519 -59.466358 -49.407536 -87.955734 92.960991 -5.8054547 48.782024
1525000000 -3.7206597 80.059845 -60.079418 -154.0378 -94.413017 31.378235 -6.4434118 -15.347176
1534500000 -3.733238 50.86866 -60.911312 114.47482 -92.923981 -111.73504 -7.4812603 -78.436218
1544000000 -3.7027247 22.020147 -60.220139 22.637213 -84.451736 165.73351 -7.976831 -148.19046
1553500000 -3.6850345 -6.5236125 -59.145653 -78.385101 -82.294456 85.506554 -7.6165524 134.04776
1563000000 -3.6600385 -34.846954 -59.267376 179.95927 -87.066269 22.304514 -7.0312624 59.791702
1572500000 -3.6162078 -62.683483 -59.112762 84.325455 -82.755058 -92.426743 -6.5580359 -4.2127972
1582000000 -3.6046607 -90.109695 -58.046017 -12.843355 -85.525475 -178.5677 -6.1455956 -64.045151
1591500000 -3.6441526 -117.67591 -57.171883 -116.4229 -83.476097 111.23595 -6.2557349 -128.14668
1601000000 -3.6968393 -145.51285 -57.099293 141.35445 -84.620384 -7.7820368 -7.4466453 161.02724
1610500000 -3.7441311 -173.50037 -57.083897 40.876019 -82.713013 -103.88722 -8.6349382 86.321503
1620000000 -3.8277209 158.18022 -56.708199 -58.420979 -84.217392 -172.53337 -8.0929604 12.031545
1629500000 -3.9316082 129.27312 -55.846596 -156.7679 -81.480423 99.694969 -6.4639339 -58.681126
1639000000 -3.9948227 99.971817 -55.312172 96.479576 -85.261635 12.968996 -5.6284766 -126.45766
1648500000 -4.0202107 70.57663 -55.598457 -6.3756232 -84.52774 -82.076698 -6.0684657 170.33862
1658000000 -4.0455518 41.093845 -55.40168 -105.12321 -82.928711 -175.34503 -6.9722009 108.3093
1667500000 -4.046133 11.675264 -54.946896 154.30055 -82.462341 64.322655 -7.7197218 39.282974
1677000000 -3.9847481 -17.299095 -54.940559 51.074402 -84.437553 -17.790894 -7.8956971 -38.197811
1686500000 -3.909991 -45.644341 -55.012871 -49.950241 -81.820511 -90.362267 -7.342279 -112.32462
1696000000 -3.8800602 -73.557877 -54.743435 -148.57298 -83.897514 163.28221 -6.4003325 -176.72606
1705500000 -3.8577924 -101.22544 -54.148262 111.71337 -82.447586 77.817322 -5.5701203 122.56767
1715000000 -3.8298404 -128.67348 -54.022373 8.5727844 -80.878006 -15.765341 -5.6193795 59.186832
1724500000 -3.8441496 -156.0033 -53.920372 -93.738541 -82.438339 -126.18688 -6.9423013 -7.1466722
1734000000 -3.9003835 176.4127 -53.787251 165.33932 -80.520798 152.50742 -8.4295712 -77.04715
1743500000 -3.9549053 148.41759 -53.58638 67.883179 -82.890747 97.682404 -8.3770466 -152.21031
1753000000 -3.9963732 120.28333 -52.804726 -33.914715 -83.244835 -15.022745 -6.9245014 132.67505
1762500000 -4.0441632 91.92054 -52.388565 -140.76343 -78.618256 -123.37966 -5.9837728 62.752533
1772000000 -4.0927444 63.123318 -52.895039 118.10181 -82.304939 143.29475 -6.0627747 -0.44208691
1781500000 -4.099709 34.310955 -52.592445 19.427803 -81.004166 50.045315 -6.5872669 -61.956455
1791000000 -4.0708065 5.7453599 -52.28548 -84.362572 -79.508629 -33.623493 -7.30302 -129.23077
1800500000 -4.0445633 -22.600477 -52.521202 175.63287 -81.886917 -102.80795 -7.9233541 156.65218
1810000000 -3.9991925 -50.580532 -52.337524 77.069664 -81.438774 131.05804 -7.710916 84.317719
1819500000 -3.9433849 -78.112122 -52.067909 -23.717474 -82.883194 67.173775 -6.6737781 19.137323
1829000000 -3.9231575 -105.31641 -51.242233 -122.20285 -81.24588 -16.228851 -5.6510901 -43.655468
1838500000 -3.9219594 -132.35907 -50.332783 132.40852 -77.759293 -135.42351 -5.7247462 -108.78668
1848000000 -3.9299569 -159.39191 -50.341499 24.171738 -78.784363 133.5919 -7.1736283 -175.36931
1857500000 -3.9805703 173.53204 -50.510551 -76.997528 -79.575806 37.054173 -8.7223911 114.13627
1867000000 -4.0632119 146.21539 -50.048893 179.72635 -78.960693 -46.598656 -8.613575 36.593098
1876500000 -4.1528435 118.46058 -50.071426 74.00248 -78.967072 -162.48425 -7.0482793 -40.121902
1886000000 -4.2494178 90.454468 -50.267086 -30.179831 -78.064537 126.65294 -5.9947147 -109.02477
1895500000 -4.3420792 62.171463 -50.554947 -134.68782 -81.105995 22.094351 -5.8395696 -170.33377
1905000000 -4.4153438 33.559498 -50.870308 125.07287 -81.663773 -66.722343 -6.1931934 129.6702
1914500000 -4.4496398 5.0061088 -50.438068 21.647429 -78.499191 -158.66556 -7.0577416 64.101807
1924000000 -4.4520249 -23.313751 -50.981514 -87.237343 -78.81498 102.84166 -8.1328764 -8.7682714
1933500000 -4.4265332 -51.469368 -52.011726 170.83984 -83.005821 -3.3732166 -8.1985044 -83.305847
1943000000 -4.377183 -79.309494 -52.447773 71.576508 -81.090118 -81.913231 -7.0259266 -153.10503
1952500000 -4.3229051 -106.85204 -53.037388 -33.264252 -82.916679 168.97961 -5.8941083 139.83595
1962000000 -4.2935581 -134.33226 -54.07848 -130.57974 -81.775208 80.223824 -5.9691086 73.237
1971500000 -4.2729154 -161.74799 -54.484627 133.14877 -83.676544 44.84573 -7.0974112 7.5049
1981000000 -4.273838 170.80603 -54.74556 34.97942 -84.246925 -96.062515 -8.1266165 -61.501511
1990500000 -4.322053 143.11429 -54.345848 -62.351997 -84.171852 173.02176 -8.0143585 -136.40607
2000000000 -4.394824 115.01608 -54.254238 -162.01915 -83.47654 127.20409 -7.0151558 149.95734
