!Keysight Technologies,N5242B,MY48420967,A.15.65.19
!Date: Saturday, February 04, 2023 06:06:04
!Correction: S11(C  1-Port  ) 
!S21(Off) 
!S12(Off) 
!S22(Off) 
!S2P File: Measurements: S11, S21, S12, S22:
# Hz S  dB   R 50
100000000 -1.3668599 40.285278 -81.258972 -115.39057 -96.876633 105.868 -5.477037 -108.34071
109500000 -1.2955155 10.954544 -79.484573 164.9369 -86.807121 93.80278 -5.37535 179.89488
119000000 -1.222833 -17.923244 -82.112434 51.946903 -86.999741 74.74749 -5.333055 116.06631
128500000 -1.1329592 -46.29184 -81.861 -52.389404 -96.468216 8.4154053 -5.1250377 53.160164
138000000 -1.1146311 -74.690216 -78.461914 -158.71976 -90.085419 171.78407 -5.4592872 -16.774815
147500000 -1.182215 -103.60307 -78.74659 112.93982 -101.72227 178.92668 -6.9036698 -91.772057
157000000 -1.2465029 -132.86566 -79.851532 -11.248664 -91.543915 16.050655 -7.8900347 -164.99706
166500000 -1.3172767 -162.3519 -77.093521 -103.38546 -101.94125 -10.921174 -7.1126428 125.68834
176000000 -1.4427658 167.70943 -77.593719 149.29013 -93.546867 -76.653595 -5.4584775 57.321857
185500000 -1.5474938 137.42372 -75.394287 47.920834 -106.56734 127.05569 -4.80933 -12.417974
195000000 -1.5698694 107.43723 -77.454178 -56.500492 -88.628487 175.49619 -5.6399879 -78.203453
204500000 -1.576164 77.874184 -76.38282 -157.07536 -88.08567 -159.93196 -6.7099686 -141.66464
214000000 -1.5888879 48.427887 -75.449631 99.403397 -88.898468 106.39957 -7.2344966 148.82283
223500000 -1.5487882 19.311256 -75.244461 0.41556215 -94.632263 91.247955 -7.1781807 71.771019
233000000 -1.4827218 -9.3285465 -75.073372 -107.14312 -91.175667 137.32492 -6.8502307 -2.4244845
242500000 -1.4776264 -37.923626 -74.740562 168.71327 -86.364494 123.39883 -6.2604575 -68.371521
252000000 -1.4985063 -66.777107 -73.061592 47.325333 -92.793915 35.049934 -5.5705276 -132.38521
261500000 -1.5125303 -95.816216 -75.063675 -49.700939 -95.106827 121.05359 -5.5838642 159.00481
271000000 -1.5725404 -125.05011 -72.289818 -151.54692 -84.078377 -51.417797 -6.7065945 87.882774
280500000 -1.6835063 -154.80223 -73.326927 118.12129 -84.292412 164.93359 -7.6155076 17.358381
290000000 -1.7675149 175.07243 -74.234497 11.407293 -87.841095 31.708033 -7.1080666 -53.638618
299500000 -1.8241915 144.98448 -71.895477 -97.466789 -85.914635 -156.47366 -5.8769994 -125.84135
309000000 -1.8871183 114.93797 -71.379478 166.01434 -95.973343 103.73343 -5.4658961 163.47319
318500000 -1.9228739 85.050385 -72.460175 59.735443 -101.35496 -104.42809 -5.8516598 98.353439
328000000 -1.8939024 55.591286 -72.965668 -38.852474 -86.244705 168.61929 -6.1638188 34.310528
337500000 -1.8647128 26.472395 -71.968758 -132.31715 -93.722908 113.02927 -6.2745986 -35.888988
347000000 -1.8687174 -2.504904 -70.991432 123.26977 -89.864548 -96.225304 -6.5874329 -111.04082
356500000 -1.8525347 -31.380642 -72.270012 14.527715 -91.611656 124.76389 -6.7935472 177.9149
366000000 -1.8337897 -60.340782 -72.481842 -79.438942 -87.450218 -37.327785 -6.3030467 112.17224
375500000 -1.882285 -89.670662 -70.764397 -179.19054 -91.430779 113.16338 -5.4727874 44.841164
385000000 -1.9619045 -119.47211 -71.373161 80.535736 -94.255608 103.59775 -5.5169702 -27.47847
394500000 -2.0182266 -149.49814 -70.988426 -27.053886 -86.743584 89.977058 -6.536736 -98.252098
404000000 -2.0706086 -179.61909 -70.754372 -125.438 -93.602745 100.98646 -6.9884319 -165.42317
413500000 -2.1443877 150.07661 -70.570557 136.56598 -95.674896 52.001801 -6.2352519 126.9642
423000000 -2.1948206 119.86752 -69.588356 40.172726 -95.790375 56.644226 -5.2631736 56.014221
432500000 -2.1757214 90.215897 -69.415977 -65.357948 -88.316277 152.77852 -5.3388696 -13.87684
442000000 -2.1415656 61.000729 -69.91478 -164.18279 -91.664352 -156.17416 -5.9364052 -78.452293
451500000 -2.1396747 32.056633 -69.844841 100.34684 -98.158264 -83.787102 -6.1573849 -143.38312
461000000 -2.1151338 3.4596303 -67.943436 -2.8096735 -99.704178 -70.666313 -6.0616817 144.76381
470500000 -2.0677228 -24.840437 -68.053261 -106.14481 -104.33303 2.6712396 -6.234489 69.573341
480000000 -2.06111 -53.158863 -66.642006 167.20819 -90.78688 166.44714 -6.379158 0.43102223
489500000 -2.101346 -81.822433 -66.218483 67.096611 -90.301483 77.462791 -5.9653125 -63.522549
499000000 -2.1405795 -110.76086 -63.66349 -37.144489 -83.554047 35.356239 -5.3939095 -129.74747
508500000 -2.1666758 -139.81409 -61.659084 -152.53081 -85.864449 134.26207 -5.6847291 158.93094
518000000 -2.2120452 -169.10738 -61.497269 86.502625 -94.218559 -139.64539 -6.7149611 87.844078
527500000 -2.2686303 161.39633 -63.331329 -24.90292 -98.938896 -79.076408 -7.0058503 18.271627
537000000 -2.2870717 132.06638 -64.064224 -129.45937 -90.132675 135.12273 -6.1413937 -52.161652
546500000 -2.272892 103.13339 -64.815926 124.37268 -92.884895 42.132404 -5.3613405 -123.43929
556000000 -2.2566464 74.608505 -67.063416 24.997965 -98.310089 160.6062 -5.5798006 169.71469
565500000 -2.230242 46.455002 -67.27256 -70.023468 -100.81002 -177.13918 -6.0913939 107.82217
575000000 -2.1905043 18.659414 -67.457726 -164.87405 -89.805496 -143.08803 -6.2771416 43.071342
584500000 -2.1586275 -8.9050665 -67.004524 92.789459 -89.905975 25.845482 -6.4226027 -31.085253
594000000 -2.1481099 -36.466942 -66.972626 -9.4893885 -102.66884 40.115002 -6.8930011 -108.20409
603500000 -2.1547973 -64.192322 -67.145752 -104.11771 -92.234589 -38.717957 -6.9682775 -177.51828
613000000 -2.1842513 -92.256523 -67.747704 160.29037 -90.358673 125.21416 -6.2820015 118.57965
622500000 -2.2337234 -120.79153 -66.23262 58.282448 -90.941032 37.076736 -5.6381707 52.134682
632000000 -2.2942069 -149.7188 -67.076477 -45.93367 -92.194397 176.39392 -6.1256294 -18.47328
641500000 -2.3368957 -178.75737 -66.074654 -144.99754 -91.782669 163.81081 -7.2532516 -89.114624
651000000 -2.3765428 152.02579 -66.786972 118.87321 -85.703735 124.48508 -7.5048146 -160.71532
660500000 -2.4116077 122.74742 -66.8209 16.208494 -106.71341 124.01262 -6.631247 126.09779
670000000 -2.4033589 93.744873 -65.910126 -85.355042 -93.848854 -31.70982 -5.9202042 55.029205
679500000 -2.3696933 65.22142 -66.324242 174.24216 -96.580132 -109.57004 -5.9534779 -9.4287996
689000000 -2.3456767 37.012127 -66.613647 74.913605 -93.755936 77.330345 -6.1579247 -70.660126
698500000 -2.330775 8.9054203 -65.165794 -24.96636 -95.100296 73.802139 -6.3951468 -137.65982
708000000 -2.3088756 -18.926685 -65.064156 -131.16093 -87.916054 -130.69441 -7.1343307 145.3269
717500000 -2.2956164 -46.613819 -65.539536 131.36171 -97.570824 -92.810867 -7.8006487 67.321579
727000000 -2.3307104 -74.755463 -66.397995 33.751038 -92.567398 80.926155 -7.2723742 -2.6015649
736500000 -2.3994374 -103.4757 -65.637344 -70.884964 -92.086617 43.227589 -5.992384 -67.594826
746000000 -2.4523199 -132.47618 -64.73584 -169.06436 -103.27887 -177.99762 -5.2967038 -134.3242
755500000 -2.5048802 -161.79686 -65.415901 86.942215 -94.143761 -125.55889 -6.0532804 158.4623
765000000 -2.5840707 168.45068 -65.659683 -14.251205 -86.550774 139.86192 -7.3035893 92.00251
774500000 -2.6357636 138.52097 -64.764229 -112.10007 -90.811279 120.04636 -7.6549721 20.532827
784000000 -2.634527 108.86384 -64.557785 144.94135 -89.528297 -38.77951 -6.8831935 -56.651276
793500000 -2.6193438 79.587891 -65.733131 44.002476 -93.714386 -156.59216 -6.2596579 -129.98288
803000000 -2.6010237 50.637127 -65.273094 -57.908073 -90.069069 60.427681 -6.1028996 166.87265
812500000 -2.5640266 22.127457 -64.907478 -153.78883 -95.080589 121.37468 -5.8964128 108.01666
822000000 -2.5213304 -5.8815665 -64.652061 107.14684 -95.055878 -26.910597 -5.8129544 43.428726
831500000 -2.5042627 -33.668358 -64.422249 1.3335651 -84.633423 -128.45149 -6.6788654 -30.905285
841000000 -2.5130606 -61.53318 -64.505959 -101.29623 -95.143623 94.066299 -7.8400788 -107.45293
850500000 -2.5361097 -89.554878 -64.83419 165.15517 -98.42701 24.50783 -7.5665054 -178.86244
860000000 -2.5791709 -117.86052 -64.532944 65.723335 -89.85202 6.647337 -6.1767254 114.48426
869500000 -2.63992 -146.59024 -64.044571 -38.022415 -90.135559 157.91211 -5.2358236 48.021198
879000000 -2.6938891 -175.63536 -64.066483 -139.95052 -96.847389 87.053955 -5.6543307 -17.092411
888500000 -2.7278717 155.22212 -64.521347 122.01938 -93.848572 57.005428 -6.7125583 -80.68026
898000000 -2.7501054 126.12766 -64.498192 20.275866 -98.516884 6.5498509 -7.4312215 -149.6568
907500000 -2.7449207 97.185165 -64.314926 -81.88134 -91.645508 150.65134 -7.3794422 133.02419
917000000 -2.7050128 68.623764 -63.916157 176.88033 -90.624268 38.057777 -6.8857093 57.632229
926500000 -2.6534283 40.606495 -64.4412 74.383476 -99.074654 -69.070976 -6.3075662 -7.6877146
936000000 -2.6085985 13.061918 -64.242279 -22.550951 -90.045044 -50.668961 -5.6904817 -67.769447
945500000 -2.5661569 -14.142963 -63.750549 -122.14959 -90.089516 -156.09181 -5.4940333 -130.82391
955000000 -2.5282886 -41.112423 -63.685612 136.0081 -86.514885 99.806244 -6.4155521 160.24239
964500000 -2.5195367 -67.944748 -63.972012 37.77594 -90.14489 21.150127 -7.8562341 87.710258
974000000 -2.541523 -94.95845 -63.671734 -63.713684 -88.563911 -49.8563 -8.1040945 13.404453
983500000 -2.5864508 -122.47184 -63.337238 -162.96053 -89.699554 158.11034 -6.9891419 -58.79586
993000000 -2.635149 -150.36998 -63.425186 97.803947 -89.076233 100.08487 -6.0516315 -126.65672
1002500000 -2.6758533 -178.51669 -63.28846 -3.9184654 -87.626816 16.047777 -6.0056076 170.71898
1012000000 -2.7248936 152.97754 -63.256802 -101.07645 -90.372002 -133.36061 -6.4152265 109.75745
1021500000 -2.7608294 124.24143 -62.193508 159.65865 -86.518166 167.70599 -7.0441279 42.30772
1031000000 -2.753715 95.572533 -62.478477 52.718468 -89.019669 107.93956 -7.9473195 -35.413754
1040500000 -2.7204487 67.239021 -62.711452 -48.420696 -91.822899 29.281879 -8.2884989 -113.50677
1050000000 -2.6908083 39.212681 -62.330616 -141.92343 -93.554955 81.84259 -7.4254851 178.06134
1059500000 -2.6574647 11.450957 -61.832748 117.93588 -85.165184 -177.88861 -6.008657 114.83004
1069000000 -2.6124558 -15.895993 -61.575817 12.295055 -89.704094 51.155674 -5.294076 48.703789
1078500000 -2.58008 -42.870029 -61.426174 -91.086594 -89.257851 21.633713 -6.2746778 -19.081095
1088000000 -2.5840354 -69.882187 -61.798283 171.44756 -89.195816 -116.45625 -7.9465365 -85.890839
1097500000 -2.629101 -97.246994 -61.874535 72.850266 -93.709946 156.97423 -8.6271267 -157.09883
1107000000 -2.6764989 -124.93305 -61.193016 -29.417393 -88.212456 93.920502 -7.7799668 126.79996
1116500000 -2.7272978 -153.03267 -60.692818 -129.86076 -92.752258 -7.3533921 -6.7897263 53.472973
1126000000 -2.80985 178.26915 -61.2607 128.63397 -92.370903 -133.97595 -6.500123 -11.653799
1135500000 -2.8859694 149.07526 -61.288269 31.305651 -89.971924 177.43233 -6.514586 -72.931023
1145000000 -2.9148035 119.67382 -60.287216 -72.152893 -85.799568 59.084396 -6.8699479 -139.30341
1154500000 -2.9264235 90.324615 -60.229568 -177.98361 -86.042633 19.056267 -7.9275985 145.65849
1164000000 -2.9309597 61.051495 -60.702404 83.38324 -87.236618 -113.16525 -8.6429729 68.682556
1173500000 -2.9035106 32.011719 -60.398811 -13.863036 -84.701553 152.7233 -7.7712212 -2.2091322
1183000000 -2.8554511 3.5781395 -59.951622 -115.24996 -84.507263 78.627068 -6.0975714 -68.509766
1192500000 -2.8221684 -24.380562 -59.577785 140.47269 -83.22187 -48.490501 -5.268384 -135.35324
1202000000 -2.8159459 -52.205368 -60.120667 37.719536 -82.710732 -143.61386 -6.043241 160.09865
1211500000 -2.8168807 -79.865593 -60.352596 -61.06004 -93.610031 104.71485 -7.4152164 98.024956
1221000000 -2.8339841 -107.47702 -59.877201 -158.6796 -89.484955 31.325823 -8.2933826 30.418129
1230500000 -2.8979988 -135.46967 -59.375427 100.34467 -84.459061 -39.274067 -8.1081409 -46.807789
1240000000 -2.9720094 -164.022 -59.408424 -3.7347612 -85.446815 -139.35344 -7.3136153 -123.86292
1249500000 -3.0205436 167.11655 -59.370686 -104.70596 -84.898323 158.11346 -6.6229348 168.5988
1259000000 -3.073822 138.06293 -59.339066 156.61925 -88.894295 66.529251 -6.1243558 106.78156
1268500000 -3.1234524 108.69047 -59.067627 53.923267 -87.584869 -53.230228 -6.1617951 43.117687
1278000000 -3.1230106 79.24894 -59.314739 -49.878593 -81.428467 -163.72798 -7.1428142 -25.097193
1287500000 -3.0746801 50.343502 -59.402134 -147.73576 -85.913895 106.40949 -8.2655277 -96.975288
1297000000 -3.025383 21.95973 -58.945751 113.62461 -83.665375 21.70389 -8.0204515 -171.11301
1306500000 -2.9883904 -6.0890937 -58.767994 8.7882786 -83.214989 -63.652843 -6.6369853 116.22292
1316000000 -2.9340758 -33.607071 -58.657818 -90.493385 -83.943008 -145.89284 -5.796041 47.8465
1325500000 -2.8740616 -60.566982 -58.834743 169.42192 -87.376205 108.98011 -5.9469695 -14.022652
1335000000 -2.8601074 -87.342606 -58.777645 69.537186 -85.551369 30.993607 -6.4704795 -73.151955
1344500000 -2.8894851 -114.26652 -58.28204 -30.616121 -87.203438 -43.900799 -7.1244316 -137.5239
1354000000 -2.9180846 -141.40157 -57.596703 -131.9563 -82.133774 -136.49684 -7.9474244 148.47722
1363500000 -2.9415014 -168.72197 -57.678009 125.13726 -86.478592 125.04073 -8.2489815 71.573128
1373000000 -2.9931657 163.58878 -57.694092 24.552809 -83.109917 -15.068917 -7.4089222 1.3269441
1382500000 -3.0644803 135.40317 -57.527328 -78.239487 -83.528015 -80.891144 -6.130652 -64.227654
1392000000 -3.0944276 106.95482 -57.732918 -177.75003 -83.579788 -165.42229 -5.7010617 -131.00926
1401500000 -3.0739055 78.547318 -57.219151 81.011635 -84.93219 95.160103 -6.7408419 162.22694
1411000000 -3.0610659 50.244049 -57.380165 -20.917419 -83.968391 30.029539 -8.1624918 95.720474
1420500000 -3.0523973 22.086267 -56.866009 -122.04888 -85.528084 -72.893074 -8.4257936 24.07976
1430000000 -2.9917169 -5.6388354 -56.436127 137.16731 -82.16201 178.13643 -7.2440228 -52.135101
1439500000 -2.9206789 -32.730137 -56.57642 29.05014 -82.609825 107.43935 -6.2816787 -124.9659
1449000000 -2.9019156 -59.513119 -57.259148 -73.232971 -83.501892 12.555834 -6.2192111 171.70096
1458500000 -2.9087632 -86.343842 -56.940994 -170.72888 -89.870255 -69.296173 -6.4584103 113.66879
1468000000 -2.9055891 -113.14686 -56.780182 83.868202 -80.697853 -179.32242 -6.9303775 51.88271
1477500000 -2.9176066 -139.92563 -57.221058 -24.76124 -82.219604 91.01786 -7.9960933 -19.68837
1487000000 -2.9852099 -167.26781 -59.053734 -123.71088 -91.150047 -2.6743488 -8.8885298 -98.490417
1496500000 -3.0638568 164.81598 -58.997513 139.04486 -83.749367 -102.08549 -8.1738815 -174.7455
1506000000 -3.1053948 136.67513 -60.242069 40.313309 -86.879921 -174.58353 -6.6299577 115.18474
1515500000 -3.1577606 108.17477 -60.322159 -49.914707 -92.044228 37.527359 -5.9413533 47.778542
1525000000 -3.2228048 79.137566 -59.586418 -152.2028 -85.518623 -43.589226 -6.587935 -16.256359
1534500000 -3.2325284 49.962215 -60.100571 112.60042 -97.398659 -99.060898 -7.6327262 -79.457298
1544000000 -3.203393 21.122335 -60.129406 16.711672 -85.197853 163.83717 -8.1290064 -149.54018
1553500000 -3.1879289 -7.4222174 -59.294876 -81.985306 -86.552071 113.7327 -7.7490807 132.50044
1563000000 -3.1662092 -35.759613 -59.391804 179.02499 -90.122963 49.133522 -7.1365657 58.386471
1572500000 -3.1273322 -63.625652 -59.269062 83.50631 -88.372643 -72.453949 -6.6469641 -5.4768596
1582000000 -3.1170282 -91.112114 -58.274445 -13.041348 -84.622505 -154.12114 -6.2391849 -65.318695
1591500000 -3.1528356 -118.74717 -57.310127 -116.02833 -82.547203 105.31116 -6.3787928 -129.54179
1601000000 -3.1994402 -146.65131 -57.041973 141.40439 -87.007454 3.1925349 -7.5925183 159.44983
1610500000 -3.2391279 -174.72014 -57.213112 40.542381 -82.438461 -107.00064 -8.7475843 84.493652
1620000000 -3.3129761 156.86757 -56.480118 -57.066021 -85.674515 156.97594 -8.1397238 10.159155
1629500000 -3.4053767 127.881 -55.52943 -157.69391 -84.177872 71.581657 -6.4917431 -60.422695
1639000000 -3.459851 98.5271 -55.154247 96.829369 -83.156876 -10.034555 -5.6778517 -128.01984
1648500000 -3.4799247 69.090126 -55.476566 -5.0320787 -84.748306 -125.82569 -6.1351728 168.90376
1658000000 -3.5034986 39.576828 -55.258865 -103.99628 -81.182838 175.7963 -7.0437255 106.79934
1667500000 -3.5052907 10.137164 -54.904411 154.42923 -82.806229 74.31691 -7.7800326 37.502922
1677000000 -3.4506462 -18.832329 -54.753387 50.883289 -84.308784 -6.0904903 -7.9207091 -40.058758
1686500000 -3.3851941 -47.194229 -55.164845 -49.517494 -81.532707 -109.34478 -7.3377514 -113.93048
1696000000 -3.3615372 -75.131973 -54.629593 -147.0183 -82.598503 169.16986 -6.3896375 -178.09119
1705500000 -3.3443606 -102.81805 -54.096569 112.33635 -79.945648 72.263496 -5.5723443 121.26571
1715000000 -3.318136 -130.29729 -53.922382 8.9027042 -82.967377 -5.8756866 -5.6480646 57.848541
1724500000 -3.3307741 -157.66989 -53.835445 -93.384438 -83.757324 -99.904823 -6.9873061 -8.5519762
1734000000 -3.3815179 174.71039 -53.614361 166.49879 -82.031738 -178.0078 -8.451273 -78.596649
1743500000 -3.4279699 146.69724 -53.69902 68.118858 -81.042221 77.934387 -8.3455009 -153.7865
1753000000 -3.4627297 118.55434 -52.74509 -33.117588 -81.543289 -8.8451757 -6.8749037 131.265
1762500000 -3.5012882 90.192322 -52.381691 -139.9212 -79.044479 -116.31968 -5.9539804 61.542252
1772000000 -3.5418055 61.429501 -52.934986 119.14539 -79.123405 140.56436 -6.0498648 -1.5126131
1781500000 -3.5466702 32.679699 -52.795807 20.279993 -83.219498 70.450798 -6.5802875 -63.02282
1791000000 -3.5186713 4.1808515 -52.480335 -82.218277 -81.299591 -8.8602009 -7.2931085 -130.38817
1800500000 -3.4954493 -24.106884 -52.633759 178.40227 -80.873909 -125.36827 -7.8972201 155.47316
1810000000 -3.4544609 -52.01688 -52.41856 79.554306 -79.084267 139.30153 -7.6668081 83.299919
1819500000 -3.4028709 -79.497078 -52.262356 -20.725567 -80.73172 57.603916 -6.6265483 18.243624
1829000000 -3.3868599 -106.67249 -51.273506 -118.12283 -81.277008 -26.811979 -5.6140456 -44.549725
1838500000 -3.3841839 -133.68922 -50.356892 136.69588 -77.46434 -114.50404 -5.7093086 -109.74831
1848000000 -3.3863013 -160.72052 -50.39838 31.360083 -77.019737 139.2043 -7.1695762 -176.40691
1857500000 -3.428736 172.19594 -50.127518 -69.907188 -79.838463 62.784657 -8.6977901 112.96993
1867000000 -3.4971251 144.84799 -49.554382 -173.86964 -78.447609 -48.379864 -8.5463018 35.423286
1876500000 -3.5703692 117.06623 -49.591984 80.770607 -77.481857 -138.94055 -6.9732323 -41.170944
1886000000 -3.6499867 89.017029 -49.56073 -23.912975 -79.16375 117.49706 -5.9410467 -109.96819
1895500000 -3.7262862 60.674198 -49.829323 -128.41905 -77.778618 35.633797 -5.8040733 -171.24208
1905000000 -3.7883592 31.985907 -50.0923 130.52875 -79.821312 -71.340897 -6.1700897 128.66257
1914500000 -3.8215733 3.3662324 -49.565372 28.027412 -79.700226 -156.52011 -7.0388117 62.889553
1924000000 -3.8292091 -25.053347 -50.003517 -81.032707 -79.393654 109.55684 -8.0966969 -10.167581
1933500000 -3.8176017 -53.286972 -50.713882 178.21242 -82.578087 1.4971203 -8.1254282 -84.689331
1943000000 -3.7912028 -81.172066 -50.733643 76.215614 -79.751572 -83.322563 -6.9385653 -154.41974
1952500000 -3.7599723 -108.74387 -50.960117 -29.471119 -78.932373 -175.90807 -5.8208432 138.47339
1962000000 -3.7463598 -136.22714 -51.907833 -132.39149 -80.396309 90.0951 -5.9253974 71.77523
1971500000 -3.7361193 -163.64345 -52.723728 129.25723 -82.885033 -2.8832338 -7.0634556 5.919538
1981000000 -3.740458 168.90201 -53.257008 30.384043 -83.56205 -94.619675 -8.0646276 -63.273533
1990500000 -3.7872283 141.18195 -53.334713 -67.993797 -80.005745 168.04076 -7.9043026 -138.20602
2000000000 -3.8495867 113.04953 -53.299953 -167.77962 -83.564049 103.40775 -6.8951073 148.31549
