!Keysight Technologies,N5242B,MY48420967,A.15.65.19
!Date: Monday, January 23, 2023 05:44:49
!Correction: S11(C  1-Port  ) 
!S21(Off) 
!S12(Off) 
!S22(Off) 
!S2P File: Measurements: S11, S21, S12, S22:
# Hz S  dB   R 50
100000000 -1.4895256 40.363949 -78.490623 -142.04051 -92.54422 93.292313 -4.7650409 -108.77053
109500000 -1.4122154 10.91117 -81.327972 146.14609 -88.944336 -149.41136 -4.7587533 179.36507
119000000 -1.3211815 -17.83333 -81.557564 33.022621 -95.451248 31.389351 -4.7548962 115.59483
128500000 -1.251937 -46.244034 -78.178452 -70.005348 -107.17064 -26.563444 -4.4835424 52.681145
138000000 -1.2508993 -74.808296 -77.645844 -166.73831 -93.253479 38.608337 -4.7046728 -17.543728
147500000 -1.3024778 -103.67682 -78.298088 92.657829 -86.736198 -129.53831 -6.1073551 -92.465805
157000000 -1.3649898 -132.82446 -79.602737 -31.832657 -90.006561 115.25144 -7.1386795 -164.76036
166500000 -1.4546758 -162.35072 -76.243172 -121.97744 -93.65921 134.03781 -6.4439635 126.63854
176000000 -1.5706085 167.6814 -75.7612 156.13715 -93.243591 -120.72897 -4.8188434 58.0877
185500000 -1.660254 137.52525 -77.226692 45.189869 -89.198082 -122.15075 -4.1926999 -12.499063
195000000 -1.6943359 107.58598 -76.420174 -59.952244 -92.370613 163.73105 -5.0617938 -78.792473
204500000 -1.6969041 77.972557 -74.666321 -165.10783 -95.500572 37.792114 -6.0979095 -142.21292
214000000 -1.6841112 48.619831 -76.810394 105.5875 -93.095314 113.3073 -6.5293174 148.63368
223500000 -1.6419883 19.640417 -75.524376 -16.879984 -94.569649 162.38626 -6.4537563 71.954338
233000000 -1.5913556 -9.0452976 -74.262878 -108.71866 -87.722313 -160.36812 -6.2208142 -2.0929103
242500000 -1.5720354 -37.660957 -74.6763 160.92868 -104.47413 -6.0716009 -5.7090535 -68.0737
252000000 -1.5737069 -66.369637 -74.749039 53.213902 -95.780678 19.358377 -5.0150695 -132.3297
261500000 -1.6051465 -95.350151 -72.976974 -63.268028 -85.060059 -102.85724 -4.9899054 158.56155
271000000 -1.6793773 -124.68198 -73.066513 -165.76134 -91.32605 98.812256 -6.0954118 87.246002
280500000 -1.7706497 -154.42928 -73.004158 115.22197 -98.532433 -52.137012 -6.9870739 17.227207
290000000 -1.852813 175.54314 -74.850426 0.92952025 -90.65889 -147.21046 -6.4816523 -53.089302
299500000 -1.9364893 145.41306 -72.094063 -111.26898 -95.093376 -13.407577 -5.2695298 -125.23659
309000000 -2.0042186 115.22923 -72.007294 166.5538 -92.093407 -166.88007 -4.906281 163.69487
318500000 -2.026382 85.325111 -73.758797 53.039532 -99.770515 49.098698 -5.3317332 98.421196
328000000 -2.0086939 55.897701 -72.269897 -52.435112 -94.554268 111.68679 -5.6184182 34.468319
337500000 -1.999638 26.715187 -71.061699 -147.41872 -96.585068 -166.39412 -5.6661544 -35.612663
347000000 -2.0005701 -2.3280613 -72.173904 102.51409 -84.256004 114.68926 -5.9711933 -110.64098
356500000 -1.9846568 -31.240217 -71.458488 16.158834 -88.492744 17.180006 -6.2386932 178.58656
366000000 -1.9917151 -60.219772 -71.904823 -84.66774 -88.152771 169.21432 -5.782886 113.10198
375500000 -2.0525644 -89.55397 -70.748978 174.68535 -100.25168 29.34309 -4.9261618 45.755028
385000000 -2.1278048 -119.35789 -70.422379 70.569817 -94.55101 84.697113 -4.9434714 -26.908575
394500000 -2.1994882 -149.41084 -70.754753 -41.981289 -90.846794 151.81842 -5.9900031 -97.725601
404000000 -2.2721944 -179.53485 -69.838898 -126.51629 -98.025528 130.92746 -6.4728274 -164.44652
413500000 -2.3407967 150.21664 -71.08931 133.38364 -87.397644 173.15718 -5.7325506 128.31717
423000000 -2.3865669 120.06872 -69.942505 29.518661 -90.784515 -89.026848 -4.7566676 57.24556
432500000 -2.3844519 90.392128 -69.601074 -77.318489 -87.748398 109.4422 -4.863142 -13.071335
442000000 -2.3580739 61.206745 -69.821381 -170.02315 -93.598961 -13.336377 -5.4883919 -77.773422
451500000 -2.3395727 32.398777 -69.991714 93.499229 -103.19331 75.130905 -5.6843452 -142.58855
461000000 -2.3170485 3.8676779 -68.140999 -11.198729 -92.560188 -124.19706 -5.5354428 145.65697
470500000 -2.2930217 -24.466675 -67.589737 -114.99677 -93.318649 -37.910301 -5.7133002 70.438019
480000000 -2.2880688 -52.724873 -67.425804 155.02 -99.497223 105.45316 -5.9157128 1.3556478
489500000 -2.3172851 -81.2351 -67.28817 56.346165 -95.508736 87.937576 -5.5323296 -62.512787
499000000 -2.3722904 -110.1387 -65.630699 -52.9091 -88.280197 148.87221 -4.9409499 -128.87027
508500000 -2.421392 -139.26886 -63.032925 -160.79086 -93.847221 96.99649 -5.2154694 159.42178
518000000 -2.4653313 -168.54172 -64.029892 87.581551 -92.015869 60.127754 -6.2574921 88.210869
527500000 -2.5149438 162.08037 -64.943558 -23.299149 -92.75032 -68.577911 -6.5528593 18.902155
537000000 -2.5470142 132.74121 -65.359871 -123.97717 -88.592056 98.948204 -5.6743922 -51.312141
546500000 -2.5405755 103.73727 -65.935562 129.28992 -99.335815 105.1404 -4.8888044 -122.76093
556000000 -2.5118239 75.229218 -66.976357 30.375212 -91.970139 -109.74462 -5.1321564 170.18065
565500000 -2.4819174 47.103996 -67.264511 -67.174629 -94.86692 -46.307213 -5.652144 108.33083
575000000 -2.4516456 19.270601 -67.590134 -164.5961 -94.200981 -96.423698 -5.7993369 43.733829
584500000 -2.4205563 -8.3138599 -66.432587 96.797264 -99.933533 54.484425 -5.8979597 -30.421547
594000000 -2.4072738 -35.831757 -67.459602 -10.895673 -93.845932 41.351955 -6.4008484 -107.5999
603500000 -2.4267235 -63.577595 -67.602196 -106.23608 -90.124001 173.95839 -6.5372429 -176.78813
613000000 -2.4711342 -91.68177 -66.786316 159.73866 -93.257111 106.87836 -5.8587446 119.44195
622500000 -2.521333 -120.1702 -67.488319 60.242973 -90.691307 -91.197334 -5.1635151 52.944839
632000000 -2.5898297 -149.05069 -66.470406 -44.81826 -89.954689 93.332664 -5.6055827 -17.870495
641500000 -2.6499553 -178.17224 -65.815994 -143.07298 -95.470779 -167.62303 -6.727098 -88.325844
651000000 -2.6942317 152.5471 -66.7033 115.23663 -83.561798 139.57013 -7.0010448 -159.41023
660500000 -2.7228642 123.3458 -66.261284 15.755189 -90.219208 70.406593 -6.1672969 127.58713
670000000 -2.7216516 94.333229 -66.377075 -83.857765 -91.730232 90.887848 -5.4997163 56.222675
679500000 -2.7026038 65.670341 -66.300423 171.33627 -91.781921 -161.16455 -5.5654116 -8.4896593
689000000 -2.6718702 37.45385 -66.377975 73.898155 -100.14965 -116.14767 -5.753479 -69.704643
698500000 -2.6482418 9.4746113 -66.246101 -25.489407 -94.390968 91.177788 -5.9088635 -136.53389
708000000 -2.6409674 -18.374195 -65.216278 -132.79897 -88.687424 -91.731064 -6.5801997 146.64673
717500000 -2.6457155 -46.176315 -66.05159 128.47137 -95.059853 150.76788 -7.3026309 68.983086
727000000 -2.6812623 -74.241371 -66.049171 33.964756 -91.162437 120.65437 -6.8744016 -0.7299664
736500000 -2.7560124 -102.78263 -65.429993 -69.780228 -87.19413 91.2174 -5.6272907 -65.738495
746000000 -2.8348641 -131.806 -65.250366 -172.27835 -89.287338 14.263912 -4.9011559 -132.72981
755500000 -2.9036312 -161.19543 -65.587959 84.782852 -93.436653 -167.868 -5.6354775 159.76994
765000000 -2.9759016 169.17241 -66.040466 -14.797984 -90.996384 171.86768 -6.8739676 93.508034
774500000 -3.0310183 139.39494 -65.838882 -114.25562 -86.420265 -1.3431817 -7.2219896 22.652418
784000000 -3.0459902 109.70269 -64.461945 144.00031 -87.953224 -23.763866 -6.4802628 -54.255562
793500000 -3.0278556 80.399788 -65.403992 42.406376 -94.614319 -70.763672 -5.9115696 -127.96708
803000000 -2.9959946 51.591969 -65.520729 -58.082825 -88.483078 117.12238 -5.8035493 168.55736
812500000 -2.9601769 23.199972 -65.193886 -155.21555 -96.824776 53.586128 -5.5967426 109.67675
822000000 -2.9235706 -4.8198843 -64.460129 107.61204 -101.85835 -44.874821 -5.4484181 45.227455
831500000 -2.8995025 -32.561886 -64.074127 1.4292382 -97.952675 149.5106 -6.2443147 -29.028376
841000000 -2.9060228 -60.245937 -65.129852 -104.0544 -83.718094 130.55223 -7.4380836 -105.34512
850500000 -2.9446905 -88.156242 -65.073807 163.48651 -89.59169 21.117266 -7.25668 -176.54747
860000000 -3.0007291 -116.44862 -64.48851 64.979012 -87.736198 -143.85512 -5.9069681 116.74924
869500000 -3.0595057 -145.09941 -64.555145 -42.481861 -97.433594 55.75193 -4.9438109 49.99556
879000000 -3.1214106 -174.01437 -64.732292 -141.37675 -91.98381 116.91273 -5.3412013 -15.472433
888500000 -3.169286 156.87114 -64.697456 122.31171 -92.987602 40.194508 -6.3862123 -79.078369
898000000 -3.1898239 127.71777 -64.321152 17.718382 -92.164055 -101.71844 -7.0853367 -147.69772
907500000 -3.1768482 98.781281 -64.206062 -80.972832 -91.16993 170.62151 -7.0443845 135.2616
917000000 -3.1394773 70.258606 -64.072769 176.91583 -85.714859 101.06689 -6.603497 59.651752
926500000 -3.085547 42.188068 -64.382324 77.347809 -86.943413 49.904175 -6.0679216 -5.9925437
936000000 -3.0270286 14.591955 -64.528534 -21.212942 -90.882957 -54.708885 -5.4506078 -66.234779
945500000 -2.9753721 -12.568538 -63.987263 -120.90913 -83.390358 -153.01254 -5.207376 -129.3833
955000000 -2.9409063 -39.50193 -63.701706 137.75906 -85.461639 83.65538 -6.0754061 161.58257
964500000 -2.9395955 -66.376503 -63.987282 38.402645 -94.854416 77.851059 -7.5041299 89.226158
974000000 -2.9647264 -93.401672 -63.612953 -61.30521 -89.507629 -52.073845 -7.794621 15.256708
983500000 -3.0153506 -120.84475 -63.47702 -159.96675 -89.815071 -157.73595 -6.7227335 -56.953743
993000000 -3.077451 -148.69217 -62.992165 102.58688 -89.097984 101.71294 -5.7939849 -125.15084
1002500000 -3.1333969 -176.89557 -63.339851 -3.2574463 -90.874123 -82.807983 -5.7453494 171.92415
1012000000 -3.1909714 154.53738 -62.468121 -99.518913 -94.203102 -13.661794 -6.1307044 110.88593
1021500000 -3.2267404 125.8118 -61.829052 158.18985 -100.36205 -151.65552 -6.7019782 43.568016
1031000000 -3.2234063 97.115135 -61.92585 53.098442 -84.774536 86.801529 -7.5718756 -33.917263
1040500000 -3.2001755 68.661507 -62.553658 -46.97908 -101.12306 -149.9366 -7.9732742 -111.82211
1050000000 -3.1643679 40.568684 -62.320736 -142.76236 -90.274498 -85.361404 -7.1807384 179.73788
1059500000 -3.1149485 12.830674 -62.082993 118.61976 -89.042732 118.23145 -5.7704144 116.44376
1069000000 -3.0709541 -14.506147 -61.441048 15.274477 -87.028084 86.933006 -5.0056853 50.127815
1078500000 -3.0507822 -41.55764 -61.344959 -89.622871 -91.355347 2.2529316 -5.9437757 -17.907265
1088000000 -3.0553546 -68.585976 -61.609497 171.27249 -80.920746 -123.41644 -7.5934372 -84.517311
1097500000 -3.0959964 -95.817169 -61.632172 72.922035 -86.707672 -174.88861 -8.2726173 -155.02856
1107000000 -3.1647537 -123.42599 -60.937794 -28.524443 -92.11705 86.694939 -7.4618282 129.36569
1116500000 -3.2452428 -151.57886 -60.630714 -131.4985 -87.363625 -54.702488 -6.5029936 55.871456
1126000000 -3.3314342 179.77267 -61.231098 126.72877 -88.409149 -101.83398 -6.2392387 -9.5594854
1135500000 -3.4088776 150.7197 -60.931568 30.287737 -88.685806 -178.86989 -6.2523122 -70.865784
1145000000 -3.4650657 121.31287 -59.861778 -71.741585 -84.029144 84.625191 -6.5670733 -137.05629
1154500000 -3.4889693 91.862671 -60.115971 -179.53806 -85.285667 -48.261955 -7.5986013 148.15739
1164000000 -3.4750712 62.660561 -60.414719 84.35479 -83.582489 -120.61867 -8.3792906 71.404175
1173500000 -3.4426165 33.746037 -60.445049 -15.555505 -89.057549 110.70188 -7.5890632 0.52104372
1183000000 -3.4029627 5.2748499 -59.854206 -116.38087 -87.529083 46.30138 -5.9156318 -65.836647
1192500000 -3.3574412 -22.70664 -59.518913 139.87932 -88.639587 -15.332496 -5.0232825 -132.89214
1202000000 -3.3316655 -50.331326 -60.119755 35.743816 -82.777573 -160.25758 -5.7564254 162.27118
1211500000 -3.3386095 -77.818878 -60.460503 -61.26931 -87.488403 118.99489 -7.1244507 100.34282
1221000000 -3.3757436 -105.42619 -59.916214 -157.95091 -88.534798 7.9114237 -8.0247498 33.373314
1230500000 -3.4409394 -133.31483 -59.436577 98.830315 -85.356483 -52.959133 -7.9048529 -43.359909
1240000000 -3.5117443 -161.58629 -59.418304 -4.8940768 -89.071312 -137.28381 -7.1698947 -120.75423
1249500000 -3.5835094 169.69199 -59.414799 -107.18415 -88.104042 118.7527 -6.4980707 171.15187
1259000000 -3.6575482 140.59465 -59.220573 156.2704 -89.720818 109.4509 -5.9828467 109.0716
1268500000 -3.7011223 111.26968 -59.017479 52.35376 -83.197472 -54.13147 -5.9714603 45.362061
1278000000 -3.6937606 81.960526 -59.227215 -51.871082 -86.336639 -149.02722 -6.911561 -22.782345
1287500000 -3.6571891 53.017654 -59.306351 -149.42857 -85.821327 117.30126 -8.0567579 -94.390236
1297000000 -3.6071682 24.494648 -59.051853 112.23092 -88.144402 25.085197 -7.8891416 -168.35855
1306500000 -3.5395257 -3.5460396 -58.682396 8.9518366 -87.114113 -41.259102 -6.5394826 118.75954
1316000000 -3.4631066 -30.966839 -58.683483 -94.6138 -85.806526 -152.54242 -5.6768928 49.943104
1325500000 -3.4139857 -57.933113 -58.744129 166.27565 -89.26902 137.89899 -5.8076649 -12.288107
1335000000 -3.4076452 -84.791954 -58.9813 64.623596 -82.647942 18.318209 -6.3102603 -71.479286
1344500000 -3.4195421 -111.66009 -58.478043 -35.008163 -88.250488 -82.537582 -6.9325562 -135.63374
1354000000 -3.4452825 -138.65175 -58.089321 -136.92099 -85.707733 -152.83557 -7.7484913 150.68571
1363500000 -3.5008171 -165.95319 -58.42672 120.01614 -81.985489 109.98357 -8.1100645 73.837524
1373000000 -3.573175 166.24567 -59.137131 18.962461 -89.061249 15.887022 -7.3293619 3.358603
1382500000 -3.6332686 138.05869 -58.924038 -76.090866 -86.230011 -58.803238 -6.0476379 -62.413826
1392000000 -3.6700842 109.646 -57.862461 -175.70082 -82.40712 -149.82106 -5.5707936 -129.43636
1401500000 -3.682653 81.102516 -57.525188 78.660477 -87.425301 86.780731 -6.5770688 163.59259
1411000000 -3.671946 52.59325 -57.680511 -26.302294 -85.995758 31.158695 -7.9892111 97.207321
1420500000 -3.6361909 24.380571 -58.286274 -123.92309 -82.271805 -90.818367 -8.2715836 25.97246
1430000000 -3.5733604 -3.3702283 -57.492523 135.12711 -88.672333 -142.32863 -7.1189446 -50.073135
1439500000 -3.5115309 -30.623283 -57.666306 26.837521 -83.653862 86.542908 -6.1578484 -123.16674
1449000000 -3.4765282 -57.486214 -58.620529 -76.613281 -87.937744 1.4498347 -6.093667 173.20476
1458500000 -3.4644647 -84.230957 -59.482937 -174.35603 -88.364441 -104.14649 -6.3196602 115.13352
1468000000 -3.4794822 -111.01395 -59.973328 92.852737 -87.789101 -128.00725 -6.7478547 53.564308
1477500000 -3.515934 -137.86836 -59.802505 -5.1447434 -83.899345 76.276146 -7.7634349 -17.583111
1487000000 -3.5829878 -165.1459 -59.764542 -104.02287 -89.706268 -7.9345045 -8.6915102 -95.90419
1496500000 -3.6710298 167.05966 -59.447239 159.89325 -92.528694 -89.987404 -8.0652876 -172.08492
1506000000 -3.7502856 138.85426 -58.752106 60.173031 -85.163025 178.8727 -6.5454702 117.60653
1515500000 -3.8225083 110.24814 -58.504894 -45.029949 -84.845131 80.834412 -5.8248997 49.920536
1525000000 -3.8802061 81.282196 -59.075748 -145.98405 -85.782486 -15.702396 -6.4327846 -14.291436
1534500000 -3.8993747 52.168888 -59.311741 119.07872 -86.190186 -101.47976 -7.4541516 -77.306854
1544000000 -3.8894742 23.208681 -58.74786 23.670134 -83.48233 -179.25063 -7.9478903 -146.76497
1553500000 -3.8613067 -5.4027901 -57.707958 -79.665009 -82.887497 106.13431 -7.6040812 135.74574
1563000000 -3.8144021 -33.586475 -57.998669 178.52791 -93.685616 -26.150553 -7.0353885 61.420094
1572500000 -3.776386 -61.339581 -58.182606 81.104057 -90.424316 -125.51581 -6.5729542 -2.7531037
1582000000 -3.7793009 -88.854996 -57.250511 -16.204054 -88.079536 -179.81548 -6.1609154 -62.601902
1591500000 -3.8079364 -116.38234 -56.626522 -118.71197 -81.946533 78.530014 -6.2513828 -126.56887
1601000000 -3.8470495 -144.01978 -56.601654 139.79004 -82.204239 -0.37792531 -7.4175062 162.75655
1610500000 -3.9117556 -171.90584 -56.631413 38.25835 -82.87075 -102.88071 -8.6263523 88.203514
1620000000 -4.0151768 159.73497 -56.375431 -60.303864 -84.895119 -172.89436 -8.1345921 13.930688
1629500000 -4.1096911 130.85646 -55.345089 -159.94688 -84.239021 81.72657 -6.517848 -56.862087
1639000000 -4.1720405 101.69768 -55.026546 95.356056 -84.162514 5.1891279 -5.6569848 -124.77509
1648500000 -4.2191329 72.347473 -55.3442 -7.8034596 -84.021759 -95.126961 -6.0780139 171.83896
1658000000 -4.2518849 42.783653 -55.276173 -106.07853 -82.011665 176.96939 -6.9805646 109.75432
1667500000 -4.237905 13.365041 -54.740871 152.5594 -82.222878 80.491867 -7.7307439 40.813499
1677000000 -4.1707482 -15.519293 -54.714798 50.727959 -83.490608 -14.314456 -7.9113898 -36.615494
1686500000 -4.0986857 -43.874249 -54.96117 -49.987083 -83.687378 -132.78943 -7.3632503 -110.8654
1696000000 -4.0632982 -71.828842 -54.59174 -148.57112 -82.984337 -165.39732 -6.4239516 -175.37766
1705500000 -4.0357471 -99.459511 -54.131603 111.27123 -83.002045 94.458885 -5.5882497 123.92279
1715000000 -4.0093269 -126.87785 -53.869663 7.755054 -86.218666 8.9189444 -5.6196795 60.581169
1724500000 -4.019896 -154.19424 -53.875755 -94.723 -81.723343 -117.24886 -6.9346733 -5.7765021
1734000000 -4.0718498 178.2809 -53.755219 165.41904 -80.311195 163.05461 -8.4437246 -75.697075
1743500000 -4.1409888 150.32484 -53.528477 66.735245 -81.682663 87.29599 -8.4249249 -150.92928
1753000000 -4.1945739 122.12082 -52.651974 -35.068481 -81.437851 -13.728614 -6.9744806 133.86661
1762500000 -4.2313414 93.733551 -52.276482 -141.1944 -77.509102 -122.28552 -6.0131388 63.82935
1772000000 -4.2841377 65.000237 -52.879147 118.07201 -79.446587 152.9848 -6.0795918 0.51379806
1781500000 -4.3168726 36.122448 -52.539692 18.514997 -83.131416 73.798843 -6.6036506 -61.064083
1791000000 -4.2839088 7.3869615 -52.030815 -84.895363 -79.853477 -13.319823 -7.3201733 -128.38176
1800500000 -4.2304749 -20.956928 -52.217651 174.48792 -81.48867 -117.70187 -7.9355955 157.43314
1810000000 -4.1888738 -48.841526 -52.12376 75.558304 -79.874344 155.53853 -7.7164989 85.057724
1819500000 -4.1534114 -76.502167 -51.706875 -25.175209 -80.926964 57.073128 -6.6742058 19.942604
1829000000 -4.1222358 -103.86289 -50.984371 -125.05813 -82.036034 -25.840691 -5.6444607 -42.69059
1838500000 -4.0951281 -130.82669 -49.974472 128.96222 -77.80912 -140.48328 -5.7044969 -107.68563
1848000000 -4.1142426 -157.74596 -50.323879 20.915234 -78.3321 130.49663 -7.1568842 -174.1911
1857500000 -4.1933923 175.11418 -50.455906 -79.26474 -78.241463 49.728779 -8.7399397 115.34352
1867000000 -4.2743354 147.70187 -49.849686 177.27016 -78.392487 -52.616306 -8.6664858 37.693893
1876500000 -4.3522367 120.01929 -50.03252 70.406891 -78.760788 -160.32269 -7.0872836 -39.136742
1886000000 -4.4609027 92.141243 -50.209843 -35.465027 -79.403496 116.14524 -5.9977126 -108.05805
1895500000 -4.5798254 63.861267 -50.724133 -140.25064 -81.763504 25.172354 -5.818346 -169.31424
1905000000 -4.6630831 35.205639 -51.409893 119.11854 -78.901421 -54.252155 -6.1596074 130.82832
1914500000 -4.6846838 6.7056694 -51.051506 15.95169 -79.637421 -176.06332 -7.0227404 65.468903
1924000000 -4.6702189 -21.474916 -51.544567 -91.849693 -80.835289 101.97021 -8.1246014 -7.2668014
1933500000 -4.6448212 -49.556438 -52.864841 166.08597 -83.039749 17.886906 -8.2279119 -81.863106
1943000000 -4.59131 -77.479012 -53.330864 67.691505 -83.454697 -93.075943 -7.065093 -151.71466
1952500000 -4.5052962 -105.08031 -54.117893 -37.604591 -85.539749 -166.07574 -5.9026923 141.37692
1962000000 -4.4471774 -132.43401 -55.122498 -135.13521 -83.803955 100.89254 -5.9301257 74.944855
1971500000 -4.4366794 -159.75104 -56.028156 128.59628 -87.681679 47.297363 -7.0376749 9.3930302
1981000000 -4.4540443 172.71455 -56.738068 35.373055 -85.787483 -69.04924 -8.0977373 -59.37138
1990500000 -4.4869514 144.96828 -56.284554 -58.952339 -82.349472 -168.12285 -8.0506163 -134.27975
2000000000 -4.5428801 117.06046 -55.901798 -158.67273 -82.703125 94.511772 -7.073915 151.73534
