!Keysight Technologies,N5242B,MY48420967,A.15.65.19
!Date: Sunday, January 22, 2023 20:21:30
!Correction: S11(C  1-Port  ) 
!S21(Off) 
!S12(Off) 
!S22(Off) 
!S2P File: Measurements: S11, S21, S12, S22:
# Hz S  dB   R 50
100000000 -1.2909921 40.522675 -80.433418 -121.97536 -94.123032 -150.64624 -5.7707562 -107.56107
109500000 -1.2060684 11.168472 -79.973305 162.72795 -97.997452 18.586859 -5.6572566 -179.64056
119000000 -1.1119293 -17.505033 -82.037727 53.423752 -94.931862 80.17942 -5.5863323 116.36127
128500000 -1.0368402 -45.876194 -79.784424 -56.139202 -95.447853 -24.492435 -5.361834 53.554817
138000000 -1.0292721 -74.442749 -78.656425 -159.67534 -96.453476 -150.09625 -5.6783013 -16.010031
147500000 -1.0788988 -103.32787 -77.868073 111.20268 -97.43853 93.102341 -7.1058431 -90.76651
157000000 -1.1391 -132.51976 -80.453461 -4.1000471 -89.047478 -133.99857 -8.1119461 -164.1674
166500000 -1.2267365 -162.11334 -78.902107 -109.25851 -94.366936 95.175354 -7.3574367 126.12873
176000000 -1.3451829 167.86426 -75.865997 152.44537 -93.407112 76.65329 -5.7105875 57.598755
185500000 -1.4395629 137.63759 -77.192337 44.026993 -91.545486 -56.44355 -5.0424366 -12.014318
195000000 -1.4795457 107.62919 -77.106682 -60.578056 -88.994545 160.58545 -5.8376894 -77.686104
204500000 -1.4900035 77.974533 -74.806801 -160.72157 -110.8944 127.1899 -6.8958325 -141.07532
214000000 -1.4843829 48.575577 -78.836311 109.56666 -93.339844 94.699272 -7.4368043 149.50943
223500000 -1.4474473 19.547499 -75.741249 3.4562235 -92.148544 -161.93083 -7.4006314 72.472618
233000000 -1.4013761 -9.1590166 -76.148224 -108.71712 -92.880928 -48.513607 -7.0653176 -1.8792856
242500000 -1.3839164 -37.788342 -74.551414 158.80484 -91.956741 11.330387 -6.4644332 -67.995583
252000000 -1.3851409 -66.514702 -75.317085 64.296341 -86.758202 20.275518 -5.7738395 -132.02216
261500000 -1.4132651 -95.485878 -74.637489 -33.056602 -88.353981 -97.941437 -5.7798271 159.48564
271000000 -1.4839114 -124.81067 -73.422981 -149.43298 -89.722816 -163.81938 -6.8861032 88.431786
280500000 -1.5691642 -154.54175 -72.616287 117.16776 -86.812286 173.53714 -7.7884207 17.811123
290000000 -1.6435852 175.45389 -74.841888 -3.1974764 -91.217911 159.17914 -7.2887888 -53.300568
299500000 -1.7212151 145.36725 -71.522697 -90.340775 -85.077255 -7.6544127 -6.0563869 -125.51752
309000000 -1.782645 115.21823 -71.321899 166.51996 -93.970078 164.59114 -5.6313787 163.86766
318500000 -1.7974261 85.349174 -71.112358 65.516907 -86.38015 -107.65447 -6.0028491 98.756622
328000000 -1.7737185 55.97377 -73.253029 -34.993286 -90.54895 173.31717 -6.3156123 34.723457
337500000 -1.7570554 26.820923 -71.077347 -140.08315 -92.888184 -174.36481 -6.4362197 -35.435768
347000000 -1.7480973 -2.2038207 -71.714775 119.9305 -88.080673 172.49084 -6.7464905 -110.56405
356500000 -1.7197876 -31.078911 -73.718918 24.270754 -110.17611 93.250328 -6.94487 178.29663
366000000 -1.7144867 -60.046104 -70.468887 -76.69706 -94.367264 27.388056 -6.4539042 112.46068
375500000 -1.7611237 -89.377029 -69.665489 179.03593 -91.525986 161.20459 -5.6286745 45.144665
385000000 -1.8217332 -119.16669 -70.437325 77.423561 -92.031654 45.95652 -5.6662354 -27.070608
394500000 -1.8813667 -149.21823 -70.659874 -26.645315 -87.954422 57.959442 -6.6685414 -97.843529
404000000 -1.9443486 -179.36676 -70.291649 -128.70491 -94.241035 141.39931 -7.1149831 -165.07811
413500000 -2.0037489 150.37485 -69.614555 142.5027 -86.737976 -123.08472 -6.3672123 127.24797
423000000 -2.0448627 120.20586 -70.495476 34.730747 -85.618187 158.15495 -5.3986721 56.348309
432500000 -2.0421388 90.496292 -68.98156 -68.405769 -86.789406 159.20676 -5.4663072 -13.511385
442000000 -2.012526 61.254585 -69.602882 -158.88475 -93.738365 117.04098 -6.0608168 -78.131241
451500000 -1.991854 32.396664 -69.030418 104.8392 -100.5707 52.743748 -6.2859302 -143.08684
461000000 -1.9674649 3.8036778 -67.983437 -4.7211967 -100.73984 25.168695 -6.1887016 145.09862
470500000 -1.9390821 -24.602146 -68.055756 -106.40662 -97.364182 -100.4881 -6.3430595 69.963432
480000000 -1.9259768 -52.927986 -67.790955 161.18086 -92.385658 18.510815 -6.4745131 0.82386345
489500000 -1.9472464 -81.507828 -65.917892 62.892239 -89.666634 72.183342 -6.0673108 -63.132759
499000000 -1.9931948 -110.47082 -64.180679 -42.54911 -90.664001 -145.09644 -5.5147777 -129.31674
508500000 -2.0316575 -139.627 -61.735386 -148.39716 -89.681343 -3.8835337 -5.8212047 159.38071
518000000 -2.0659604 -168.92288 -61.54343 90.684044 -95.875969 87.209526 -6.8559833 88.176605
527500000 -2.1087644 161.65837 -62.89909 -22.871662 -88.485153 -118.05986 -7.1401129 18.426807
537000000 -2.1354029 132.31036 -63.937553 -128.3665 -86.543266 156.71814 -6.2543936 -52.038841
546500000 -2.1308386 103.3187 -65.361855 127.28239 -86.839607 -1.4491698 -5.4485316 -123.19731
556000000 -2.1045244 74.819641 -66.522194 26.686216 -98.043526 89.053841 -5.6492033 170.07722
565500000 -2.0731263 46.703793 -66.728363 -71.827858 -89.958633 94.664993 -6.1655869 108.26305
575000000 -2.0420423 18.890385 -66.869392 -162.08629 -94.730858 70.685844 -6.3831601 43.583004
584500000 -2.0088756 -8.6826763 -66.579788 95.397774 -94.10762 -55.878891 -6.566134 -30.578579
594000000 -1.9883795 -36.216892 -66.695427 -9.1005573 -90.255806 -81.873566 -7.0430527 -107.84921
603500000 -1.9973688 -63.950466 -67.386673 -109.96149 -100.57179 107.27592 -7.099298 -177.3588
613000000 -2.0286779 -92.049248 -67.253311 158.72792 -90.824867 120.19886 -6.3935423 118.68828
622500000 -2.0681446 -120.54609 -66.179192 59.585976 -91.079376 109.89939 -5.73593 52.3601
632000000 -2.1212749 -149.41112 -67.693794 -47.448021 -94.442329 -100.29196 -6.2088604 -18.091869
641500000 -2.1707451 -178.53444 -66.869186 -144.39063 -95.437859 -17.62289 -7.3365688 -88.675873
651000000 -2.2093794 152.20192 -66.046021 118.431 -94.851639 146.27003 -7.6071844 -160.34204
660500000 -2.2308841 123.01602 -66.10067 18.5625 -89.798157 -14.386139 -6.7460265 126.35369
670000000 -2.2288203 94.032684 -65.974754 -85.803635 -88.910469 -58.169872 -6.0298929 55.223034
679500000 -2.2101808 65.385376 -66.042801 176.07257 -106.82091 -44.284241 -6.0511713 -9.2539396
689000000 -2.177249 37.158024 -66.145821 76.361954 -95.196037 137.80659 -6.2532315 -70.463768
698500000 -2.149545 9.172925 -65.704536 -27.458462 -90.699478 90.080597 -6.4930749 -137.36729
708000000 -2.1381264 -18.686396 -64.713921 -130.01274 -99.028915 -78.775574 -7.2311358 145.69865
717500000 -2.131815 -46.539818 -65.618965 127.67619 -91.164284 153.82819 -7.8907814 67.645912
727000000 -2.154135 -74.657616 -65.7882 38.68784 -96.167183 143.74153 -7.3553362 -2.3868783
736500000 -2.2130198 -103.2347 -65.263008 -67.155449 -96.906586 156.26547 -6.0717168 -67.418297
746000000 -2.2756164 -132.308 -65.02552 -171.09158 -88.775085 -7.3837514 -5.3723383 -134.10161
755500000 -2.3303013 -161.75484 -65.482521 88.270233 -99.242073 105.66727 -6.1214385 158.73407
765000000 -2.391711 168.57848 -65.678383 -15.270911 -98.159248 147.45215 -7.3714986 92.283928
774500000 -2.4410226 138.74181 -65.11866 -113.3078 -88.784187 69.299026 -7.7291503 20.79162
784000000 -2.4538732 109.01151 -64.457306 147.71571 -92.696968 -68.8592 -6.9544382 -56.426941
793500000 -2.4371221 79.679436 -65.33358 44.078011 -93.383202 -81.573708 -6.3189969 -129.79735
803000000 -2.411571 50.804958 -65.474297 -56.41864 -84.957016 104.41148 -6.1541162 167.01794
812500000 -2.3791759 22.331764 -64.876129 -154.53346 -93.818459 140.30927 -5.9462366 108.16248
822000000 -2.3428736 -5.7611747 -64.874474 109.15906 -94.092979 -47.845058 -5.8639278 43.628479
831500000 -2.3194845 -33.594284 -64.2649 1.6468127 -88.055473 -116.28979 -6.726099 -30.623146
841000000 -2.3217955 -61.395622 -64.425827 -101.8513 -91.957008 114.42793 -7.8802171 -107.15919
850500000 -2.3491793 -89.416061 -64.9813 166.30777 -92.527596 -12.056826 -7.6028376 -178.60425
860000000 -2.3943958 -117.80219 -64.571106 63.669823 -91.724037 -61.566746 -6.2103467 114.73482
869500000 -2.4445057 -146.54327 -64.157814 -42.402542 -93.752815 -155.94949 -5.2649941 48.28286
879000000 -2.4954123 -175.53574 -64.576759 -139.27388 -88.325485 130.19363 -5.6804347 -16.829222
888500000 -2.5362151 155.30388 -63.769955 122.2526 -90.67028 -25.6266 -6.7421789 -80.409744
898000000 -2.556447 126.13115 -64.188652 19.445116 -96.214569 -79.174294 -7.4670873 -149.36649
907500000 -2.5454082 97.18409 -64.152046 -81.074356 -99.607651 -175.25908 -7.4178944 133.29749
917000000 -2.5135043 68.67128 -63.786949 178.82362 -89.233086 68.485237 -6.9174485 57.859604
926500000 -2.4685619 40.607327 -64.080238 76.898018 -98.599564 -22.424141 -6.3326344 -7.4915123
936000000 -2.417249 13.003439 -64.451141 -19.226042 -94.261642 -101.97315 -5.7116251 -67.573296
945500000 -2.369858 -14.166606 -63.592278 -118.42725 -86.063339 152.2094 -5.5124774 -130.57826
955000000 -2.3374369 -41.111526 -63.876068 140.8987 -88.229477 107.59081 -6.4308653 160.55214
964500000 -2.3319385 -68.020157 -63.638813 37.283958 -94.731201 59.780201 -7.8748703 88.075111
974000000 -2.3478856 -95.088257 -63.929127 -62.865036 -90.169403 -112.49129 -8.1310577 13.773468
983500000 -2.3849769 -122.54361 -63.349316 -160.90961 -91.183105 175.72972 -7.0165753 -58.454536
993000000 -2.4331536 -150.40144 -63.499947 101.28395 -86.048218 149.92061 -6.0732288 -126.35979
1002500000 -2.4753129 -178.59973 -63.038399 -1.2556428 -84.059837 40.842243 -6.0228553 170.98529
1012000000 -2.5190051 152.87079 -63.148342 -96.703392 -91.95887 -136.30824 -6.4346557 110.0304
1021500000 -2.5469072 124.19466 -61.637543 159.40222 -82.73513 -172.61307 -7.0678053 42.6367
1031000000 -2.541028 95.569618 -61.726692 54.505249 -83.879227 78.504425 -7.9781847 -35.054745
1040500000 -2.517894 67.187408 -62.652714 -45.938076 -93.711052 57.475727 -8.3258238 -113.21186
1050000000 -2.4882457 39.166233 -62.042801 -142.25009 -93.164169 -153.56784 -7.4626074 178.27065
1059500000 -2.442441 11.467214 -61.720852 115.20979 -88.631454 171.56671 -6.0417662 115.01421
1069000000 -2.4011002 -15.846307 -61.275005 13.975577 -91.350708 71.131889 -5.3204498 48.902401
1078500000 -2.3814175 -42.886959 -61.438957 -88.517715 -89.294144 -7.6407456 -6.2916217 -18.867334
1088000000 -2.3800251 -69.934944 -61.705109 171.5553 -88.658524 152.85184 -7.9563041 -85.64621
1097500000 -2.4088166 -97.235458 -61.596451 74.501038 -83.569572 154.33032 -8.635644 -156.78186
1107000000 -2.4610598 -124.88998 -61.080894 -24.532042 -96.762375 108.82489 -7.7897859 127.1822
1116500000 -2.5238979 -153.09358 -60.321587 -129.62778 -87.480309 5.1955442 -6.7979136 53.844101
1126000000 -2.5917912 178.18315 -60.958691 128.24921 -85.104401 -115.95343 -6.5118985 -11.344969
1135500000 -2.6535954 149.06863 -60.858887 32.551781 -100.61427 -163.95943 -6.5352383 -72.666069
1145000000 -2.6984961 119.62787 -59.936619 -70.063766 -91.040985 47.719288 -6.9029837 -139.07558
1154500000 -2.7178881 90.139427 -60.101116 -175.84183 -89.070633 18.969006 -7.9674993 145.83231
1164000000 -2.7056792 60.891781 -60.498611 85.791985 -86.111862 -110.73363 -8.6730537 68.772903
1173500000 -2.6800778 31.939102 -60.239941 -13.888408 -90.077965 -178.82362 -7.7793927 -2.1180971
1183000000 -2.6477735 3.3973582 -59.57777 -113.27841 -81.650688 48.681049 -6.0815678 -68.345551
1192500000 -2.6110568 -24.661413 -59.57444 142.2373 -87.299141 -21.808758 -5.2311783 -135.14175
1202000000 -2.5893016 -52.387215 -60.237679 38.470226 -83.503113 -158.54124 -5.9962444 160.33171
1211500000 -2.5954614 -80.008652 -60.260921 -59.676819 -84.489624 131.06299 -7.3723369 98.330635
1221000000 -2.6263556 -107.77384 -59.593246 -156.40408 -86.093796 76.819931 -8.2666273 30.836023
1230500000 -2.6792009 -135.79881 -59.281776 101.11136 -85.099388 -69.004799 -8.1071577 -46.357891
1240000000 -2.7356579 -164.20526 -59.025188 -3.5375562 -85.188332 -179.85254 -7.320456 -123.52467
1249500000 -2.7942712 166.93242 -59.125675 -105.08684 -84.986877 149.73347 -6.6224566 168.82851
1259000000 -2.8552942 137.74484 -58.953747 156.98302 -83.743568 43.927158 -6.1098008 106.95905
1268500000 -2.8901603 108.36787 -58.841953 55.132626 -92.394478 47.567039 -6.1295304 43.285744
1278000000 -2.8835611 79.05143 -58.913578 -49.068001 -86.443008 -138.88876 -7.0965123 -24.90481
1287500000 -2.8531113 50.122868 -59.071651 -148.20825 -89.519279 80.938934 -8.2179766 -96.686157
1297000000 -2.8127806 21.617783 -58.692936 114.03312 -85.383385 27.333847 -7.9837947 -170.72043
1306500000 -2.7600722 -6.3882494 -58.421833 10.375895 -86.649498 -98.565254 -6.6065331 116.61189
1316000000 -2.6949728 -33.790455 -58.644394 -91.506569 -86.044228 -164.071 -5.7598243 48.167873
1325500000 -2.6541753 -60.776409 -58.512043 169.13722 -85.478897 115.21397 -5.9017744 -13.762715
1335000000 -2.6508875 -87.65657 -58.537079 69.707153 -85.685898 71.846169 -6.4169421 -72.893646
1344500000 -2.6585956 -114.55812 -58.102314 -29.337219 -82.997002 -67.313599 -7.0598202 -137.18208
1354000000 -2.6770864 -141.58151 -57.72102 -131.16837 -82.864647 -145.85838 -7.8822236 148.95505
1363500000 -2.7187531 -168.90294 -57.557922 125.67283 -84.996292 100.66961 -8.2074289 72.111702
1373000000 -2.7745149 163.29015 -57.496964 26.804783 -81.91172 43.434273 -7.3893509 1.7956679
1382500000 -2.8204038 135.12289 -57.03223 -77.538147 -88.762169 -24.173912 -6.1118851 -63.849586
1392000000 -2.8433945 106.7885 -57.52597 177.81117 -83.256805 -162.56458 -5.6691217 -130.72272
1401500000 -2.8478925 78.335197 -57.882179 82.895157 -91.748978 84.089508 -6.6942596 162.44012
1411000000 -2.8374934 49.943485 -57.590801 -15.726831 -78.522667 41.226372 -8.1046972 95.973557
1420500000 -2.8060756 21.856142 -56.535942 -116.89525 -83.360947 -95.023987 -8.3649969 24.496948
1430000000 -2.7521503 -5.7838569 -56.097996 138.22925 -79.998283 -161.00015 -7.1904054 -51.601788
1439500000 -2.7007253 -32.946609 -56.407192 33.232998 -80.618233 100.77705 -6.231708 -124.49204
1449000000 -2.6691489 -59.761349 -57.03117 -68.893379 -83.539154 27.53241 -6.171566 172.08037
1458500000 -2.6580131 -86.486366 -56.587368 -165.83635 -84.59481 -42.716179 -6.4072919 114.00925
1468000000 -2.6670001 -113.26823 -56.220627 90.125145 -81.50666 172.7036 -6.8679404 52.246002
1477500000 -2.6923163 -140.16542 -56.307503 -16.900961 -88.372429 70.09436 -7.919961 -19.237934
1487000000 -2.7428212 -167.48174 -57.660343 -119.97031 -88.462395 -19.047388 -8.826251 -97.907578
1496500000 -2.8103025 164.68611 -57.164951 143.43173 -86.358902 -110.58694 -8.1396494 -174.16118
1506000000 -2.8696525 136.43668 -57.842236 37.802261 -86.339539 131.71483 -6.6076655 115.6516
1515500000 -2.9229581 107.79992 -58.937187 -58.904495 -89.870689 80.555153 -5.9123554 48.123363
1525000000 -2.9646475 78.830635 -58.240192 -159.43956 -88.428711 3.0164061 -6.5444722 -16.030607
1534500000 -2.9774413 49.711094 -59.536087 104.42638 -87.337936 -101.21669 -7.5713091 -79.245987
1544000000 -2.9688935 20.746933 -59.851299 8.8622017 -86.73896 -179.86304 -8.0446472 -149.17668
1553500000 -2.944869 -7.8669605 -59.29351 -88.414055 -85.503426 74.185043 -7.6603637 133.0614
1563000000 -2.9057882 -36.088039 -59.381973 177.47282 -88.638542 31.886427 -7.0674095 58.970379
1572500000 -2.8767526 -63.916672 -59.288879 81.005234 -85.106956 -96.326096 -6.5959454 -4.9526186
1582000000 -2.8803663 -91.541328 -58.224476 -15.631515 -87.156433 173.73186 -6.1931744 -64.853737
1591500000 -2.9047735 -119.20445 -57.317844 -117.12802 -86.036201 131.64076 -6.3193655 -129.15152
1601000000 -2.9354038 -146.9873 -56.841766 141.28261 -87.056564 -0.36406255 -7.5123706 159.7906
1610500000 -2.9848337 -175.05136 -56.977028 40.486824 -82.329147 -99.509193 -8.6548595 84.943268
1620000000 -3.0674133 156.4055 -56.63393 -58.685574 -83.557159 -172.99797 -8.0583458 10.781939
1629500000 -3.1445403 127.38876 -55.429371 -157.86464 -85.59034 112.091 -6.4209261 -59.761677
1639000000 -3.1899529 98.112877 -55.197449 96.140228 -83.632278 36.221107 -5.6096263 -127.48132
1648500000 -3.2228248 68.659088 -55.312393 -5.7344317 -82.183746 -92.713486 -6.0696654 169.28238
1658000000 -3.2509103 39.06155 -55.124214 -103.32808 -81.005669 171.84877 -6.9729943 107.06008
1667500000 -3.2403486 9.6547136 -54.56348 154.47256 -81.074768 82.480057 -7.6870766 37.738655
1677000000 -3.1833601 -19.224665 -54.607937 50.261337 -85.268654 -10.700053 -7.8048515 -39.725117
1686500000 -3.1268871 -47.573654 -54.89571 -49.933872 -81.567719 -114.79119 -7.2268739 -113.45129
1696000000 -3.1039805 -75.539154 -54.579166 -147.29883 -79.420204 169.77271 -6.2936544 -177.54205
1705500000 -3.0852063 -103.21083 -54.10384 111.85027 -80.899353 72.083107 -5.4802423 121.82222
1715000000 -3.0634515 -130.66045 -53.55204 8.2807922 -81.653099 -24.002174 -5.5498271 58.335125
1724500000 -3.0715132 -158.03947 -53.589687 -93.74588 -80.848557 -129.24721 -6.8847456 -8.1756029
1734000000 -3.1153777 174.3475 -53.625427 166.23947 -83.923813 172.03621 -8.3427696 -78.227119
1743500000 -3.1701157 146.34775 -53.41769 67.745567 -79.848206 81.498062 -8.232399 -153.28815
1753000000 -3.2070818 118.13434 -52.410213 -32.183128 -82.615456 -7.1670814 -6.7643909 131.84271
1762500000 -3.2323079 89.742386 -52.128742 -139.96812 -80.323029 -111.24755 -5.848331 62.0513
1772000000 -3.2705948 61.051094 -52.713535 119.55363 -81.065208 159.31436 -5.9519882 -1.1044315
1781500000 -3.2931514 32.282158 -52.351742 21.169767 -81.860901 72.517845 -6.4840636 -62.700592
1791000000 -3.2638216 3.6890767 -51.927753 -82.950523 -80.471802 -27.654348 -7.1842542 -130.15039
1800500000 -3.216485 -24.519573 -52.290237 176.48329 -79.514122 -105.41863 -7.7719922 155.69521
1810000000 -3.1811988 -52.301586 -52.125259 78.130966 -78.691277 149.46878 -7.5371251 83.624809
1819500000 -3.1559331 -79.850952 -51.74073 -22.178488 -78.839821 63.352039 -6.4998155 18.727749
1829000000 -3.1296661 -107.13402 -51.012047 -121.64455 -79.378479 -26.301073 -5.4833875 -43.978767
1838500000 -3.1020992 -134.07298 -50.184044 133.74832 -77.61161 -134.26764 -5.5716782 -109.21558
1848000000 -3.1138942 -160.98143 -50.400562 28.525518 -80.205376 128.61441 -7.0400038 -175.94003
1857500000 -3.176419 171.84314 -50.074989 -71.490479 -79.522408 42.846676 -8.5803595 113.4364
1867000000 -3.2337859 144.36017 -49.406441 -176.31047 -76.812035 -49.432919 -8.4324932 35.89949
1876500000 -3.2849386 116.62135 -49.633587 77.521446 -78.416962 -142.44513 -6.8523889 -40.7216
1886000000 -3.3655288 88.623734 -49.636032 -25.642668 -78.086899 119.91967 -5.8136702 -109.55984
1895500000 -3.455472 60.191799 -49.965553 -129.80862 -79.920006 39.198334 -5.6749148 -170.8407
1905000000 -3.5170481 31.420357 -50.33197 129.38806 -80.959259 -71.181633 -6.0327024 129.09161
1914500000 -3.5372117 2.7993846 -49.911354 27.15801 -78.760979 -168.44312 -6.8953176 63.326694
1924000000 -3.5399408 -25.580706 -50.10313 -80.089867 -80.703346 94.250198 -7.9601836 -9.7385445
1933500000 -3.5416787 -53.811066 -50.911938 -179.97174 -80.291756 26.112072 -8.0031462 -84.235092
1943000000 -3.527838 -81.780075 -50.667221 78.485954 -81.347137 -75.58638 -6.8179555 -153.91933
1952500000 -3.4867308 -109.42306 -50.752014 -28.884785 -79.66787 -176.51024 -5.6818576 139.03009
1962000000 -3.4588387 -136.81476 -52.101315 -132.07686 -85.127174 88.350693 -5.7614646 72.341965
1971500000 -3.467761 -164.16376 -52.675564 130.46133 -84.722816 31.171137 -6.8877244 6.5451016
1981000000 -3.4951169 168.26825 -53.217587 30.720596 -83.403198 -108.0257 -7.8920474 -62.50145
1990500000 -3.5221579 140.45866 -53.585022 -67.536301 -81.842064 -176.3799 -7.7584796 -137.40199
2000000000 -3.5605178 112.43541 -53.541363 -165.1461 -84.582352 121.44139 -6.7726245 148.94315
