!Keysight Technologies,N5242B,MY48420967,A.15.65.19
!Date: Saturday, February 04, 2023 03:56:42
!Correction: S11(C  1-Port  ) 
!S21(Off) 
!S12(Off) 
!S22(Off) 
!S2P File: Measurements: S11, S21, S12, S22:
# Hz S  dB   R 50
100000000 -1.2990042 40.364326 -79.177856 -111.08261 -96.506653 123.24964 -5.8823547 -108.17106
109500000 -1.228127 11.052386 -79.669601 174.05183 -100.95591 168.22876 -5.739018 -179.92471
119000000 -1.1565102 -17.827831 -83.32206 65.498451 -92.482597 -115.84023 -5.6727967 116.23344
128500000 -1.0679917 -46.208344 -78.537697 -50.063721 -100.23195 73.078476 -5.4872885 53.415367
138000000 -1.0502959 -74.637581 -75.860329 -163.27376 -92.154854 87.450951 -5.8652825 -16.233221
147500000 -1.1190641 -103.58482 -80.793678 97.499603 -95.771088 127.90321 -7.3289933 -91.15239
157000000 -1.1849186 -132.88869 -79.963799 -15.117154 -100.0071 81.603737 -8.3071289 -164.84668
166500000 -1.2585143 -162.41861 -77.16803 -109.75207 -96.72419 7.1731887 -7.5035806 125.36996
176000000 -1.3865649 167.60094 -77.020493 152.47458 -98.385147 80.064186 -5.8414822 57.013271
185500000 -1.4935888 137.28745 -79.711113 45.652134 -91.520958 -160.84798 -5.1810942 -12.322483
195000000 -1.5185055 107.28653 -76.459267 -57.700066 -97.252083 -85.341057 -5.9870853 -77.837151
204500000 -1.5273131 77.711212 -74.983093 -163.67923 -89.347527 161.54918 -7.0746207 -141.30225
214000000 -1.5417743 48.265053 -78.241692 119.2213 -99.696144 -72.574265 -7.6516309 149.01402
223500000 -1.5024983 19.165516 -77.016624 0.69132227 -85.415482 20.255083 -7.6143804 71.744003
233000000 -1.4376384 -9.4579906 -74.910835 -109.16897 -106.80914 -108.54803 -7.2374091 -2.5847547
242500000 -1.4321907 -38.032711 -74.934471 169.32906 -87.094772 -2.8546984 -6.606504 -68.577255
252000000 -1.4533374 -66.86203 -75.008659 73.067688 -88.731125 66.490616 -5.9201589 -132.48604
261500000 -1.4660089 -95.882187 -73.790329 -50.715042 -87.839722 18.883234 -5.9553728 159.18071
271000000 -1.5244304 -125.09594 -74.500458 -157.66602 -108.25627 -73.915794 -7.0841317 88.178192
280500000 -1.6335821 -154.82675 -73.634285 108.97092 -86.345665 148.9989 -7.9953446 17.371786
290000000 -1.7175549 175.056 -73.354561 18.769423 -94.533028 99.737282 -7.4831033 -53.985649
299500000 -1.7718347 144.96834 -72.931747 -95.757919 -87.92643 74.168259 -6.2430406 -126.2078
309000000 -1.8327794 114.92171 -71.137177 164.11372 -84.593666 -44.577274 -5.8051763 163.35376
318500000 -1.8695455 85.029358 -72.885796 64.034393 -97.073906 -108.34765 -6.1691742 98.361816
328000000 -1.8402292 55.561508 -70.98217 -31.03932 -96.567345 104.32755 -6.4932523 34.304211
337500000 -1.8094883 26.423367 -72.775146 -141.84389 -106.07793 13.57092 -6.6408792 -35.911022
347000000 -1.8124884 -2.5601153 -72.324699 125.56693 -88.38266 149.34622 -6.9577861 -111.08387
356500000 -1.7951502 -31.443354 -73.923111 16.984612 -88.057732 105.83778 -7.1332788 177.74219
366000000 -1.775359 -60.424561 -71.046165 -88.069176 -101.11903 -84.998009 -6.626534 111.86868
375500000 -1.8214788 -89.762939 -71.400757 -176.65701 -85.903069 -41.17762 -5.813201 44.591934
385000000 -1.8994257 -119.56801 -70.739532 82.189377 -86.880669 21.151405 -5.8681207 -27.460732
394500000 -1.9540135 -149.60037 -71.4935 -27.427166 -94.709389 179.99266 -6.8709145 -98.19619
404000000 -2.0050499 -179.72459 -70.822739 -124.75883 -90.224373 13.698307 -7.3101134 -165.59108
413500000 -2.0784168 149.96559 -70.74054 139.54279 -94.204376 75.033737 -6.5593662 126.58907
423000000 -2.1277676 119.76546 -69.964066 46.507099 -89.379997 164.41345 -5.5916386 55.748104
432500000 -2.1086857 90.112953 -69.810188 -67.522293 -89.395409 131.41338 -5.648756 -13.913358
442000000 -2.0750778 60.893684 -69.906342 -167.54288 -89.802376 128.96729 -6.2330451 -78.443764
451500000 -2.0736601 31.94178 -69.522743 99.517311 -95.850159 -51.248768 -6.4747243 -143.44373
461000000 -2.0477762 3.3404465 -68.140778 -4.3937998 -91.017853 -158.32883 -6.4101157 144.673
470500000 -2.0016654 -24.965551 -67.54055 -102.10999 -87.952827 116.9042 -6.5738235 69.498756
480000000 -1.9939404 -53.301701 -67.492096 166.61005 -100.12752 99.608749 -6.6831713 0.27850521
489500000 -2.0336225 -81.978722 -66.515533 64.025764 -96.899437 -139.6781 -6.2595806 -63.739594
499000000 -2.0712693 -110.93434 -64.387466 -41.267094 -88.463799 74.910965 -5.707777 -129.88049
508500000 -2.0967693 -140.00453 -62.291138 -149.81923 -85.204628 128.22174 -6.0163288 159.00479
518000000 -2.1434169 -169.30722 -61.667274 90.100555 -93.565506 -85.798271 -7.0429497 87.904739
527500000 -2.1980724 161.19255 -63.204277 -21.398979 -102.67593 -139.05673 -7.3303185 18.07922
537000000 -2.2152822 131.85524 -64.310547 -128.63251 -95.249969 -16.336945 -6.4628081 -52.505138
546500000 -2.2019036 102.91802 -65.376053 128.34692 -89.97506 139.22336 -5.6709476 -123.62843
556000000 -2.1851768 74.383682 -66.678871 23.918264 -90.556892 -15.628318 -5.8646121 169.70042
565500000 -2.1597414 46.225574 -67.094437 -69.947807 -90.264572 -127.97041 -6.3742371 107.83649
575000000 -2.1195314 18.43013 -66.529266 -167.1557 -86.900642 -161.84572 -6.599092 43.06078
584500000 -2.0870233 -9.1427603 -66.716904 92.069061 -104.20821 1.3783432 -6.7901869 -31.081762
594000000 -2.0749969 -36.710999 -67.553398 -8.6790247 -94.915642 -164.02762 -7.2472615 -108.25478
603500000 -2.0796201 -64.442039 -67.450966 -107.3231 -93.758408 -65.871674 -7.2798204 -177.72433
613000000 -2.1075974 -92.51207 -66.884132 158.27917 -87.845634 179.03693 -6.5806599 118.2998
622500000 -2.1552749 -121.05459 -66.295837 54.634342 -92.201408 48.3666 -5.9561095 51.991367
632000000 -2.2138071 -149.98151 -66.869537 -48.353062 -88.663277 67.66539 -6.4580197 -18.390152
641500000 -2.2544935 -179.02274 -66.197472 -142.55974 -87.993507 -67.773499 -7.5915222 -89.080193
651000000 -2.2930624 151.7583 -66.593651 113.11539 -96.291168 130.37717 -7.84653 -160.97612
660500000 -2.3282862 122.48624 -67.166725 17.191587 -96.106918 167.64293 -6.9596415 125.68711
670000000 -2.3191874 93.487801 -66.01461 -85.956505 -87.723167 -50.092827 -6.2202458 54.761848
679500000 -2.286516 64.964798 -66.298195 175.41505 -88.70874 -156.77345 -6.2259641 -9.5603142
689000000 -2.2630038 36.750008 -66.48967 77.237938 -104.60847 126.14461 -6.4414802 -70.737999
698500000 -2.2480259 8.6433077 -66.357384 -29.345829 -87.089737 82.94223 -6.7259378 -137.68118
708000000 -2.2256792 -19.1954 -65.575241 -130.80981 -100.20255 -61.957287 -7.5048747 145.32198
717500000 -2.2111545 -46.893448 -65.577286 131.31017 -102.95686 174.15143 -8.1448002 67.082863
727000000 -2.2455473 -75.047638 -66.072731 31.669287 -92.159927 -139.00192 -7.5642204 -3.0729582
736500000 -2.3124363 -103.7834 -65.438446 -67.041733 -103.86589 140.97549 -6.2667789 -68.059624
746000000 -2.3629191 -132.79924 -64.653793 -171.73323 -90.582741 75.853951 -5.578537 -134.54854
755500000 -2.4138598 -162.12759 -65.073631 87.349792 -92.806114 18.576975 -6.3359885 158.47028
765000000 -2.4913788 168.10719 -66.026802 -12.735613 -90.594162 79.869545 -7.5997443 91.967712
774500000 -2.5427389 138.17415 -64.735603 -111.52159 -92.785316 68.11956 -7.976294 20.201262
784000000 -2.5405333 108.51898 -65.3899 145.71022 -98.689201 -128.29173 -7.19593 -57.144619
793500000 -2.526031 79.244865 -65.712486 42.954781 -87.842873 -138.71201 -6.5278711 -130.35703
803000000 -2.508595 50.296928 -65.166237 -57.202419 -91.988182 103.75961 -6.3334756 166.60297
812500000 -2.471812 21.781296 -65.060387 -151.94926 -89.342926 102.39754 -6.1286016 107.78918
822000000 -2.4300115 -6.2343302 -64.572182 104.17374 -92.04319 -134.65427 -6.0830321 43.300297
831500000 -2.4129868 -34.031181 -64.974792 -2.8026993 -93.951126 -162.32158 -6.9855886 -30.905951
841000000 -2.4212425 -61.911026 -64.709404 -100.69243 -91.610596 121.952 -8.1371994 -107.63105
850500000 -2.443754 -89.955208 -65.312607 164.23959 -92.25312 23.945105 -7.8256006 -179.31044
860000000 -2.4851921 -118.2881 -64.199799 66.170433 -90.390587 -64.242783 -6.4131842 114.00333
869500000 -2.5449347 -147.03813 -63.82626 -41.805729 -98.441002 -135.68765 -5.4701424 47.746777
879000000 -2.5978022 -176.10768 -64.464294 -142.33128 -91.813889 118.88786 -5.8861327 -17.15222
888500000 -2.6309884 154.72466 -64.048271 120.48754 -93.39003 81.470963 -6.9556894 -80.691772
898000000 -2.6530416 125.60814 -64.155586 18.656778 -98.732864 -5.2557654 -7.7069335 -149.78632
907500000 -2.6478126 96.649124 -63.754505 -84.418617 -91.067802 -140.31677 -7.6672311 132.7101
917000000 -2.6094525 68.073921 -63.899841 175.77942 -87.388527 128.3956 -7.1357617 57.283211
926500000 -2.55878 40.038635 -64.518532 75.001495 -87.739311 1.2520764 -6.5209246 -7.9812288
936000000 -2.515135 12.482021 -64.519951 -19.529276 -96.180214 -26.622934 -5.8984194 -67.99334
945500000 -2.4735987 -14.739492 -63.497581 -120.90294 -92.210281 153.85036 -5.7245188 -130.89296
955000000 -2.4353359 -41.725574 -63.706764 137.5937 -87.502716 101.08698 -6.6722302 160.34859
964500000 -2.4260404 -68.574615 -64.098183 35.223122 -94.676537 -20.881058 -8.1331711 87.744209
974000000 -2.4468851 -95.600044 -63.648972 -65.693474 -90.541054 -81.745033 -8.3770456 13.126237
983500000 -2.4897661 -123.13028 -63.291019 -159.2018 -92.382774 135.30087 -7.2379899 -59.181541
993000000 -2.5355237 -151.03131 -63.010941 100.20897 -86.246964 113.59573 -6.2787466 -126.90497
1002500000 -2.5734024 -179.17493 -63.419689 -4.533082 -83.527054 41.745457 -6.2206521 170.6286
1012000000 -2.6200738 152.32484 -63.195721 -103.47247 -89.164078 -140.26456 -6.6438007 109.7576
1021500000 -2.6544051 123.60218 -61.970436 158.755 -85.662796 149.65002 -7.3154755 42.36528
1031000000 -2.646162 94.966232 -61.968304 52.469482 -89.646889 124.31453 -8.2522984 -35.422398
1040500000 -2.6128526 66.655762 -62.789082 -48.208561 -104.58202 -74.175629 -8.5647879 -113.76524
1050000000 -2.5839045 38.663074 -62.135395 -143.68713 -89.572876 -164.90302 -7.656558 177.65533
1059500000 -2.5518508 10.919744 -61.87019 117.1469 -94.782738 164.74684 -6.2306194 114.46764
1069000000 -2.5082901 -16.410536 -61.553097 14.321167 -89.409355 46.039745 -5.5311246 48.585918
1078500000 -2.4754372 -43.382751 -61.357372 -89.963562 -90.61248 -22.915781 -6.5162616 -18.946877
1088000000 -2.479342 -70.395424 -61.704285 170.26147 -84.098648 -119.45321 -8.2006798 -85.777008
1097500000 -2.5240414 -97.778145 -61.832809 74.429367 -98.284645 -163.10402 -8.9046803 -157.28484
1107000000 -2.5689888 -125.4714 -61.328808 -28.089861 -83.950638 65.002914 -8.0538683 126.37434
1116500000 -2.6177297 -153.59726 -60.58934 -131.22508 -92.402916 -34.089985 -7.0340047 53.126186
1126000000 -2.6982162 177.67986 -60.996193 128.97557 -90.878967 -70.553658 -6.719131 -11.8713
1135500000 -2.7724876 148.46391 -61.064003 31.283783 -82.533859 141.80049 -6.7360888 -73.064445
1145000000 -2.8004465 119.04591 -60.062473 -72.418594 -88.51812 82.726341 -7.1217556 -139.35762
1154500000 -2.8121653 89.682167 -60.023441 -175.63365 -93.27594 -56.88015 -8.2058945 145.61621
1164000000 -2.8163652 60.404758 -60.862759 81.65731 -94.132393 -112.83863 -8.9031744 68.383049
1173500000 -2.7903619 31.352728 -60.371811 -15.589123 -86.020927 165.87895 -7.9918141 -2.7089419
1183000000 -2.7442715 2.9061065 -59.658813 -117.65321 -95.619492 -38.33424 -6.3005724 -68.95755
1192500000 -2.7113667 -25.067123 -59.481808 140.12117 -83.521317 -18.406052 -5.4717269 -135.55887
1202000000 -2.707108 -52.91161 -60.126125 37.585575 -89.076759 -156.52249 -6.2381115 160.11038
1211500000 -2.7084882 -80.594795 -60.36438 -61.292191 -84.203262 139.1364 -7.6178403 98.062637
1221000000 -2.7247927 -108.23738 -59.650009 -158.32451 -80.452789 66.648422 -8.5270691 30.29958
1230500000 -2.7876904 -136.27173 -59.018715 100.28463 -90.790878 -87.697075 -8.3572826 -47.141758
1240000000 -2.8599958 -164.84773 -59.350849 -5.3524318 -86.170547 160.12585 -7.5345306 -124.22975
1249500000 -2.9064271 166.2601 -59.403282 -105.1603 -82.869316 105.20957 -6.8108234 168.31953
1259000000 -2.9580004 137.18166 -59.210415 155.97855 -84.510986 39.365555 -6.3043108 106.59303
1268500000 -3.0053442 107.79202 -59.002155 54.338795 -88.652435 -66.920731 -6.3520241 43.050411
1278000000 -3.0033247 78.352295 -58.872349 -50.647587 -88.798454 -114.96696 -7.3489542 -25.075743
1287500000 -2.9551997 49.449707 -59.189579 -147.69102 -90.979362 122.52563 -8.4824581 -97.075806
1297000000 -2.9082463 21.073944 -58.737415 112.15907 -85.311165 11.196757 -8.2305956 -171.44333
1306500000 -2.8721395 -6.9684658 -58.297207 8.9949884 -87.459496 -25.01499 -6.8285818 115.87238
1316000000 -2.8196738 -34.482021 -58.566769 -94.632538 -83.575768 -144.83408 -5.9679341 47.667576
1325500000 -2.7611473 -61.438702 -58.65905 167.53032 -82.852402 157.11443 -6.1041088 -14.073354
1335000000 -2.7475445 -88.220299 -58.962257 67.674217 -85.546776 42.508396 -6.632802 -73.140656
1344500000 -2.7761049 -115.15398 -58.408974 -31.333982 -85.935562 -60.778542 -7.3153167 -137.4816
1354000000 -2.8030791 -142.30537 -57.849937 -133.43915 -84.31192 -137.28595 -8.1659765 148.48428
1363500000 -2.8245819 -169.63707 -58.335197 124.46728 -85.359192 109.79102 -8.4606295 71.403984
1373000000 -2.8737712 162.66721 -57.963333 23.678139 -84.385254 -3.6251853 -7.5952358 1.0625588
1382500000 -2.9432127 134.47435 -57.801796 -79.315865 -85.62841 -109.4582 -6.3094306 -64.446548
1392000000 -2.9708595 106.02876 -57.92329 -178.19629 -83.06118 173.14784 -5.8834271 -131.0419
1401500000 -2.9487638 77.635468 -57.709621 83.902336 -81.009834 119.55527 -6.922452 162.34235
1411000000 -2.93524 49.355824 -57.410568 -19.053459 -80.582092 52.150608 -8.3549185 95.784348
1420500000 -2.9282942 21.215345 -56.920364 -117.51801 -86.878403 -64.334229 -8.6330471 23.913937
1430000000 -2.8668628 -6.484139 -56.383312 138.12968 -82.638603 -164.18839 -7.4468517 -52.412731
1439500000 -2.7979348 -33.562321 -56.441456 30.284126 -81.3909 102.54137 -6.4586816 -125.12756
1449000000 -2.7807734 -60.330849 -57.110809 -71.294586 -86.003532 16.556376 -6.3726602 171.65916
1458500000 -2.7886407 -87.166237 -57.034859 -168.76541 -86.627914 -93.639542 -6.61099 113.69161
1468000000 -2.7844861 -113.97791 -56.598621 88.089333 -84.340111 142.55438 -7.1057005 51.972839
1477500000 -2.7951531 -140.77611 -56.875221 -18.562204 -81.701813 81.887787 -8.2063389 -19.568939
1487000000 -2.8616335 -168.13905 -58.373997 -120.71333 -87.844032 43.559509 -9.1134272 -98.567085
1496500000 -2.9387622 163.91806 -58.216171 142.68245 -90.585487 -107.61646 -8.3734808 -175.04691
1506000000 -2.9772782 135.75858 -58.915363 39.992542 -90.467323 -171.89865 -6.809669 114.88832
1515500000 -3.0270743 107.23209 -59.263538 -54.593632 -84.652351 99.266998 -6.1128349 47.67424
1525000000 -3.0891609 78.180367 -59.014759 -154.29062 -85.432693 0.44410196 -6.7501211 -16.236465
1534500000 -3.0984888 48.997013 -59.639168 106.7966 -87.644646 -122.91177 -7.8041945 -79.435478
1544000000 -3.0697896 20.150463 -59.583942 10.451025 -82.727638 170.36739 -8.3242998 -149.63342
1553500000 -3.0550301 -8.4038124 -59.333286 -87.681694 -85.782349 70.235291 -7.9473524 132.29816
1563000000 -3.0348063 -36.740864 -59.651581 172.37909 -90.092407 -5.6516862 -7.3061414 58.191956
1572500000 -2.9975059 -64.613373 -59.536945 80.5569 -84.70993 -83.552643 -6.792315 -5.6167893
1582000000 -2.9878883 -92.120766 -58.263077 -17.299366 -86.195526 -179.7579 -6.3841434 -65.396599
1591500000 -3.0243728 -119.78607 -57.561081 -116.3829 -83.825905 81.564384 -6.5397148 -129.51804
1601000000 -3.0688529 -147.71751 -57.081497 140.36864 -83.115273 8.7565355 -7.7702961 159.54311
1610500000 -3.1072562 -175.81726 -56.888763 40.581951 -89.31221 -124.1526 -8.9317589 84.438095
1620000000 -3.178282 155.73776 -56.836185 -58.191265 -82.487236 165.88432 -8.3075981 9.8924246
1629500000 -3.2682786 126.72383 -55.514011 -157.83212 -84.617775 91.392181 -6.6429486 -60.681396
1639000000 -3.3196042 97.357544 -55.309479 95.492142 -82.132637 -3.6192973 -5.8174729 -128.12419
1648500000 -3.3375866 67.910797 -55.585217 -6.6517472 -81.639717 -111.38 -6.2662811 168.9149
1658000000 -3.3608696 38.394764 -55.298588 -105.22265 -91.857193 -172.60246 -7.1807179 106.83173
1667500000 -3.3622875 8.9764109 -54.767166 153.19603 -81.119499 91.195244 -7.9367595 37.495975
1677000000 -3.308959 -19.972006 -54.759422 50.411026 -85.501411 -10.956375 -8.0799932 -40.175224
1686500000 -3.2451227 -48.318222 -55.079712 -50.460697 -84.522659 -103.12576 -7.4726529 -114.09605
1696000000 -3.2240689 -76.24559 -54.814289 -148.00009 -82.14666 174.01752 -6.505249 -178.23958
1705500000 -3.2086473 -103.92867 -54.218513 111.39796 -81.060585 96.278862 -5.6860623 121.1904
1715000000 -3.1839783 -131.41029 -53.820694 7.7208657 -82.70517 1.6980833 -5.7684312 57.89875
1724500000 -3.1971445 -158.7951 -53.810032 -94.625832 -84.121933 -115.09287 -7.1151204 -8.4133549
1734000000 -3.2463965 173.55742 -53.83379 165.36678 -84.234741 157.16724 -8.5929966 -78.525627
1743500000 -3.2915211 145.52798 -53.650009 67.34742 -80.617897 67.279457 -8.4921761 -153.90195
1753000000 -3.3236568 117.3707 -52.736889 -33.781128 -84.709229 -5.4598498 -7.0103664 131.1019
1762500000 -3.359601 88.99601 -52.294533 -140.59906 -86.748039 -91.061028 -6.072928 61.474243
1772000000 -3.3987958 60.228554 -52.982586 119.49052 -81.296593 146.95847 -6.1577802 -1.498734
1781500000 -3.4014571 31.485268 -52.673882 20.131811 -81.477249 67.550537 -6.6904588 -62.9655
1791000000 -3.3735368 2.9954154 -52.309124 -83.741135 -79.048752 -34.176613 -7.4148583 -130.31572
1800500000 -3.3512309 -25.276306 -52.472641 176.67252 -82.754189 -121.79178 -8.0247164 155.49925
1810000000 -3.3105419 -53.163063 -52.301964 77.825401 -80.862892 165.41084 -7.7822042 83.235199
1819500000 -3.2610245 -80.625999 -52.177849 -23.148022 -80.255547 55.071758 -6.730608 18.163136
1829000000 -3.2461457 -107.79945 -51.466225 -121.61305 -81.923241 -50.527298 -5.7189002 -44.568195
1838500000 -3.2439237 -134.8154 -50.522385 134.69417 -76.929497 -126.35153 -5.8169422 -109.64736
1848000000 -3.2449083 -161.85529 -50.713425 28.969688 -78.110229 137.71341 -7.2839818 -176.22762
1857500000 -3.2863088 171.04079 -50.399921 -70.766106 -79.852371 54.407562 -8.8270102 113.07951
1867000000 -3.3526647 143.66927 -49.836403 -175.7085 -81.398376 -26.448696 -8.6822996 35.350788
1876500000 -3.4222872 115.84893 -49.987438 79.634361 -78.953812 -137.5499 -7.0940046 -41.291382
1886000000 -3.4987988 87.767105 -49.825932 -23.529816 -78.980743 123.43055 -6.04322 -110.00415
1895500000 -3.5706701 59.39629 -50.058952 -128.3918 -79.89341 39.53611 -5.8958421 -171.20685
1905000000 -3.6308973 30.679691 -50.359241 131.51006 -79.290047 -68.293327 -6.261673 128.75854
1914500000 -3.6635945 2.0319729 -49.77013 28.737469 -78.119835 -157.23636 -7.1416469 63.026699
1924000000 -3.6716275 -26.403761 -50.03458 -80.31118 -79.704887 105.68306 -8.2094154 -10.066113
1933500000 -3.6620376 -54.661201 -50.735466 179.06003 -79.479744 0.17641941 -8.2353773 -84.700615
1943000000 -3.6405826 -82.559418 -50.69323 78.105301 -80.135056 -65.287811 -7.0391884 -154.47165
1952500000 -3.6144769 -110.13979 -50.901474 -28.797966 -79.986198 177.47339 -5.9174399 138.46989
1962000000 -3.6039169 -137.63544 -52.199272 -131.63412 -79.828499 95.668915 -6.0181336 71.863983
1971500000 -3.5979171 -165.0638 -52.611584 131.29323 -82.938492 -7.2190189 -7.1570463 6.0472212
1981000000 -3.6037741 167.47006 -53.072685 31.891724 -89.780006 -95.369919 -8.1650257 -63.194244
1990500000 -3.6499879 139.72926 -52.957043 -66.637947 -78.979378 178.9278 -8.0057974 -138.2244
2000000000 -3.709995 111.58282 -52.9016 -166.54337 -79.873253 85.650696 -6.9841137 148.2735
