!Keysight Technologies,N5242B,MY48420967,A.15.65.19
!Date: Saturday, February 04, 2023 02:09:13
!Correction: S11(C  1-Port  ) 
!S21(Off) 
!S12(Off) 
!S22(Off) 
!S2P File: Measurements: S11, S21, S12, S22:
# Hz S  dB   R 50
100000000 -1.3073645 40.339535 -83.035393 -111.2975 -85.048592 142.9174 -5.842845 -108.1894
109500000 -1.2365239 11.027489 -78.171707 142.66954 -91.071121 -18.32378 -5.7042685 -179.9397
119000000 -1.1645715 -17.844946 -80.574837 42.161621 -93.881752 -165.50204 -5.6401024 116.21945
128500000 -1.0758448 -46.219826 -81.095627 -40.358845 -97.628922 93.502419 -5.4526291 53.383858
138000000 -1.0583738 -74.634331 -78.805916 -147.83214 -88.417885 73.195679 -5.8275595 -16.291407
147500000 -1.1265539 -103.56958 -78.559441 99.42881 -90.128937 139.63855 -7.2882605 -91.217346
157000000 -1.1918914 -132.8632 -78.271667 -18.423172 -91.954773 152.29906 -8.2669725 -164.86252
166500000 -1.2659698 -162.38284 -78.727028 -133.97598 -95.99752 -117.35783 -7.4658265 125.3998
176000000 -1.3932592 167.64163 -75.856613 156.63773 -115.11347 72.78875 -5.8051062 57.044888
185500000 -1.4996359 137.32944 -76.950325 50.033928 -86.846626 -34.826187 -5.146534 -12.328465
195000000 -1.5252388 107.3264 -78.236702 -61.554615 -90.408768 91.98143 -5.9554749 -77.87365
204500000 -1.5339016 77.742966 -76.359467 -158.30769 -94.284378 -167.50394 -7.0406013 -141.34711
214000000 -1.5487641 48.291172 -77.292786 106.05801 -106.52062 165.12738 -7.6111469 148.98143
223500000 -1.5094475 19.182756 -75.784027 -11.08345 -91.847832 -104.14301 -7.5717659 71.739708
233000000 -1.4448318 -9.4496174 -74.086967 -88.61161 -92.697083 -140.90038 -7.1998401 -2.5731087
242500000 -1.4398618 -38.031921 -75.079063 156.72603 -92.603714 45.492142 -6.5733614 -68.552864
252000000 -1.4607041 -66.872208 -74.129807 64.975273 -91.564499 -81.917458 -5.887938 -132.47849
261500000 -1.4742522 -95.887497 -72.805878 -36.237049 -102.08366 24.706882 -5.9206119 159.15387
271000000 -1.532198 -125.10638 -74.607529 -142.86612 -88.005493 -10.052592 -7.050189 88.14492
280500000 -1.6416835 -154.83113 -74.991211 128.74429 -86.039513 -176.96362 -7.957881 17.359293
290000000 -1.7251384 175.04811 -73.453972 7.7676926 -87.260727 -18.658054 -7.4466681 -53.953022
299500000 -1.7796088 144.96754 -73.242004 -87.05381 -94.595009 -128.92735 -6.2079477 -126.17248
309000000 -1.8404233 114.93299 -73.021156 170.06931 -101.70359 77.984192 -5.7740622 163.37817
318500000 -1.877512 85.04393 -73.095528 65.259033 -92.027069 -165.01497 -6.1395497 98.361237
328000000 -1.8477939 55.574741 -72.072556 -37.505653 -95.601135 -173.70226 -6.4631834 34.306324
337500000 -1.8166165 26.44096 -70.601807 -136.09862 -94.841667 -65.754982 -6.6069431 -35.912235
347000000 -1.8202482 -2.5332906 -71.265907 128.17819 -100.42129 141.95935 -6.9236922 -111.07321
356500000 -1.8037875 -31.419001 -71.274506 21.064882 -85.595329 -4.8613114 -7.1023302 177.75664
366000000 -1.7835883 -60.393948 -71.333374 -80.296936 -87.500702 160.88091 -6.5968242 111.90193
375500000 -1.8296603 -89.735008 -70.475784 178.07213 -87.926445 -99.04496 -5.7826095 44.620564
385000000 -1.9080663 -119.54227 -70.994942 80.7453 -95.291031 92.254898 -5.8361549 -27.457756
394500000 -1.9630686 -149.57349 -71.13987 -26.273531 -97.290276 45.601761 -6.840045 -98.19886
404000000 -2.0133224 -179.69402 -70.801987 -124.29044 -96.126869 -83.506241 -7.28088 -165.5748
413500000 -2.0876679 149.99445 -70.413071 145.46294 -95.258072 6.0407333 -6.5295677 126.62183
423000000 -2.1373696 119.79198 -69.646805 33.603783 -90.321762 158.47479 -5.5619049 55.774509
432500000 -2.1172678 90.147232 -69.507782 -66.768372 -91.602364 -86.505287 -5.6201682 -13.911441
442000000 -2.0852811 60.925491 -69.254486 -166.64195 -94.618996 -166.31216 -6.2068567 -78.441597
451500000 -2.0830629 31.967331 -69.398743 102.69577 -102.73479 11.243279 -6.4454584 -143.43834
461000000 -2.057981 3.3671572 -67.478783 -3.9096277 -87.013405 -102.99831 -6.3789735 144.67876
470500000 -2.0117066 -24.934778 -67.982857 -99.852104 -102.62479 161.88402 -6.5431452 69.500778
480000000 -2.0047801 -53.273849 -67.380486 159.09422 -86.291939 64.024704 -6.6553059 0.29042825
489500000 -2.0442476 -81.956413 -66.372108 62.723137 -88.884399 43.082939 -6.2326021 -63.725468
499000000 -2.0818946 -110.91396 -64.048965 -42.37775 -86.832253 -32.377399 -5.67874 -129.87535
508500000 -2.107368 -139.98286 -62.551872 -151.05139 -93.83503 165.48515 -5.9865327 158.99344
518000000 -2.1530967 -169.28125 -61.774979 89.941193 -92.700562 -74.566353 -7.0125165 87.896881
527500000 -2.2086403 161.21541 -63.179951 -24.575987 -91.90403 -46.768597 -7.3021417 18.089624
537000000 -2.2258418 131.88377 -64.028275 -130.27824 -89.774445 150.83751 -6.4341011 -52.477421
546500000 -2.2120986 102.95005 -65.364861 125.06881 -91.692535 87.954506 -5.6431694 -123.6172
556000000 -2.1951201 74.4235 -66.781868 27.574194 -93.583656 103.56536 -5.8388844 169.69424
565500000 -2.1689012 46.274761 -67.227112 -69.134773 -89.765709 -40.476971 -6.3484874 107.83017
575000000 -2.1288257 18.483295 -66.571648 -162.29564 -90.533928 -139.1969 -6.5695214 43.053288
584500000 -2.0957282 -9.0820723 -67.474785 96.572426 -92.097992 -173.56589 -6.7564569 -31.090561
594000000 -2.0840573 -36.635269 -67.634575 -6.426168 -91.107475 -49.492329 -7.2135334 -108.24281
603500000 -2.0892222 -64.365501 -67.977882 -101.67889 -96.579269 175.41017 -7.2507219 -177.71391
613000000 -2.1174166 -92.43412 -66.198349 160.15939 -97.287979 60.519833 -6.5534925 118.32688
622500000 -2.1652901 -120.97735 -66.148857 56.437023 -91.711685 164.49014 -5.9270072 52.00581
632000000 -2.2243743 -149.90454 -67.214584 -48.090046 -87.236435 -22.689316 -6.4281392 -18.391171
641500000 -2.2654266 -178.94662 -66.995872 -145.33994 -110.81322 -108.68398 -7.5602236 -89.079277
651000000 -2.3043056 151.82701 -66.927139 115.93018 -89.106827 139.07837 -7.815196 -160.94064
660500000 -2.3400602 122.54459 -66.876884 19.635458 -92.556854 88.405975 -6.9293575 125.73179
670000000 -2.3310819 93.539307 -66.133209 -83.457932 -89.589226 70.062004 -6.1928401 54.79203
679500000 -2.2976158 65.009529 -66.194237 172.32903 -103.87488 -91.160553 -6.2016716 -9.539402
689000000 -2.2743323 36.790012 -65.961777 78.494926 -86.765442 143.61223 -6.4155235 -70.722977
698500000 -2.2598424 8.6726904 -65.424919 -24.873837 -91.741394 -42.463287 -6.6956553 -137.67299
708000000 -2.2364378 -19.167221 -65.385834 -132.42372 -99.511131 124.2362 -7.4713049 145.33047
717500000 -2.2221613 -46.85667 -65.589043 129.10367 -94.270622 -16.032545 -8.113905 67.111847
727000000 -2.2570429 -75.012344 -66.776939 34.698341 -88.564644 -150.46733 -7.5383368 -3.0240502
736500000 -2.3240793 -103.74652 -65.586227 -66.499466 -100.07381 -17.980917 -6.2420697 -68.013084
746000000 -2.3736584 -132.75435 -64.7733 -170.60587 -98.543015 79.089989 -5.5528464 -134.52502
755500000 -2.4250495 -162.0721 -65.477959 88.740166 -91.943108 -130.21204 -6.3107924 158.47424
765000000 -2.5033174 168.16534 -65.54158 -10.842319 -90.538246 132.36577 -7.5737486 91.973839
774500000 -2.5542479 138.24265 -65.460449 -112.88355 -87.283127 13.997896 -7.9471292 20.233196
784000000 -2.552819 108.59462 -64.945915 146.4809 -114.93201 49.552914 -7.1689878 -57.101788
793500000 -2.5382135 79.322861 -64.813164 43.676399 -106.41376 143.75218 -6.5047145 -130.31804
803000000 -2.5205836 50.37394 -64.745552 -59.655632 -85.546089 120.50045 -6.3131657 166.62694
812500000 -2.4840481 21.858906 -65.17511 -155.71989 -96.289177 -14.187407 -6.1077099 107.81139
822000000 -2.4423883 -6.1576633 -64.643379 106.97322 -88.413017 -43.097973 -6.0592566 43.309921
831500000 -2.4249558 -33.953884 -64.751175 -0.96838892 -97.119408 -79.761055 -6.9583688 -30.908733
841000000 -2.433109 -61.831661 -64.847206 -101.85661 -85.807228 109.4459 -8.1113577 -107.61641
850500000 -2.4561014 -89.87326 -64.660362 162.96274 -88.921387 36.022873 -7.8023067 -179.27013
860000000 -2.4976006 -118.20809 -64.324913 62.272774 -96.21994 -22.905743 -6.3928909 114.04065
869500000 -2.5565157 -146.95393 -63.971962 -42.215908 -93.602928 -152.4315 -5.4508452 47.769543
879000000 -2.6103075 -176.01991 -64.430794 -144.45071 -96.417427 -108.7478 -5.8649831 -17.147064
888500000 -2.6430035 154.8149 -64.211548 122.48409 -87.412254 38.539772 -6.9339252 -80.690002
898000000 -2.6655188 125.70448 -64.045036 20.27417 -88.865005 -71.471985 -7.6826653 -149.7775
907500000 -2.6601672 96.751854 -64.303116 -81.972755 -95.094543 117.32235 -7.641633 132.74057
917000000 -2.6213706 68.181259 -64.063988 179.44646 -87.712105 99.488014 -7.1139202 57.317738
926500000 -2.5704553 40.150684 -64.579086 79.141975 -88.455276 37.480129 -6.5020294 -7.9575582
936000000 -2.5264089 12.599013 -64.328575 -21.976505 -91.197952 -69.379974 -5.8793874 -67.97654
945500000 -2.4850702 -14.620938 -63.739204 -120.77644 -90.411308 152.0027 -5.7035975 -130.88972
955000000 -2.4470534 -41.606659 -63.84911 137.9456 -90.082817 123.76183 -6.6496716 160.33765
964500000 -2.4378018 -68.44812 -63.801495 37.692337 -94.581238 -63.770077 -8.1086826 87.739075
974000000 -2.4588597 -95.475945 -63.772221 -63.527828 -94.751167 -83.378906 -8.3531218 13.152865
983500000 -2.5020912 -123.00888 -63.167053 -161.00638 -88.599411 143.46204 -7.2155852 -59.149418
993000000 -2.548301 -150.91518 -62.957577 96.846268 -87.3134 123.63569 -6.2584815 -126.88441
1002500000 -2.5865889 -179.06259 -63.05402 -4.2105064 -95.964813 64.673073 -6.2013659 170.63721
1012000000 -2.6341877 152.43835 -62.779022 -97.837479 -92.408333 -16.775793 -6.6228442 109.75048
1021500000 -2.6675282 123.70888 -62.130768 157.34381 -88.133453 168.24286 -7.2910314 42.359619
1031000000 -2.6593328 95.067291 -62.202602 52.435696 -85.855591 93.7873 -8.2244034 -35.418697
1040500000 -2.6266875 66.758141 -62.459679 -48.223591 -98.402161 -174.52296 -8.5393906 -113.74085
1050000000 -2.5969143 38.756824 -62.185234 -145.23288 -82.482735 -107.71514 -7.6355395 177.7021
1059500000 -2.5649598 11.012644 -61.807842 115.44777 -93.087852 -144.05956 -6.2109547 114.50232
1069000000 -2.5211833 -16.325569 -61.586155 12.794867 -83.579575 91.018433 -5.5098038 48.594845
1078500000 -2.4877367 -43.291676 -61.612549 -90.699852 -95.238251 -50.801544 -6.4941392 -18.953583
1088000000 -2.4916241 -70.300346 -61.777733 171.5688 -92.526848 -90.605118 -8.1784973 -85.784988
1097500000 -2.5372903 -97.675392 -61.805538 72.701881 -85.160614 -163.54759 -8.88029 -157.26266
1107000000 -2.5822346 -125.37048 -61.252598 -27.930468 -84.913857 114.56387 -8.0293636 126.4146
1116500000 -2.6310124 -153.49483 -60.933617 -130.98888 -101.01566 12.64739 -7.0124974 53.161385
1126000000 -2.7126017 177.78963 -61.065292 127.90186 -85.339729 -141.03595 -6.6996317 -11.848327
1135500000 -2.7865956 148.57297 -60.782005 30.854727 -83.613396 160.5134 -6.7158885 -73.049515
1145000000 -2.8154681 119.14816 -60.068535 -72.262718 -83.056259 108.28259 -7.0998244 -139.34964
1154500000 -2.8261015 89.786766 -60.049759 -177.9996 -92.368004 10.799646 -8.180233 145.62102
1164000000 -2.8307664 60.509106 -60.913624 84.493584 -94.86837 -125.11713 -8.8797808 68.415573
1173500000 -2.8048124 31.451994 -60.466393 -15.017839 -86.929176 175.43649 -7.9723563 -2.6541214
1183000000 -2.7575259 3.0108619 -59.719719 -116.83186 -91.324638 35.919903 -6.2832756 -68.91497
1192500000 -2.7255354 -24.964279 -59.768085 140.77837 -89.69223 -54.93412 -5.4541669 -135.53503
1202000000 -2.7201974 -52.801632 -60.054855 36.109478 -86.057419 -120.73605 -6.221417 160.10983
1211500000 -2.7211807 -80.481285 -60.334312 -62.128788 -85.192947 135.77939 -7.6001267 98.064262
1221000000 -2.7380333 -108.1089 -59.810764 -158.59157 -100.90722 125.92178 -8.5063934 30.312277
1230500000 -2.8009472 -136.13834 -59.239235 100.48411 -83.815697 -55.797218 -8.3349485 -47.108788
1240000000 -2.8726721 -164.70735 -59.362972 -4.9978309 -86.637726 -159.8062 -7.5151281 -124.19009
1249500000 -2.9201975 166.42097 -59.554417 -105.6676 -86.722527 156.27716 -6.7943974 168.3522
1259000000 -2.9714861 137.34715 -59.410473 154.20335 -85.741867 67.246284 -6.2887964 106.6163
1268500000 -3.018949 107.97504 -58.913979 53.398247 -86.851166 -33.753185 -6.3360672 43.06176
1278000000 -3.0177577 78.539078 -59.068138 -48.982391 -89.316429 -159.80293 -7.3312249 -25.071575
1287500000 -2.9707184 49.637463 -59.383148 -149.14226 -84.181427 122.52695 -8.4638805 -97.062637
1297000000 -2.9222162 21.254154 -58.934311 112.41169 -82.773933 37.648598 -8.2120533 -171.40765
1306500000 -2.8865802 -6.7852712 -58.643738 9.5689325 -86.559868 -74.951126 -6.8123298 115.91019
1316000000 -2.8339672 -34.301781 -58.517151 -93.57254 -82.992287 -123.22294 -5.9537868 47.685822
1325500000 -2.7751534 -61.258316 -58.712029 168.32457 -83.493256 122.88315 -6.0910802 -14.067423
1335000000 -2.7615833 -88.043976 -58.925629 67.850365 -85.903458 63.158779 -6.6192713 -73.140068
1344500000 -2.7905273 -114.9834 -58.587692 -31.313532 -85.4879 -19.002195 -7.2983956 -137.48607
1354000000 -2.8179653 -142.13486 -58.0574 -132.56633 -85.086693 -149.59586 -8.1473627 148.48007
1363500000 -2.8379412 -169.46858 -58.169121 124.72385 -82.426445 123.52772 -8.4420404 71.431274
1373000000 -2.8877814 162.83369 -57.949604 24.619387 -83.010765 40.484047 -7.5791388 1.0888736
1382500000 -2.9587278 134.64073 -57.907387 -78.318115 -82.195099 -81.963242 -6.2941456 -64.419502
1392000000 -2.9860113 106.1869 -58.030167 -175.96101 -80.376823 -169.45563 -5.8682122 -131.04015
1401500000 -2.962779 77.792 -57.510403 84.310387 -79.280792 104.01926 -6.9065433 162.33272
1411000000 -2.9502137 49.512993 -57.454323 -17.414175 -82.07724 13.886192 -8.3379183 95.781837
1420500000 -2.943505 21.363325 -56.818916 -118.99138 -83.624878 -62.64159 -8.614275 23.934992
1430000000 -2.8821747 -6.3397717 -56.10458 138.06876 -84.018211 -139.97087 -7.428925 -52.390686
1439500000 -2.813127 -33.417797 -56.338264 30.682234 -82.291679 80.982864 -6.4443669 -125.11274
1449000000 -2.7958026 -60.189602 -57.083458 -71.905228 -83.920975 -5.4359603 -6.3603067 171.66223
1458500000 -2.8036423 -87.028473 -57.036144 -169.36415 -84.81427 -129.56004 -6.5980458 113.68644
1468000000 -2.8002744 -113.84409 -56.54509 86.137222 -83.370819 -163.68132 -7.0907035 51.961739
1477500000 -2.811403 -140.63707 -56.608902 -21.446592 -83.000565 70.313095 -8.187459 -19.582428
1487000000 -2.8768642 -168.00092 -58.244164 -123.13703 -85.640747 -10.089718 -9.0941877 -98.556122
1496500000 -2.9543722 164.06122 -58.515957 140.95322 -91.419365 -154.26421 -8.3558006 -175.0135
1506000000 -2.9932168 135.89519 -59.206581 40.009987 -85.25885 168.57925 -6.7940211 114.9249
1515500000 -3.0434048 107.36641 -59.71891 -53.796795 -84.769424 72.606903 -6.0983491 47.686962
1525000000 -3.1054749 78.316528 -58.988007 -155.21873 -92.863663 -4.7183175 -6.7364717 -16.236042
1534500000 -3.1145658 49.134789 -60.116951 107.67767 -91.345901 -92.812057 -7.7892151 -79.435005
1544000000 -3.0862284 20.291798 -59.720089 10.763391 -89.218719 175.17107 -8.306428 -149.62367
1553500000 -3.0707679 -8.2597332 -59.30862 -88.172577 -86.385437 82.732811 -7.9294815 132.32646
1563000000 -3.0503771 -36.595634 -59.317013 173.78197 -83.259323 12.126117 -7.2916589 58.221184
1572500000 -3.0121403 -64.46122 -59.689163 80.752327 -85.730995 -64.36393 -6.780499 -5.5944667
1582000000 -3.0028305 -91.958275 -58.456131 -14.242752 -83.164192 -172.44293 -6.3716035 -65.38118
1591500000 -3.0385821 -119.61231 -57.571297 -116.44854 -84.033997 129.3179 -6.5254064 -129.51291
1601000000 -3.0835466 -147.53276 -57.262558 142.202 -83.434067 10.937566 -7.7550325 159.54045
1610500000 -3.1220231 -175.62094 -56.913746 41.696995 -86.297997 -104.30119 -8.9155941 84.458984
1620000000 -3.1936042 155.94949 -56.739799 -58.107399 -85.254601 -172.10521 -8.2938967 9.9336233
1629500000 -3.2841871 126.94518 -55.687786 -156.75021 -86.735382 103.44631 -6.6306176 -60.647266
1639000000 -3.3357632 97.584785 -55.212593 96.723381 -81.861244 7.3306561 -5.8062139 -128.10857
1648500000 -3.353934 68.150169 -55.58321 -6.8278403 -84.213364 -109.88928 -6.2547221 168.92458
1658000000 -3.376276 38.637821 -55.393303 -105.6643 -83.152328 165.42906 -7.1684585 106.83363
1667500000 -3.3792059 9.2203674 -54.924023 154.91681 -83.194092 108.59689 -7.9226856 37.505417
1677000000 -3.3257997 -19.737413 -54.786732 49.90057 -82.208374 -19.507853 -8.0665007 -40.155964
1686500000 -3.2613566 -48.082546 -55.025681 -49.988937 -84.767746 -107.22556 -7.4623885 -114.06487
1696000000 -3.2404826 -76.017456 -54.61322 -147.96568 -80.466423 -177.71109 -6.4968896 -178.21553
1705500000 -3.2250419 -103.69703 -54.312191 111.33406 -80.466736 88.796577 -5.6771283 121.20276
1715000000 -3.1997812 -131.18356 -53.897404 7.889112 -82.357399 -43.740372 -5.758707 57.897732
1724500000 -3.2131226 -158.57393 -53.849483 -94.100807 -82.292374 -104.30855 -7.1051617 -8.4235678
1734000000 -3.2620292 173.78494 -53.759068 165.35121 -81.429916 160.075 -8.5807657 -78.524551
1743500000 -3.3081095 145.75345 -53.800701 67.941055 -85.369057 60.167431 -8.4805918 -153.88542
1753000000 -3.3407836 117.59251 -52.642586 -33.457348 -80.460243 1.3052664 -7.0001721 131.12234
1762500000 -3.3771179 89.218605 -52.322128 -140.51552 -80.759193 -120.68987 -6.0641727 61.479935
1772000000 -3.4160607 60.452652 -52.975796 119.3409 -80.961548 150.6689 -6.1494517 -1.5019556
1781500000 -3.4198897 31.700878 -52.641209 20.684689 -81.197144 69.429878 -6.6808 -62.974319
1791000000 -3.3919287 3.1982486 -52.326488 -83.56356 -82.452042 -14.725558 -7.4050565 -130.32201
1800500000 -3.3698003 -25.084736 -52.565777 176.71527 -80.686852 -122.53257 -8.0143375 155.50137
1810000000 -3.3281987 -52.974754 -52.314545 77.51458 -81.01181 151.03052 -7.7729268 83.242805
1819500000 -3.2787213 -80.4505 -52.045261 -22.973324 -80.38913 59.030674 -6.7233248 18.169371
1829000000 -3.2642429 -107.62193 -51.386971 -121.99352 -78.521645 -26.8755 -5.7110896 -44.571629
1838500000 -3.261158 -134.64775 -50.545322 134.6124 -80.674065 -138.33298 -5.8091803 -109.659
1848000000 -3.2624059 -161.69647 -50.847675 28.68326 -78.684998 145.29942 -7.2745376 -176.24792
1857500000 -3.3030274 171.2032 -50.427547 -70.470268 -79.841148 48.893471 -8.8154106 113.07195
1867000000 -3.3701167 143.83362 -49.85437 -175.08044 -80.47934 -44.39756 -8.6704903 35.356209
1876500000 -3.4410057 116.01453 -49.889015 79.70784 -77.125 -149.68593 -7.0843639 -41.275192
1886000000 -3.5156586 87.941948 -49.876656 -24.234509 -77.476486 137.28239 -6.0357695 -109.99919
1895500000 -3.5875125 59.580429 -50.043995 -127.89603 -79.606316 25.941936 -5.888979 -171.20735
1905000000 -3.6481183 30.866711 -50.421883 131.45544 -83.091759 -57.083172 -6.2544045 128.74687
1914500000 -3.6808476 2.2305088 -49.841545 29.679106 -77.42012 -160.15851 -7.1327009 63.01273
1924000000 -3.6880615 -26.200508 -50.030384 -80.033669 -77.507835 104.98383 -8.200366 -10.069356
1933500000 -3.6791883 -54.44157 -50.736828 178.75359 -81.926315 22.446142 -8.2263021 -84.688431
1943000000 -3.6574378 -82.333679 -50.646923 77.598984 -79.988304 -69.84935 -7.0307412 -154.46301
1952500000 -3.630621 -109.911 -51.002037 -29.439957 -80.737206 169.65607 -5.9099498 138.47954
1962000000 -3.6201255 -137.40257 -52.313362 -132.60046 -81.977776 81.641556 -6.0110312 71.862442
1971500000 -3.6136391 -164.82162 -52.747196 130.85425 -84.240555 15.573766 -7.1493173 6.0430717
1981000000 -3.6188631 167.72272 -53.151184 32.343708 -81.991707 -77.582016 -8.1568203 -63.189354
1990500000 -3.6656654 139.9902 -53.155743 -66.090698 -81.365242 178.15964 -7.9970946 -138.20395
2000000000 -3.7260268 111.84356 -53.142704 -166.3515 -79.488487 90.792542 -6.9772487 148.28455
