!Keysight Technologies,N5242B,MY48420967,A.15.65.19
!Date: Sunday, January 22, 2023 19:08:48
!Correction: S11(C  1-Port  ) 
!S21(Off) 
!S12(Off) 
!S22(Off) 
!S2P File: Measurements: S11, S21, S12, S22:
# Hz S  dB   R 50
100000000 -1.3036338 40.525192 -78.889221 -125.08173 -92.756966 134.3941 -5.6515121 -107.61131
109500000 -1.2178344 11.172207 -81.360764 154.67635 -105.52248 -17.502661 -5.5505166 -179.68808
119000000 -1.1234471 -17.501814 -79.146828 52.587681 -98.21521 92.404053 -5.4875121 116.31527
128500000 -1.0476772 -45.86953 -77.776413 -54.299793 -91.803055 46.705181 -5.2567368 53.485088
138000000 -1.0392493 -74.430649 -76.696198 -148.97272 -91.677986 159.08476 -5.5607862 -16.169846
147500000 -1.0886997 -103.30519 -79.394539 91.493973 -89.057152 155.76347 -6.9831023 -90.948334
157000000 -1.1481253 -132.48999 -79.39724 5.3910947 -89.928772 -125.59238 -7.9907303 -164.21181
166500000 -1.2355951 -162.07437 -76.863831 -103.13464 -88.0513 -67.672577 -7.2423325 126.21548
176000000 -1.3533551 167.90764 -76.173431 164.12535 -96.829323 -12.665805 -5.5983105 57.685844
185500000 -1.4480015 137.68114 -76.437782 43.575718 -87.616753 119.88064 -4.9340606 -12.047883
195000000 -1.4876996 107.67207 -75.384804 -63.049656 -97.429413 -173.40594 -5.7362409 -77.799484
204500000 -1.4981771 78.010277 -76.560905 -153.1647 -89.471886 124.43078 -6.7902532 -141.18748
214000000 -1.4921396 48.610584 -77.882431 97.072098 -97.839745 45.096222 -7.3157239 149.43968
223500000 -1.4552804 19.571411 -75.199089 -1.9977241 -113.60593 -96.062248 -7.2721806 72.472084
233000000 -1.4090396 -9.1419325 -75.945587 -105.35072 -99.302948 -56.097878 -6.9504991 -1.8375638
242500000 -1.3920798 -37.780434 -75.588974 167.58348 -102.793 112.38214 -6.3615518 -67.938263
252000000 -1.3938582 -66.513435 -74.291344 61.585835 -99.822899 154.87358 -5.6693273 -131.99399
261500000 -1.4214978 -95.495598 -73.016228 -51.582943 -90.147896 141.24901 -5.6706929 159.44357
271000000 -1.4931376 -124.82396 -72.838959 -143.9977 -89.870193 81.563568 -6.774724 88.345978
280500000 -1.5787417 -154.56339 -74.64547 113.43617 -97.928886 -128.64026 -7.6775069 17.80382
290000000 -1.6536111 175.43387 -71.826141 19.612783 -90.633095 179.90044 -7.176538 -53.198318
299500000 -1.7307422 145.34578 -72.640038 -93.6754 -85.530029 -119.27344 -5.9498453 -125.40547
309000000 -1.7919054 115.19746 -70.246353 174.68404 -88.342003 118.71219 -5.5308199 163.90854
318500000 -1.8067044 85.335602 -72.691093 53.624981 -88.341934 24.866533 -5.9095931 98.764008
328000000 -1.7826188 55.970516 -72.967323 -41.408405 -85.35128 43.384396 -6.2190075 34.726974
337500000 -1.7658532 26.824503 -71.741142 -139.68976 -94.301331 132.30278 -6.3294349 -35.413811
347000000 -1.7567834 -2.202724 -70.484665 117.98253 -93.204727 -118.07278 -6.6388402 -110.54341
356500000 -1.7289915 -31.069975 -72.742889 22.431524 -106.05604 -115.38035 -6.8460188 178.35667
366000000 -1.7227899 -60.038456 -71.553375 -81.546829 -93.656647 115.74243 -6.3591127 112.55433
375500000 -1.770775 -89.36245 -69.197151 -174.6273 -97.349464 -131.64786 -5.5299683 45.227081
385000000 -1.8301854 -119.15524 -70.789925 78.915291 -89.746605 170.07347 -5.563098 -27.058483
394500000 -1.8907647 -149.20296 -71.149612 -23.294186 -91.524292 75.851128 -6.5706801 -97.852646
404000000 -1.9532021 -179.35031 -70.104805 -119.42112 -92.287842 155.18869 -7.021986 -165.02324
413500000 -2.0128531 150.38602 -70.270386 136.31358 -97.407478 -110.67363 -6.2734575 127.36854
423000000 -2.0539689 120.21449 -69.826927 36.383427 -91.671112 -141.06696 -5.3032217 56.428001
432500000 -2.0517659 90.502419 -70.374229 -69.507614 -87.315018 153.13617 -5.3768568 -13.501107
442000000 -2.0231092 61.259907 -69.583031 -165.56235 -90.985992 83.167938 -5.9744439 -78.12603
451500000 -2.0025008 32.403133 -69.698036 105.1862 -93.048149 139.64941 -6.193974 -143.075
461000000 -1.9774308 3.8041849 -68.098457 1.395576 -90.641655 -171.80167 -6.0880508 145.11629
470500000 -1.9493603 -24.601147 -68.245667 -106.94635 -92.938286 81.949364 -6.245697 69.977661
480000000 -1.9366503 -52.926609 -66.884201 160.81342 -95.627831 162.91 -6.3870001 0.85503417
489500000 -1.9581634 -81.505478 -65.754745 63.242813 -99.303711 -110.08624 -5.9831471 -63.081791
499000000 -2.0043867 -110.46696 -64.295334 -40.503399 -91.025528 -164.05487 -5.4234362 -129.29524
508500000 -2.0433168 -139.61693 -62.043205 -147.83769 -93.098877 170.90497 -5.7251344 159.34619
518000000 -2.0772343 -168.91661 -61.621304 85.831436 -88.662193 -33.772514 -6.7598634 88.144081
527500000 -2.1202335 161.66331 -63.289402 -22.508677 -88.79039 -116.83578 -7.0448723 18.475191
537000000 -2.1476667 132.3158 -63.900242 -132.09186 -91.344994 -149.98772 -6.1604228 -51.952698
546500000 -2.1425338 103.32928 -64.954872 129.61108 -85.459366 111.15958 -5.3585472 -123.15079
556000000 -2.1163166 74.82901 -66.344604 29.799961 -85.837868 40.115799 -5.5664134 170.07384
565500000 -2.0843589 46.714203 -67.083496 -72.240059 -93.48938 -156.84459 -6.0826979 108.25693
575000000 -2.0537679 18.90329 -66.968628 -169.7607 -91.200882 167.41953 -6.2878909 43.574966
584500000 -2.0207312 -8.6646919 -67.031815 97.443588 -93.313293 123.17355 -6.4567413 -30.57917
594000000 -2.0007658 -36.196003 -67.145866 -10.385598 -96.214119 126.30703 -6.9386864 -107.83379
603500000 -2.0095236 -63.925434 -67.845047 -109.64889 -93.367149 -81.783493 -7.0068893 -177.29378
613000000 -2.041312 -92.024063 -66.978485 163.03444 -98.404556 161.05232 -6.3062387 118.77651
622500000 -2.0809407 -120.5194 -66.734619 57.041122 -94.096474 -3.6074331 -5.6417127 52.408852
632000000 -2.1337676 -149.38597 -67.007942 -49.121452 -96.269386 47.92831 -6.1111922 -18.108984
641500000 -2.1842012 -178.509 -67.000107 -141.14478 -97.113808 147.58771 -7.2370462 -88.679413
651000000 -2.2229652 152.22479 -65.691246 118.66477 -93.21711 133.53561 -7.5067263 -160.25711
660500000 -2.2449481 123.03299 -66.990456 18.462358 -91.466827 63.50798 -6.6488762 126.48023
670000000 -2.2424915 94.045677 -66.013786 -85.668991 -99.595642 49.557724 -5.9416623 55.309677
679500000 -2.224402 65.393127 -65.950951 173.64908 -96.967125 -108.57367 -5.9707608 -9.2092657
689000000 -2.1904602 37.162685 -66.275154 77.239471 -90.973595 -107.9288 -6.1704617 -70.433899
698500000 -2.1631932 9.1782465 -66.123329 -25.701002 -94.761185 0.51176566 -6.3954849 -137.35533
708000000 -2.1512582 -18.68413 -64.92041 -128.87672 -91.168106 -27.083595 -7.122962 145.71687
717500000 -2.1452565 -46.534424 -65.719055 128.22174 -110.10667 -25.734577 -7.7904286 67.729301
727000000 -2.1673737 -74.650833 -65.994095 32.903236 -100.99568 -67.072144 -7.2705498 -2.2443409
736500000 -2.2264268 -103.2215 -65.40699 -67.399445 -100.64385 -3.4401538 -5.9920774 -67.276443
746000000 -2.2895408 -132.29065 -64.565956 -168.96272 -92.705078 -16.658037 -5.2903976 -134.02597
755500000 -2.3443816 -161.73235 -65.248642 84.480087 -89.49733 -179.04901 -6.0392828 158.73378
765000000 -2.4063723 168.60202 -65.682709 -12.023732 -94.026512 166.30275 -7.2858825 92.300247
774500000 -2.4557314 138.77303 -64.519676 -112.14136 -92.393501 -5.6914902 -7.6362729 20.888386
784000000 -2.4686205 109.04479 -64.37664 146.62743 -95.073425 50.196445 -6.8653264 -56.282848
793500000 -2.4521267 79.716187 -65.2006 43.640266 -94.683907 -117.85061 -6.2419629 -129.69382
803000000 -2.4259119 50.845009 -65.473434 -56.866093 -91.407074 91.314796 -6.0880303 167.09685
812500000 -2.3945746 22.373671 -65.25 -153.57742 -91.382347 25.394588 -5.8798065 108.21819
822000000 -2.3575995 -5.7191486 -64.912025 108.20601 -91.379684 25.074108 -5.7867327 43.660206
831500000 -2.3350101 -33.554672 -64.49836 3.5603132 -90.400993 -118.25657 -6.6384482 -30.630917
841000000 -2.3370383 -61.350159 -64.359108 -99.286789 -88.136063 124.11988 -7.7949405 -107.12256
850500000 -2.3647742 -89.372055 -65.348442 162.82031 -95.150024 -159.39713 -7.5284629 -178.48068
860000000 -2.4097123 -117.75874 -64.356575 65.122108 -97.442383 16.576382 -6.1418052 114.86392
869500000 -2.4604011 -146.49228 -63.664284 -41.59687 -88.615822 -179.52663 -5.1971817 48.35331
879000000 -2.5111351 -175.48891 -63.981499 -141.27719 -88.086174 150.02754 -5.6137581 -16.829933
888500000 -2.5530519 155.35435 -64.394318 120.94197 -93.947586 -22.095766 -6.6725349 -80.421722
898000000 -2.5725269 126.18408 -64.144394 17.445839 -87.171341 -70.500916 -7.3871751 -149.3428
907500000 -2.5611269 97.240143 -64.187828 -79.598373 -88.527237 -154.67918 -7.3340397 133.37523
917000000 -2.5294898 68.731689 -63.640293 175.53885 -87.097672 110.78703 -6.8443747 57.946171
926500000 -2.4844384 40.67054 -64.447929 76.501892 -103.99636 25.822052 -6.270339 -7.4187355
936000000 -2.4325235 13.070758 -64.405487 -20.154362 -93.908142 -83.408981 -5.6513638 -67.518936
945500000 -2.3851409 -14.099326 -63.815632 -120.75903 -86.867424 -166.56569 -5.4452491 -130.57133
955000000 -2.3532045 -41.035324 -63.529346 138.49403 -89.839218 96.747047 -6.3566446 160.50702
964500000 -2.3478243 -67.943977 -63.837837 39.11137 -87.417847 20.268114 -7.7942977 88.053871
974000000 -2.3637831 -95.010902 -63.955544 -62.129524 -93.223709 -83.148773 -8.0503616 13.846239
983500000 -2.4013238 -122.4636 -63.15081 -160.34204 -90.372879 173.32674 -6.9432211 -58.346146
993000000 -2.4495387 -150.32027 -63.216915 100.57162 -84.976639 96.022713 -6.0063763 -126.29402
1002500000 -2.4921589 -178.52382 -63.516083 0.84537709 -92.431297 44.606815 -5.9598198 171.00885
1012000000 -2.5362625 152.94383 -62.727791 -97.761734 -95.369896 -48.708179 -6.3667016 110.02787
1021500000 -2.5646508 124.26136 -61.998947 161.62143 -86.716866 164.88776 -6.98733 42.618774
1031000000 -2.558758 95.629684 -61.692223 55.23605 -103.7869 1.289773 -7.8881569 -35.048367
1040500000 -2.5353477 67.245453 -62.565498 -45.199608 -87.073586 -6.5221605 -8.2445097 -113.13177
1050000000 -2.5054436 39.216312 -61.9832 -142.87936 -97.168976 -9.6667738 -7.3940306 178.39725
1059500000 -2.4599378 11.517179 -61.843643 118.5137 -85.815445 -149.0764 -5.9767575 115.12963
1069000000 -2.4184794 -15.807539 -61.499157 13.765928 -82.897804 90.102997 -5.2509303 48.943027
1078500000 -2.398648 -42.842354 -61.341362 -88.031265 -84.638176 -13.937603 -6.220427 -18.898422
1088000000 -2.3972635 -69.894798 -61.558411 172.24712 -87.868553 -120.8231 -7.8823261 -85.67469
1097500000 -2.4264395 -97.187637 -61.603077 74.846367 -83.774261 154.7859 -8.5547152 -156.72017
1107000000 -2.478833 -124.84525 -60.902561 -26.629358 -86.431534 86.501572 -7.7094259 127.31215
1116500000 -2.5411248 -153.03856 -60.499855 -130.79097 -89.540764 -28.237801 -6.7266774 53.950153
1126000000 -2.6107254 178.23904 -60.791115 128.4502 -86.245163 -82.055367 -6.44771 -11.276617
1135500000 -2.6720724 149.13321 -60.795544 31.628878 -85.196732 153.30629 -6.4709225 -72.622421
1145000000 -2.7177632 119.69796 -59.855114 -72.238449 -86.658356 114.10571 -6.829587 -139.05229
1154500000 -2.7366574 90.207214 -59.966633 -177.21025 -90.501495 -102.94094 -7.8876839 145.85321
1164000000 -2.7251644 60.964287 -60.322624 84.479759 -91.645737 -92.378296 -8.5978498 68.864159
1173500000 -2.6988001 32.011211 -60.239285 -13.091159 -87.154419 169.15422 -7.7154894 -1.9680105
1183000000 -2.6670594 3.4777696 -59.526279 -116.5298 -91.146286 41.658611 -6.023077 -68.213188
1192500000 -2.6292608 -24.585903 -59.419834 141.42555 -86.986053 -60.083473 -5.1731429 -135.08052
1202000000 -2.6070936 -52.307278 -59.91325 39.015835 -85.520546 -88.589355 -5.9408326 160.32458
1211500000 -2.6135426 -79.925484 -60.198315 -60.772537 -96.08271 125.76631 -7.3138442 98.316132
1221000000 -2.6453199 -107.68604 -59.662907 -157.05432 -83.722099 60.329845 -8.1996241 30.868109
1230500000 -2.6985786 -135.70341 -59.197121 101.77573 -89.937309 -31.082897 -8.0343475 -46.265747
1240000000 -2.7546587 -164.10654 -59.18858 -3.1641262 -85.75499 -159.14494 -7.2571259 -123.42264
1249500000 -2.8141196 167.04074 -59.002182 -103.58015 -84.328003 157.13625 -6.5673079 168.9081
1259000000 -2.8753784 137.85719 -59.013 157.92438 -82.851082 61.585712 -6.0580201 107.012
1268500000 -2.9102831 108.48573 -58.908703 55.416172 -87.624557 -61.581669 -6.0748401 43.30003
1278000000 -2.9035842 79.172157 -58.905048 -49.030506 -82.634026 -164.49535 -7.0379677 -24.918053
1287500000 -2.8726268 50.245674 -59.060608 -147.75131 -82.637131 135.91127 -8.1551542 -96.663788
1297000000 -2.8331108 21.743633 -58.517117 114.19016 -84.845978 42.718021 -7.9237447 -170.63826
1306500000 -2.7802658 -6.2651119 -58.52108 9.2741842 -85.061249 -37.691296 -6.5513773 116.70274
1316000000 -2.7142432 -33.662369 -58.428616 -91.056389 -81.109947 -153.93874 -5.7103934 48.213295
1325500000 -2.6729431 -60.650925 -58.433094 168.47847 -87.066948 119.63309 -5.8571315 -13.749751
1335000000 -2.6701031 -87.530571 -58.375023 70.501617 -85.168808 49.545296 -6.370007 -72.89962
1344500000 -2.67784 -114.43417 -58.276176 -29.35458 -83.7761 -69.395866 -7.0056448 -137.20549
1354000000 -2.6960316 -141.45624 -57.358044 -132.53699 -87.406288 -146.85182 -7.8194847 148.94286
1363500000 -2.738663 -168.77496 -57.635078 125.44952 -83.080452 83.365791 -8.1456919 72.149239
1373000000 -2.7949984 163.41475 -57.55722 25.813435 -82.074112 13.297014 -7.3344274 1.8686779
1382500000 -2.8418548 135.24129 -56.976952 -78.070831 -82.450829 -66.552742 -6.0597315 -63.793598
1392000000 -2.8653371 106.89918 -57.592182 177.41412 -81.961548 166.27437 -5.616188 -130.71712
1401500000 -2.8698833 78.439362 -57.709663 82.943481 -87.012878 121.30864 -6.6424942 162.40419
1411000000 -2.8589127 50.043278 -57.397068 -18.085665 -83.168015 18.131983 -8.0495682 95.954788
1420500000 -2.8275235 21.947994 -56.574566 -117.76344 -83.222672 -55.834732 -8.304472 24.542446
1430000000 -2.7728107 -5.6982799 -56.233612 137.8024 -84.051224 -160.694 -7.1315341 -51.528221
1439500000 -2.7212155 -32.859261 -56.52808 32.936455 -81.947922 105.29143 -6.1797647 -124.44521
1449000000 -2.6894457 -59.678558 -56.797253 -67.682289 -80.528854 -8.0284748 -6.1269445 172.0921
1458500000 -2.6789057 -86.409866 -56.543087 -166.67882 -85.638481 -92.909988 -6.3640566 113.99936
1468000000 -2.6881409 -113.18693 -56.14753 87.761543 -81.168495 -163.46346 -6.8167148 52.217144
1477500000 -2.7127118 -140.0809 -56.386166 -17.988115 -85.850723 119.44213 -7.8592877 -19.278349
1487000000 -2.7641592 -167.39867 -58.018238 -122.62218 -85.386322 -44.136589 -8.7611523 -97.885742
1496500000 -2.831409 164.7762 -57.391109 142.30031 -87.484077 -119.72494 -8.0813227 -174.07094
1506000000 -2.8915007 136.52824 -58.176842 37.413414 -86.31102 151.83138 -6.5546627 115.73663
1515500000 -2.9457364 107.8935 -58.99596 -57.38887 -88.298317 109.00896 -5.8622155 48.157467
1525000000 -2.987946 78.925392 -58.356373 -158.62706 -87.363914 -5.3669257 -6.4970379 -16.032009
1534500000 -3.000324 49.809708 -59.695728 105.32326 -89.38813 -98.179787 -7.5200539 -79.241272
1544000000 -2.9917195 20.846498 -60.283138 9.4195757 -87.644775 161.35863 -7.987885 -149.13062
1553500000 -2.9674518 -7.765347 -59.567226 -85.482361 -88.721321 90.004219 -7.6029711 133.13718
1563000000 -2.9284751 -35.979946 -59.353893 177.88617 -88.393433 50.229942 -7.0176663 59.041431
1572500000 -2.8994122 -63.806767 -59.219707 83.302078 -91.411316 -94.485405 -6.5535831 -4.8976922
1582000000 -2.9023244 -91.425209 -58.254616 -15.756574 -82.815659 -161.39302 -6.1505809 -64.817818
1591500000 -2.9266582 -119.08392 -57.020515 -117.48862 -83.018394 87.458488 -6.2723384 -129.13718
1601000000 -2.9572566 -146.86053 -56.786419 141.63658 -87.258827 -5.7051401 -7.4599228 159.77904
1610500000 -3.0069764 -174.91652 -56.694473 40.341831 -87.627304 -76.723465 -8.6015272 84.978165
1620000000 -3.0902858 156.54933 -56.678368 -58.114155 -87.426308 -157.75847 -8.0104227 10.878393
1629500000 -3.1681159 127.53516 -55.568024 -158.49152 -84.118294 99.995331 -6.3771477 -59.669113
1639000000 -3.2133553 98.268471 -55.099823 97.307457 -85.298622 7.5806212 -5.5697794 -127.43533
1648500000 -3.2473135 68.818756 -55.366898 -5.7736826 -83.122055 -88.460152 -6.0324831 169.29204
1658000000 -3.2755604 39.222439 -55.203743 -104.47332 -85.340538 165.43909 -6.9342232 107.06298
1667500000 -3.2649159 9.8131123 -54.747692 155.33495 -82.128899 83.398384 -7.6427836 37.762608
1677000000 -3.2076974 -19.07069 -54.700218 50.449345 -85.310768 -3.0575292 -7.7595778 -39.677971
1686500000 -3.1510904 -47.416843 -54.844807 -49.640553 -84.48941 -98.08577 -7.1893091 -113.39607
1696000000 -3.127624 -75.385399 -54.503399 -147.73813 -82.72467 177.08493 -6.2611427 -177.4946
1705500000 -3.1092343 -103.05878 -53.972733 112.07549 -79.893318 82.038078 -5.4485474 121.84879
1715000000 -3.0873163 -130.51019 -53.716572 8.9463072 -81.76236 -19.188076 -5.5156493 58.324913
1724500000 -3.095201 -157.88905 -53.623775 -93.289803 -80.579071 -99.160439 -6.8493562 -8.2097445
1734000000 -3.1393416 174.49977 -53.507671 166.52002 -81.860016 172.31694 -8.3037891 -78.245972
1743500000 -3.1940708 146.50275 -53.418839 68.327675 -81.199257 85.823257 -8.1917667 -153.25491
1753000000 -3.2317886 118.2913 -52.342613 -32.921753 -82.516296 -17.124296 -6.7264252 131.88849
1762500000 -3.2568784 89.894829 -52.050686 -138.97583 -80.508141 -113.78262 -5.8149776 62.066162
1772000000 -3.2956867 61.200954 -52.65168 119.79179 -81.418045 159.34618 -5.9224968 -1.1146181
1781500000 -3.3190265 32.426643 -52.314037 20.516535 -80.087982 77.516922 -6.4531517 -62.722763
1791000000 -3.2889204 3.8363819 -51.989967 -82.96402 -81.723106 -25.612581 -7.1504555 -130.18422
1800500000 -3.2410717 -24.380888 -52.338413 176.80322 -80.337357 -121.02216 -7.7362499 155.67654
1810000000 -3.2062333 -52.169407 -51.958057 78.212799 -80.454987 138.35983 -7.5043945 83.631157
1819500000 -3.1815341 -79.716454 -51.752449 -22.712341 -84.205261 65.655098 -6.470418 18.739014
1829000000 -3.1542919 -107.00827 -51.075863 -121.3102 -81.220016 -36.058685 -5.4534879 -43.98539
1838500000 -3.1272526 -133.94641 -50.162083 134.18518 -77.785339 -117.16101 -5.5407424 -109.25336
1848000000 -3.1402574 -160.86232 -50.27924 28.669003 -79.976898 144.94162 -7.0085893 -176.00522
1857500000 -3.202436 171.96251 -50.111965 -71.401299 -78.832977 50.939102 -8.543992 113.38821
1867000000 -3.2592971 144.47771 -49.418423 -176.15747 -77.898087 -43.591988 -8.3930006 35.910374
1876500000 -3.3116331 116.73957 -49.573383 77.541008 -78.437431 -144.61765 -6.817163 -40.69521
1886000000 -3.3923736 88.745895 -49.734623 -26.521645 -78.153923 113.21788 -5.7850647 -109.5546
1895500000 -3.4830384 60.319096 -49.93103 -130.4007 -79.003639 26.75396 -5.6486011 -170.85587
1905000000 -3.5446527 31.549908 -50.391228 129.39989 -79.967262 -90.418602 -6.0061712 129.06487
1914500000 -3.5648258 2.9323239 -49.972862 27.263962 -80.263107 -165.22595 -6.8658147 63.292011
1924000000 -3.5668426 -25.44054 -50.186337 -80.24929 -79.529434 104.062 -7.9273338 -9.7604628
1933500000 -3.5686526 -53.661652 -51.042061 179.35988 -79.433067 22.62262 -7.9712939 -84.222694
1943000000 -3.553072 -81.628807 -50.763611 78.948479 -81.811325 -70.051216 -6.7883596 -153.89191
1952500000 -3.510685 -109.26422 -50.995388 -28.925758 -80.968651 -159.73036 -5.6540966 139.04269
1962000000 -3.4827013 -136.65359 -52.125782 -132.02989 -78.569588 109.33516 -5.7343874 72.32962
1971500000 -3.4914815 -163.99352 -52.712463 130.63785 -83.731682 5.4833822 -6.8593087 6.521801
1981000000 -3.5179009 168.44473 -53.381382 30.57987 -84.357521 -67.975136 -7.8635192 -62.505936
1990500000 -3.5456967 140.64395 -53.614502 -67.084961 -84.342934 -179.90404 -7.7292633 -137.37415
2000000000 -3.584214 112.6179 -53.616634 -164.81482 -81.811203 88.109657 -6.7478533 148.9718
