!Keysight Technologies,N5242B,MY48420967,A.15.65.19
!Date: Monday, January 23, 2023 03:00:26
!Correction: S11(C  1-Port  ) 
!S21(Off) 
!S12(Off) 
!S22(Off) 
!S2P File: Measurements: S11, S21, S12, S22:
# Hz S  dB   R 50
100000000 -1.4989125 40.418743 -79.362709 -109.18082 -89.107529 165.5428 -4.6551199 -108.41671
109500000 -1.4161083 11.006583 -78.428314 162.93658 -94.289345 139.15364 -4.6572042 179.61696
119000000 -1.323845 -17.69915 -80.081627 47.958862 -97.848465 32.106457 -4.6596417 115.78571
128500000 -1.2508483 -46.075741 -77.932549 -51.015732 -94.091789 -177.24763 -4.3802352 52.83334
138000000 -1.2446728 -74.614891 -76.907524 -160.36485 -100.39298 -121.6272 -4.585361 -17.476181
147500000 -1.2954859 -103.45741 -76.274353 94.099472 -89.04911 -129.43828 -5.9831972 -92.459641
157000000 -1.3551803 -132.5946 -80.164223 -19.83186 -91.706184 155.93515 -7.020021 -164.65472
166500000 -1.4413143 -162.12373 -76.03862 -120.32269 -97.962692 52.795128 -6.3306389 126.86095
176000000 -1.555966 167.92351 -75.598312 157.47061 -93.196541 -98.843681 -4.7005124 58.327213
185500000 -1.6445506 137.75247 -76.093491 36.849022 -95.840149 123.93642 -4.0694027 -12.384358
195000000 -1.6761475 107.7927 -75.504257 -64.598724 -98.417747 -27.645973 -4.942842 -78.764557
204500000 -1.678171 78.182953 -76.710609 -165.06551 -99.800575 -130.62303 -5.9724388 -142.16229
214000000 -1.6639707 48.817902 -75.938866 110.40694 -91.333244 -164.2303 -6.3862205 148.76056
223500000 -1.6197175 19.812464 -75.799446 3.3918102 -93.93663 -137.14853 -6.3002162 72.142685
233000000 -1.5667036 -8.8742695 -75.084419 -111.39221 -98.140099 163.54919 -6.0805655 -1.8944443
242500000 -1.5457116 -37.485512 -74.680801 158.17267 -89.80954 81.952499 -5.5786357 -67.866127
252000000 -1.5453 -66.206207 -73.38015 68.815437 -94.393013 -14.305287 -4.8797655 -132.13852
261500000 -1.571334 -95.17688 -72.956726 -47.754696 -85.466125 -147.13376 -4.8403411 158.63956
271000000 -1.6432284 -124.49764 -72.171333 -151.6848 -101.9572 -141.43547 -5.9435396 87.264091
280500000 -1.7312751 -154.24811 -74.808044 125.03072 -95.311607 -132.55797 -6.8369913 17.343018
290000000 -1.8089111 175.73759 -73.643837 7.0846567 -84.196442 142.74086 -6.3306227 -52.854279
299500000 -1.88868 145.6261 -71.970581 -99.898117 -97.735229 -74.614059 -5.1161299 -125.01539
309000000 -1.953446 115.44495 -71.950577 159.89589 -88.818031 24.445978 -4.7612782 163.79579
318500000 -1.9718218 85.54071 -72.388168 55.444077 -91.164215 72.306877 -5.194562 98.452827
328000000 -1.9499608 56.135288 -72.615593 -37.296635 -94.784592 -109.42551 -5.4737697 34.50404
337500000 -1.9386599 26.953663 -70.74218 -144.52321 -91.496544 122.96104 -5.5063043 -35.598057
347000000 -1.9352705 -2.1069458 -72.440956 114.76105 -97.765381 127.58229 -5.8100471 -110.66486
356500000 -1.91403 -31.002823 -73.274841 8.4638109 -86.396675 -76.978409 -6.0885053 178.58714
366000000 -1.9158206 -59.986404 -71.269257 -88.369354 -91.666046 102.13911 -5.636662 113.15226
375500000 -1.9721653 -89.336105 -69.95652 178.62157 -88.442741 136.80679 -4.7684798 45.763172
385000000 -2.0405622 -119.13485 -70.978798 79.275475 -91.200226 -177.36447 -4.7826815 -27.052912
394500000 -2.1088941 -149.18802 -70.351089 -29.790524 -90.690872 45.521626 -5.8389125 -97.909912
404000000 -2.17782 -179.32971 -69.84465 -132.80067 -94.661873 -27.049921 -6.3240519 -164.5405
413500000 -2.2407978 150.41818 -69.344429 133.42557 -87.619141 53.210785 -5.5766525 128.3018
423000000 -2.2842119 120.26543 -69.767097 32.488609 -99.548904 155.1456 -4.5939422 57.15905
432500000 -2.2819846 90.577568 -69.544197 -74.572556 -92.325478 -89.000984 -4.7092285 -13.266029
442000000 -2.2527194 61.370239 -69.218063 -171.89798 -95.980873 62.831272 -5.3401604 -77.980316
451500000 -2.2321386 32.554955 -69.772385 96.481491 -99.792946 -107.46623 -5.5241261 -142.75311
461000000 -2.2090545 4.0109553 -68.649208 -6.6870394 -91.656601 -136.55167 -5.3569913 145.48677
470500000 -2.1826229 -24.345867 -67.923744 -111.41434 -88.39312 -166.70891 -5.5377192 70.256508
480000000 -2.172451 -52.614254 -67.226601 155.34599 -95.796867 91.884705 -5.7549477 1.2452549
489500000 -2.1986957 -81.143608 -66.927773 57.137478 -101.48286 117.09179 -5.3749986 -62.56284
499000000 -2.2494853 -110.06771 -64.506256 -46.409988 -95.529526 166.72124 -4.7706614 -128.95869
508500000 -2.2929208 -139.20256 -62.661327 -159.75877 -89.0327 122.83306 -5.0383182 159.22099
518000000 -2.3334012 -168.48541 -62.870773 83.521881 -97.084702 -19.794676 -6.083878 88.031982
527500000 -2.3813105 162.11162 -64.650101 -23.279354 -96.909531 136.08852 -6.3789816 18.870029
537000000 -2.4100125 132.76115 -65.12146 -128.63078 -88.89782 125.50732 -5.4989877 -51.270416
546500000 -2.4038966 103.7574 -66.106667 130.1667 -89.437088 161.79198 -4.7188897 -122.79519
556000000 -2.3761778 75.236595 -67.374435 28.335777 -89.396072 -100.3492 -4.9795055 170.05623
565500000 -2.3446417 47.09803 -67.445641 -70.428612 -87.700966 17.901258 -5.5010848 108.19099
575000000 -2.3130028 19.268381 -66.714241 -163.04697 -86.734032 126.13058 -5.6256981 43.597004
584500000 -2.2819111 -8.3181524 -66.326515 96.124298 -97.183502 -99.593155 -5.6994185 -30.611032
594000000 -2.2651794 -35.860298 -67.179726 -11.234772 -96.849159 175.75375 -6.2098036 -107.7785
603500000 -2.2793376 -63.592899 -67.635811 -110.65825 -102.4936 -136.70879 -6.3658442 -176.87369
613000000 -2.318886 -91.69223 -67.389351 157.66003 -97.228012 -135.23061 -5.6925192 119.39909
622500000 -2.3659723 -120.18804 -66.292427 59.374855 -91.475624 96.136139 -4.9862299 52.797695
632000000 -2.4264495 -149.05734 -66.815231 -50.080482 -103.79964 72.217514 -5.4249287 -18.17374
641500000 -2.4834414 -178.17433 -66.5028 -143.88863 -96.686363 -110.28024 -6.5448847 -88.639465
651000000 -2.5268631 152.55313 -66.513901 113.35131 -88.356789 -156.81555 -6.8096695 -159.58852
660500000 -2.5511465 123.36042 -66.818214 15.834359 -86.447334 156.81689 -5.9767118 127.46735
670000000 -2.5500441 94.367287 -66.436127 -87.560486 -92.218781 76.467392 -5.3260918 56.024738
679500000 -2.5320408 65.709023 -66.413269 172.8004 -97.814133 77.853821 -5.4094253 -8.7531004
689000000 -2.5000758 37.485767 -66.587738 76.595711 -101.83725 -125.88077 -5.5932426 -70.020897
698500000 -2.4747126 9.5102921 -65.80825 -27.258732 -89.111267 123.46269 -5.7223344 -136.97363
708000000 -2.4665136 -18.339363 -65.466866 -131.54176 -90.536659 -90.229385 -6.3726382 146.08589
717500000 -2.4673908 -46.171539 -66.117188 124.83595 -92.25602 -116.84813 -7.1018252 68.536163
727000000 -2.4972107 -74.259651 -65.966614 32.733955 -92.048599 116.20118 -6.6902981 -0.99701244
736500000 -2.5669441 -102.80633 -64.896935 -68.437943 -89.185036 22.834408 -5.448626 -66.004684
746000000 -2.6404197 -131.85384 -64.770355 -173.01982 -94.915192 -79.184578 -4.726006 -133.18654
755500000 -2.7033713 -161.27185 -65.590866 84.976143 -89.426888 -161.30438 -5.4704556 159.13824
765000000 -2.7716217 169.0894 -66.29641 -16.019566 -88.275574 165.0858 -6.6988635 92.846039
774500000 -2.8256991 139.2748 -65.169312 -113.83421 -91.237381 38.999813 -7.0154748 22.061882
784000000 -2.8391807 109.56026 -64.884773 144.74551 -90.649315 -110.00284 -6.262094 -54.770794
793500000 -2.821157 80.251076 -64.891594 41.040005 -105.06616 -173.69203 -5.7234192 -128.47723
803000000 -2.7926116 51.414627 -65.369301 -58.189304 -89.073265 143.94969 -5.6422911 168.0795
812500000 -2.7578833 22.984236 -65.381424 -154.87709 -86.745239 60.871117 -5.4336081 109.16735
822000000 -2.7202458 -5.0604463 -64.846695 107.25632 -96.120583 -117.50272 -5.2638917 44.538857
831500000 -2.6968668 -32.831219 -64.373611 1.6924043 -88.591515 -154.44998 -6.043632 -29.921761
841000000 -2.7023425 -60.561676 -65.072861 -102.69902 -88.664665 129.295 -7.2302833 -106.1107
850500000 -2.7359715 -88.507088 -65.288445 162.20755 -89.998138 17.789833 -7.053195 -177.02382
860000000 -2.7881832 -116.8203 -64.615395 66.137688 -96.445709 -36.251663 -5.7112851 116.36613
869500000 -2.8443506 -145.4995 -63.787655 -39.971668 -89.819366 -174.05467 -4.7591124 49.490063
879000000 -2.9013591 -174.4407 -64.531853 -141.11327 -90.705772 116.54165 -5.173419 -16.11727
888500000 -2.9470179 156.43547 -64.434547 121.13163 -97.066696 -4.3191767 -6.2129703 -79.77478
898000000 -2.9683771 127.28008 -64.657646 18.701931 -87.819519 -90.45211 -6.8773007 -148.38164
907500000 -2.9554353 98.338295 -64.449036 -82.643784 -90.542625 -162.99088 -6.8135118 134.68059
917000000 -2.9201007 69.826004 -64.125275 176.73836 -87.761566 123.21874 -6.3953772 59.209633
926500000 -2.870002 41.764816 -64.716957 79.757263 -96.376205 31.090471 -5.8892393 -6.3402643
936000000 -2.8139558 14.160898 -64.292847 -19.555046 -88.557434 -77.206619 -5.279181 -66.593613
945500000 -2.762908 -12.999334 -63.640228 -120.55727 -86.471306 177.05235 -5.0257921 -129.88423
955000000 -2.7311354 -39.926083 -63.646793 139.07156 -85.835335 100.14061 -5.8817635 160.89774
964500000 -2.7282286 -66.816772 -63.788483 41.103943 -105.77991 129.32996 -7.2923927 88.576103
974000000 -2.7492023 -93.856972 -63.480953 -63.625145 -94.96273 -70.067772 -7.5694599 14.866443
983500000 -2.795166 -121.29742 -63.254578 -158.69208 -89.816544 157.57758 -6.5082083 -57.184311
993000000 -2.8537314 -149.146 -63.194355 101.67326 -93.185196 69.453316 -5.6033955 -125.4282
1002500000 -2.9042633 -177.354 -63.14333 -1.9233254 -96.538429 51.682327 -5.5724616 171.55885
1012000000 -2.9567335 154.0977 -62.510387 -98.647705 -93.521042 -21.564344 -5.9524841 110.44088
1021500000 -2.9908433 125.38233 -61.679874 160.97983 -98.504372 133.59781 -6.4938989 43.003769
1031000000 -2.9866931 96.703293 -62.300484 54.620918 -88.671951 45.632748 -7.3382077 -34.524853
1040500000 -2.9630647 68.271187 -62.425663 -49.131931 -94.034409 38.931095 -7.752521 -112.21722
1050000000 -2.9304698 40.198818 -62.171616 -143.08199 -93.757408 -136.34286 -6.9852624 179.52837
1059500000 -2.8820438 12.468513 -61.773674 117.66646 -83.921532 164.35777 -5.5824151 116.20882
1069000000 -2.8383884 -14.872229 -61.534405 15.379838 -84.728157 133.66965 -4.8183875 49.64917
1078500000 -2.819644 -41.917812 -61.326687 -88.966301 -91.176796 -55.648167 -5.7701135 -18.621431
1088000000 -2.8215566 -68.958046 -61.522747 170.12242 -93.103249 -106.01225 -7.4128265 -85.289703
1097500000 -2.8577249 -96.218147 -61.536091 71.649139 -86.268669 133.21819 -8.0584707 -155.70401
1107000000 -2.9206083 -123.83509 -60.896076 -26.119125 -87.091713 90.678757 -7.2306132 128.80519
1116500000 -2.9946568 -151.99617 -60.241898 -131.53236 -99.502907 -46.882851 -6.2947788 55.28228
1126000000 -3.0744452 179.32481 -60.977165 127.45596 -89.846954 -78.143967 -6.0577531 -10.20548
1135500000 -3.1456211 150.2571 -60.877785 30.606279 -86.16684 133.13115 -6.0734911 -71.624016
1145000000 -3.1979616 120.84979 -59.668678 -70.672714 -87.235481 51.35762 -6.3720093 -138.04449
1154500000 -3.2206397 91.381905 -59.896862 -176.61546 -84.175064 -19.245811 -7.3846855 146.98848
1164000000 -3.2063591 62.157948 -60.635048 84.73381 -95.224693 -114.75364 -8.1516962 70.42691
1173500000 -3.1763351 33.23748 -60.193054 -15.528833 -85.914665 -159.6123 -7.364821 -0.16115977
1183000000 -3.1391904 4.734374 -59.637634 -115.71848 -85.97287 107.66723 -5.7011156 -66.496193
1192500000 -3.0969517 -23.277483 -59.366604 140.94049 -84.877747 4.2791791 -4.8314185 -133.77103
1202000000 -3.0721848 -50.933239 -59.87735 37.583927 -87.206062 -166.00598 -5.5951238 161.23746
1211500000 -3.0792477 -78.471146 -60.224075 -63.068684 -86.769333 90.770813 -6.9585676 99.238213
1221000000 -3.1137648 -106.14774 -59.593201 -158.82996 -82.88356 34.409195 -7.8117795 32.212872
1230500000 -3.1744435 -134.07343 -58.972164 100.77348 -85.259003 -87.399101 -7.6456971 -44.450336
1240000000 -3.2403982 -162.39095 -59.350712 -3.8218675 -85.690979 -141.60384 -6.9216018 -121.67157
1249500000 -3.3076627 168.8251 -59.368237 -104.92116 -83.898125 118.47496 -6.2842894 170.36626
1259000000 -3.3773041 139.70036 -59.115658 156.04834 -85.34507 27.813421 -5.7846069 108.28205
1268500000 -3.417165 110.36143 -58.942627 54.817268 -82.753059 -69.514893 -5.7733469 44.425716
1278000000 -3.4113474 81.041374 -58.829281 -50.403889 -89.104424 -147.21121 -6.7059751 -23.859444
1287500000 -3.3761086 52.096279 -59.169647 -147.0903 -84.899635 137.31375 -7.8251567 -95.385864
1297000000 -3.3296418 23.58412 -58.633633 112.93572 -82.860207 47.658272 -7.6341562 -169.0528
1306500000 -3.2687113 -4.4438448 -58.44611 8.9060211 -88.661308 -69.687706 -6.2955532 118.22114
1316000000 -3.1957128 -31.861122 -58.500729 -93.666962 -84.05899 -153.94919 -5.4673262 49.377625
1325500000 -3.1487482 -58.835217 -58.637691 166.39621 -82.447571 119.2166 -5.6250219 -12.887171
1335000000 -3.1448212 -85.696701 -58.440132 69.025452 -85.155617 53.392315 -6.1274924 -72.121498
1344500000 -3.1545718 -112.58221 -58.173923 -32.553276 -83.885162 -68.4646 -6.721549 -136.36659
1354000000 -3.1786547 -139.57498 -57.357811 -135.483 -82.554985 -167.34692 -7.5020442 149.92294
1363500000 -3.2292759 -166.8839 -57.679512 123.29534 -80.205048 120.59039 -7.8557568 73.304367
1373000000 -3.2961495 165.31648 -57.43985 22.43075 -85.079857 42.199039 -7.0922556 3.0536032
1382500000 -3.3513288 137.13861 -57.721325 -82.191338 -82.469139 -84.538719 -5.8245001 -62.710316
1392000000 -3.3834703 108.76155 -57.87693 -178.38979 -86.411499 168.31197 -5.3567181 -129.90839
1401500000 -3.3933172 80.250969 -57.341877 81.63401 -80.405556 107.41574 -6.373878 162.96976
1411000000 -3.3823943 51.77758 -57.068439 -20.983547 -82.979065 -0.15501606 -7.7754927 96.620926
1420500000 -3.349226 23.618956 -56.881241 -122.89726 -81.794563 -98.746307 -8.0296803 25.577393
1430000000 -3.2891119 -4.0935841 -56.556831 136.51128 -81.150093 -166.71106 -6.8702183 -50.34449
1439500000 -3.2314737 -31.31262 -56.477501 29.805706 -83.855339 109.19516 -5.9415097 -123.53664
1449000000 -3.1967914 -58.153023 -56.946434 -73.637154 -83.85099 7.3287163 -5.9135418 172.75145
1458500000 -3.1860678 -84.880676 -56.873501 -175.15984 -81.120728 -97.322174 -6.1491952 114.58571
1468000000 -3.1985288 -111.67001 -56.897095 79.944275 -82.227646 146.65582 -6.5638161 52.839539
1477500000 -3.2308393 -138.53113 -58.566788 -25.681429 -86.276779 83.889671 -7.5497332 -18.52182
1487000000 -3.2921226 -165.80659 -59.207699 -121.6086 -88.799515 -16.432262 -8.4496975 -96.790497
1496500000 -3.37345 166.38699 -59.753315 138.1418 -83.90773 -110.72815 -7.8235469 -172.70119
1506000000 -3.4453945 138.17288 -60.362099 45.817707 -85.881912 -171.38467 -6.3210082 117.02927
1515500000 -3.510782 109.56677 -59.50053 -50.907818 -87.07061 81.060532 -5.6272755 49.164761
1525000000 -3.5634172 80.60112 -59.945477 -156.77122 -83.842117 -40.435268 -6.2621069 -15.194607
1534500000 -3.5810444 51.480873 -60.999149 114.268 -85.806053 -120.21744 -7.2759442 -78.304428
1544000000 -3.5712721 22.517534 -60.566833 19.993172 -89.286911 172.16173 -7.7286949 -147.84665
1553500000 -3.5445514 -6.0975771 -59.092747 -76.597298 -87.930885 127.29097 -7.3568139 134.65521
1563000000 -3.500448 -34.309715 -58.935112 -179.02104 -86.245338 45.910957 -6.8122272 60.425838
1572500000 -3.465888 -62.098969 -58.978111 85.709152 -84.798965 -67.269135 -6.3778872 -3.6724255
1582000000 -3.4689693 -89.662079 -57.845814 -13.038203 -84.930611 -168.14175 -5.9719806 -63.609524
1591500000 -3.4957929 -117.24657 -57.127899 -115.50655 -82.48378 103.39771 -6.0576801 -127.87057
1601000000 -3.5318046 -144.94392 -56.865158 142.24162 -84.866882 29.355942 -7.2152352 161.17094
1610500000 -3.591146 -172.89964 -56.803295 41.078976 -85.940987 -110.06127 -8.3837423 86.669502
1620000000 -3.6868315 158.65747 -56.594887 -56.683937 -82.645889 178.24467 -7.8591022 12.741484
1629500000 -3.7751358 129.72089 -55.475365 -157.05161 -82.111191 110.50994 -6.2529111 -57.903606
1639000000 -3.831099 100.5187 -54.977993 96.922813 -82.418953 11.954739 -5.43121 -125.91441
1648500000 -3.8726246 71.120277 -55.392967 -6.1825695 -82.384758 -99.042351 -5.8859124 170.63019
1658000000 -3.9032023 41.533482 -55.227947 -104.09979 -83.403214 171.10901 -6.7820315 108.46347
1667500000 -3.889544 12.112118 -54.755981 155.04565 -82.126534 68.306374 -7.489974 39.431744
1677000000 -3.8253698 -16.776215 -54.652485 51.03046 -82.885101 -21.425936 -7.6359839 -37.863564
1686500000 -3.7583725 -45.13105 -54.910442 -49.651726 -81.263573 -89.27169 -7.1060972 -111.79241
1696000000 -3.7275825 -73.087761 -54.596375 -147.33667 -82.450256 157.813 -6.1963053 -176.11327
1705500000 -3.7029917 -100.73526 -54.117786 112.51144 -80.32563 68.870163 -5.3739586 123.14661
1715000000 -3.6778865 -128.16054 -53.82127 8.3569422 -82.788864 -1.7540225 -5.4124842 59.594158
1724500000 -3.6870489 -155.49377 -53.674606 -94.149292 -80.381462 -107.30109 -6.7246218 -6.9333301
1734000000 -3.7364733 176.9585 -53.776787 166.65248 -82.306702 150.09843 -8.192976 -76.790207
1743500000 -3.8005841 148.99014 -53.443279 68.488197 -79.074188 71.398651 -8.1295595 -151.66396
1753000000 -3.8474233 120.7919 -52.358826 -32.86623 -80.835411 -13.393681 -6.6869559 133.36604
1762500000 -3.8803542 92.411263 -52.010273 -139.53525 -78.366333 -113.51339 -5.765698 63.306423
1772000000 -3.9285297 63.698093 -52.771664 118.20316 -80.328979 160.95787 -5.8643827 -0.05932555
1781500000 -3.9565036 34.869919 -52.338741 20.211407 -80.921463 72.546089 -6.3904428 -61.689335
1791000000 -3.9261844 6.2033443 -51.875744 -82.906242 -82.332626 -39.784924 -7.0853601 -129.0592
1800500000 -3.8738592 -22.088751 -52.20314 175.16035 -79.953766 -147.68213 -7.6843376 156.83887
1810000000 -3.8346176 -49.93169 -51.92345 76.885139 -80.19828 138.02858 -7.4768558 84.684669
1819500000 -3.8041141 -77.528976 -51.61047 -23.162237 -81.022392 59.682991 -6.4527588 19.676226
1829000000 -3.774797 -104.86343 -50.789463 -122.76479 -78.920921 -32.028419 -5.4272313 -43.073051
1838500000 -3.7476215 -131.80719 -49.820358 131.40201 -80.085861 -134.56511 -5.4917965 -108.34047
1848000000 -3.7647128 -158.70384 -49.972118 24.271357 -79.492828 131.16733 -6.9436731 -175.06174
1857500000 -3.8389003 174.1507 -50.242172 -77.959671 -80.075493 44.880943 -8.4905672 114.49104
1867000000 -3.9120131 146.71567 -49.702274 179.25412 -80.172531 -52.624313 -8.3793116 37.116764
1876500000 -3.9799678 119.03452 -49.77737 72.836113 -79.474098 -153.1246 -6.8193884 -39.58604
1886000000 -4.08003 91.124336 -50.01688 -31.629339 -79.104065 122.38366 -5.7764039 -108.60409
1895500000 -4.1897864 62.786842 -50.486889 -136.30589 -78.95195 35.439919 -5.6307807 -169.98206
1905000000 -4.2650738 34.088192 -51.073349 123.88111 -81.702293 -55.773571 -5.9788737 129.98485
1914500000 -4.2870827 5.5435495 -50.729549 21.501917 -79.426239 179.18941 -6.8291707 64.35997
1924000000 -4.2822623 -22.721918 -51.174881 -85.683487 -80.261864 92.837418 -7.9013577 -8.5126467
1933500000 -4.2691793 -50.86446 -51.984917 173.47632 -80.261696 16.368528 -7.9783502 -82.940933
1943000000 -4.2316346 -78.796753 -52.276226 73.253021 -82.145912 -73.850449 -6.8144789 -152.65089
1952500000 -4.164957 -106.41807 -52.617451 -31.962782 -82.70842 -173.16675 -5.6693106 140.30779
1962000000 -4.118072 -133.79713 -53.467854 -131.55652 -82.356735 104.7849 -5.7259712 73.637947
1971500000 -4.1134796 -161.11279 -54.278141 130.02788 -84.233292 -0.92425907 -6.843348 7.9154792
1981000000 -4.1349854 171.32365 -54.764744 33.288471 -85.150764 -58.011795 -7.8698783 -60.934555
1990500000 -4.1664014 143.52779 -54.698147 -63.932503 -83.974258 -171.67677 -7.7770205 -135.72426
2000000000 -4.2151217 115.55006 -54.582138 -161.93037 -82.879433 100.50831 -6.8092966 150.4922
