!Keysight Technologies,N5242B,MY48420967,A.15.65.19
!Date: Sunday, January 22, 2023 22:51:40
!Correction: S11(C  1-Port  ) 
!S21(Off) 
!S12(Off) 
!S22(Off) 
!S2P File: Measurements: S11, S21, S12, S22:
# Hz S  dB   R 50
100000000 -1.3396173 40.493355 -78.829315 -116.64974 -92.231224 174.00137 -5.463769 -107.69938
109500000 -1.2543379 11.12098 -78.516945 166.09491 -90.064301 138.46443 -5.3821063 -179.7749
119000000 -1.1605395 -17.56707 -82.575516 55.232365 -102.24272 -55.219406 -5.3302603 116.2472
128500000 -1.0852679 -45.944225 -79.039665 -66.050903 -106.07399 -92.004112 -5.0899653 53.383224
138000000 -1.0771154 -74.506508 -77.080139 -150.73021 -100.41504 79.379158 -5.3733306 -16.398678
147500000 -1.1261133 -103.37714 -75.450668 101.8165 -93.630035 161.12079 -6.7886481 -91.222313
157000000 -1.1854023 -132.55394 -77.92524 -2.2817335 -89.753891 128.55026 -7.7993865 -164.27711
166500000 -1.2713871 -162.12511 -75.626862 -96.018066 -89.022087 142.06793 -7.0639262 126.36404
176000000 -1.3880481 167.87621 -75.093918 155.14426 -89.094589 108.23846 -5.4221153 57.84359
185500000 -1.4805288 137.67404 -77.565666 49.56348 -92.950577 134.21446 -4.7623343 -12.077041
195000000 -1.5177095 107.68571 -77.295631 -58.803638 -96.959198 83.372406 -5.5769477 -77.952621
204500000 -1.5256379 78.045258 -76.00499 -148.49893 -96.122772 175.44894 -6.6249261 -141.33868
214000000 -1.5178057 48.655457 -77.332405 110.75817 -94.708939 -173.29579 -7.1275001 149.36288
223500000 -1.4800912 19.63105 -76.867874 14.953197 -92.870033 -140.93729 -7.0747247 72.477798
233000000 -1.4321823 -9.0773182 -74.783531 -105.00645 -91.027374 -67.290474 -6.7746186 -1.7697815
242500000 -1.4145327 -37.713974 -74.455986 154.81619 -99.617767 135.45398 -6.2035432 -67.853539
252000000 -1.4166714 -66.450386 -74.128311 61.364403 -91.714539 51.003765 -5.5103836 -131.95322
261500000 -1.4446135 -95.44368 -74.291245 -46.789303 -83.144478 -93.393166 -5.5022902 159.35632
271000000 -1.5160099 -124.7785 -73.702614 -148.99968 -100.052 -29.821012 -6.605701 88.206108
280500000 -1.6024655 -154.52736 -73.003845 115.85268 -91.826492 -130.92534 -7.5057335 17.792898
290000000 -1.6787219 175.45894 -72.651886 15.728806 -90.50811 -141.07436 -7.0066257 -53.057384
299500000 -1.756683 145.36118 -72.975746 -95.284943 -99.787598 -95.742493 -5.782515 -125.27096
309000000 -1.8182462 115.20737 -70.96209 177.23045 -90.270279 94.116989 -5.3765426 163.93959
318500000 -1.8338517 85.341537 -72.434204 61.777493 -92.334572 -70.192162 -5.7655177 98.751076
328000000 -1.8100152 55.973339 -71.881302 -41.049736 -108.8959 169.46591 -6.0683513 34.718998
337500000 -1.7938964 26.82991 -70.629593 -141.96336 -93.19709 -161.47141 -6.1617866 -35.421638
347000000 -1.7853041 -2.1865711 -70.505142 123.71951 -89.759155 108.62531 -6.4689794 -110.53944
356500000 -1.7590731 -31.05073 -72.652367 24.695936 -89.7854 111.48293 -6.6900001 178.41505
366000000 -1.7544956 -60.008949 -71.297089 -72.569252 -93.19838 141.38461 -6.210237 112.68348
375500000 -1.8037099 -89.339462 -70.472229 -177.26872 -93.040932 165.00299 -5.3714056 45.323875
385000000 -1.8654857 -119.1254 -70.633316 74.567085 -98.976913 42.963963 -5.4003296 -27.076475
394500000 -1.927362 -149.17754 -70.661972 -31.979557 -92.185837 92.420418 -6.4164352 -97.890869
404000000 -1.9913199 -179.32947 -71.306877 -121.49641 -99.889046 28.218319 -6.8728118 -164.94968
413500000 -2.0513549 150.40025 -70.169502 138.52675 -90.993759 31.817945 -6.1234775 127.52592
423000000 -2.0927258 120.22079 -70.024368 40.884846 -86.538078 -144.41379 -5.1498089 56.549969
432500000 -2.0906398 90.497871 -69.620102 -60.645496 -87.335472 174.73059 -5.2317824 -13.480334
442000000 -2.0611751 61.254585 -70.073624 -163.69016 -96.209938 -46.564556 -5.8355508 -78.127266
451500000 -2.0403004 32.395248 -69.070671 99.108536 -105.83101 66.919739 -6.0459247 -143.02997
461000000 -2.0149522 3.8027675 -68.659958 2.445827 -96.505798 157.28566 -5.9261899 145.17647
470500000 -1.9863112 -24.599031 -67.858261 -107.6484 -106.57083 -33.461426 -6.0887809 70.030312
480000000 -1.9731834 -52.915455 -67.222221 162.85959 -96.892998 9.7092609 -6.2460346 0.94065195
489500000 -1.994598 -81.473686 -65.771111 63.91288 -92.505783 12.779148 -5.8468146 -62.95945
499000000 -2.0409944 -110.41607 -64.190514 -39.641243 -111.67168 -38.127724 -5.277492 -129.20909
508500000 -2.0795038 -139.55371 -61.604195 -148.69621 -88.549629 102.0743 -5.5713472 159.33308
518000000 -2.1126368 -168.83281 -61.520889 88.215385 -89.633041 -19.331385 -6.6080537 88.141777
527500000 -2.1559577 161.761 -63.372768 -25.798613 -89.381546 -155.61099 -6.8960953 18.59026
537000000 -2.1837749 132.42775 -64.167931 -130.5226 -107.59533 -170.36142 -6.013267 -51.769402
546500000 -2.1792998 103.44487 -66.124008 127.93492 -93.069221 89.883095 -5.216383 -123.04452
556000000 -2.1529827 74.949471 -66.145683 22.950054 -93.761879 82.409584 -5.4355917 170.0883
565500000 -2.1216941 46.83342 -67.06102 -75.514389 -100.22005 -95.27401 -5.9534531 108.25477
575000000 -2.0902569 19.014927 -66.775726 -166.38509 -90.102547 -53.190598 -6.1416736 43.59631
584500000 -2.0582256 -8.5580864 -66.561394 94.226089 -93.852158 146.98405 -6.2898769 -30.577484
594000000 -2.0385337 -36.098824 -66.890396 -10.162455 -100.56095 64.256088 -6.7775812 -107.81512
603500000 -2.0493431 -63.840343 -67.827766 -108.5269 -98.064674 41.211124 -6.8654299 -177.20325
613000000 -2.0823822 -91.945045 -67.471191 159.06282 -102.24968 56.30381 -6.1706471 118.90228
622500000 -2.1229136 -120.44765 -66.858032 57.852222 -94.429077 144.88522 -5.4977961 52.478485
632000000 -2.1773117 -149.32059 -67.341225 -43.88237 -94.665955 -73.567039 -5.9606647 -18.149424
641500000 -2.2286179 -178.44258 -66.406235 -144.04251 -92.440437 -103.00925 -7.0841346 -88.702911
651000000 -2.2682612 152.28958 -66.281754 120.60783 -90.150719 -173.49774 -7.351932 -160.14896
660500000 -2.2898767 123.10704 -66.375099 15.513352 -89.228333 144.53743 -6.4994893 126.65197
670000000 -2.2875669 94.121765 -65.644508 -87.139732 -99.920883 -74.820091 -5.8044491 55.422417
679500000 -2.268791 65.478699 -66.752892 175.91281 -94.289185 110.88768 -5.8459029 -9.1637964
689000000 -2.2354248 37.263706 -65.701721 77.155464 -94.843857 6.6797323 -6.0412164 -70.406769
698500000 -2.2076633 9.2895041 -65.959221 -26.124834 -90.438026 3.4674654 -6.2438407 -137.35437
708000000 -2.1965609 -18.565069 -65.12291 -127.53485 -92.874573 178.17278 -6.9539108 145.70329
717500000 -2.1912804 -46.403465 -65.808212 132.41406 -100.62209 -124.90253 -7.6329236 67.817421
727000000 -2.2140045 -74.511276 -66.255112 35.097546 -90.774254 -145.43347 -7.1347117 -2.0469985
736500000 -2.2746596 -103.08224 -65.092285 -68.872559 -93.449341 76.716911 -5.8644209 -67.075218
746000000 -2.3385258 -132.15245 -64.263924 -171.52037 -91.455872 14.928547 -5.1591229 -133.93262
755500000 -2.3945024 -161.59834 -65.48513 86.778198 -93.556427 77.772751 -5.9083486 158.72935
765000000 -2.4573798 168.73198 -66.122185 -10.603157 -88.223045 100.62844 -7.1485972 92.317162
774500000 -2.5071843 138.89314 -65.021362 -111.03309 -88.777931 72.506638 -7.4884334 21.038767
784000000 -2.5201838 109.15166 -64.452744 146.66463 -95.856537 -6.6916742 -6.7190661 -56.054276
793500000 -2.5031316 79.811752 -64.799057 44.411816 -88.23175 158.82506 -6.1167898 -129.51561
803000000 -2.4760826 50.934185 -64.932831 -58.820831 -89.603043 148.63495 -5.9790759 167.22832
812500000 -2.443794 22.459949 -65.017189 -155.04892 -86.610001 53.892609 -5.7711639 108.33749
822000000 -2.4069946 -5.6320977 -64.580849 108.6554 -97.590347 -158.0482 -5.6600933 43.745449
831500000 -2.3835313 -33.456173 -64.36911 4.085145 -89.47715 143.18193 -6.4955702 -30.603916
841000000 -2.3859551 -61.243664 -64.85276 -100.8347 -87.410271 85.956734 -7.6561308 -107.0221
850500000 -2.4140186 -89.246651 -64.827072 166.54436 -92.73539 60.729561 -7.4084287 -178.2605
860000000 -2.4600859 -117.61766 -64.316422 67.672546 -88.335785 -50.002926 -6.0319905 115.10598
869500000 -2.5108099 -146.33757 -63.867786 -42.761108 -91.39711 -147.5177 -5.087132 48.503445
879000000 -2.5624256 -175.31575 -64.095818 -138.68973 -97.826187 137.30377 -5.5048571 -16.780378
888500000 -2.6039689 155.54539 -64.015938 125.74926 -90.933922 10.6729 -6.5583858 -80.395805
898000000 -2.6242929 126.38885 -64.623528 17.615797 -89.947075 -51.268742 -7.2597251 -149.26117
907500000 -2.6126258 97.456253 -63.998581 -82.483475 -91.767921 168.85715 -7.2015476 133.53999
917000000 -2.5797532 68.956352 -63.990395 177.55991 -86.12944 100.36636 -6.728538 58.128139
926500000 -2.5344989 40.905746 -64.820259 76.713371 -95.551743 -34.38958 -6.1715927 -7.2654123
936000000 -2.4816804 13.312545 -64.405342 -20.013464 -95.128769 22.046879 -5.5554338 -67.39727
945500000 -2.43348 -13.848237 -63.582508 -120.09056 -86.077705 158.97105 -5.3393288 -130.51596
955000000 -2.4015481 -40.782413 -63.759045 139.14331 -87.340347 111.92638 -6.2381945 160.47687
964500000 -2.3965237 -67.677666 -63.980888 38.947937 -107.5721 51.787743 -7.6684465 88.053337
974000000 -2.413501 -94.73925 -63.424709 -62.938213 -96.263718 31.444914 -7.9261675 13.98525
983500000 -2.4521148 -122.18474 -63.888367 -160.52742 -97.305695 -150.20955 -6.829401 -58.163193
993000000 -2.5020995 -150.03694 -63.020943 98.392975 -89.233559 93.264732 -5.9018836 -126.1712
1002500000 -2.5462222 -178.24527 -63.389381 -0.71567798 -98.05265 112.47588 -5.861299 171.05876
1012000000 -2.5919056 153.2211 -62.774792 -98.7957 -95.746605 -91.103127 -6.2622066 110.03661
1021500000 -2.621429 124.53127 -61.79224 162.32352 -91.386414 131.75192 -6.863533 42.604332
1031000000 -2.616894 95.882721 -61.752792 54.658508 -90.048241 120.79576 -7.7501621 -35.045834
1040500000 -2.5936139 67.481308 -62.282871 -46.287045 -89.238785 49.82634 -8.1187563 -113.01736
1050000000 -2.563324 39.433395 -62.137814 -143.60741 -85.719765 -86.536934 -7.2873998 178.57794
1059500000 -2.5176158 11.719598 -61.641632 116.4911 -93.970047 133.51567 -5.8743043 115.29269
1069000000 -2.4755135 -15.610835 -61.323414 13.415335 -88.026718 58.681946 -5.1415334 48.999229
1078500000 -2.4562616 -42.659969 -61.381588 -87.991119 -84.697708 20.545218 -6.1097336 -18.958878
1088000000 -2.4545112 -69.720695 -61.523457 172.90111 -89.62323 -90.670479 -7.7651834 -85.724869
1097500000 -2.4849138 -97.013168 -61.362415 75.194107 -85.6175 147.41225 -8.4276791 -156.63713
1107000000 -2.5374556 -124.66592 -60.874516 -27.478931 -86.491608 69.182709 -7.5825377 127.49903
1116500000 -2.6018841 -152.85548 -60.358688 -130.48325 -86.096931 -22.770233 -6.6124425 54.107197
1126000000 -2.670835 178.43422 -60.795868 128.90691 -86.376205 -126.66978 -6.3460679 -11.175686
1135500000 -2.7336693 149.33904 -60.891289 31.377104 -86.356552 -157.75319 -6.367619 -72.552231
1145000000 -2.7785578 119.91639 -59.796253 -71.274597 -84.474411 51.906254 -6.7118311 -139.01648
1154500000 -2.7986231 90.443253 -59.789616 -177.2674 -89.683372 -15.894485 -7.7571797 145.88992
1164000000 -2.7862582 61.208099 -60.696152 83.237648 -87.33374 -107.74501 -8.4763603 69.018646
1173500000 -2.7588487 32.274342 -60.262108 -15.076469 -84.666336 123.87817 -7.6135216 -1.727182
1183000000 -2.7260265 3.7491655 -59.559959 -118.04309 -91.176453 78.310448 -5.9279571 -67.983261
1192500000 -2.6879785 -24.300518 -59.462494 140.86183 -84.50824 -42.018658 -5.0781908 -134.9657
1202000000 -2.6660137 -52.006763 -60.021088 38.740685 -89.211639 -98.208939 -5.8492937 160.34013
1211500000 -2.6722429 -79.620804 -60.15353 -59.875851 -95.58287 -107.7149 -7.2193751 98.317474
1221000000 -2.7034721 -107.36759 -59.656872 -156.91306 -83.202705 72.819504 -8.0907326 30.941051
1230500000 -2.7577357 -135.38417 -59.10215 101.45641 -90.821846 -21.46294 -7.9181929 -46.090481
1240000000 -2.8156059 -163.77928 -59.283836 -2.3207343 -92.686958 146.85536 -7.1530647 -123.23621
1249500000 -2.875402 167.36867 -59.284763 -103.91342 -82.730621 134.44536 -6.4794412 169.06223
1259000000 -2.9386802 138.18451 -58.856983 156.75046 -87.911095 41.618992 -5.9740067 107.12253
1268500000 -2.9742398 108.81241 -58.802292 54.304623 -86.57888 -80.73632 -5.9848995 43.356907
1278000000 -2.9674954 79.493187 -58.94194 -48.660664 -89.428879 -119.46906 -6.9415035 -24.900007
1287500000 -2.9360313 50.555218 -59.109863 -147.58049 -86.075264 127.22191 -8.0530806 -96.593468
1297000000 -2.8946018 22.050997 -58.718525 113.49373 -87.856483 68.468353 -7.8259907 -170.46631
1306500000 -2.8403585 -5.9549465 -58.556931 11.572121 -89.619286 -36.315636 -6.4617548 116.88972
1316000000 -2.7742169 -33.35894 -58.482784 -92.094772 -82.176186 -125.674 -5.6295266 48.321526
1325500000 -2.7317612 -60.331738 -58.680103 169.07022 -84.099518 116.69653 -5.7833238 -13.705561
1335000000 -2.7285252 -87.204597 -58.347614 70.012154 -84.244583 39.295151 -6.293746 -72.88578
1344500000 -2.7365417 -114.09912 -58.18655 -29.783413 -84.610939 -103.68897 -6.9164762 -137.20512
1354000000 -2.7564523 -141.10414 -57.370834 -131.72925 -81.24044 -138.83969 -7.7177958 148.96181
1363500000 -2.7996898 -168.41399 -57.498558 125.92004 -80.966881 97.15844 -8.0469332 72.241539
1373000000 -2.857476 163.78491 -57.527107 25.411743 -82.736946 30.579082 -7.2479978 2.0093064
1382500000 -2.905725 135.62773 -56.924084 -78.9869 -84.153183 -68.49823 -5.9766774 -63.67207
1392000000 -2.9298873 107.28813 -57.810436 177.75726 -81.716652 -179.29449 -5.5308404 -130.6815
1401500000 -2.936214 78.824669 -57.575165 83.151344 -82.757011 122.86201 -6.5566216 162.37003
1411000000 -2.9260812 50.414745 -57.146076 -16.746529 -83.94532 61.583794 -7.9599609 95.946602
1420500000 -2.8945045 22.311239 -56.572189 -118.31683 -82.192131 -68.696144 -8.2089272 24.640743
1430000000 -2.8388877 -5.3457661 -55.957996 135.89163 -85.647079 -167.22876 -7.0376749 -51.369667
1439500000 -2.7867725 -32.525986 -56.475094 33.191559 -80.954781 76.977196 -6.0968642 -124.35133
1449000000 -2.7547967 -59.349052 -56.765995 -69.782494 -83.839363 33.194725 -6.0543938 172.12904
1458500000 -2.7437501 -86.08297 -56.398125 -167.5191 -82.474937 -123.04396 -6.2928061 114.01368
1468000000 -2.7526031 -112.86448 -55.981163 86.991562 -84.394943 -161.88528 -6.7350779 52.199162
1477500000 -2.778147 -139.7524 -56.27454 -20.964622 -83.782707 87.547859 -7.7611475 -19.299206
1487000000 -2.8300397 -167.05913 -58.085999 -124.13768 -91.395599 -36.088909 -8.6567745 -97.822342
1496500000 -2.8994193 165.12227 -57.632763 138.94701 -86.311989 -97.731125 -7.9894834 -173.90523
1506000000 -2.9597399 136.8864 -58.846756 34.863583 -83.967819 162.14171 -6.471478 115.90197
1515500000 -3.0146067 108.26796 -59.324116 -57.099655 -87.490562 89.610939 -5.782824 48.234737
1525000000 -3.0584927 79.305931 -59.052288 -159.51685 -87.378845 6.1382465 -6.4217715 -16.020164
1534500000 -3.0715959 50.199196 -60.248981 106.37999 -89.913399 -116.20821 -7.4411077 -79.222763
1544000000 -3.0622683 21.246786 -60.719044 9.6678791 -83.933327 -175.84737 -7.8979421 -149.06175
1553500000 -3.0378237 -7.3623123 -59.67527 -83.649002 -84.838821 75.656944 -7.5116758 133.25566
1563000000 -2.9981737 -35.576614 -59.353642 179.06047 -90.201668 34.414055 -6.9396982 59.144985
1572500000 -2.9681373 -63.400051 -59.122566 85.544914 -85.815598 -70.682083 -6.4857206 -4.8186636
1582000000 -2.9713433 -91.009659 -58.25388 -13.551014 -85.510368 -168.6881 -6.0833459 -64.765205
1591500000 -2.9958992 -118.66417 -57.12458 -115.48051 -83.658691 112.38064 -6.1969876 -129.13785
1601000000 -3.0271981 -146.43304 -56.847599 142.37802 -86.534935 15.396445 -7.3769445 159.7493
1610500000 -3.0783768 -174.48242 -56.802891 40.9972 -82.930885 -72.869339 -8.515564 85.016426
1620000000 -3.1628699 156.9894 -56.457035 -56.224144 -82.49646 -171.74954 -7.9306512 11.007298
1629500000 -3.2415307 127.9809 -55.45409 -157.7804 -84.988564 81.311157 -6.3063865 -59.537544
1639000000 -3.2887516 98.714874 -55.101852 97.608932 -83.219826 -13.85241 -5.5030818 -127.37754
1648500000 -3.3237088 69.265198 -55.446686 -5.693934 -84.462883 -114.55037 -5.9699173 169.29967
1658000000 -3.3519599 39.659523 -55.175213 -103.93748 -81.391739 173.44597 -6.8687878 107.05799
1667500000 -3.3408592 10.242248 -54.520931 154.70932 -81.704605 91.960762 -7.5678082 37.783104
1677000000 -3.283061 -18.648355 -54.612137 51.46685 -82.713097 -17.412182 -7.684525 -39.603714
1686500000 -3.2244954 -47.005978 -54.652016 -49.794292 -83.903847 -106.07328 -7.1245527 -113.29797
1696000000 -3.2004244 -74.98262 -54.432922 -147.52693 -84.002792 167.5553 -6.2062612 -177.41414
1705500000 -3.1803818 -102.64548 -53.9175 112.53319 -80.015694 79.826118 -5.3934846 121.90581
1715000000 -3.1587889 -130.10219 -53.636009 9.4459763 -83.90522 12.424226 -5.4580817 58.323689
1724500000 -3.1657355 -157.47498 -53.486881 -93.676659 -83.696594 -116.99764 -6.7867732 -8.2494364
1734000000 -3.2102284 174.9245 -53.608704 166.72594 -81.75132 155.26567 -8.2342052 -78.243134
1743500000 -3.266048 146.93631 -53.406757 68.672485 -82.230759 68.729454 -8.1207075 -153.15887
1753000000 -3.3048351 118.72887 -52.450695 -32.772499 -80.840019 3.1210768 -6.6620669 132.00159
1762500000 -3.3299475 90.346046 -52.043613 -139.8932 -82.467293 -95.689674 -5.7574949 62.13126
1772000000 -3.3695838 61.655327 -52.678761 120.19249 -81.421989 148.98708 -5.8691998 -1.086273
1781500000 -3.3936229 32.884563 -52.250458 21.555462 -80.566956 60.13031 -6.399086 -62.717648
1791000000 -3.3636451 4.2885084 -51.953449 -82.976776 -79.140373 -32.388657 -7.090694 -130.17421
1800500000 -3.3159342 -23.929804 -52.227806 176.05421 -80.218956 -136.15451 -7.6744237 155.71944
1810000000 -3.2798865 -51.712715 -52.027317 77.933624 -79.217812 147.71121 -7.4494529 83.705627
1819500000 -3.2542136 -79.266342 -51.724945 -22.54294 -78.921509 60.751556 -6.4208159 18.814432
1829000000 -3.2267833 -106.55355 -51.009354 -121.00807 -78.842155 -38.218281 -5.4044604 -43.936852
1838500000 -3.1996639 -133.48007 -50.157074 133.21729 -80.832466 -119.53524 -5.4887843 -109.26305
1848000000 -3.2119224 -160.38348 -50.311691 29.074173 -78.175804 136.1586 -6.9523215 -176.04716
1857500000 -3.2757597 172.4565 -50.050739 -71.851379 -79.768745 58.380619 -8.4806099 113.38355
1867000000 -3.3351691 144.99295 -49.523148 -176.34441 -78.532372 -62.964542 -8.3304176 35.98732
1876500000 -3.3884122 117.2671 -49.628399 76.877762 -76.964012 -150.99501 -6.7622485 -40.5909
1886000000 -3.4708595 89.293922 -49.754932 -26.375019 -80.608292 126.37918 -5.7377439 -109.49537
1895500000 -3.5636117 60.887688 -49.996922 -130.02676 -77.845535 21.264505 -5.6067662 -170.83192
1905000000 -3.6273303 32.122646 -50.528748 129.34441 -79.64534 -55.966923 -5.9625902 129.05611
1914500000 -3.6476319 3.5122449 -50.009392 27.123043 -79.769905 -169.59981 -6.8170404 63.259586
1924000000 -3.6496825 -24.852184 -50.272411 -80.505402 -78.665581 114.3968 -7.8740473 -9.773798
1933500000 -3.6508737 -53.077068 -51.093163 179.97223 -82.283394 24.408613 -7.9213858 -84.18338
1943000000 -3.6334662 -81.045578 -50.826401 78.764946 -80.840431 -82.314575 -6.7427297 -153.83253
1952500000 -3.5896187 -108.6813 -51.033401 -28.553629 -79.298111 174.16531 -5.6094666 139.06613
1962000000 -3.5590887 -136.07248 -52.394939 -130.74312 -82.696289 92.31794 -5.6921635 72.309433
1971500000 -3.5667045 -163.41626 -52.891182 131.1088 -80.886703 10.621675 -6.8178077 6.4864707
1981000000 -3.5932043 169.02423 -53.436264 30.81695 -86.848267 -87.257278 -7.8176827 -62.522972
1990500000 -3.6208422 141.21306 -53.758106 -66.476837 -81.225883 -163.25 -7.6832218 -137.35057
2000000000 -3.6603746 113.19691 -53.816349 -164.00731 -82.250023 120.29916 -6.7062964 149.00726
