!Keysight Technologies,N5242B,MY48420967,A.15.65.19
!Date: Monday, January 23, 2023 00:13:30
!Correction: S11(C  1-Port  ) 
!S21(Off) 
!S12(Off) 
!S22(Off) 
!S2P File: Measurements: S11, S21, S12, S22:
# Hz S  dB   R 50
100000000 -1.387023 40.488914 -79.953094 -118.80195 -96.473579 177.32913 -5.1669898 -107.86031
109500000 -1.3007177 11.112561 -78.660606 154.70296 -102.06692 -7.8098149 -5.1150403 -179.92477
119000000 -1.2049186 -17.568502 -79.939415 51.519478 -84.515984 131.31601 -5.083178 116.12587
128500000 -1.1287524 -45.930569 -78.645714 -54.200302 -98.73745 61.913254 -4.827148 53.213501
138000000 -1.1192567 -74.47052 -77.773376 -167.0858 -89.177307 98.089134 -5.0797405 -16.770512
147500000 -1.1676426 -103.32314 -76.436455 91.539528 -86.153534 26.584915 -6.484313 -91.656647
157000000 -1.2253929 -132.47588 -81.342873 -21.397409 -92.185356 143.32574 -7.5032039 -164.39763
166500000 -1.3108822 -162.02672 -77.298363 -97.532669 -86.777229 87.780365 -6.7846251 126.58064
176000000 -1.4262539 167.98828 -76.866905 161.69278 -103.06656 34.576424 -5.1473455 58.055538
185500000 -1.5172971 137.78851 -77.049202 42.726097 -97.781715 144.17337 -4.4975791 -12.158856
195000000 -1.553565 107.79848 -75.081398 -60.06601 -94.287292 97.189796 -5.3324566 -78.225716
204500000 -1.5604056 78.152214 -78.079773 -150.76237 -97.257988 -1.2116274 -6.3717928 -141.61333
214000000 -1.5512183 48.751751 -75.339546 108.6033 -100.96929 14.541299 -6.8391953 149.18777
223500000 -1.5115862 19.714663 -74.989418 4.6715841 -90.938202 1.0444807 -6.7744703 72.42984
233000000 -1.4631851 -9.0023985 -77.010666 -109.6254 -85.192215 -177.34448 -6.5057683 -1.7282857
242500000 -1.445538 -37.646473 -74.87159 161.61098 -88.990219 8.4733839 -5.9625883 -67.774376
252000000 -1.4460003 -66.393166 -73.759209 52.850826 -86.292633 -174.18106 -5.2664609 -131.93892
261500000 -1.4737118 -95.378548 -73.505501 -55.091499 -93.154106 -166.59619 -5.2444139 159.17783
271000000 -1.5456518 -124.71483 -72.577538 -137.96402 -95.406784 -73.771507 -6.3452029 87.945984
280500000 -1.6327503 -154.46739 -71.904213 120.85443 -83.707802 109.60979 -7.2435079 17.718847
290000000 -1.7080464 175.52161 -73.056923 -0.19241188 -87.673241 144.11331 -6.7429452 -52.872856
299500000 -1.786487 145.42813 -72.754509 -84.138794 -87.102592 46.934658 -5.5232692 -125.06101
309000000 -1.8488783 115.27029 -71.083763 163.41959 -90.066658 137.84473 -5.1353168 163.97972
318500000 -1.8642031 85.396011 -73.206978 65.692032 -92.961899 160.94617 -5.5397449 98.712906
328000000 -1.8413701 56.018864 -73.17662 -41.392242 -101.26656 91.276688 -5.8314185 34.695679
337500000 -1.8261933 26.862646 -71.718048 -136.55476 -90.228516 15.754518 -5.9013085 -35.432194
347000000 -1.819128 -2.166316 -71.284492 120.94272 -93.822433 152.90018 -6.2049122 -110.54321
356500000 -1.7935822 -31.037518 -72.720314 18.876925 -92.727638 162.36905 -6.4489508 178.51543
366000000 -1.7905467 -60.005814 -71.151886 -84.507996 -90.498146 117.39394 -5.9795961 112.87598
375500000 -1.8405135 -89.340416 -70.456764 177.11104 -88.994675 145.91507 -5.1295071 45.491371
385000000 -1.9039022 -119.12688 -69.868332 74.468056 -91.722214 -175.92001 -5.1508636 -27.09602
394500000 -1.9665619 -149.17964 -70.660179 -37.270351 -88.272018 100.03981 -6.1825862 -97.934334
404000000 -2.0311353 -179.32213 -71.093582 -120.21877 -110.21278 177.53319 -6.6488132 -164.83232
413500000 -2.0920134 150.41943 -69.764648 143.29228 -90.312248 13.51932 -5.8983212 127.78297
423000000 -2.1332371 120.25822 -69.526352 41.357681 -93.730202 2.3396339 -4.9210892 56.737896
432500000 -2.1309199 90.551743 -69.824951 -65.741829 -89.20076 152.07533 -5.0169177 -13.459612
442000000 -2.101218 61.323494 -69.085724 -160.11134 -89.588104 73.963921 -5.6308308 -78.127403
451500000 -2.0806482 32.481243 -68.589638 108.4924 -103.37096 69.142464 -5.8280063 -142.98553
461000000 -2.0560398 3.9001606 -69.023117 1.3796049 -93.390038 -123.66994 -5.687902 145.23355
470500000 -2.028511 -24.490683 -67.169197 -98.983849 -93.478409 117.14716 -5.8575034 70.064468
480000000 -2.0157354 -52.795059 -67.580414 164.94519 -87.940544 162.79353 -6.0385303 1.0212684
489500000 -2.0391796 -81.352654 -65.13427 66.369507 -98.865326 169.60762 -5.6468382 -62.838573
499000000 -2.0864875 -110.29977 -63.911552 -39.308304 -86.924782 132.83325 -5.0629344 -129.14763
508500000 -2.1256649 -139.43832 -61.607479 -152.76865 -87.650627 109.45728 -5.3458281 159.24411
518000000 -2.1607881 -168.73183 -61.244068 86.569878 -88.770638 60.635532 -6.3850431 88.060501
527500000 -2.2052538 161.84944 -63.595909 -28.540972 -85.999641 168.40202 -6.674541 18.678896
537000000 -2.2336624 132.50613 -64.249817 -131.97064 -90.880508 -136.81932 -5.7938185 -51.581985
546500000 -2.2279513 103.51003 -65.543907 125.34789 -90.365402 120.97441 -5.0048203 -122.96039
556000000 -2.2013855 75.004112 -67.463097 26.354223 -92.551643 -113.45566 -5.2408371 170.05841
565500000 -2.1698112 46.88459 -67.178047 -69.44957 -101.9322 103.80962 -5.7605696 108.20937
575000000 -2.1385081 19.069439 -67.239349 -168.64742 -94.366631 124.69785 -5.9212894 43.566441
584500000 -2.1060083 -8.5043173 -67.173042 98.872292 -94.272942 59.831715 -6.0376368 -30.624014
594000000 -2.0871761 -36.035172 -66.775024 -8.463192 -89.246597 -15.369746 -6.5348368 -107.82607
603500000 -2.0981874 -63.765327 -67.802353 -105.75533 -98.296974 47.685463 -6.6509871 -177.09196
613000000 -2.1325803 -91.855743 -67.821198 164.49582 -92.052307 139.46262 -5.9644709 119.07398
622500000 -2.174185 -120.34535 -66.650085 62.013809 -97.669144 -116.11426 -5.278563 52.56477
632000000 -2.2296495 -149.20811 -67.333427 -46.122372 -92.157455 136.25531 -5.7310472 -18.218012
641500000 -2.2820187 -178.31648 -66.120369 -141.28024 -94.890221 -27.167274 -6.8523049 -88.745506
651000000 -2.3220711 152.42386 -66.31488 115.18996 -100.51208 11.104472 -7.1175227 -159.98221
660500000 -2.3440294 123.24362 -66.64386 17.947901 -93.19072 51.593704 -6.2725306 126.92415
670000000 -2.3424401 94.258125 -65.726471 -86.337708 -106.27231 39.0662 -5.5973287 55.594528
679500000 -2.3238919 65.607475 -65.801292 176.06715 -93.04007 -176.82838 -5.6572328 -9.0730009
689000000 -2.290596 37.385223 -65.952736 78.53373 -95.106529 -91.964729 -5.8471484 -70.337486
698500000 -2.263521 9.4056606 -65.933731 -26.822477 -97.973747 109.99015 -6.0187278 -137.31651
708000000 -2.2522154 -18.448975 -65.419685 -129.08841 -88.315384 -8.0354834 -6.7028828 145.7168
717500000 -2.2481568 -46.291946 -65.402008 126.66407 -89.120018 -118.09319 -7.4006476 67.974632
727000000 -2.2722726 -74.399536 -66.107025 31.463844 -91.339668 109.9054 -6.9372096 -1.7323438
736500000 -2.334687 -102.97251 -64.872726 -67.544449 -103.50585 -171.91922 -5.6779685 -66.75502
746000000 -2.4005094 -132.037 -64.598175 -170.74632 -112.35355 178.54904 -4.9675317 -133.77333
755500000 -2.4575493 -161.4745 -65.110291 86.085182 -86.527817 -138.67448 -5.7164769 158.72763
765000000 -2.5213013 168.85892 -65.707947 -11.191 -89.112579 155.65761 -6.9504614 92.352264
774500000 -2.5723374 139.02895 -64.927773 -114.34867 -93.722473 45.104176 -7.2741818 21.268932
784000000 -2.5853648 109.2967 -64.463959 148.35022 -95.350883 19.003677 -6.5085464 -55.721981
793500000 -2.5679722 79.964203 -65.650551 44.607971 -90.203316 -145.21655 -5.9362988 -129.26468
803000000 -2.5410368 51.094349 -64.856873 -54.468876 -91.825684 136.61267 -5.8244224 167.41289
812500000 -2.507982 22.631948 -65.043739 -153.73569 -85.720085 18.388073 -5.6155353 108.50793
822000000 -2.4708955 -5.4472685 -64.487213 106.68982 -86.582825 -49.688793 -5.4783459 43.849339
831500000 -2.4474235 -33.26804 -64.059555 4.6161628 -93.780876 -179.85229 -6.2913632 -30.583405
841000000 -2.4507816 -61.043991 -64.844078 -102.37716 -108.81892 40.608303 -7.4590206 -106.89357
850500000 -2.4800589 -89.043472 -64.73719 165.30147 -89.294495 87.553017 -7.236052 -177.95461
860000000 -2.5267313 -117.40421 -64.266113 66.888443 -97.41832 -107.47682 -5.873817 115.4352
869500000 -2.5788906 -146.11821 -64.16423 -41.505535 -91.877457 -117.16682 -4.9297032 48.705494
879000000 -2.630913 -175.08731 -64.102974 -141.65898 -96.560593 160.95967 -5.3500857 -16.73114
888500000 -2.6739416 155.77731 -64.324188 119.67022 -90.807938 39.619415 -6.3974118 -80.370171
898000000 -2.6940975 126.6235 -64.092209 16.930796 -96.423439 -46.803989 -7.0769377 -149.151
907500000 -2.6823945 97.694099 -64.04628 -81.076385 -86.830177 119.19913 -7.0110226 133.76344
917000000 -2.6487889 69.195824 -63.943687 178.29607 -92.992218 137.2238 -6.5623417 58.365688
926500000 -2.6025157 41.144493 -64.695381 77.383179 -96.680954 -29.117619 -6.0295906 -7.0535927
936000000 -2.5496199 13.557606 -64.278702 -19.677496 -95.865791 -49.401134 -5.4168816 -67.235512
945500000 -2.5006959 -13.594031 -63.259663 -119.51779 -92.17746 -142.76483 -5.1860933 -130.45207
955000000 -2.4687068 -40.514854 -63.697475 138.05417 -87.465919 82.380096 -6.0674562 160.42815
964500000 -2.4641659 -67.407303 -63.710003 38.419632 -89.432739 32.980705 -7.4852467 88.047997
974000000 -2.4821374 -94.451164 -63.30468 -62.352348 -89.356499 -73.879333 -7.7463059 14.166089
983500000 -2.5227141 -121.88991 -63.229275 -160.15179 -93.108849 -176.20239 -6.6645336 -57.904137
993000000 -2.5747547 -149.73361 -63.435001 99.5867 -90.040016 119.52809 -5.7511983 -126.00093
1002500000 -2.6197326 -177.939 -63.002934 -2.7354586 -92.255135 -21.307844 -5.7183499 171.1274
1012000000 -2.6676829 153.52686 -62.622456 -97.607048 -84.151215 -57.536114 -6.110599 110.05059
1021500000 -2.6981883 124.83977 -61.885288 160.11934 -84.807831 171.39249 -6.6830926 42.583378
1031000000 -2.693119 96.180901 -61.986103 54.55312 -85.144798 102.68921 -7.5492668 -35.027157
1040500000 -2.6702173 67.774475 -62.477989 -44.935799 -85.793472 -18.349485 -7.936049 -112.8445
1050000000 -2.6394868 39.723114 -62.130508 -142.58159 -84.531219 -66.633224 -7.1339173 178.84319
1059500000 -2.5926187 11.99614 -61.529373 119.72369 -84.863281 -176.39392 -5.7260523 115.54075
1069000000 -2.5503502 -15.336691 -61.499268 14.178034 -83.92952 114.25495 -4.9831867 49.094372
1078500000 -2.5307987 -42.387573 -61.195404 -88.980309 -81.842453 -25.924574 -5.9493294 -19.032963
1088000000 -2.5290902 -69.442505 -61.538567 171.60274 -90.316566 -102.77572 -7.5981431 -85.771355
1097500000 -2.560447 -96.731644 -61.447395 73.040977 -83.995461 142.73557 -8.2457752 -156.49071
1107000000 -2.6140964 -124.37184 -60.782154 -27.559685 -105.45603 39.052223 -7.4023337 127.80775
1116500000 -2.6808543 -152.55701 -60.34771 -130.28334 -89.239723 -4.7114782 -6.4507771 54.358299
1126000000 -2.7515361 178.7375 -60.762566 130.03616 -89.935509 -54.227413 -6.2009315 -11.007164
1135500000 -2.8152251 149.64888 -60.927139 31.639578 -88.875328 177.66006 -6.221087 -72.429413
1145000000 -2.8631077 120.22765 -59.879055 -71.442047 -86.967506 66.012421 -6.5454216 -138.93896
1154500000 -2.882338 90.752258 -59.723129 -176.172 -83.460564 -43.401005 -7.5748377 145.97119
1164000000 -2.8703194 61.515793 -60.377373 84.220383 -84.982643 -111.36606 -8.3067179 69.254272
1173500000 -2.8424909 32.583263 -60.246262 -13.911828 -84.170074 158.31546 -7.4710422 -1.360389
1183000000 -2.8088233 4.0575495 -59.509731 -114.26051 -86.6968 87.153091 -5.7961726 -67.645149
1192500000 -2.7693305 -23.990812 -59.354931 142.17821 -88.331589 35.57774 -4.9456682 -134.78362
1202000000 -2.7464399 -51.685867 -60.018723 38.693653 -92.672234 -79.917999 -5.7213178 160.37653
1211500000 -2.7529383 -79.280838 -59.937981 -60.1642 -89.283966 112.19349 -7.0878067 98.341492
1221000000 -2.7850504 -107.01723 -59.739586 -156.83444 -83.510643 49.137005 -7.9410763 31.071877
1230500000 -2.8400912 -135.01082 -59.11578 100.32349 -91.498863 -19.808432 -7.7584677 -45.820236
1240000000 -2.8994894 -163.38588 -58.982452 -3.6876376 -82.675674 -107.81357 -7.011097 -122.94398
1249500000 -2.9614954 167.77756 -59.146191 -104.89622 -87.437241 154.44443 -6.3583827 169.29062
1259000000 -3.0247757 138.61243 -59.043289 157.23532 -85.564461 62.739113 -5.8589902 107.29528
1268500000 -3.0618079 109.25308 -58.879753 54.902676 -94.052216 3.1581254 -5.8629823 43.454559
1278000000 -3.0564287 79.935425 -58.701305 -48.557743 -85.567863 -135.18521 -6.8094578 -24.853647
1287500000 -3.0242963 50.996784 -59.07626 -146.87991 -83.03952 147.39525 -7.9163218 -96.475235
1297000000 -2.9818988 22.48888 -58.658016 114.24449 -90.696732 19.541132 -7.6943622 -170.20256
1306500000 -2.9270747 -5.5219102 -58.425358 11.192821 -84.772919 -71.774063 -6.3413506 117.15699
1316000000 -2.8599498 -32.932457 -58.480141 -92.361214 -88.228683 -178.07466 -5.5206647 48.487289
1325500000 -2.8171709 -59.901867 -58.54459 168.43973 -81.103493 134.98973 -5.6828742 -13.62877
1335000000 -2.8136406 -86.77536 -58.52879 70.371521 -87.658325 78.493431 -6.1903543 -72.842422
1344500000 -2.8225441 -113.66561 -58.030521 -29.252529 -82.381531 -61.549034 -6.7959971 -137.17081
1354000000 -2.8431997 -140.66658 -57.341545 -132.85654 -81.520775 179.63274 -7.5803552 149.01985
1363500000 -2.887948 -167.9763 -57.576752 126.0173 -81.935219 113.53062 -7.9145026 72.392639
1373000000 -2.9475267 164.23077 -57.483242 26.081654 -84.950569 21.049234 -7.1312666 2.2267158
1382500000 -2.9971001 136.07039 -56.82592 -78.998833 -82.759369 -91.15741 -5.8640056 -63.487633
1392000000 -3.0234094 107.72488 -57.632431 177.74271 -84.485916 -179.76335 -5.4156137 -130.60596
1401500000 -3.0296078 79.259773 -57.467125 82.903427 -81.758591 102.29817 -6.4421315 162.35239
1411000000 -3.0186086 50.848995 -57.100948 -17.657774 -84.086868 8.8938112 -7.8404274 95.960724
1420500000 -2.9868681 22.737593 -56.502617 -118.25746 -80.671288 -43.837288 -8.0806828 24.799654
1430000000 -2.9310172 -4.9259477 -56.158283 136.46777 -82.241798 -160.93904 -6.9130344 -51.140533
1439500000 -2.8772006 -32.102032 -56.426476 32.580746 -81.301865 84.12204 -5.9858732 -124.20658
1449000000 -2.8447564 -58.925697 -56.628464 -69.778831 -82.917671 -8.9280329 -5.9578309 172.19873
1458500000 -2.8328922 -85.646736 -56.207188 -169.02829 -81.791542 -72.467804 -6.1976109 114.04656
1468000000 -2.842572 -112.42278 -56.012917 85.442192 -83.203583 175.19284 -6.6252761 52.198879
1477500000 -2.8686473 -139.29294 -56.29903 -25.683432 -85.874062 80.936699 -7.6297288 -19.312952
1487000000 -2.9217567 -166.58423 -58.204556 -125.66337 -85.555016 15.994809 -8.5178461 -97.716705
1496500000 -2.9940755 165.60434 -58.174267 136.03354 -84.048164 -133.58575 -7.8660231 -173.66617
1506000000 -3.0568156 137.38229 -59.707272 34.250122 -89.40049 163.80556 -6.3593497 116.13151
1515500000 -3.1138403 108.77055 -60.000877 -55.68288 -84.92762 71.987297 -5.6759586 48.348824
1525000000 -3.1591785 79.806511 -59.682339 -161.0244 -87.46759 -17.433228 -6.3206306 -15.980412
1534500000 -3.1730816 50.690254 -60.718224 108.90147 -92.485031 -123.6217 -7.3351936 -79.178848
1544000000 -3.1640668 21.726841 -60.778343 14.896463 -87.659035 167.33514 -7.7792969 -148.93678
1553500000 -3.1389143 -6.8942242 -59.692059 -80.212143 -87.070778 98.40567 -7.3922844 133.44688
1563000000 -3.0986769 -35.12241 -59.525433 -179.24176 -83.963196 1.6656694 -6.8367348 59.319149
1572500000 -3.0669396 -62.949154 -59.28931 87.229347 -84.355614 -89.924927 -6.3973303 -4.6774921
1582000000 -3.069922 -90.559326 -58.104919 -11.621693 -82.772095 -144.14815 -5.9946103 -64.649658
1591500000 -3.0943344 -118.20808 -57.02787 -115.57307 -82.440361 104.61762 -6.0984259 -129.06862
1601000000 -3.1263463 -145.96989 -56.79871 143.23065 -90.209229 16.933369 -7.2673264 159.7907
1610500000 -3.1789417 -174.0006 -56.714348 41.236343 -87.057732 -93.380074 -8.4062157 85.156914
1620000000 -3.2655461 157.48491 -56.434071 -57.010323 -84.887772 -173.86612 -7.8321877 11.26437
1629500000 -3.3462017 128.48853 -55.45023 -155.57893 -81.143417 112.94228 -6.2177238 -59.291439
1639000000 -3.3947685 99.236786 -54.944294 97.59008 -83.267448 -6.3357973 -5.4200788 -127.21703
1648500000 -3.4308019 69.796158 -55.33437 -5.6655226 -82.8927 -79.504799 -5.8912687 169.39151
1658000000 -3.4595902 40.190899 -55.203815 -103.91557 -84.147537 175.22276 -6.7869973 107.14799
1667500000 -3.4486616 10.775346 -54.438656 156.18436 -83.81279 90.110664 -7.4775753 37.916534
1677000000 -3.3893213 -18.112347 -54.654747 52.143772 -86.766876 -17.623674 -7.594799 -39.411888
1686500000 -3.3297226 -46.465946 -54.711048 -48.888226 -83.223183 -106.12467 -7.0494752 -113.09711
1696000000 -3.3036528 -74.436028 -54.483055 -147.3335 -82.497566 175.48361 -6.1419511 -177.23204
1705500000 -3.2835364 -102.09933 -53.861366 112.65833 -80.64193 79.051796 -5.3305836 122.04173
1715000000 -3.2610061 -129.53574 -53.740044 9.4198418 -83.424026 12.647217 -5.3888836 58.40189
1724500000 -3.2690239 -156.89656 -53.570076 -93.847603 -80.289848 -102.87904 -6.7118711 -8.2075758
1734000000 -3.3143101 175.5218 -53.758377 166.80225 -79.778023 160.43451 -8.1551828 -78.15876
1743500000 -3.3722334 147.54376 -53.36898 69.35244 -80.089516 81.927055 -8.0427933 -152.97385
1753000000 -3.4126768 119.35223 -52.298916 -32.401913 -80.158241 -15.120419 -6.590498 132.20354
1762500000 -3.4399848 90.976456 -52.060989 -139.23643 -83.240349 -107.28507 -5.6927352 62.267742
1772000000 -3.4820457 62.293053 -52.626118 119.81084 -79.238503 157.25066 -5.8100839 -1.009467
1781500000 -3.5074625 33.512424 -52.362347 20.920338 -82.019569 57.134659 -6.3394141 -62.656647
1791000000 -3.4768958 4.913619 -51.968822 -83.025726 -79.165787 -29.611771 -7.0252771 -130.11763
1800500000 -3.428237 -23.315418 -52.113876 176.8322 -80.946045 -118.8808 -7.6078906 155.79533
1810000000 -3.3920801 -51.116032 -51.992035 78.395996 -79.653931 142.41524 -7.3906035 83.813934
1819500000 -3.3649387 -78.674011 -51.673954 -22.562275 -79.896194 44.667267 -6.368268 18.928791
1829000000 -3.3378906 -105.96392 -51.027779 -122.00208 -78.419502 -32.146313 -5.3503065 -43.856739
1838500000 -3.309284 -132.89281 -50.014305 133.88443 -79.178566 -141.65092 -5.431119 -109.24611
1848000000 -3.3224669 -159.793 -50.224407 27.548075 -78.806526 132.28339 -6.8923402 -176.0681
1857500000 -3.3876781 173.05142 -50.075039 -72.862564 -78.78511 46.180531 -8.4140139 113.40742
1867000000 -3.4493318 145.60359 -49.504017 -176.80949 -79.458099 -49.428463 -8.2620907 36.109669
1876500000 -3.5047765 117.89188 -49.666222 76.877235 -77.516006 -139.58461 -6.7022996 -40.460228
1886000000 -3.5900805 89.935989 -49.759968 -26.574724 -78.054596 135.65387 -5.686873 -109.41777
1895500000 -3.6853805 61.542675 -50.169788 -131.03308 -77.114914 22.508183 -5.5605745 -170.78157
1905000000 -3.7514925 32.790009 -50.528061 128.36662 -79.29715 -52.515533 -5.9159846 129.08311
1914500000 -3.7714643 4.1888347 -50.151268 26.670643 -81.035332 -147.29446 -6.7645702 63.277824
1924000000 -3.7732775 -24.165865 -50.381424 -82.111488 -78.013344 122.52113 -7.8172803 -9.72684
1933500000 -3.7715766 -52.384449 -51.185154 178.96788 -78.046967 25.593039 -7.8673968 -84.086166
1943000000 -3.7519462 -80.346954 -51.000217 78.475861 -82.177788 -67.508232 -6.6952829 -153.71669
1952500000 -3.7034254 -107.9876 -51.357216 -28.820147 -79.948853 -159.60518 -5.5636697 139.17029
1962000000 -3.6700213 -135.3772 -52.645679 -131.16328 -80.156555 97.903687 -5.6462593 72.370728
1971500000 -3.6759241 -162.71768 -53.146706 131.50642 -82.830238 6.6772847 -6.7712259 6.5330443
1981000000 -3.7015214 169.72592 -53.665619 32.214043 -82.895866 -94.17514 -7.7708168 -62.441113
1990500000 -3.728925 141.91498 -53.846642 -64.612213 -85.825783 172.55354 -7.6378613 -137.22296
2000000000 -3.769423 113.90148 -53.862064 -163.34315 -81.624252 128.23962 -6.6678538 149.13899
