!Keysight Technologies,N5242B,MY48420967,A.15.65.19
!Date: Saturday, February 04, 2023 08:11:02
!Correction: S11(C  1-Port  ) 
!S21(Off) 
!S12(Off) 
!S22(Off) 
!S2P File: Measurements: S11, S21, S12, S22:
# Hz S  dB   R 50
100000000 -1.4106996 40.341187 -79.478615 -117.7956 -96.138412 92.833107 -5.1509099 -108.50609
109500000 -1.3379842 11.008512 -76.556061 164.46976 -94.832878 -168.61966 -5.0821881 179.73228
119000000 -1.2639951 -17.870798 -79.672234 47.202435 -90.23597 -128.2852 -5.0614181 115.92932
128500000 -1.173591 -46.231441 -78.411446 -58.246052 -88.109184 -32.744175 -4.8350992 52.963341
138000000 -1.1535382 -74.627625 -76.499352 -146.50496 -87.178726 113.55202 -5.1341391 -17.200613
147500000 -1.2218908 -103.53719 -77.773705 97.052841 -91.028763 177.93208 -6.5679607 -92.2593
157000000 -1.2847017 -132.79437 -79.546844 8.3409357 -97.938881 -163.48534 -7.5640011 -165.11884
166500000 -1.355124 -162.27991 -76.348587 -104.8626 -107.67031 86.324028 -6.8074665 125.92749
176000000 -1.4801178 167.7823 -78.594681 153.83595 -94.964508 101.40131 -5.1568565 57.552658
185500000 -1.5836198 137.49078 -76.990646 46.323551 -93.225632 82.037216 -4.5180688 -12.516771
195000000 -1.6050982 107.49486 -75.729286 -69.258217 -93.980934 97.895248 -5.3703718 -78.51738
204500000 -1.6095414 77.925919 -76.415237 -151.30577 -94.196213 111.28804 -6.4307637 -141.97826
214000000 -1.620973 48.470463 -75.668381 102.08636 -90.366295 163.73589 -6.9149141 148.6169
223500000 -1.5788128 19.345924 -75.479919 3.7575061 -90.33606 63.435158 -6.8460498 71.719955
233000000 -1.5113299 -9.2985458 -74.622612 -105.2252 -90.888069 -177.7168 -6.5533462 -2.3734941
242500000 -1.504662 -37.892403 -75.342804 169.3278 -91.259521 -47.969444 -5.9941783 -68.287422
252000000 -1.5244253 -66.744194 -74.819725 52.470058 -81.215019 35.670906 -5.3008337 -132.36728
261500000 -1.5370654 -95.773666 -71.705933 -57.496574 -87.90477 145.50128 -5.2986693 158.80527
271000000 -1.5965499 -124.9997 -73.569824 -156.14293 -107.9824 103.82913 -6.4197741 87.597977
280500000 -1.7059997 -154.74258 -72.32695 98.815186 -93.485931 157.26082 -7.3228378 17.297674
290000000 -1.7906053 175.13263 -73.071144 9.070529 -85.924377 92.341965 -6.8169608 -53.421135
299500000 -1.8462905 145.0459 -74.076874 -87.700981 -87.136612 147.84059 -5.5899892 -125.61298
309000000 -1.909116 114.99155 -72.078972 167.10841 -90.184822 33.413555 -5.1980662 163.51419
318500000 -1.9456619 85.096535 -74.34729 51.013519 -87.45388 -166.41765 -5.6016378 98.316742
328000000 -1.9168972 55.627129 -71.536804 -38.85688 -91.732796 -31.334862 -5.901896 34.283051
337500000 -1.8887579 26.49214 -70.992126 -143.15944 -84.581726 -151.60793 -5.9855647 -35.910076
347000000 -1.8936597 -2.4939876 -70.694145 122.16065 -96.575249 152.93141 -6.2959361 -111.03828
356500000 -1.8787363 -31.389698 -72.247589 14.271592 -90.775177 86.869316 -6.5280795 178.01595
366000000 -1.8615155 -60.36203 -71.059395 -91.288857 -97.528687 74.633736 -6.0503664 112.38956
375500000 -1.9114602 -89.702576 -70.107925 -179.3166 -90.241982 102.73119 -5.2067275 45.00988
385000000 -1.9914452 -119.50996 -71.460159 78.499046 -95.856728 -83.511734 -5.2442894 -27.509441
394500000 -2.049931 -149.54033 -72.136955 -29.585466 -90.074409 -144.03741 -6.2789927 -98.308823
404000000 -2.1027925 -179.66193 -71.322227 -124.474 -96.337601 106.66519 -6.7415209 -165.29846
413500000 -2.1771963 150.037 -70.210289 137.61797 -95.980515 133.10014 -5.9882164 127.2403
423000000 -2.2286656 119.84241 -69.479515 40.420063 -92.817238 66.739143 -5.0121193 56.20689
432500000 -2.2100949 90.193871 -69.989716 -69.20015 -102.90667 88.28286 -5.1031752 -13.85513
442000000 -2.1758859 60.994019 -69.685028 -159.97356 -84.372856 67.719055 -5.7114372 -78.462486
451500000 -2.1738882 32.059013 -68.930161 99.640724 -87.082062 64.238266 -5.9180641 -143.34418
461000000 -2.1506045 3.4743106 -68.962646 -0.69542497 -90.42057 -111.99713 -5.7997212 144.81126
470500000 -2.1043258 -24.823868 -67.889931 -104.11306 -93.482529 65.78006 -5.980175 69.604256
480000000 -2.097636 -53.136944 -67.466972 161.86784 -92.803413 122.25193 -6.1510596 0.51065528
489500000 -2.138808 -81.792931 -66.658104 65.225128 -93.622925 63.937805 -5.745604 -63.392277
499000000 -2.1793709 -110.73646 -64.490196 -38.088142 -90.260727 162.15483 -5.1574378 -129.68152
508500000 -2.205394 -139.79666 -61.322136 -151.4102 -87.895058 116.61283 -5.4375663 158.82773
518000000 -2.2524831 -169.09668 -61.361198 84.973839 -91.880486 31.479204 -6.4696794 87.745941
527500000 -2.3100109 161.39717 -63.752739 -28.409925 -92.133202 127.09929 -6.7630844 18.36507
537000000 -2.3281109 132.0591 -64.347618 -129.44453 -93.259064 -141.66081 -5.8990269 -51.958038
546500000 -2.3144634 103.12029 -65.679581 125.94761 -90.167725 -82.562859 -5.1266437 -123.35163
556000000 -2.2975118 74.584167 -67.292015 24.900024 -94.005707 125.78149 -5.3650069 169.67892
565500000 -2.2706113 46.427792 -67.412384 -69.649864 -105.80041 -142.42183 -5.8780313 107.77676
575000000 -2.2307174 18.637135 -66.808876 -167.77437 -89.798088 -173.02919 -6.0344563 43.049576
584500000 -2.198782 -8.9291096 -67.430573 93.150223 -93.504799 123.81469 -6.1448016 -31.124561
594000000 -2.1880968 -36.490623 -67.085159 -11.220559 -91.526764 41.659134 -6.6252608 -108.20834
603500000 -2.1950858 -64.211914 -67.63118 -104.85757 -91.909576 10.13256 -6.7319965 -177.39622
613000000 -2.2261178 -92.266571 -66.81501 157.26007 -90.592346 117.53883 -6.0554037 118.77072
622500000 -2.2770307 -120.79404 -67.244392 59.219147 -95.131844 24.958302 -5.3959246 52.232151
632000000 -2.3378987 -149.71484 -67.250809 -44.877308 -93.80616 -28.07468 -5.8732238 -18.546429
641500000 -2.3815632 -178.7571 -66.837036 -140.90077 -97.404411 -52.117115 -6.9977322 -89.149666
651000000 -2.4230111 152.02707 -66.228577 119.2003 -96.418991 132.77942 -7.247529 -160.52011
660500000 -2.4582891 122.75156 -67.225105 17.630806 -90.662224 43.989552 -6.3832874 126.40015
670000000 -2.4503319 93.743309 -66.919212 -86.782898 -90.900391 -13.005779 -5.692914 55.224018
679500000 -2.4171288 65.217766 -66.785179 175.00482 -92.165474 -154.8539 -5.7458029 -9.3338556
689000000 -2.3934503 36.998344 -67.018204 78.063667 -103.21268 -104.57872 -5.9452639 -70.593567
698500000 -2.3787746 8.8964405 -66.200684 -26.783777 -91.842346 -116.98126 -6.1451325 -137.63297
708000000 -2.3573115 -18.93836 -65.52951 -130.43047 -91.749382 -145.01643 -6.8568597 145.32881
717500000 -2.3453836 -46.634846 -66.031944 131.80077 -93.905823 175.93773 -7.5434747 67.492973
727000000 -2.382159 -74.770729 -66.423561 31.825266 -91.753235 166.36211 -7.0529423 -2.2621255
736500000 -2.4526253 -103.48402 -65.577477 -68.100685 -98.934006 60.547894 -5.786221 -67.251999
746000000 -2.5068688 -132.49051 -64.884865 -168.29575 -100.79598 -8.8044758 -5.0857954 -134.1593
755500000 -2.5609252 -161.80174 -65.059853 85.406685 -89.604683 -159.41904 -5.8426299 158.45538
765000000 -2.6410224 168.44879 -65.868004 -12.427672 -93.070091 146.4641 -7.0839405 92.032181
774500000 -2.6934314 138.52837 -65.03933 -112.27022 -94.088409 92.631767 -7.4185929 20.769617
784000000 -2.6923606 108.87447 -64.591278 150.1794 -90.713806 -23.008579 -6.6512671 -56.291481
793500000 -2.6768801 79.610771 -65.561981 41.364769 -90.949799 169.53004 -6.0612526 -129.71495
803000000 -2.6593146 50.66824 -65.464172 -58.848083 -91.686661 109.97709 -5.931963 167.07475
812500000 -2.6211798 22.160715 -64.93998 -154.58524 -100.90691 11.952801 -5.7244058 108.19363
822000000 -2.5787799 -5.8389263 -64.66259 109.40689 -88.148941 -61.515285 -5.6119199 43.539185
831500000 -2.561656 -33.618561 -64.268951 -0.44929641 -99.272217 -14.932211 -6.4529128 -30.889839
841000000 -2.5712204 -61.480194 -64.58847 -101.73035 -89.521301 41.737793 -7.6215472 -107.3129
850500000 -2.5948851 -89.498917 -65.011101 166.25343 -89.19326 62.245026 -7.3758144 -178.52238
860000000 -2.6391361 -117.79866 -64.611076 64.060547 -88.404961 -51.200207 -6.0026436 114.85519
869500000 -2.7009325 -146.52339 -63.928066 -39.658691 -87.501007 179.76518 -5.0621271 48.252068
879000000 -2.7558703 -175.56944 -64.448486 -144.33904 -97.374428 106.95933 -5.4834814 -17.031912
888500000 -2.7897408 155.28943 -64.206039 120.59235 -104.28019 -130.4749 -6.5337672 -80.651787
898000000 -2.8126228 126.19543 -64.001022 18.252594 -93.755554 -21.116119 -7.2290115 -149.52744
907500000 -2.8065202 97.256126 -64.00972 -85.069122 -98.806656 168.00751 -7.168324 133.27855
917000000 -2.7658353 68.693245 -64.337967 176.54893 -88.216942 105.61956 -6.7022657 57.909992
926500000 -2.7138238 40.676872 -64.127068 77.944138 -98.677856 125.52357 -6.1514702 -7.4452391
936000000 -2.6677206 13.141732 -64.72625 -19.57126 -91.383553 -89.651962 -5.5382853 -67.581879
945500000 -2.6245666 -14.061797 -63.244247 -122.39265 -88.084419 150.71249 -5.3246546 -130.74646
955000000 -2.5876756 -41.024578 -63.89933 137.3119 -90.698898 69.46003 -6.2262979 160.18745
964500000 -2.5789504 -67.85231 -64.051003 37.234425 -91.833366 28.938278 -7.6549039 87.710236
974000000 -2.6016665 -94.85511 -63.63068 -63.090767 -93.562141 -173.33803 -7.9053302 13.620477
983500000 -2.6483045 -122.36205 -63.604202 -159.98627 -87.652008 -178.99045 -6.8072186 -58.495045
993000000 -2.6987009 -150.25673 -63.094952 98.604149 -88.511108 77.817436 -5.8856993 -126.46027
1002500000 -2.74071 -178.40614 -62.872597 -4.5589409 -94.180099 37.251244 -5.8476877 170.80446
1012000000 -2.7909284 153.08914 -63.000637 -99.248482 -94.503685 -153.57639 -6.247879 109.77814
1021500000 -2.8273458 124.34623 -62.255608 158.64148 -90.628723 164.45662 -6.8450065 42.294632
1031000000 -2.8209884 95.672668 -62.445976 53.384338 -89.174744 75.39138 -7.7249718 -35.390133
1040500000 -2.787168 67.329475 -62.900856 -48.069031 -86.818512 -40.898174 -8.0877752 -113.30596
1050000000 -2.7577016 39.301208 -62.278343 -142.63033 -84.281166 -135.75494 -7.2560968 178.36057
1059500000 -2.7240665 11.530749 -61.870819 118.24226 -85.100594 -155.18314 -5.8451257 115.10859
1069000000 -2.6788008 -15.817087 -61.539589 13.628632 -90.491867 111.80806 -5.1198916 48.803902
1078500000 -2.6470931 -42.79982 -61.599659 -90.757263 -90.836952 -7.2506618 -6.0985637 -19.159355
1088000000 -2.6513755 -69.808678 -61.642097 171.06099 -86.060211 -105.89614 -7.7613068 -85.943588
1097500000 -2.6977701 -97.172264 -61.516167 72.924568 -83.539917 163.45358 -8.425148 -156.93222
1107000000 -2.7466314 -124.85382 -61.310215 -26.804314 -93.704613 31.778187 -7.5809865 127.14005
1116500000 -2.7996352 -152.95097 -60.686932 -130.36421 -85.364532 -21.890673 -6.61166 53.754993
1126000000 -2.8840168 178.3432 -61.261883 127.66422 -87.272232 -114.13397 -6.3410668 -11.463828
1135500000 -2.9623008 149.15298 -60.926548 31.133106 -84.400795 140.09161 -6.3532095 -72.785637
1145000000 -2.9926319 119.75215 -60.218056 -72.866035 -88.075745 117.4642 -6.6856961 -139.21434
1154500000 -3.0041625 90.398308 -60.129078 -177.13812 -88.814789 -37.861519 -7.7248373 145.75264
1164000000 -3.0083377 61.133595 -60.763065 82.251907 -83.564987 -112.26763 -8.4551487 68.952095
1173500000 -2.9800029 32.09877 -60.316357 -13.834502 -84.515709 142.71996 -7.6140561 -1.8065262
1183000000 -2.9312546 3.6650262 -59.77533 -116.74124 -91.949638 45.230221 -5.9510989 -68.134323
1192500000 -2.8971956 -24.287968 -59.555458 140.69472 -88.897583 -5.991272 -5.1214461 -135.15385
1202000000 -2.8906882 -52.099155 -60.318645 38.27462 -88.74437 -102.03629 -5.9021616 160.14638
1211500000 -2.8916688 -79.751152 -60.463276 -61.68536 -80.684662 146.98117 -7.2685113 98.062378
1221000000 -2.9094768 -107.34751 -59.789108 -156.97717 -82.253601 62.577667 -8.1270332 30.573935
1230500000 -2.9750202 -135.32867 -59.322609 101.81607 -85.840492 -68.719429 -7.9323397 -46.494499
1240000000 -3.0507829 -163.86288 -59.420441 -3.8378773 -88.253853 -101.62781 -7.1581354 -123.539
1249500000 -3.1011844 167.27783 -59.34201 -105.269 -86.303062 138.89392 -6.4899926 168.85847
1259000000 -3.154129 138.23853 -59.243801 156.74292 -80.150475 42.883919 -5.9974322 106.98006
1268500000 -3.2051866 108.87489 -58.886932 54.43716 -86.379608 -102.0555 -6.026309 43.231339
1278000000 -3.2054579 79.430672 -59.032574 -51.287724 -87.723801 -166.5907 -6.9968085 -25.036362
1287500000 -3.1556582 50.520596 -59.418213 -148.50813 -91.991615 159.17778 -8.112772 -96.830688
1297000000 -3.1045363 22.137417 -58.825653 111.95623 -87.458389 59.507675 -7.8756986 -170.80573
1306500000 -3.0664935 -5.9105968 -58.788208 10.73979 -94.474281 -32.902142 -6.5046191 116.5332
1316000000 -3.0112429 -33.430195 -58.790646 -92.764999 -89.523453 -111.76557 -5.6765504 48.039925
1325500000 -2.9511631 -60.396549 -58.811485 169.22815 -86.261383 157.65074 -5.8375101 -13.922015
1335000000 -2.9367843 -87.169403 -58.374088 70.021553 -83.863365 62.835728 -6.3562899 -73.092072
1344500000 -2.9662452 -114.09103 -58.149647 -31.601072 -86.842514 -61.77142 -6.992363 -137.47556
1354000000 -2.9964244 -141.22749 -57.627296 -133.88211 -82.564217 -165.84271 -7.7960029 148.56181
1363500000 -3.0212252 -168.55278 -57.650501 124.67733 -85.506645 116.83746 -8.1035805 71.767807
1373000000 -3.0738306 163.75937 -57.510273 24.135517 -82.42923 23.239456 -7.2816234 1.5833066
1382500000 -3.147089 135.57024 -57.473049 -79.029869 -86.43129 -65.658859 -6.0086293 -64.008575
1392000000 -3.1778066 107.1132 -57.60952 -178.22025 -82.223145 -159.82784 -5.5744348 -130.91426
1401500000 -3.157989 78.69249 -57.297787 80.860031 -83.789291 108.64447 -6.6140828 162.21851
1411000000 -3.1455004 50.383091 -57.116703 -21.699944 -82.156296 57.489937 -8.0299816 95.753143
1420500000 -3.1358528 22.222441 -56.886017 -121.05388 -86.901482 -99.030457 -8.2838526 24.270636
1430000000 -3.0740204 -5.503334 -56.227715 135.13062 -82.957001 171.94173 -7.1066055 -51.867619
1439500000 -3.0015588 -32.606773 -56.630756 28.521088 -83.490585 107.47054 -6.1602411 -124.80119
1449000000 -2.9821579 -59.379856 -57.24099 -74.077217 -84.500252 -26.526751 -6.1135116 171.78375
1458500000 -2.9900067 -86.211075 -56.900322 -172.61298 -85.851723 -133.29573 -6.3533468 113.70895
1468000000 -2.9868522 -113.00972 -56.724281 82.143967 -84.808319 164.53265 -6.809515 51.886097
1477500000 -3.0013444 -139.78448 -57.674522 -27.962185 -82.50695 74.812439 -7.8504596 -19.683327
1487000000 -3.0706856 -167.11475 -59.430321 -122.78574 -87.778679 -51.672722 -8.7346859 -98.354858
1496500000 -3.1508136 164.97244 -59.599667 136.7645 -80.946182 -137.8074 -8.0369959 -174.46024
1506000000 -3.1951561 136.83095 -61.039211 41.933746 -89.251038 141.40916 -6.5056438 115.44276
1515500000 -3.2499337 108.33033 -60.397949 -49.78577 -90.79142 141.70905 -5.8241587 47.902161
1525000000 -3.3172388 79.292671 -59.863987 -153.21854 -92.775002 36.717594 -6.476799 -16.218904
1534500000 -3.3271673 50.108437 -60.803371 113.58852 -87.510887 -65.09005 -7.5155611 -79.407631
1544000000 -3.2980075 21.2638 -60.611431 18.632006 -86.069954 174.98715 -7.9980936 -149.3916
1553500000 -3.282203 -7.284596 -59.486477 -79.352638 -84.537422 82.770493 -7.6166763 132.72975
1563000000 -3.2601223 -35.628597 -59.293335 -178.39438 -87.679192 12.250197 -7.0241261 58.590729
1572500000 -3.2206752 -63.496109 -59.08276 87.782242 -90.905693 -94.805634 -6.5495973 -5.3016696
1582000000 -3.2094386 -90.9776 -58.169476 -11.966154 -83.014381 176.56477 -6.14218 -65.17218
1591500000 -3.2466087 -118.60528 -57.005955 -114.74059 -80.51815 96.584831 -6.2700877 -129.45526
1601000000 -3.2941005 -146.50829 -56.910812 143.15669 -90.861298 -14.076792 -7.4712243 159.50861
1610500000 -3.3341753 -174.56642 -56.892979 42.549595 -85.793251 -81.743576 -8.6264544 84.669876
1620000000 -3.4105678 157.03456 -56.538277 -57.350571 -84.902809 171.18732 -8.0326099 10.470797
1629500000 -3.5052898 128.05376 -55.550156 -157.84911 -82.579559 93.563614 -6.3955107 -60.126553
1639000000 -3.5612156 98.712753 -55.305859 97.556679 -86.112167 -2.7902777 -5.5875254 -127.82307
1648500000 -3.5818181 69.277596 -55.534023 -6.0787191 -83.280167 -98.397018 -6.0494156 169.02351
1658000000 -3.605479 39.765766 -55.296791 -104.92754 -84.17543 163.82834 -6.9538054 106.91206
1667500000 -3.6071892 10.334262 -54.808811 154.76373 -83.922768 96.333214 -7.6801667 37.675262
1677000000 -3.5503621 -18.632809 -54.753372 51.076633 -83.500114 2.5885322 -7.8222728 -39.817703
1686500000 -3.4835453 -46.987297 -54.905308 -48.350124 -82.96804 -95.055664 -7.2561893 -113.67169
1696000000 -3.4583831 -74.921059 -54.787373 -147.12262 -83.808861 162.55173 -6.3206306 -177.86444
1705500000 -3.4398699 -102.60293 -54.260963 112.64154 -81.15136 93.861168 -5.5034556 121.44595
1715000000 -3.4136927 -130.06587 -53.846977 9.1204472 -80.98275 -35.498837 -5.573308 57.959885
1724500000 -3.4263833 -157.42912 -53.690701 -92.822029 -82.804077 -92.937843 -6.9073448 -8.4773722
1734000000 -3.4784591 174.95573 -53.718044 166.63411 -79.939957 152.5567 -8.3643885 -78.462456
1743500000 -3.526732 146.95039 -53.556301 68.645851 -79.762482 74.588303 -8.2615843 -153.54877
1753000000 -3.5617061 118.81316 -52.636333 -32.955334 -79.703827 -7.3486357 -6.7989573 131.5139
1762500000 -3.6026497 90.453278 -52.243755 -139.26668 -80.737717 -112.96294 -5.885819 61.710117
1772000000 -3.644927 61.690105 -52.875526 119.26718 -81.634163 161.70419 -5.9869657 -1.4084187
1781500000 -3.6497736 32.930271 -52.807507 21.9825 -79.253326 68.329742 -6.5168424 -62.947346
1791000000 -3.6211534 4.4162927 -52.351963 -82.043938 -82.547241 -32.372505 -7.2223043 -130.31073
1800500000 -3.5972638 -23.877739 -52.566334 178.65984 -83.154869 -119.89275 -7.8256826 155.58093
1810000000 -3.5559468 -51.796646 -52.315773 78.868874 -83.221733 150.05595 -7.6033087 83.429817
1819500000 -3.5041718 -79.286095 -52.118294 -20.463684 -80.12368 56.107124 -6.5692353 18.379595
1829000000 -3.4864411 -106.46364 -51.301517 -119.1687 -81.454727 -26.112589 -5.5555224 -44.452091
1838500000 -3.4842229 -133.48116 -50.225899 136.01787 -79.769867 -128.05275 -5.6467152 -109.72256
1848000000 -3.4872854 -160.50635 -50.341549 29.97084 -81.203232 131.64029 -7.1038504 -176.42093
1857500000 -3.5314763 172.40962 -50.190098 -71.062607 -79.133369 76.093491 -8.6252012 113.00464
1867000000 -3.6023481 145.06982 -49.605728 -174.36247 -78.046143 -45.524261 -8.4733877 35.553391
1876500000 -3.6781824 117.29166 -49.619995 79.364349 -77.919685 -141.11934 -6.9091582 -41.026722
1886000000 -3.7615695 89.249695 -49.654068 -24.771273 -79.052666 130.1917 -5.8863153 -109.87536
1895500000 -3.84003 60.910973 -49.788155 -129.40724 -79.234444 43.457737 -5.7552171 -171.18558
1905000000 -3.904038 32.238953 -50.164448 130.33926 -80.346809 -62.847179 -6.1184411 128.70108
1914500000 -3.938308 3.6297832 -49.68589 26.306215 -79.601578 -149.08636 -6.9820757 62.917423
1924000000 -3.9453459 -24.771727 -49.974346 -81.992416 -79.198654 116.23844 -8.0358477 -10.108794
1933500000 -3.9311461 -52.996799 -50.916359 176.92496 -80.735619 7.1350079 -8.0685349 -84.56823
1943000000 -3.902252 -80.867813 -50.977501 75.980835 -81.024605 -85.943222 -6.8876586 -154.27841
1952500000 -3.8673189 -108.4342 -51.288425 -31.065456 -81.45092 160.7108 -5.7712193 138.58853
1962000000 -3.8507276 -135.92043 -52.265007 -132.26352 -81.312424 89.675682 -5.8760047 71.843933
1971500000 -3.8383882 -163.33864 -52.833435 129.22119 -80.66774 14.062015 -7.0143027 5.9820447
1981000000 -3.8425579 169.20964 -53.678432 30.981417 -81.308838 -75.41375 -8.0137749 -63.1665
1990500000 -3.8889735 141.48318 -53.729103 -67.643257 -82.213188 177.91586 -7.8565083 -138.0471
2000000000 -3.9534175 113.35333 -53.540657 -165.69485 -83.314087 108.89904 -6.8539734 148.4742
