!Keysight Technologies,N5242B,MY48420967,A.15.65.19
!Date: Saturday, February 04, 2023 15:00:32
!Correction: S11(C  1-Port  ) 
!S21(Off) 
!S12(Off) 
!S22(Off) 
!S2P File: Measurements: S11, S21, S12, S22:
# Hz S  dB   R 50
100000000 -1.5048121 40.198803 -80.486908 -139.14717 -86.279701 100.61755 -4.8154168 -109.32233
109500000 -1.440379 10.784562 -80.026253 156.27484 -89.459244 75.960915 -4.7844291 179.09109
119000000 -1.3730931 -18.155258 -79.467056 42.330738 -91.660736 142.83838 -4.786077 115.44248
128500000 -1.289199 -46.560783 -77.760559 -58.873608 -100.73433 71.781891 -4.5467186 52.484447
138000000 -1.2762703 -74.980774 -79.054245 -165.15257 -91.051491 102.03829 -4.8203745 -17.852856
147500000 -1.3500867 -103.89945 -78.872574 88.748352 -94.483795 81.929207 -6.2546649 -92.931572
157000000 -1.4173573 -133.15857 -77.161255 -12.863012 -88.338516 0.79746443 -7.2639041 -165.41168
166500000 -1.4904321 -162.61505 -75.238991 -127.66129 -90.145592 -137.44048 -6.5291843 125.96278
176000000 -1.6171367 167.48175 -74.012024 150.55997 -89.472755 -163.18066 -4.8889365 57.562275
185500000 -1.7199664 137.22475 -77.912857 31.35323 -101.51645 139.32837 -4.2699771 -12.819403
195000000 -1.7382617 107.27199 -75.996025 -70.809448 -88.249168 169.32727 -5.1516476 -79.000954
204500000 -1.7389977 77.758263 -77.383919 -162.25157 -89.701698 159.05553 -6.2097726 -142.48943
214000000 -1.7475173 48.357487 -75.527534 110.6338 -92.021919 94.851524 -6.667326 148.13542
223500000 -1.7024097 19.273335 -77.60569 -3.6097093 -94.25798 -47.374844 -6.5918555 71.290367
233000000 -1.6327454 -9.3273277 -74.465706 -109.60388 -93.974197 -10.794229 -6.3296275 -2.7237816
242500000 -1.6251093 -37.885834 -74.316872 155.18147 -91.175331 63.168308 -5.7949495 -68.596489
252000000 -1.6462134 -66.71212 -76.521942 52.437817 -92.073692 -131.94063 -5.1052818 -132.75371
261500000 -1.6610035 -95.722237 -74.013069 -45.06004 -93.543053 -124.81425 -5.1021986 158.24814
271000000 -1.7244999 -124.94073 -72.70993 -153.95944 -88.88224 -177.35284 -6.2269692 86.969765
280500000 -1.8392806 -154.68819 -73.379585 119.86042 -90.569221 111.22466 -7.125525 16.821671
290000000 -1.9280326 175.17781 -72.334206 8.8084888 -91.268173 33.003765 -6.6130261 -53.672737
299500000 -1.9903162 145.06587 -72.299896 -101.13017 -92.807373 -123.82127 -5.3937168 -125.8316
309000000 -2.0593328 114.97897 -72.747177 167.70859 -94.807266 18.378727 -5.0246181 163.23474
318500000 -2.1008437 85.040985 -72.089355 61.323017 -88.285866 -138.49048 -5.4438772 98.049416
328000000 -2.0776691 55.539581 -72.904099 -40.723721 -88.466095 148.07402 -5.7380624 34.070797
337500000 -2.055938 26.381182 -71.496033 -142.87045 -82.751488 -90.333313 -5.8057013 -36.072327
347000000 -2.0688174 -2.6426134 -71.979042 105.15498 -95.259933 126.22092 -6.1188693 -111.12338
356500000 -2.0616603 -31.557045 -71.880539 11.834963 -93.319756 52.385963 -6.3692622 178.08508
366000000 -2.0549681 -60.543175 -70.65834 -85.749176 -86.814186 145.06189 -5.9020276 112.58357
375500000 -2.1160595 -89.88768 -70.321678 179.53238 -91.256706 -66.556595 -5.0544081 45.25869
385000000 -2.2073946 -119.69644 -69.670799 65.508614 -104.33645 -45.483166 -5.0886221 -27.297615
394500000 -2.2750669 -149.72986 -70.909378 -31.440784 -102.18095 -115.50907 -6.13621 -98.074623
404000000 -2.3358371 -179.83948 -70.601288 -127.75761 -96.084511 -40.900814 -6.6137981 -164.91788
413500000 -2.4170706 149.88705 -70.233856 129.61969 -95.343613 -128.05009 -5.8693881 127.73234
423000000 -2.4721203 119.70171 -70.964272 32.393181 -90.828079 -3.6812913 -4.8946338 56.694527
432500000 -2.455354 90.074661 -69.725845 -83.149742 -96.728836 94.771088 -4.9925489 -13.466354
442000000 -2.4236267 60.913013 -70.489738 -166.06927 -98.872787 107.6719 -5.611311 -78.098427
451500000 -2.4230902 32.033073 -69.462006 89.706604 -97.575974 -58.868526 -5.8192143 -142.94218
461000000 -2.4031763 3.4853508 -69.213486 -8.3257322 -95.357117 -103.28246 -5.6970215 145.23241
470500000 -2.3605928 -24.771172 -69.114357 -108.61543 -90.501144 128.30643 -5.8847489 69.97744
480000000 -2.3595726 -53.02718 -67.900764 156.73247 -101.04475 38.750202 -6.0707979 0.8399815
489500000 -2.4079831 -81.628487 -66.904053 52.391857 -90.717575 147.66275 -5.6729083 -63.084805
499000000 -2.4558575 -110.53804 -65.704353 -50.75663 -95.625092 -108.57858 -5.0811825 -129.41544
508500000 -2.489593 -139.57404 -63.73386 -161.38313 -90.601105 94.965698 -5.3555226 159.01521
518000000 -2.5461454 -168.85005 -64.262115 82.845703 -95.485931 169.8102 -6.3906174 87.902061
527500000 -2.6096728 161.68542 -64.989899 -21.972086 -87.244339 -114.98874 -6.6879897 18.55438
537000000 -2.6289451 132.35861 -65.904755 -126.21717 -101.24752 -150.30879 -5.8252878 -51.746445
546500000 -2.6149621 103.41738 -65.754265 130.4552 -87.437851 136.12094 -5.0546412 -123.18613
556000000 -2.597676 74.877022 -68.019653 28.409782 -92.591232 49.272953 -5.2976465 169.79585
565500000 -2.5707591 46.70927 -67.447243 -66.376549 -96.092003 152.89728 -5.8105063 107.89776
575000000 -2.5317276 18.918188 -67.329643 -163.75526 -91.852386 144.14777 -5.9596677 43.209946
584500000 -2.5031765 -8.6526623 -66.675446 95.019211 -93.47522 117.68891 -6.0601692 -30.933638
594000000 -2.4980812 -36.221191 -67.771957 -11.29566 -92.20565 178.82117 -6.5435157 -107.99127
603500000 -2.5111573 -63.943165 -68.064934 -106.86031 -104.79589 159.28961 -6.6619148 -177.13969
613000000 -2.5513463 -91.993729 -66.591858 160.2856 -96.471443 -110.16626 -5.9902282 119.07234
622500000 -2.6124275 -120.52889 -66.46389 56.882622 -90.337349 44.8564 -5.3247433 52.565548
632000000 -2.6821444 -149.46579 -66.76931 -49.384022 -91.164627 64.906479 -5.7929864 -18.209255
641500000 -2.7335808 -178.52573 -67.080582 -147.62119 -101.99413 -93.579323 -6.9190345 -88.75341
651000000 -2.7810874 152.23741 -66.613091 113.02895 -95.0952 -167.08533 -7.1774802 -160.00024
660500000 -2.8201356 122.93067 -66.782356 17.762178 -101.98325 112.27206 -6.3228221 126.98397
670000000 -2.814322 93.897217 -66.427597 -87.918556 -91.593964 125.58642 -5.6370945 55.78326
679500000 -2.7818451 65.352249 -66.234215 171.97865 -91.816673 -179.22566 -5.6917167 -8.7927017
689000000 -2.759357 37.132874 -66.782005 74.681602 -86.260666 161.25845 -5.8885698 -69.993095
698500000 -2.7480729 9.0336218 -65.97831 -27.708487 -98.140442 141.62086 -6.0787768 -136.86989
708000000 -2.7315359 -18.792969 -65.352539 -132.27698 -97.623497 11.115834 -6.7832303 146.25012
717500000 -2.7276518 -46.468319 -66.587364 129.24609 -82.536278 -136.67365 -7.492682 68.472427
727000000 -2.7749915 -74.564476 -66.111099 34.558224 -99.729034 -52.082195 -7.0310664 -1.3200006
736500000 -2.8569772 -103.23077 -65.595642 -70.521484 -103.53908 -47.418285 -5.7731957 -66.302528
746000000 -2.9238486 -132.20102 -65.179626 -171.27478 -89.2547 -31.465668 -5.0576153 -133.16037
755500000 -2.9886115 -161.47371 -66.165138 87.893814 -90.211128 -162.54169 -5.7991714 159.47871
765000000 -3.0768867 168.82915 -65.728416 -11.403055 -88.531708 135.64786 -7.0468574 93.173981
774500000 -3.1348124 138.94066 -65.356583 -112.27357 -93.03878 86.170967 -7.4081664 22.110029
784000000 -3.1347044 109.32333 -64.634239 143.17941 -89.988663 -38.612782 -6.6638618 -54.896069
793500000 -3.117831 80.103226 -65.519341 45.560081 -88.226265 148.4738 -6.0724559 -128.4749
803000000 -3.0972857 51.21619 -65.908821 -57.384777 -99.844757 157.34532 -5.9424491 168.17397
812500000 -3.0564833 22.770275 -64.711639 -154.28198 -92.369171 58.899864 -5.7368813 109.32329
822000000 -3.0117638 -5.1628623 -65.046783 105.64574 -95.754997 101.2976 -5.6164484 44.882996
831500000 -2.9972699 -32.864342 -64.992851 0.79631978 -96.01226 -176.36462 -6.4451928 -29.343773
841000000 -3.0104423 -60.6348 -65.214027 -102.68423 -88.61956 150.61203 -7.6369781 -105.78345
850500000 -3.0402265 -88.56543 -64.818901 164.32841 -90.196022 30.099558 -7.4293256 -177.16235
860000000 -3.0933938 -116.77752 -64.807381 63.638798 -102.60941 37.487484 -6.0662599 116.10699
869500000 -3.1644626 -145.4321 -64.743126 -41.416916 -86.235062 -160.0498 -5.1067648 49.497936
879000000 -3.2267389 -174.43428 -64.47757 -142.80186 -96.275986 101.20366 -5.5053873 -15.79185
888500000 -3.2654223 156.45772 -64.704308 123.15596 -94.556686 44.723541 -6.5558801 -79.367661
898000000 -3.2909224 127.37063 -64.441788 18.443871 -101.70399 177.76518 -7.2734528 -148.09518
907500000 -3.2835484 98.411308 -64.148232 -82.987328 -93.30162 -159.70341 -7.2398081 134.73077
917000000 -3.2383316 69.827301 -64.329353 176.71394 -85.781479 135.96661 -6.7760673 59.139137
926500000 -3.1795881 41.797466 -65.068024 75.193146 -98.968803 16.344912 -6.2180552 -6.427371
936000000 -3.1281245 14.249292 -64.357887 -20.526283 -87.409744 -53.706036 -5.598896 -66.609795
945500000 -3.0823936 -12.96153 -63.698982 -122.04082 -88.544388 152.93166 -5.3758502 -129.67303
955000000 -3.0437677 -39.931084 -63.94936 136.7215 -90.691689 77.492287 -6.2667332 161.37546
964500000 -3.0378284 -66.750023 -64.168106 37.536911 -89.421959 78.643852 -7.7084241 88.914009
974000000 -3.0668883 -93.738121 -64.065025 -61.594101 -91.43148 -156.16812 -7.9890394 14.703985
983500000 -3.1224072 -121.22379 -63.618244 -162.47748 -92.861969 -170.61696 -6.896441 -57.572472
993000000 -3.1833534 -149.12263 -63.123775 98.649445 -87.378853 120.22231 -5.9570966 -125.63007
1002500000 -3.2354019 -177.28925 -63.447769 -4.5346451 -89.291412 2.8397541 -5.9024596 171.59811
1012000000 -3.2933528 154.1881 -63.194855 -100.31263 -89.157921 -74.057037 -6.29671 110.62887
1021500000 -3.3364806 125.40527 -61.977867 159.24229 -87.989693 -178.50061 -6.8977222 43.307266
1031000000 -3.3313601 96.674904 -62.125057 52.939625 -90.927528 150.30261 -7.7867079 -34.255489
1040500000 -3.2961192 68.278969 -63.003834 -47.922245 -102.65369 38.474625 -8.1621847 -112.29994
1050000000 -3.2632759 40.221169 -62.265099 -143.90062 -88.140282 -108.14622 -7.3341837 179.21521
1059500000 -3.2259612 12.428118 -61.955032 117.70123 -86.327507 143.27834 -5.918931 115.98034
1069000000 -3.1785326 -14.937613 -61.478806 13.136309 -89.289886 63.860138 -5.171536 49.843731
1078500000 -3.1471558 -41.913834 -61.574471 -92.62085 -88.588417 -62.077419 -6.1217012 -17.997808
1088000000 -3.1575966 -68.898376 -61.784935 170.64165 -90.304497 -155.04468 -7.7880373 -84.648506
1097500000 -3.2129064 -96.219673 -61.519295 73.226166 -91.261047 176.94897 -8.4903355 -155.46394
1107000000 -3.2739966 -123.85564 -61.461079 -27.993412 -83.063873 113.23729 -7.6779752 128.66307
1116500000 -3.3422058 -151.91385 -60.786911 -132.54146 -88.5429 -12.663382 -6.6978273 55.230278
1126000000 -3.4413948 179.42838 -61.277851 127.95045 -105.61845 -172.92816 -6.4080944 -10.044713
1135500000 -3.5313675 150.27005 -61.022686 32.78117 -88.836189 143.334 -6.412518 -71.250786
1145000000 -3.5699596 120.89476 -60.442291 -72.120193 -85.109268 96.837234 -6.7405543 -137.34154
1154500000 -3.5862203 91.555969 -60.364693 -177.73579 -89.11998 -15.708539 -7.7872634 147.93024
1164000000 -3.5900593 62.312675 -61.080608 84.933891 -84.636345 -108.03351 -8.564539 71.048111
1173500000 -3.5572712 33.301342 -60.705925 -16.843876 -85.227577 -171.81728 -7.7619114 -0.0059951884
1183000000 -3.5005906 4.9115205 -60.3372 -118.34605 -84.144447 54.479347 -6.0952296 -66.403717
1192500000 -3.4617593 -22.975439 -59.730083 141.22722 -84.862869 -20.849024 -5.2227859 -133.30638
1202000000 -3.4521859 -50.697983 -60.283432 38.491573 -87.66153 -144.25467 -5.9597363 162.03018
1211500000 -3.4529724 -78.259743 -60.590641 -60.196869 -85.979156 142.65337 -7.3308702 100.07107
1221000000 -3.4755514 -105.73372 -59.812069 -157.99979 -90.344627 48.782368 -8.2421093 32.869987
1230500000 -3.5500605 -133.58696 -59.622387 99.845131 -86.187912 -44.900391 -8.1156397 -44.094601
1240000000 -3.637475 -162.01074 -59.187824 -4.8029881 -85.324623 -158.57645 -7.3488646 -121.4334
1249500000 -3.6982388 169.22729 -59.487099 -106.28619 -82.495529 128.46626 -6.6550503 170.64774
1259000000 -3.7598009 140.27405 -59.358063 155.05069 -81.687019 35.820545 -6.1432862 108.70236
1268500000 -3.818244 110.95428 -58.939915 53.896133 -90.968086 -15.572952 -6.1564317 45.112637
1278000000 -3.8190644 81.510887 -59.193157 -50.717937 -83.842331 -160.46753 -7.1247396 -22.976252
1287500000 -3.764298 52.587204 -59.362488 -151.02502 -86.492691 142.26924 -8.2836924 -94.772758
1297000000 -3.7045944 24.20228 -58.90873 112.37244 -85.575699 63.262783 -8.099678 -169.04054
1306500000 -3.6576779 -3.8530476 -58.47205 7.5068946 -84.835358 -43.363922 -6.7267904 118.0453
1316000000 -3.5930164 -31.398073 -58.636234 -96.354301 -83.693748 -175.85561 -5.852818 49.431618
1325500000 -3.5253372 -58.361065 -58.962452 163.59323 -85.694214 111.55406 -5.9778976 -12.618996
1335000000 -3.5085988 -85.104561 -58.858761 65.921043 -81.660797 39.898067 -6.4940009 -71.746651
1344500000 -3.5408454 -111.99403 -58.536163 -33.272526 -83.917053 -94.511948 -7.1518908 -135.94005
1354000000 -3.5778608 -139.1172 -57.876865 -135.60452 -84.239708 -170.80087 -7.9926229 150.22353
1363500000 -3.613102 -166.42343 -58.150627 118.61894 -81.389572 118.23759 -8.3263044 73.162216
1373000000 -3.6773546 165.89169 -58.745819 18.826773 -89.705772 28.217484 -7.5006051 2.6442888
1382500000 -3.7623107 137.68747 -58.654629 -76.50103 -92.35054 -93.142876 -6.2088814 -62.998833
1392000000 -3.8028162 109.15849 -57.569485 -175.90318 -80.424583 -165.67346 -5.747602 -129.76016
1401500000 -3.7882829 80.655617 -57.095478 77.864166 -82.060844 90.427155 -6.7661052 163.47377
1411000000 -3.7737925 52.268196 -57.387466 -26.843597 -80.763344 6.9148803 -8.199748 97.016319
1420500000 -3.762259 24.007296 -57.465843 -124.30983 -83.093697 -84.388977 -8.5008144 25.435852
1430000000 -3.6930423 -3.8305583 -56.614449 133.10457 -79.517448 172.70737 -7.3351526 -50.840813
1439500000 -3.6138244 -30.99519 -56.723415 23.434706 -83.044174 78.330833 -6.3491039 -123.79395
1449000000 -3.5911603 -57.807751 -57.71962 -80.813583 -86.004051 -11.046837 -6.2617464 172.77684
1458500000 -3.5989101 -84.659218 -58.212563 177.916 -86.48645 -105.272 -6.4899683 114.80399
1468000000 -3.5992661 -111.47602 -59.168976 76.402573 -90.842697 -152.61758 -6.9523306 53.293083
1477500000 -3.6225004 -138.24637 -59.840172 -19.304131 -87.343712 43.909084 -8.0128651 -17.898602
1487000000 -3.706553 -165.54956 -60.166058 -117.7206 -89.543228 -7.8116531 -8.9461298 -96.504433
1496500000 -3.8028049 166.54338 -60.635685 146.40645 -85.832901 -97.781227 -8.2701025 -172.88464
1506000000 -3.8608139 138.40207 -60.746933 50.748936 -85.937874 159.63293 -6.7180943 116.91965
1515500000 -3.9310541 109.92236 -59.457081 -49.964485 -84.577835 97.900169 -5.9944496 49.51276
1525000000 -4.0111756 80.879692 -60.461296 -152.68839 -86.733139 -51.122303 -6.6092429 -14.457439
1534500000 -4.0256596 51.673317 -60.853649 116.19095 -92.230507 -88.587196 -7.6575208 -77.436729
1544000000 -3.9948068 22.826302 -60.216957 24.069567 -85.461678 165.43233 -8.1962862 -147.12148
1553500000 -3.9752285 -5.7006879 -59.070164 -78.378082 -85.022842 95.828583 -7.8598428 135.08432
1563000000 -3.9481773 -34.015369 -59.151234 179.05092 -83.962868 -10.690711 -7.246758 60.717712
1572500000 -3.901269 -61.824211 -58.978905 84.22448 -83.856102 -94.413818 -6.7434754 -3.3552861
1582000000 -3.8881299 -89.204277 -58.239346 -14.211166 -82.875015 -174.73003 -6.3248806 -63.076847
1591500000 -3.9299955 -116.70615 -57.286297 -116.0421 -85.494781 110.57284 -6.4402237 -126.87733
1601000000 -3.9852808 -144.48483 -56.993259 141.06697 -85.480278 -1.581522 -7.6431074 162.57228
1610500000 -4.0365791 -172.40137 -57.152134 40.658775 -84.801315 -85.729858 -8.8741493 87.784126
1620000000 -4.1260014 159.35588 -56.87598 -57.52132 -84.097519 179.65939 -8.3600779 13.125625
1629500000 -4.2373571 130.51279 -55.930233 -157.71561 -81.446251 97.425545 -6.7148314 -57.727627
1639000000 -4.3074884 101.26007 -55.416538 96.89447 -86.970459 2.5397031 -5.8400292 -125.3978
1648500000 -4.3368893 71.896774 -55.769176 -6.4028325 -84.986496 -96.312195 -6.2510619 171.47949
1658000000 -4.3647251 42.446297 -55.609665 -105.00546 -83.864372 -166.911 -7.1649885 109.54002
1667500000 -4.3648305 13.028554 -54.97253 153.51434 -82.188095 81.529022 -7.9566765 40.589512
1677000000 -4.3015676 -15.95334 -54.912685 50.463322 -84.163628 -8.2780771 -8.1650457 -37.052185
1686500000 -4.2228479 -44.290928 -55.106312 -49.88142 -83.714584 -102.77306 -7.589066 -111.49473
1696000000 -4.1881275 -72.199455 -54.859756 -148.54527 -82.094612 164.2403 -6.6156344 -176.06125
1705500000 -4.1635628 -99.863083 -54.435696 111.43913 -81.67601 70.01825 -5.772624 123.2989
1715000000 -4.1343188 -127.29498 -54.049835 7.5008192 -82.073074 -6.1178422 -5.8163304 60.137959
1724500000 -4.148047 -154.60017 -54.12146 -94.831009 -83.437119 -109.73321 -7.1450295 -6.0324488
1734000000 -4.209116 177.83372 -54.077835 165.15114 -83.719864 168.50626 -8.6740265 -76.011269
1743500000 -4.2683744 149.85596 -53.835117 67.401245 -80.384964 76.193314 -8.6623287 -151.55299
1753000000 -4.3143315 121.7189 -52.968372 -34.624332 -80.683762 -8.4271955 -7.1952753 133.1142
1762500000 -4.3678112 93.347824 -52.556717 -140.97372 -79.199371 -123.67739 -6.2125092 63.234226
1772000000 -4.42098 64.531563 -53.007683 117.72311 -79.996361 134.76308 -6.262743 0.10558903
1781500000 -4.4299388 35.669888 -52.83432 19.267893 -82.971214 63.557369 -6.7896786 -61.337181
1791000000 -4.4013915 7.0565591 -52.345428 -84.305939 -83.184662 -26.02154 -7.5300884 -128.5571
1800500000 -4.3734078 -21.347195 -52.603054 173.61688 -80.458549 -117.93875 -8.1670856 157.20789
1810000000 -4.3242655 -49.380444 -52.457893 74.859871 -79.314682 148.74402 -7.9391589 84.643433
1819500000 -4.264883 -76.951164 -52.248909 -25.891869 -80.104591 69.860176 -6.8802214 19.379484
1829000000 -4.241704 -104.18945 -51.334698 -124.97739 -80.058113 -37.831776 -5.8508706 -43.274395
1838500000 -4.2408247 -131.25786 -50.394081 129.56624 -80.109993 -132.13882 -5.9199462 -108.13527
1848000000 -4.2505822 -158.30045 -50.744499 22.200079 -79.011482 123.43788 -7.3736916 -174.50253
1857500000 -4.3049831 174.63449 -50.734596 -79.614426 -81.707001 33.420429 -8.9613848 114.9882
1867000000 -4.3947253 147.32227 -50.260155 178.15297 -79.955734 -66.802048 -8.8896866 37.163956
1876500000 -4.4924583 119.58553 -50.326729 72.306122 -79.09726 -165.90852 -7.3000178 -39.685162
1886000000 -4.5996723 91.603966 -50.450676 -33.660873 -79.569267 110.80274 -6.1989627 -108.48477
1895500000 -4.7020478 63.345253 -50.866962 -138.52275 -81.283081 16.069395 -6.0130978 -169.66095
1905000000 -4.7804098 34.779934 -51.46455 121.22671 -80.507423 -73.707321 -6.3630962 130.53871
1914500000 -4.8177743 6.284853 -50.973717 16.913658 -80.40007 -168.07355 -7.2438798 65.221581
1924000000 -4.8130536 -21.981224 -51.646633 -93.314697 -82.831238 98.309586 -8.351202 -7.5342197
1933500000 -4.7732244 -50.088959 -53.149456 164.53937 -86.848366 10.959642 -8.4405317 -82.250175
1943000000 -4.7081585 -77.909546 -53.762917 67.125237 -81.415359 -109.32815 -7.2631001 -152.18472
1952500000 -4.6404848 -105.4399 -54.667328 -36.666336 -84.633095 -162.75624 -6.1130605 140.91193
1962000000 -4.5991349 -132.91559 -55.694397 -132.73222 -87.419464 108.26932 -6.1594076 74.560043
1971500000 -4.5717793 -160.31192 -56.154469 132.55264 -86.691078 40.420963 -7.2805042 9.0032206
1981000000 -4.5705099 172.27898 -56.307594 36.99691 -85.749146 -81.518776 -8.3489513 -59.92823
1990500000 -4.6199527 144.6331 -55.845932 -59.574818 -83.789024 174.63164 -8.2805071 -134.97491
2000000000 -4.696496 116.60028 -55.591553 -159.1263 -82.802101 123.1065 -7.2685919 151.16331
