!Keysight Technologies,N5242B,MY48420967,A.15.65.19
!Date: Saturday, February 04, 2023 00:21:46
!Correction: S11(C  1-Port  ) 
!S21(Off) 
!S12(Off) 
!S22(Off) 
!S2P File: Measurements: S11, S21, S12, S22:
# Hz S  dB   R 50
100000000 -1.3233808 40.371086 -78.149384 -119.7221 -89.494209 130.5148 -5.6643248 -108.26572
109500000 -1.2522258 11.054434 -78.970078 144.95209 -94.782478 -77.620689 -5.5439801 179.98096
119000000 -1.1790466 -17.820585 -78.681236 49.367306 -92.881409 85.986694 -5.4913106 116.14302
128500000 -1.0895426 -46.194946 -78.240578 -53.026665 -90.667961 -7.6828871 -5.2946148 53.266331
138000000 -1.0718926 -74.606972 -76.405441 -156.42967 -93.072578 152.55237 -5.6498652 -16.542822
147500000 -1.138754 -103.5403 -76.65374 97.888313 -94.305634 -115.1198 -7.1021399 -91.509659
157000000 -1.2041852 -132.83159 -78.836914 6.7886167 -97.856567 -58.169315 -8.083087 -164.94148
166500000 -1.2783632 -162.34761 -77.740936 -103.36554 -91.310623 -165.5486 -7.2928524 125.52932
176000000 -1.4045678 167.67676 -75.010902 160.54512 -91.30439 71.248085 -5.6365743 57.176102
185500000 -1.5109875 137.36479 -78.265755 50.817165 -93.202835 -176.96451 -4.9835272 -12.376767
195000000 -1.5365679 107.36015 -75.13401 -63.551037 -93.239616 160.34258 -5.8030853 -78.044106
204500000 -1.5449461 77.771439 -77.210091 -155.74097 -86.342781 159.52681 -6.8800998 -141.52551
214000000 -1.5592296 48.309422 -76.022438 109.14685 -88.158684 164.23138 -7.427546 148.87538
223500000 -1.5192932 19.199621 -75.055473 9.0199966 -95.115326 -130.24559 -7.3793173 71.739594
233000000 -1.4547601 -9.443552 -74.769669 -112.81641 -105.59132 27.889435 -7.0273609 -2.5019231
242500000 -1.4499373 -38.030727 -74.55024 160.01167 -92.140198 -60.082306 -6.4189301 -68.464699
252000000 -1.471415 -66.87397 -79.757454 48.80151 -90.462349 -33.848461 -5.7314916 -132.43152
261500000 -1.4845537 -95.902283 -72.867096 -57.524174 -88.344482 128.91765 -5.7550421 159.07756
271000000 -1.5429825 -125.12245 -73.06311 -146.66704 -97.826881 74.402405 -6.8812356 88.011658
280500000 -1.6530099 -154.85036 -74.77478 116.48886 -84.573624 92.755783 -7.7894254 17.363993
290000000 -1.737967 175.0271 -72.715881 15.475699 -87.594162 126.69371 -7.2796388 -53.790081
299500000 -1.791519 144.94124 -72.08094 -87.85154 -92.031471 7.3155093 -6.0446491 -126.00066
309000000 -1.8519248 114.91122 -72.291801 155.16092 -92.135529 -90.897545 -5.6226239 163.44057
318500000 -1.889147 85.026031 -74.639977 64.706863 -106.29219 -97.116882 -5.9990058 98.376823
328000000 -1.8597109 55.550987 -71.306892 -39.444832 -91.363297 -108.35939 -6.3179231 34.317516
337500000 -1.8276646 26.420132 -71.031754 -135.62772 -92.015289 136.41064 -6.4456811 -35.89542
347000000 -1.8310906 -2.5457258 -71.74604 128.29422 -90.40847 -109.89204 -6.7603703 -111.04156
356500000 -1.8146158 -31.430368 -71.747589 23.475294 -84.05864 -10.16011 -6.9530067 177.84628
366000000 -1.7940263 -60.408325 -71.438164 -71.427101 -87.730194 -26.350178 -6.4541149 112.04765
375500000 -1.8404636 -89.749168 -70.091736 -175.55734 -86.15406 -144.60251 -5.6336021 44.74469
385000000 -1.9189926 -119.55679 -70.916374 85.04911 -91.615883 94.428009 -5.6825781 -27.444149
394500000 -1.9742355 -149.58792 -71.066833 -29.183046 -90.681381 77.840584 -6.6943173 -98.204803
404000000 -2.0251241 -179.70619 -70.624985 -125.3419 -85.685814 116.02699 -7.1401601 -165.48576
413500000 -2.0992014 149.97595 -71.052101 141.30026 -87.831108 139.34097 -6.3897986 126.78782
423000000 -2.1492407 119.77209 -70.899429 40.421303 -96.804932 124.26409 -5.4196019 55.89146
432500000 -2.128855 90.127159 -69.032738 -63.64257 -98.631996 -45.027309 -5.486383 -13.889499
442000000 -2.0969629 60.909908 -69.843338 -161.75307 -87.711128 176.14539 -6.0771089 -78.448257
451500000 -2.0957205 31.948797 -68.971252 100.42966 -93.613243 110.98641 -6.3076997 -143.42426
461000000 -2.0696974 3.3457518 -68.084099 -2.5715399 -111.87727 124.03931 -6.2275629 144.70592
470500000 -2.0237162 -24.954958 -67.872711 -104.74239 -95.979683 -92.757805 -6.3960834 69.519691
480000000 -2.0174062 -53.293896 -67.520554 160.21065 -91.041779 -153.67503 -6.5228262 0.33721581
489500000 -2.0576015 -81.979851 -66.277153 62.856312 -86.488777 121.75729 -6.1045136 -63.650471
499000000 -2.0952115 -110.93542 -64.328644 -40.250793 -92.408478 68.092651 -5.5419087 -129.83459
508500000 -2.121316 -139.99953 -61.809536 -147.59314 -90.982056 160.24669 -5.8412161 158.94284
518000000 -2.1668954 -169.31075 -61.601807 88.190392 -90.072426 61.422237 -6.869236 87.853119
527500000 -2.222008 161.18811 -63.706982 -21.368231 -94.093605 -94.248108 -7.1587186 18.161343
537000000 -2.2407579 131.8528 -64.002121 -128.06955 -95.668541 -148.69429 -6.2931585 -52.342339
546500000 -2.2265139 102.91939 -64.97963 126.31503 -92.332748 140.30014 -5.5079012 -123.55008
556000000 -2.2094629 74.399651 -66.730293 23.203707 -89.342812 77.611992 -5.7140217 169.69038
565500000 -2.183604 46.248257 -67.029503 -70.232765 -96.010361 -11.442876 -6.2237701 107.81356
575000000 -2.1437545 18.456934 -67.096481 -164.68459 -102.38856 -101.27074 -6.4269013 43.049664
584500000 -2.1106689 -9.1037588 -67.043297 95.142853 -83.05661 60.978954 -6.5943832 -31.097572
594000000 -2.0990343 -36.653133 -67.627777 -4.955956 -97.637672 87.87693 -7.0573978 -108.23103
603500000 -2.1045947 -64.380127 -68.589668 -103.80449 -92.330246 115.17014 -7.1133265 -177.61737
613000000 -2.1327732 -92.448296 -65.872391 164.96451 -94.520882 160.67088 -6.4212818 118.45149
622500000 -2.1813035 -120.99155 -66.887886 54.091438 -115.92222 81.003189 -5.7866054 52.072781
632000000 -2.2412472 -149.91658 -66.727982 -46.866615 -94.107147 -61.84951 -6.2808032 -18.428249
641500000 -2.2819374 -178.95992 -66.321709 -147.26805 -103.12142 177.16032 -7.410531 -89.091682
651000000 -2.3217349 151.81531 -66.320198 117.43654 -97.728256 -47.377464 -7.6643047 -160.82135
660500000 -2.3575916 122.52778 -66.28199 19.235109 -94.653381 94.53389 -6.785038 125.92191
670000000 -2.348243 93.520462 -66.013947 -88.918114 -93.161003 -24.848501 -6.0609059 54.916248
679500000 -2.3140373 64.990036 -66.231796 172.57819 -93.954727 -90.533615 -6.0807772 -9.4717321
689000000 -2.29162 36.767559 -66.538704 79.653969 -91.893974 129.65776 -6.2904625 -70.685188
698500000 -2.2765384 8.6445942 -65.682449 -26.430498 -90.703064 68.536003 -6.5498495 -137.65132
708000000 -2.252862 -19.197603 -65.795006 -129.86699 -111.68974 86.528076 -7.3085485 145.34152
717500000 -2.2391758 -46.879307 -65.967628 131.18713 -89.418381 -110.48849 -7.9627228 67.231796
727000000 -2.2741868 -75.039017 -66.022079 34.619686 -89.763672 146.67497 -7.4110532 -2.8125315
736500000 -2.3416922 -103.77652 -65.094017 -71.730835 -87.133507 97.25988 -6.1226563 -67.803925
746000000 -2.3915107 -132.78145 -64.592529 -171.33524 -94.35479 14.11225 -5.4305215 -134.42204
755500000 -2.4432292 -162.09868 -65.491806 88.914513 -94.304436 -150.37126 -6.1881862 158.4767
765000000 -2.5224757 168.14474 -66.049767 -12.554755 -87.159889 154.82373 -7.4442606 91.992317
774500000 -2.5731196 138.21762 -65.24675 -111.13042 -93.333382 87.48439 -7.8079062 20.371721
784000000 -2.571321 108.5751 -64.992142 145.95641 -90.731155 -88.486191 -7.0329142 -56.891613
793500000 -2.5568836 79.309982 -65.388969 46.176422 -88.494392 167.06721 -6.38901 -130.16502
803000000 -2.5391591 50.361645 -65.460663 -55.212708 -94.194748 151.73242 -6.2137141 166.73828
812500000 -2.5030649 21.849966 -65.134056 -154.47647 -100.36066 1.2793857 -6.0076184 107.89906
822000000 -2.4613063 -6.1654086 -64.46019 108.0795 -96.02562 -89.03022 -5.942472 43.356701
831500000 -2.4438696 -33.959652 -64.404099 1.4645226 -89.29055 172.43964 -6.8260903 -30.916668
841000000 -2.4525383 -61.832577 -64.793968 -103.78225 -88.166374 112.55949 -7.9823151 -107.55321
850500000 -2.4756839 -89.869217 -65.189301 163.91193 -87.153824 32.951767 -7.6903543 -179.09532
860000000 -2.5181701 -118.20242 -64.17907 64.16301 -95.078117 -93.770576 -6.2900081 114.2359
869500000 -2.5770228 -146.95184 -64.089371 -43.543926 -95.039497 -73.745872 -5.3484335 47.875538
879000000 -2.6302621 -176.00972 -64.520721 -140.01012 -87.814041 133.98766 -5.765069 -17.137501
888500000 -2.6640203 154.82765 -63.925854 119.96146 -97.103233 37.691116 -6.8279061 -80.700974
898000000 -2.6859677 125.71983 -64.027596 18.41898 -93.109741 -101.4341 -7.5620818 -149.73564
907500000 -2.6805108 96.771507 -64.195633 -79.964912 -91.242874 -142.81657 -7.5161958 132.85739
917000000 -2.641654 68.201019 -64.241737 178.17236 -98.717636 100.04527 -7.004487 57.452862
926500000 -2.5900347 40.173519 -64.84903 74.558151 -88.75518 40.37368 -6.4087586 -7.8396392
936000000 -2.5461977 12.626506 -64.661873 -20.132278 -92.284744 -7.6676078 -5.7889085 -67.892639
945500000 -2.5055015 -14.595133 -63.554169 -121.56586 -85.745766 -134.78139 -5.6031098 -130.87183
955000000 -2.4668107 -41.57938 -63.612286 137.55426 -86.162094 99.74649 -6.5369077 160.2778
964500000 -2.4572275 -68.411385 -63.967197 36.356133 -91.641953 3.7939122 -7.9871178 87.711563
974000000 -2.4797084 -95.4375 -63.931534 -63.109371 -91.005714 -108.55202 -8.233223 13.259965
983500000 -2.5233643 -122.98145 -63.418289 -161.16779 -85.752419 -177.02385 -7.1060176 -58.988205
993000000 -2.5696433 -150.88942 -63.062969 100.12325 -93.259056 94.752022 -6.1586165 -126.78075
1002500000 -2.6086307 -179.03094 -63.392097 -0.89316916 -88.660706 -47.47171 -6.1066351 170.67703
1012000000 -2.6563063 152.45825 -63.084278 -99.027992 -91.509697 -109.92809 -6.5223961 109.75571
1021500000 -2.6910031 123.7205 -62.016006 159.10545 -91.210037 121.87787 -7.1708341 42.334488
1031000000 -2.6825764 95.078194 -62.189686 54.68362 -93.564453 71.82328 -8.0896826 -35.410992
1040500000 -2.6485097 66.762329 -62.651756 -46.875175 -89.830574 -0.0018738973 -8.4179888 -113.61578
1050000000 -2.6193223 38.754677 -62.369411 -142.81319 -93.443802 -78.72094 -7.5343938 177.87877
1059500000 -2.5878146 11.00372 -61.700333 117.75632 -89.303246 -146.4763 -6.1132531 114.66605
1069000000 -2.5431833 -16.329647 -61.570816 12.883797 -89.297157 74.393341 -5.4067206 48.652367
1078500000 -2.5097346 -43.294342 -61.384228 -91.364861 -94.57074 23.517044 -6.3893976 -19.010239
1088000000 -2.5139832 -70.304085 -61.593704 171.33566 -88.363594 -93.804504 -8.0666161 -85.828568
1097500000 -2.5596659 -97.674454 -61.715252 73.471069 -92.64566 175.05423 -8.7580938 -157.17854
1107000000 -2.605911 -125.37986 -61.193913 -27.776833 -92.569321 24.75836 -7.9096327 126.60782
1116500000 -2.6537704 -153.49464 -60.602245 -132.20583 -84.010788 24.510553 -6.9058027 53.320408
1126000000 -2.7365246 177.79414 -61.263138 128.59558 -87.960175 -104.88633 -6.6044016 -11.751447
1135500000 -2.8119917 148.57578 -60.958416 32.654049 -83.46051 178.69856 -6.6199169 -72.987419
1145000000 -2.8400433 119.15519 -59.965958 -71.008369 -82.992523 86.222672 -6.9892759 -139.32631
1154500000 -2.8504572 89.798294 -59.860607 -177.01224 -96.298691 -66.180405 -8.057992 145.64354
1164000000 -2.8550525 60.524853 -60.775642 83.243004 -82.850594 -96.846329 -8.7657051 68.551758
1173500000 -2.8293619 31.463392 -60.299805 -15.324689 -89.603851 72.11425 -7.8765693 -2.4378994
1183000000 -2.7824709 3.0240259 -59.814816 -116.35448 -83.666641 43.60833 -6.1951528 -68.71579
1192500000 -2.7493286 -24.94384 -59.747257 140.39175 -86.852417 9.6536856 -5.367362 -135.44296
1202000000 -2.7442808 -52.781448 -60.194752 37.168755 -84.051773 -122.64204 -6.1374631 160.10817
1211500000 -2.7455125 -80.4552 -60.258835 -59.301178 -90.613525 125.7308 -7.5121593 98.043999
1221000000 -2.7613242 -108.07809 -59.803368 -156.95587 -83.780952 53.445683 -8.4045238 30.362226
1230500000 -2.8251979 -136.09993 -59.407154 100.38403 -88.896255 -20.969355 -8.2257776 -46.959896
1240000000 -2.897572 -164.66188 -59.282909 -3.3872013 -82.562561 -150.82489 -7.4185715 -124.02444
1249500000 -2.9447043 166.46631 -59.140488 -105.1994 -83.276863 158.67047 -6.7120242 168.47798
1259000000 -2.9966035 137.40623 -59.213306 156.47942 -88.257858 44.791252 -6.2099781 106.69733
1268500000 -3.0451081 108.02886 -59.073273 54.281776 -86.308266 -36.837219 -6.2536097 43.087582
1278000000 -3.0434959 78.60273 -59.063618 -50.155785 -87.583076 -141.6481 -7.2417183 -25.081999
1287500000 -2.995847 49.704967 -59.334702 -148.6698 -86.206352 135.14601 -8.3691921 -97.018028
1297000000 -2.9477212 21.328106 -58.705627 113.70021 -85.248566 25.026773 -8.1203337 -171.26169
1306500000 -2.912117 -6.7156668 -58.422218 8.9851637 -88.245628 -69.255547 -6.7288723 116.06059
1316000000 -2.8591728 -34.22826 -58.384628 -94.901802 -85.556557 -141.40749 -5.8795028 47.770847
1325500000 -2.7995813 -61.190403 -58.773651 167.18207 -83.857742 115.63945 -6.0228872 -14.04202
1335000000 -2.7856717 -87.970818 -58.712177 67.896622 -85.257523 62.201118 -6.5489645 -73.146812
1344500000 -2.8160088 -114.91119 -58.168457 -31.746126 -85.512764 -112.08484 -7.2156157 -137.5127
1354000000 -2.8440735 -142.07008 -57.911503 -133.55774 -85.394478 -164.50742 -8.0512772 148.4687
1363500000 -2.864033 -169.40408 -57.817184 124.45157 -86.271469 138.38161 -8.3491507 71.497505
1373000000 -2.9146991 162.89914 -57.717911 23.67502 -80.864609 25.394958 -7.4970937 1.2057167
1382500000 -2.9864872 134.69868 -57.761219 -79.826187 -88.473442 -64.56781 -6.216249 -64.334152
1392000000 -3.0145254 106.23212 -57.818653 -178.76651 -83.091133 -147.48354 -5.7890472 -131.02768
1401500000 -2.9899428 77.838455 -57.654228 84.351967 -82.860107 104.95724 -6.828445 162.27881
1411000000 -2.9784946 49.553947 -57.240414 -17.876886 -86.812622 20.39489 -8.2538929 95.745605
1420500000 -2.9718277 21.40546 -56.76049 -119.47677 -87.129753 -88.217064 -8.5227413 23.998718
1430000000 -2.9104373 -6.3132854 -56.218792 137.31348 -79.908501 -165.25728 -7.3394322 -52.266922
1439500000 -2.8390868 -33.393806 -56.381344 29.11194 -81.253601 85.048889 -6.3667755 -125.0386
1449000000 -2.8223705 -60.166809 -56.847878 -73.035652 -85.222191 2.3207488 -6.2930417 171.68375
1458500000 -2.8310332 -87.011253 -56.985626 -170.11571 -86.037491 -92.276939 -6.5308495 113.67543
1468000000 -2.8279603 -113.8284 -56.431171 85.058479 -83.805351 164.5414 -7.013732 51.913921
1477500000 -2.8384945 -140.62263 -56.741909 -23.989954 -78.482964 79.375031 -8.0946932 -19.642662
1487000000 -2.904819 -167.9859 -58.850441 -124.20157 -85.950966 4.7342978 -8.9946804 -98.526443
1496500000 -2.982712 164.07553 -58.557011 139.42766 -83.900894 -118.09556 -8.2679005 -174.87643
1506000000 -3.0231843 135.90964 -59.695244 37.434875 -85.082581 178.18538 -6.7159162 115.05522
1515500000 -3.0725987 107.37958 -59.901661 -54.78096 -87.276184 60.228642 -6.023397 47.740105
1525000000 -3.1358702 78.333595 -59.335735 -154.65338 -86.86377 -10.961554 -6.6650519 -16.240082
1534500000 -3.1444163 49.159142 -60.047554 108.62575 -90.66803 -120.72507 -7.7135139 -79.434814
1544000000 -3.1157405 20.310966 -60.125664 12.785613 -84.810875 156.92094 -8.2212238 -149.56459
1553500000 -3.1001544 -8.2369299 -59.460674 -84.388046 -86.204712 89.566177 -7.8426242 132.43542
1563000000 -3.0785608 -36.564827 -59.34737 176.23235 -85.363129 13.008865 -7.2177515 58.325253
1572500000 -3.0409954 -64.426888 -59.197403 83.421524 -95.324661 -96.914246 -6.7168622 -5.5139127
1582000000 -3.0322437 -91.918388 -58.242107 -16.546247 -83.771202 176.34816 -6.3088083 -65.334351
1591500000 -3.0678277 -119.56614 -57.304108 -116.67148 -83.284271 87.859978 -6.4554257 -129.50533
1601000000 -3.112895 -147.47989 -57.029537 142.91032 -84.841545 23.573425 -7.6758728 159.52148
1610500000 -3.1513534 -175.55627 -56.945431 41.33062 -85.841003 -92.841148 -8.8341379 84.50528
1620000000 -3.224376 156.0217 -56.668903 -57.6399 -82.847816 176.79002 -8.2213268 10.074434
1629500000 -3.3152387 127.02308 -55.634571 -156.71584 -83.231415 106.06318 -6.5661392 -60.51379
1639000000 -3.3669484 97.662018 -55.216686 97.551437 -82.651253 3.2029331 -5.746047 -128.04402
1648500000 -3.3850551 68.236389 -55.473274 -6.6570196 -84.89254 -100.56544 -6.198132 168.93182
1658000000 -3.4081709 38.730434 -55.177277 -104.41753 -85.092026 -178.39119 -7.1091881 106.83448
1667500000 -3.4109972 9.3077316 -54.705502 154.213 -80.371437 78.011627 -7.853807 37.526733
1677000000 -3.35781 -19.650562 -54.741329 50.435287 -85.948479 12.106525 -7.9978275 -40.082539
1686500000 -3.2929342 -48.000835 -54.96841 -49.863522 -80.713402 -104.6041 -7.4047375 -113.97654
1696000000 -3.2714128 -75.931389 -54.695469 -148.66383 -85.061378 150.90411 -6.4473972 -178.13968
1705500000 -3.2564418 -103.61877 -54.219353 111.58729 -78.669731 83.784332 -5.6283274 121.2406
1715000000 -3.231004 -131.10699 -53.741531 8.4665785 -83.781578 -21.656967 -5.7075691 57.881542
1724500000 -3.2438607 -158.49838 -53.667496 -94.361359 -81.21656 -101.17389 -7.0499225 -8.4785175
1734000000 -3.2936447 173.86378 -53.728172 165.72163 -82.522171 161.67783 -8.5190105 -78.54792
1743500000 -3.3404768 145.83078 -53.659885 66.672256 -80.821419 75.984528 -8.4172516 -153.8224
1753000000 -3.3736959 117.66515 -52.644302 -32.949432 -80.539406 -22.694141 -6.9426007 131.20172
1762500000 -3.4100051 89.283043 -52.306087 -139.62334 -82.213295 -122.90173 -6.0140133 61.516979
1772000000 -3.4492469 60.51862 -52.943062 119.9646 -80.458855 164.63683 -6.1037602 -1.5066311
1781500000 -3.4529231 31.764315 -52.618526 19.788065 -82.560051 80.094116 -6.6346908 -63.004692
1791000000 -3.4260235 3.2568855 -52.232819 -84.031464 -83.460686 -32.731236 -7.3521986 -130.36104
1800500000 -3.4032443 -25.033751 -52.504223 176.3132 -81.305977 -111.74104 -7.9586287 155.48489
1810000000 -3.3615792 -52.921886 -52.369038 77.345947 -81.325203 142.80304 -7.7233167 83.272018
1819500000 -3.311451 -80.405067 -52.116108 -23.339003 -80.325058 55.947052 -6.6781774 18.200903
1829000000 -3.2975521 -107.57965 -51.35442 -121.70889 -80.012222 -25.004036 -5.6666007 -44.569283
1838500000 -3.294821 -134.60777 -50.527901 133.98697 -77.563377 -132.26898 -5.7630124 -109.72151
1848000000 -3.2956567 -161.66092 -50.546131 29.194145 -76.800743 133.07741 -7.2253046 -176.34097
1857500000 -3.336401 171.24229 -50.29549 -71.729469 -81.767006 41.551819 -8.7578306 113.00643
1867000000 -3.4046485 143.8712 -49.810577 -175.44618 -77.922966 -38.620846 -8.6100864 35.378033
1876500000 -3.4765027 116.04866 -49.971737 78.627678 -78.370247 -150.19644 -7.0324159 -41.229744
1886000000 -3.5523865 87.985268 -49.981518 -24.714436 -79.038795 117.59438 -5.9918876 -109.9831
1895500000 -3.6242306 59.624725 -50.186214 -128.68561 -79.748039 32.372162 -5.8498797 -171.22969
1905000000 -3.6858864 30.925404 -50.36174 131.60606 -80.991631 -66.36628 -6.2144265 128.69977
1914500000 -3.7177734 2.2856653 -49.910839 28.273212 -81.314575 -141.58574 -7.087492 62.953129
1924000000 -3.7246206 -26.137907 -50.080242 -80.833633 -78.822472 100.47865 -8.150034 -10.106565
1933500000 -3.7143891 -54.369732 -50.963295 178.84163 -79.735199 17.059984 -8.1781778 -84.66832
1943000000 -3.6906042 -82.250885 -50.831909 77.541985 -81.356003 -92.454376 -6.9875402 -154.41896
1952500000 -3.6637287 -109.82682 -51.012928 -29.740803 -79.707138 -172.12724 -5.8688741 138.49651
1962000000 -3.6525159 -137.31639 -52.45406 -131.51877 -82.731834 101.166 -5.9712858 71.835709
1971500000 -3.6452136 -164.73163 -52.777096 131.82497 -83.896591 -8.0865154 -7.1086674 6.002099
1981000000 -3.6499104 167.8158 -53.335266 32.926025 -83.064247 -73.548233 -8.1123142 -63.20393
1990500000 -3.6965199 140.08685 -53.186012 -65.196793 -83.533844 179.93231 -7.9542685 -138.17909
2000000000 -3.7583053 111.94297 -53.105247 -165.41473 -82.65918 103.05247 -6.9387937 148.33102
