!Keysight Technologies,N5242B,MY48420967,A.15.65.19
!Date: Thursday, January 19, 2023 10:12:30
!Correction: S11(C  1-Port  ) 
!S21(Off) 
!S12(Off) 
!S22(Off) 
!S2P File: Measurements: S11, S21, S12, S22:
# Hz S  dB   R 50
100000000 -15.786568 -65.398705 6.3083563 11.875762 -56.277721 -86.937523 -12.209831 76.48317
109500000 -15.643914 -86.967033 5.6081939 -89.689766 -55.079731 -177.88605 -13.455765 10.619998
119000000 -15.705921 -109.49055 4.7956033 167.63229 -54.569832 87.825409 -14.742455 -67.209274
128500000 -15.997757 -134.35327 3.8405364 65.969498 -54.314606 -4.9612451 -14.462674 -149.06754
138000000 -16.336805 -161.91064 3.0257874 -33.959194 -53.801876 -95.307434 -12.879396 141.20154
147500000 -16.489803 168.93115 2.5803459 -133.77519 -53.279926 172.64038 -11.3943 80.776718
157000000 -16.436052 139.10146 2.3031712 123.8934 -52.378372 80.868172 -10.802101 21.398851
166500000 -16.160395 108.28587 1.6393697 20.172941 -51.914951 -15.955858 -11.721202 -40.006126
176000000 -15.625959 77.642723 0.72719663 -81.000801 -51.999115 -107.33759 -13.927159 -104.76812
185500000 -14.973557 48.914715 0.1306515 179.95467 -51.633518 161.44357 -15.907179 179.96283
195000000 -14.386392 21.854055 -0.10913927 79.736534 -51.059372 70.578514 -15.23224 96.802063
204500000 -13.909938 -4.6964068 -0.45030716 -22.593216 -50.584007 -23.192806 -13.105515 23.306789
214000000 -13.538636 -31.130947 -1.0614918 -124.17135 -50.504391 -116.71869 -11.848688 -39.672646
223500000 -13.31978 -57.363514 -1.5342783 136.01469 -50.158203 152.45456 -11.622005 -97.381798
233000000 -13.256674 -83.869118 -1.7488708 35.524296 -49.675701 61.101433 -12.192403 -156.48282
242500000 -13.290836 -111.27784 -2.0251751 -66.518028 -49.380409 -32.447411 -13.575364 136.74701
252000000 -13.365538 -139.85056 -2.540307 -168.24782 -49.173794 -125.48129 -14.95817 59.968857
261500000 -13.450515 -169.4167 -3.0223382 91.883537 -49.095551 142.9068 -14.556635 -17.948395
271000000 -13.432824 160.27814 -3.1521645 -7.8705091 -48.620651 52.144371 -12.911664 -86.633339
280500000 -13.227782 129.61588 -3.2184396 -110.18631 -48.063667 -42.130329 -11.682604 -149.87404
290000000 -12.886831 99.230858 -3.663331 146.9351 -47.947281 -135.95711 -11.710702 148.31653
299500000 -12.47949 69.466476 -4.1944785 46.299603 -47.9706 131.39374 -12.891624 86.623283
309000000 -12.041993 40.673397 -4.477026 -53.677895 -47.812046 40.502003 -14.4552 20.003614
318500000 -11.614769 12.866529 -4.6203737 -154.67751 -47.450459 -51.977367 -15.270683 -56.664867
328000000 -11.283027 -14.485986 -4.8715429 103.27613 -47.182163 -145.02705 -14.629508 -135.36575
337500000 -11.080611 -41.952278 -5.3124456 2.0266118 -47.167164 122.33295 -13.60413 155.01514
347000000 -10.940068 -69.572533 -5.5705404 -97.667984 -47.006603 31.354828 -12.969401 92.558029
356500000 -10.844584 -97.395935 -5.5410919 161.27367 -46.531574 -61.341473 -12.931998 30.27247
366000000 -10.817657 -125.8936 -5.7509871 58.0131 -46.352097 -156.56326 -13.688923 -36.842121
375500000 -10.79163 -155.40012 -6.3213701 -43.61145 -46.403587 111.87361 -14.784109 -108.77034
385000000 -10.660827 174.78679 -6.6899934 -142.68445 -46.390572 20.945951 -14.99078 178.62547
394500000 -10.44547 145.34885 -6.6709003 117.40321 -46.008179 -70.563789 -14.149111 109.76907
404000000 -10.17976 116.09798 -6.7131124 15.061586 -45.627796 -164.34352 -13.419906 43.808502
413500000 -9.8561687 87.011185 -7.0867662 -87.024788 -45.68927 102.36709 -13.748147 -20.965235
423000000 -9.4929447 58.7388 -7.4480505 172.55806 -45.752117 10.185624 -15.025733 -86.159134
432500000 -9.1688156 31.382196 -7.6684179 72.290939 -45.656811 -81.56044 -16.355577 -157.41808
442000000 -8.9146595 4.3712296 -7.7952771 -28.289921 -45.436298 -173.76073 -16.463037 123.57274
451500000 -8.7139482 -22.641909 -7.9421086 -130.04057 -45.181438 93.396111 -15.392831 47.637428
461000000 -8.5735874 -49.562809 -8.3624964 128.63832 -45.350903 0.56112802 -14.491528 -18.917276
470500000 -8.5142679 -76.576233 -8.6032495 29.654871 -45.237453 -89.712265 -14.217747 -80.192871
480000000 -8.5045071 -104.06477 -8.4317598 -71.242836 -44.74329 178.03441 -14.665247 -143.32378
489500000 -8.5108128 -132.24625 -8.6508904 -174.69142 -44.687077 83.635582 -15.859312 145.98878
499000000 -8.5031633 -160.88492 -9.1626043 84.595505 -44.930771 -8.4140472 -16.711248 67.834435
508500000 -8.4504299 170.35979 -9.2937326 -15.02756 -44.748905 -99.369736 -15.864273 -7.7146511
518000000 -8.3497305 141.65489 -9.3436384 -116.1978 -44.457851 168.21991 -14.351085 -74.592178
527500000 -8.2052698 113.04662 -9.4826403 142.16702 -44.339233 75.549294 -13.593741 -136.93896
537000000 -8.0177193 84.729698 -9.7506933 40.217636 -44.29707 -17.386177 -14.145983 162.06685
546500000 -7.8115768 57.063263 -10.123911 -60.14608 -44.363438 -109.43251 -15.822876 98.672211
556000000 -7.6373816 30.014847 -10.166389 -159.73581 -44.15554 159.65376 -17.744667 23.854786
565500000 -7.513711 3.1200662 -10.184654 97.917786 -43.85482 66.364052 -17.613276 -63.370846
575000000 -7.4347425 -23.778349 -10.640148 -3.8149066 -43.981323 -27.044119 -15.624909 -140.33234
584500000 -7.4134545 -50.612511 -10.947922 -102.60387 -44.008942 -117.40034 -14.128266 157.04022
594000000 -7.4674921 -77.686501 -10.938148 157.93068 -43.650131 151.18204 -13.462523 99.947556
603500000 -7.5666499 -105.44153 -10.906588 57.599743 -43.475246 59.138046 -13.777614 40.362339
613000000 -7.6589408 -133.89697 -10.862725 -44.255764 -43.28957 -34.435574 -15.172168 -26.914684
622500000 -7.7395048 -162.76846 -11.296477 -145.99492 -43.593769 -128.14391 -16.529676 -103.73045
632000000 -7.7943506 168.06569 -11.540767 116.40031 -43.734142 142.48996 -15.851669 178.61951
641500000 -7.7768998 138.77557 -11.234342 16.117651 -43.261848 50.153397 -14.044779 110.5118
651000000 -7.7031026 109.59125 -11.396097 -86.674522 -43.290306 -43.945213 -12.977049 48.815716
660500000 -7.5908251 80.782639 -11.709727 173.10222 -43.455551 -135.7915 -13.253751 -9.8912306
670000000 -7.449759 52.476612 -11.72404 73.113052 -43.324783 133.20062 -14.683285 -69.678864
679500000 -7.3178172 24.716377 -11.707587 -28.023546 -43.185432 40.744343 -16.882502 -139.9435
689000000 -7.2305098 -2.7613807 -11.799938 -129.87096 -43.134037 -52.304066 -17.803097 132.00435
698500000 -7.1940126 -30.247705 -12.077723 128.73895 -43.256916 -145.01173 -15.820022 50.3908
708000000 -7.2044983 -57.667316 -12.322815 29.217083 -43.338821 124.13235 -13.75597 -13.001817
717500000 -7.2723475 -85.28994 -12.236128 -70.036911 -43.1105 33.89669 -12.592702 -68.871246
727000000 -7.3920298 -113.67538 -12.012477 -171.59404 -42.723503 -59.153221 -12.587911 -125.26595
736500000 -7.5041208 -142.82213 -12.117335 85.356339 -42.667049 -153.47372 -14.129519 173.96587
746000000 -7.5660214 -172.29022 -12.496524 -15.784465 -42.915222 114.30154 -16.82897 103.91364
755500000 -7.5905337 158.08537 -12.630189 -115.08739 -42.916233 23.408697 -17.913164 18.564171
765000000 -7.5597835 128.32898 -12.486629 144.11137 -42.611469 -68.86866 -15.679042 -60.940807
774500000 -7.4394717 98.726891 -12.586098 41.387932 -42.592197 -162.74924 -13.634585 -125.58698
784000000 -7.2706623 69.810104 -12.998875 -59.580135 -42.849915 104.9992 -13.072621 177.73018
793500000 -7.0997481 41.601971 -13.131071 -158.36333 -42.866772 14.850324 -13.769319 123.84861
803000000 -6.9442 13.852189 -12.940262 101.07537 -42.578037 -77.129669 -15.711135 65.459045
812500000 -6.8123422 -13.542216 -13.012597 -1.343623 -42.515194 -170.65709 -18.950005 -9.8608456
822000000 -6.7264662 -40.645191 -13.278586 -102.2532 -42.691425 97.406425 -19.603405 -107.6109
831500000 -6.7137022 -67.668655 -13.401071 157.72527 -42.683147 6.2609367 -16.55757 175.19266
841000000 -6.7620931 -94.976929 -13.451461 57.855324 -42.624905 -84.969498 -14.265365 116.54784
850500000 -6.8274345 -122.86438 -13.257835 -42.472767 -42.29546 -176.5307 -13.426696 61.891064
860000000 -6.893559 -151.25609 -13.184464 -145.71587 -42.073208 89.125969 -14.324924 6.1616006
869500000 -6.9511871 -179.93393 -13.659399 112.5834 -42.463345 -3.8979998 -17.100954 -54.127163
879000000 -6.9754047 151.12965 -13.767022 14.276415 -42.464756 -93.311905 -20.882421 -133.82603
888500000 -6.9323063 122.126 -13.484859 -87.246574 -42.048931 173.78963 -19.889166 126.36148
898000000 -6.8307238 93.416733 -13.769711 170.01147 -42.212238 80.163383 -16.364384 53.785419
907500000 -6.7051868 65.220001 -14.044817 70.709358 -42.424366 -10.435158 -14.587673 -3.0055728
917000000 -6.569725 37.569996 -13.934427 -29.441555 -42.181534 -101.552 -14.382456 -54.96299
926500000 -6.4332905 10.401139 -13.974659 -130.70891 -42.073334 165.97533 -15.721366 -108.25843
936000000 -6.3311691 -16.333626 -14.015408 128.4593 -42.01915 74.132362 -19.216276 -170.77982
945500000 -6.2877498 -42.791378 -14.139778 27.1129 -42.008335 -18.363453 -23.665365 92.702339
955000000 -6.301424 -69.238548 -14.319151 -72.413002 -42.107098 -109.18303 -20.018167 -8.1357727
964500000 -6.372313 -95.89254 -14.119503 -172.08305 -41.765217 159.84674 -16.157907 -71.063164
974000000 -6.4896107 -123.03043 -14.072881 85.87088 -41.654259 66.561928 -14.460145 -125.04892
983500000 -6.6330166 -150.81992 -14.243466 -14.553154 -41.770081 -25.387297 -14.641577 -177.54039
993000000 -6.7642765 -179.04874 -14.181482 -114.78889 -41.705791 -117.16473 -16.593042 127.80241
1002500000 -6.8689947 152.36469 -14.235459 144.42024 -41.705273 150.74791 -20.471989 59.942234
1012000000 -6.9401193 123.41066 -14.174759 44.523922 -41.616592 59.306984 -22.427313 -44.665127
1021500000 -6.9497457 94.479568 -14.087031 -57.350182 -41.557861 -33.950161 -18.158487 -130.46056
1031000000 -6.9006071 65.965462 -14.373885 -158.01866 -41.834606 -125.70892 -15.202987 170.83492
1040500000 -6.8326273 37.923988 -14.269804 103.67819 -41.701176 144.41519 -13.887383 119.00733
1050000000 -6.7670059 10.25328 -13.85462 1.9815811 -41.244579 51.538834 -14.038443 66.381386
1059500000 -6.7182984 -17.046129 -13.975378 -101.29324 -41.399189 -42.824745 -16.059036 9.2347183
1069000000 -6.7165751 -43.878124 -14.265999 158.59451 -41.646152 -134.08125 -20.065664 -60.30555
1078500000 -6.7809935 -70.559929 -14.167263 59.36705 -41.478642 135.70984 -21.879593 -160.40517
1088000000 -6.9102445 -97.59211 -13.937266 -41.861526 -41.234848 43.477863 -17.887403 115.94147
1097500000 -7.0953159 -125.17066 -13.906825 -143.8781 -41.148575 -49.897903 -15.013805 54.488823
1107000000 -7.3074126 -153.2971 -13.956841 114.85646 -41.167728 -142.33592 -14.134479 -0.54738718
1116500000 -7.5254683 177.96066 -13.994937 13.722969 -41.185806 125.4081 -14.8065 -54.213875
1126000000 -7.7173419 148.59137 -14.030482 -86.730934 -41.235382 34.089806 -16.833094 -113.21979
1135500000 -7.8358922 118.75363 -13.84254 172.58618 -41.016766 -57.53093 -19.693125 169.33804
1145000000 -7.8729072 88.939758 -13.790477 69.845551 -40.983868 -151.25887 -19.237709 75.062073
1154500000 -7.8407159 59.599106 -14.062082 -31.079697 -41.232094 116.90154 -16.12517 2.9503994
1164000000 -7.760241 30.717878 -13.919475 -130.07092 -41.095421 26.918015 -13.908871 -53.773727
1173500000 -7.6638727 2.3190269 -13.539553 127.5504 -40.68404 -66.367081 -13.057942 -107.23775
1183000000 -7.5826807 -25.391245 -13.684845 24.043427 -40.802544 -160.78351 -13.879082 -161.20732
1192500000 -7.5542908 -52.510639 -13.952143 -76.653091 -41.053493 107.80257 -16.575937 142.30539
1202000000 -7.588902 -79.453461 -13.939926 -176.48779 -40.986507 17.025942 -21.104704 70.664246
1211500000 -7.6834321 -106.58289 -13.749214 82.757111 -40.784897 -74.930527 -21.947519 -37.330467
1221000000 -7.8349652 -134.05882 -13.603971 -19.669193 -40.600666 -168.05562 -17.432064 -117.86614
1230500000 -8.0327158 -161.95535 -13.755857 -122.01255 -40.716614 98.692215 -14.896374 -176.54398
1240000000 -8.2243223 169.57254 -13.881459 137.5657 -40.862492 7.2779655 -14.173573 131.063
1249500000 -8.3763275 140.5213 -13.760344 36.940067 -40.696861 -83.977226 -14.845723 78.567482
1259000000 -8.4665375 111.16663 -13.647302 -64.775391 -40.579235 -176.43781 -17.111168 19.650038
1268500000 -8.471693 81.864967 -13.627932 -166.77699 -40.587566 90.999641 -20.64563 -58.136536
1278000000 -8.3905153 53.007778 -13.690252 91.785301 -40.656986 -1.1456633 -20.241848 -155.89189
1287500000 -8.267415 24.807379 -13.598364 -8.9619875 -40.559326 -92.60392 -16.664894 131.11157
1297000000 -8.1446867 -2.7744544 -13.406853 -111.62756 -40.320721 174.08241 -14.480176 73.241585
1306500000 -8.0335922 -29.639763 -13.631652 145.3517 -40.517666 80.384964 -14.071648 20.088608
1316000000 -7.9524679 -55.815956 -13.869368 45.494911 -40.720222 -10.307727 -15.300502 -31.588173
1325500000 -7.9534869 -81.683594 -13.67897 -54.549458 -40.493439 -101.22244 -18.366796 -87.242249
1335000000 -8.0434523 -107.67072 -13.552085 -156.55766 -40.334854 165.85094 -23.874126 -167.22487
1344500000 -8.183938 -133.85133 -13.579672 101.89066 -40.366676 73.268768 -22.624798 73.356323
1354000000 -8.3583136 -160.24419 -13.578733 0.71079648 -40.346363 -18.919638 -17.74404 2.4116838
1363500000 -8.5745869 172.89243 -13.549891 -100.07089 -40.349525 -111.09426 -15.385549 -51.885925
1373000000 -8.807107 145.25137 -13.36482 158.76563 -40.16457 156.74968 -14.830217 -104.35897
1382500000 -8.9856472 117.13283 -13.29952 56.198376 -40.127777 63.717148 -16.06069 -159.92528
1392000000 -9.071806 88.983345 -13.450454 -45.18557 -40.373848 -28.89834 -19.095123 135.22302
1401500000 -9.0924025 60.909668 -13.396125 -145.62535 -40.369686 -120.08623 -21.423286 46.102673
1411000000 -9.06814 32.954411 -13.239862 112.84893 -40.251595 147.53262 -18.518286 -41.266819
1420500000 -8.9922657 5.5343537 -13.143764 10.609618 -40.190388 54.305191 -15.466826 -105.61428
1430000000 -8.8787003 -20.994089 -13.197946 -92.242897 -40.274338 -39.013199 -14.321568 -160.7171
1439500000 -8.7955847 -46.765991 -13.473224 166.22246 -40.604195 -131.5995 -14.841588 148.1862
1449000000 -8.7904091 -72.318054 -13.517744 66.672394 -40.686249 137.96645 -16.969807 95.794617
1458500000 -8.8539181 -97.880325 -13.244628 -34.346169 -40.477627 46.388493 -21.655115 29.498768
1468000000 -8.9635286 -123.40237 -13.154189 -137.1833 -40.423878 -47.428345 -24.526005 -90.342201
1477500000 -9.1236591 -148.99997 -13.272294 120.94376 -40.577866 -140.20526 -18.51524 -177.04172
1487000000 -9.3570633 -175.22005 -13.251349 20.127623 -40.663815 128.58508 -15.018768 126.34311
1496500000 -9.6138372 157.68985 -13.06 -81.764397 -40.546047 35.959705 -13.576378 74.116661
1506000000 -9.8144922 130.05003 -13.056114 175.05415 -40.609138 -57.868977 -13.858561 21.135841
1515500000 -9.963829 101.96119 -13.235771 73.200729 -40.800228 -150.11488 -15.755239 -35.309547
1525000000 -10.060901 73.335098 -13.225647 -27.700293 -40.83765 118.43532 -18.745293 -104.24962
1534500000 -10.057325 44.448093 -13.095154 -129.66122 -40.783531 26.084003 -19.557758 164.89273
1544000000 -9.9407806 16.027712 -13.056663 127.50827 -40.754128 -67.12558 -16.756613 84.999374
1553500000 -9.7619438 -11.692676 -13.201127 24.452894 -40.917732 -160.7618 -14.743674 23.824621
1563000000 -9.5812368 -38.922806 -13.492522 -76.931007 -41.233608 107.53055 -14.216887 -29.612411
1572500000 -9.4341784 -65.67141 -13.452584 -176.9227 -41.240456 16.734959 -15.058464 -82.822762
1582000000 -9.3520956 -92.012672 -13.227408 80.539093 -41.057167 -76.23468 -17.677664 -143.43605
1591500000 -9.3255816 -118.36453 -13.409682 -22.674063 -41.239559 -170.12006 -21.523956 131.66106
1601000000 -9.3476992 -145.03464 -13.581044 -123.44881 -41.509209 98.757675 -19.739714 31.178749
1610500000 -9.4281044 -172.08832 -13.470573 135.25385 -41.440472 6.9826312 -15.838332 -36.792213
1620000000 -9.5666065 160.24339 -13.431031 32.77269 -41.462391 -85.726181 -13.681602 -92.694962
1629500000 -9.6757927 131.71722 -13.463868 -69.840614 -41.538422 -178.99641 -13.361425 -146.38094
1639000000 -9.7041502 102.61256 -13.624389 -172.47635 -41.760868 88.159172 -14.736134 159.42274
1648500000 -9.6862221 73.232292 -13.819962 86.270218 -42.005287 -3.2792718 -17.612749 97.705956
1658000000 -9.6128092 43.565815 -13.761358 -15.068552 -41.947506 -95.005608 -20.343172 11.503139
1667500000 -9.4213343 13.991873 -13.787599 -118.26498 -41.970863 171.53239 -18.107147 -79.86927
1677000000 -9.1306744 -14.869708 -14.109982 139.35771 -42.284363 78.894623 -15.180019 -145.01401
1686500000 -8.8503046 -42.924854 -14.331929 38.849483 -42.544044 -11.913505 -13.819885 161.44881
1696000000 -8.6330795 -70.517273 -14.27986 -62.139259 -42.48415 -103.47906 -13.932617 110.3822
1705500000 -8.4374943 -97.771225 -14.302203 -164.94676 -42.480518 163.02994 -15.85245 56.69136
1715000000 -8.2685242 -124.74856 -14.585367 92.991562 -42.805141 70.569374 -20.345854 -8.173028
1724500000 -8.1837139 -151.59659 -14.694424 -7.4966712 -42.950825 -20.212509 -23.919769 -118.03731
1734000000 -8.1855297 -178.75317 -14.66705 -109.44093 -42.960533 -112.78233 -18.484753 151.5387
1743500000 -8.2156219 153.50548 -14.835817 148.56602 -43.205799 154.88504 -14.949653 92.375847
1753000000 -8.2182732 125.31565 -14.904644 47.152607 -43.288849 63.086838 -13.786439 39.290386
1762500000 -8.20473 96.859695 -15.084541 -55.443523 -43.564198 -29.838078 -14.36473 -12.635676
1772000000 -8.2037497 68.01828 -15.434649 -155.80659 -43.914658 -120.59129 -16.406246 -68.841293
1781500000 -8.1590939 38.838764 -15.329211 103.99567 -43.78286 148.93472 -19.476572 -141.19888
1791000000 -8.0066576 9.770359 -15.422847 0.83521277 -43.95303 55.018188 -19.753517 126.32868
1800500000 -7.8138695 -18.710258 -15.842973 -99.592896 -44.386669 -36.00584 -16.927408 52.263889
1810000000 -7.6483445 -46.642315 -15.791931 160.63165 -44.34808 -126.43971 -15.059011 -4.7555737
1819500000 -7.5017219 -74.360313 -15.852594 58.359173 -44.424675 140.49193 -14.785139 -57.393993
1829000000 -7.3533955 -101.69367 -16.062359 -42.415359 -44.734695 49.394848 -16.513083 -111.54403
1838500000 -7.2374473 -128.47485 -16.09269 -143.83424 -44.84129 -42.848049 -20.987259 -176.10876
1848000000 -7.214838 -155.14937 -16.406635 114.8704 -45.191406 -135.08952 -24.360029 71.07048
1857500000 -7.2747564 177.89578 -16.432758 15.631248 -45.327385 135.53889 -18.311134 -18.121195
1867000000 -7.340682 150.61841 -16.255938 -86.816879 -45.263878 42.437279 -14.535607 -75.598785
1876500000 -7.4086432 123.10337 -16.630978 170.76041 -45.739044 -50.177925 -13.10714 -126.75573
1886000000 -7.5146289 95.327362 -16.835455 71.248573 -46.011742 -140.1799 -13.363847 -175.93384
1895500000 -7.6245508 66.989441 -16.833128 -29.892269 -46.040379 128.61879 -15.107686 132.86575
1905000000 -7.6655769 38.130318 -16.996153 -130.6666 -46.296955 37.897461 -18.736675 71.003517
1914500000 -7.607131 9.3807487 -16.93331 128.41995 -46.216991 -53.30645 -22.358324 -24.197273
1924000000 -7.5094285 -19.117878 -17.101049 25.898514 -46.418468 -145.94432 -19.003799 -117.79242
1933500000 -7.4091635 -47.587788 -17.34539 -73.959358 -46.66378 123.72885 -15.766784 -179.83348
1943000000 -7.2789288 -75.944374 -17.140432 -174.92725 -46.50285 32.571495 -14.526775 125.798
1952500000 -7.1260281 -103.82503 -17.311985 81.5448 -46.723091 -60.839455 -15.170527 71.146713
1962000000 -7.0372396 -131.26746 -17.734297 -18.917189 -47.137283 -151.78279 -17.60885 10.723066
1971500000 -7.023077 -158.65675 -17.742146 -118.68145 -47.198837 118.43138 -20.487598 -69.593056
1981000000 -7.0515161 173.7504 -17.729851 139.86111 -47.236492 27.317226 -18.860214 -161.17427
1990500000 -7.1042876 146.05893 -17.797508 38.376369 -47.31871 -64.418831 -15.618022 130.82863
2000000000 -7.2022223 118.17977 -17.921154 -63.212521 -47.444324 -155.61705 -13.946912 75.538147
