!Keysight Technologies,N5242B,MY48420967,A.15.65.19
!Date: Thursday, December 15, 2022 18:15:31
!Correction: S11(C  2-Port  ) 
!S21(C  2-Port  ) 
!S12(C  2-Port  ) 
!S22(C  2-Port  ) 
!S2P File: Measurements: S11, S21, S12, S22:
# Hz S  dB   R 50
100000000 -22.28253 -53.123417 -0.73486638 75.468941 -0.74182224 75.463089 -24.21921 -29.251942
109500000 -22.396107 -69.072205 -0.76027244 48.498276 -0.7659418 48.500423 -23.953236 -56.958382
119000000 -24.121096 -82.495277 -0.77970457 21.541561 -0.78604549 21.529367 -24.954485 -85.912918
128500000 -27.185059 -97.917152 -0.79988062 -5.4454851 -0.80672669 -5.4548435 -27.246056 -110.36549
138000000 -30.338869 -113.06492 -0.82299829 -32.41634 -0.82971078 -32.424793 -29.767361 -127.81345
147500000 -32.791267 -116.72915 -0.84637022 -59.36282 -0.85349262 -59.372204 -32.758766 -146.9874
157000000 -34.388218 -110.49488 -0.86936039 -86.29451 -0.87681425 -86.304504 -38.420494 -162.62187
166500000 -36.437592 -116.32568 -0.8920266 -113.22041 -0.89919406 -113.22891 -44.249653 -154.43544
176000000 -41.87669 -156.80434 -0.91442728 -140.13824 -0.92174232 -140.14742 -46.334381 163.33003
185500000 -40.835407 91.446686 -0.93689758 -167.04494 -0.94422126 -167.05449 -40.937222 84.66246
195000000 -33.215126 39.740124 -0.95851398 166.0632 -0.96590692 166.05348 -35.054249 50.947803
204500000 -29.335918 9.7502441 -0.97869462 139.1839 -0.98605508 139.1743 -31.674648 25.368393
214000000 -28.271242 -17.159004 -0.99666697 112.30517 -1.0034307 112.29832 -30.596655 3.0319521
223500000 -29.136145 -47.406822 -1.0129466 85.425781 -1.019858 85.417435 -30.83544 -17.061567
233000000 -31.143089 -78.372734 -1.0283253 58.538956 -1.0354896 58.530521 -33.115376 -40.729248
242500000 -36.289745 -98.034935 -1.0454596 31.644049 -1.0526931 31.634844 -40.803875 -57.442951
252000000 -45.218193 22.32625 -1.0643953 4.7536092 -1.0716912 4.7467752 -44.565483 57.63929
261500000 -31.985706 32.087181 -1.0847461 -22.12368 -1.0920926 -22.130573 -33.970554 50.929684
271000000 -28.397552 16.313402 -1.1049849 -48.980469 -1.112031 -48.987556 -29.445509 25.380589
280500000 -27.067238 -9.4358425 -1.122444 -75.819557 -1.1297314 -75.826881 -27.321802 -2.0332992
290000000 -25.817583 -38.228367 -1.1382636 -102.65498 -1.1454788 -102.66133 -26.255342 -27.365154
299500000 -25.114368 -59.557175 -1.1523287 -129.49374 -1.1595104 -129.50156 -25.840834 -51.908142
309000000 -26.100227 -74.568748 -1.1650807 -156.34486 -1.1723505 -156.35265 -26.116201 -76.192619
318500000 -28.766294 -89.806969 -1.1774309 176.79019 -1.1846703 176.78239 -27.320019 -100.41479
328000000 -31.149965 -111.26255 -1.1905006 149.91724 -1.1978599 149.90889 -29.338938 -121.00814
337500000 -30.854908 -132.52962 -1.205722 123.04125 -1.2130934 123.0348 -30.626904 -141.18512
347000000 -29.839317 -150.51888 -1.2229518 96.174164 -1.230489 96.167381 -30.850346 -173.04852
356500000 -29.952671 179.5927 -1.2408162 69.313683 -1.2482575 69.307106 -30.435463 151.22864
366000000 -29.006306 131.36884 -1.2596267 42.452404 -1.2670568 42.447006 -28.639122 122.58398
375500000 -25.88266 91.367142 -1.2803713 15.609047 -1.2877157 15.602513 -26.043747 97.340675
385000000 -23.760494 63.511642 -1.3009272 -11.199277 -1.3082498 -11.206508 -23.817684 70.526756
394500000 -22.964235 37.066544 -1.3173416 -37.978249 -1.3241923 -37.986767 -22.607224 42.776661
404000000 -22.596823 8.3632278 -1.3279817 -64.765114 -1.3354012 -64.774612 -22.319445 16.786589
413500000 -22.152048 -18.8685 -1.3390915 -91.567497 -1.3464999 -91.575333 -22.252239 -7.4279795
423000000 -22.15708 -41.213169 -1.3484992 -118.3595 -1.3555336 -118.3692 -22.365557 -34.394688
432500000 -23.273188 -60.582726 -1.35251 -145.16879 -1.3596029 -145.17967 -23.406166 -63.250366
442000000 -25.55442 -81.427856 -1.3565067 -172.0183 -1.3637221 -172.03069 -25.387672 -88.293579
451500000 -28.114075 -105.08362 -1.364494 161.1167 -1.3720056 161.10442 -27.541494 -108.62348
461000000 -29.954988 -123.03981 -1.3752737 134.257 -1.3826816 134.24512 -29.787914 -131.03568
470500000 -31.542925 -131.4919 -1.3870101 107.40344 -1.3945391 107.38946 -33.153156 -159.15393
480000000 -33.92886 -145.65591 -1.3990726 80.548988 -1.4068259 80.534187 -37.138149 170.84332
489500000 -36.051933 165.5007 -1.4119338 53.695568 -1.4200248 53.681488 -37.411514 140.30263
499000000 -32.825378 111.66974 -1.4261845 26.855124 -1.434063 26.841002 -33.746838 105.37804
508500000 -30.339432 78.301552 -1.4398539 0.031118078 -1.4474895 0.01749914 -30.74699 74.429657
518000000 -29.542467 45.533131 -1.451847 -26.786369 -1.4596566 -26.80138 -29.14003 49.790829
527500000 -28.937977 14.011184 -1.4630506 -53.606422 -1.4709913 -53.620625 -28.308771 27.955854
537000000 -28.716082 -9.6802111 -1.4731557 -80.425713 -1.4811746 -80.439842 -28.382137 3.0743585
546500000 -29.648876 -26.316484 -1.4821886 -107.24783 -1.4901435 -107.2634 -30.02243 -25.668259
556000000 -32.022278 -36.541992 -1.4913622 -134.08191 -1.4995084 -134.09689 -33.906063 -57.051605
565500000 -35.677605 -32.540638 -1.5019966 -160.92068 -1.5103596 -160.93411 -41.684246 -98.224991
575000000 -36.70282 -4.3635411 -1.5141933 172.24231 -1.5223005 172.23468 -44.678181 115.66608
584500000 -33.258633 2.9712527 -1.5269033 145.4151 -1.5342776 145.41263 -35.638309 59.544968
594000000 -30.308197 -11.427481 -1.5395926 118.59895 -1.5452815 118.59509 -31.955641 26.331976
603500000 -28.309414 -32.014534 -1.5517604 91.791832 -1.5557415 91.775322 -30.011253 -0.3142125
613000000 -27.851837 -52.578327 -1.5611016 64.98877 -1.5657494 64.95594 -29.131104 -25.357124
622500000 -29.548401 -71.42363 -1.5674459 38.174541 -1.5743611 38.133091 -29.60371 -49.94685
632000000 -33.86713 -90.18293 -1.5731695 11.340492 -1.5819919 11.30294 -32.366909 -72.481224
641500000 -41.116428 -109.38015 -1.581913 -15.506967 -1.5915452 -15.534536 -37.836063 -72.499084
651000000 -49.702999 -91.22187 -1.5924946 -42.343811 -1.6022313 -42.366032 -40.215298 -49.721767
660500000 -43.441998 -46.032047 -1.6035724 -69.174713 -1.6129162 -69.19265 -40.780113 -28.180622
670000000 -38.783092 -38.494102 -1.614787 -96.001015 -1.6238326 -96.016922 -38.209885 -24.979343
679500000 -37.541241 -21.282223 -1.6257589 -122.82578 -1.6343333 -122.841 -38.221348 -55.056377
689000000 -36.469154 4.7201233 -1.6365113 -149.64957 -1.6448681 -149.66452 -42.812721 -119.54823
698500000 -35.433022 15.205581 -1.6470194 -176.46954 -1.6552668 -176.4846 -42.040829 131.88219
708000000 -35.312637 -0.17335817 -1.6570016 156.71112 -1.6650712 156.69638 -39.18774 79.475777
717500000 -33.231571 -29.687466 -1.6674495 129.88657 -1.675202 129.87076 -38.395172 61.955563
727000000 -30.864046 -45.356918 -1.6785794 103.06445 -1.6865247 103.04757 -35.880573 40.362099
736500000 -31.47645 -51.993793 -1.6881201 76.244911 -1.69608 76.227989 -36.320232 0.37729967
746000000 -37.866299 -59.823708 -1.6961986 49.413067 -1.7041502 49.396179 -44.652683 -36.741089
755500000 -46.424129 125.07887 -1.7062413 22.577404 -1.7141937 22.558552 -42.72657 86.362091
765000000 -36.555607 87.380722 -1.7183886 -4.2524047 -1.7263366 -4.2725053 -34.424603 65.387062
774500000 -31.803286 36.703449 -1.7325302 -31.08082 -1.740682 -31.103329 -30.002466 47.421806
784000000 -26.606165 6.3191586 -1.7492487 -57.898457 -1.7572815 -57.922264 -26.459637 26.262661
793500000 -24.064703 -10.813296 -1.764583 -84.683479 -1.7729622 -84.708496 -24.177811 -0.42030457
803000000 -23.771528 -28.811647 -1.7744153 -111.45042 -1.7826996 -111.47542 -23.450233 -28.319159
812500000 -24.266674 -53.700592 -1.7808748 -138.23686 -1.7891421 -138.26164 -23.709547 -53.392479
822000000 -24.185766 -79.828773 -1.7887256 -165.03944 -1.79691 -165.06332 -24.11565 -77.413467
831500000 -24.27145 -99.872444 -1.7967033 168.16058 -1.8049951 168.13541 -24.65827 -104.61858
841000000 -25.452763 -118.26721 -1.8029805 141.35213 -1.8112826 141.32535 -25.606592 -133.38155
850500000 -27.204905 -143.39941 -1.8095078 114.52905 -1.8177466 114.5035 -26.547211 -160.64557
860000000 -27.969654 -176.00439 -1.8179433 87.701614 -1.8262075 87.67495 -26.998453 174.21591
869500000 -27.661386 152.18344 -1.8289424 60.873035 -1.8372267 60.845879 -26.642138 149.50525
879000000 -27.045401 119.94353 -1.8417337 34.049973 -1.8502347 34.026508 -25.847252 122.70435
888500000 -25.770887 85.935028 -1.8556973 7.23102 -1.8642285 7.2117033 -24.920961 95.989944
898000000 -24.035604 54.592445 -1.8717672 -19.570415 -1.8801672 -19.592882 -23.68466 69.567696
907500000 -22.517931 26.663031 -1.8877248 -46.342606 -1.8962772 -46.366581 -22.452608 42.270664
917000000 -21.403448 0.9749949 -1.9015621 -73.090759 -1.910211 -73.113136 -21.506029 15.001635
926500000 -20.795366 -22.829494 -1.9108897 -99.817703 -1.9195303 -99.837685 -21.008755 -12.486725
936000000 -20.893616 -45.639172 -1.9135727 -126.55482 -1.9220855 -126.57384 -21.163605 -39.373741
945500000 -21.647146 -68.650375 -1.9138188 -153.32475 -1.9217898 -153.34126 -21.82423 -65.197731
955000000 -22.71665 -91.611893 -1.9135916 179.88631 -1.9208483 179.8692 -22.947447 -91.412407
964500000 -24.028948 -112.32594 -1.9134979 153.07893 -1.9201546 153.05949 -24.587057 -118.43006
974000000 -26.015604 -129.44621 -1.9147874 126.26049 -1.9209146 126.23471 -26.697748 -147.55655
983500000 -28.955896 -145.63477 -1.9169052 99.432274 -1.9232647 99.398926 -29.69623 -178.66635
993000000 -32.239143 -168.72217 -1.9212668 72.590683 -1.9280936 72.551636 -33.063473 156.15433
1002500000 -33.969494 159.00351 -1.9277953 45.752647 -1.9349787 45.708733 -34.388222 130.95415
1012000000 -34.462471 128.77478 -1.9355317 18.926804 -1.9434725 18.882719 -34.913021 95.28643
1021500000 -35.650658 91.227501 -1.943253 -7.8982105 -1.9517915 -7.9397254 -35.344894 64.545349
1031000000 -33.899399 38.20858 -1.9522829 -34.725948 -1.9613693 -34.764786 -33.989529 45.029419
1040500000 -29.854387 7.7310624 -1.9632133 -61.543392 -1.9723879 -61.580544 -31.00304 20.977877
1050000000 -27.919569 -8.552104 -1.9730732 -88.338715 -1.9821486 -88.374199 -29.032709 -11.512364
1059500000 -28.347069 -24.733995 -1.9789547 -115.13359 -1.9880563 -115.16808 -29.24696 -42.792713
1069000000 -30.067183 -47.243187 -1.984885 -141.94951 -1.9939514 -141.98289 -30.740953 -64.046654
1078500000 -31.067089 -67.892487 -1.9930428 -168.7682 -2.0021055 -168.80173 -31.944481 -85.284767
1088000000 -31.328579 -69.059166 -2.0016329 164.4173 -2.0106149 164.38478 -35.268269 -124.7641
1097500000 -30.922842 -53.835342 -2.0100281 137.60457 -2.0191045 137.57281 -42.356865 135.64893
1107000000 -29.883595 -44.164814 -2.0186424 110.79657 -2.0274792 110.76527 -35.984528 38.517391
1116500000 -29.631716 -53.148754 -2.026545 83.991455 -2.0354049 83.959915 -32.90202 2.9819419
1126000000 -29.358242 -78.170914 -2.0349653 57.187683 -2.0437789 57.155586 -31.312162 -18.622019
1135500000 -28.389473 -101.27715 -2.0438738 30.392654 -2.0524194 30.361198 -30.007326 -43.158199
1145000000 -28.839069 -114.10354 -2.0501342 3.6034434 -2.0585685 3.5711021 -30.337908 -75.662537
1154500000 -32.470806 -119.60739 -2.0544477 -23.204466 -2.0629365 -23.238081 -34.057327 -108.3695
1164000000 -41.656776 -108.59055 -2.0607917 -50.029652 -2.0693605 -50.062496 -42.733341 -107.17995
1173500000 -44.544258 -26.530941 -2.0689819 -76.848251 -2.0771847 -76.882294 -42.76408 -55.237198
1183000000 -38.934914 -42.37883 -2.0772398 -103.66297 -2.0857141 -103.69736 -38.884102 -32.831612
1192500000 -34.07317 -67.567596 -2.0866954 -130.47168 -2.0950999 -130.5083 -33.481369 -41.22324
1202000000 -31.317802 -78.674477 -2.095659 -157.26996 -2.1040361 -157.30792 -31.251106 -68.296333
1211500000 -31.236296 -83.69738 -2.1025362 175.93242 -2.1113701 175.89427 -31.921183 -94.797928
1221000000 -33.423317 -89.096092 -2.1089609 149.12836 -2.1177158 149.08908 -34.048553 -112.65626
1230500000 -36.593288 -101.51679 -2.1157367 122.31886 -2.1245244 122.27949 -36.124649 -127.9071
1240000000 -37.72221 -119.85529 -2.1235368 95.50766 -2.1323776 95.46669 -39.240334 -151.0528
1249500000 -37.394844 -132.09712 -2.1315563 68.695145 -2.1402769 68.652695 -44.71999 -171.41135
1259000000 -39.890041 -144.6198 -2.1392515 41.879562 -2.1479604 41.835369 -45.468189 179.41728
1268500000 -51.423801 129.32469 -2.147594 15.059303 -2.1564009 15.013738 -40.020512 139.05949
1278000000 -36.915844 36.963104 -2.1577268 -11.760657 -2.1666424 -11.807561 -34.730328 98.953865
1287500000 -30.568562 11.767994 -2.1702831 -38.579643 -2.1789267 -38.62851 -30.52388 66.492531
1297000000 -26.834024 -11.382685 -2.1849341 -65.387062 -2.1935849 -65.437813 -27.201447 36.670265
1306500000 -24.521652 -33.307125 -2.1995413 -92.167717 -2.208163 -92.219269 -24.868664 7.1411672
1316000000 -23.253502 -55.755596 -2.2116201 -118.9342 -2.2203689 -118.9825 -23.45945 -20.205435
1325500000 -22.492558 -79.173981 -2.2229674 -145.69667 -2.2316513 -145.73724 -22.475962 -45.723648
1335000000 -22.020025 -100.80409 -2.2325373 -172.44078 -2.2411039 -172.47466 -21.965284 -72.479988
1344500000 -22.237356 -120.14763 -2.2370045 160.81442 -2.2449615 160.78403 -22.281246 -99.783821
1354000000 -23.38142 -141.6693 -2.2380774 134.03937 -2.245446 134.01077 -23.244902 -125.42277
1363500000 -24.695494 -168.75029 -2.2404587 107.24542 -2.2468195 107.21497 -24.349205 -150.18649
1373000000 -25.309492 165.53568 -2.2438748 80.453827 -2.2495735 80.419403 -25.464502 -177.83546
1382500000 -26.229034 146.09351 -2.2467299 53.659828 -2.2518454 53.619888 -26.990599 151.73161
1392000000 -28.440216 121.54257 -2.2502987 26.84618 -2.2552748 26.799093 -28.500843 124.73045
1401500000 -29.525209 76.933426 -2.2578697 0.023136593 -2.2632885 -0.033501193 -28.476002 100.73244
1411000000 -27.142696 39.856007 -2.2676752 -26.786386 -2.2738984 -26.848909 -27.290714 71.704887
1420500000 -25.611588 16.531445 -2.2762246 -53.581287 -2.2834675 -53.646397 -26.31513 40.942146
1430000000 -25.388313 -10.622663 -2.2841017 -80.3731 -2.2921755 -80.438484 -25.542408 13.915258
1439500000 -24.543797 -43.009327 -2.2929733 -107.15522 -2.3019879 -107.2195 -24.551571 -11.198771
1449000000 -23.126446 -66.788872 -2.3012748 -133.91678 -2.3113775 -133.97766 -23.679371 -38.687523
1458500000 -22.823675 -81.962852 -2.305352 -160.67151 -2.3157194 -160.72836 -23.665497 -68.602745
1468000000 -23.985983 -96.989731 -2.3056109 172.54578 -2.3160326 172.49258 -24.717407 -96.944756
1477500000 -25.689861 -118.78008 -2.30726 145.73599 -2.3178456 145.68504 -26.160612 -122.80332
1487000000 -26.457758 -141.62505 -2.3113894 118.93195 -2.3218334 118.88308 -27.876465 -152.74962
1496500000 -27.057915 -152.7506 -2.315099 92.13179 -2.3253512 92.085381 -30.810448 168.97243
1506000000 -28.722179 -153.03487 -2.3187335 65.323433 -2.3295186 65.280022 -35.443768 119.60423
1515500000 -31.254559 -152.73549 -2.3241031 38.508472 -2.3347914 38.466331 -39.462963 53.821892
1525000000 -33.431927 -167.02998 -2.3307188 11.696836 -2.3413928 11.655418 -38.686783 -4.2398152
1534500000 -33.327427 169.43642 -2.3376937 -15.111027 -2.3482556 -15.149575 -36.534752 -42.633377
1544000000 -33.535172 156.62537 -2.3442519 -41.914658 -2.3546512 -41.954151 -35.844913 -73.080971
1553500000 -37.593323 148.27702 -2.3504164 -68.71875 -2.3608167 -68.757477 -37.18042 -92.999771
1563000000 -49.941013 79.500435 -2.3567529 -95.521698 -2.3670273 -95.559189 -38.433746 -92.08873
1572500000 -39.749001 -1.759415 -2.3634331 -122.32156 -2.3736517 -122.35937 -36.858513 -94.578682
1582000000 -36.424633 -16.411097 -2.3706381 -149.12326 -2.3806977 -149.161 -35.931976 -111.46006
1591500000 -34.816814 -34.64407 -2.3780501 -175.92842 -2.3880608 -175.96579 -35.944538 -135.41016
1601000000 -32.637192 -51.584568 -2.3854702 157.26561 -2.395566 157.22943 -36.697601 -170.92349
1610500000 -30.920771 -64.4851 -2.3931317 130.46686 -2.4030111 130.43118 -37.242119 139.19688
1620000000 -30.04442 -78.632004 -2.4004459 103.67564 -2.4103498 103.64079 -35.963703 83.826576
1629500000 -28.99379 -94.48587 -2.4081814 76.886772 -2.4179916 76.852203 -33.727245 37.95723
1639000000 -27.601229 -107.1208 -2.416451 50.098763 -2.4259562 50.063812 -31.735912 -1.2256782
1648500000 -26.958464 -117.69673 -2.4236114 23.313364 -2.4331727 23.278429 -30.677927 -38.48444
1658000000 -27.573164 -132.6974 -2.4292679 -3.4735329 -2.4387276 -3.5079079 -30.538567 -71.75013
1667500000 -28.591354 -155.67776 -2.4341581 -30.260128 -2.443809 -30.294991 -30.735975 -101.54794
1677000000 -29.24556 -176.72902 -2.4387422 -57.045971 -2.4483042 -57.080334 -31.616903 -131.36073
1686500000 -31.182009 174.25719 -2.442924 -83.838631 -2.4525952 -83.872124 -34.149883 -160.31128
1696000000 -36.351913 179.25148 -2.4476788 -110.63996 -2.4574153 -110.67246 -39.882133 174.37981
1705500000 -44.891068 -142.67604 -2.453511 -137.4482 -2.4629285 -137.47971 -58.600239 -96.371895
1715000000 -46.246162 -104.22115 -2.4595897 -164.25476 -2.4689074 -164.28513 -39.833809 -74.468575
1724500000 -42.319023 -132.87996 -2.4656103 168.94582 -2.4749072 168.9157 -36.502274 -98.106628
1734000000 -36.701084 -145.70483 -2.4722753 142.1498 -2.4811125 142.12177 -35.444473 -115.46514
1743500000 -34.385292 -148.43451 -2.4797218 115.36123 -2.4881618 115.33356 -34.826221 -138.90781
1753000000 -35.481026 -152.05655 -2.4867771 88.576569 -2.4947219 88.547493 -36.362789 -168.27963
1762500000 -39.459736 -163.18137 -2.4924819 61.783394 -2.5000441 61.75288 -40.239712 174.12231
1772000000 -44.40097 172.98044 -2.4979935 34.984035 -2.5051899 34.949951 -41.909103 -176.77719
1781500000 -49.338127 179.56995 -2.5035565 8.1855354 -2.5105782 8.148695 -39.565742 174.05176
1791000000 -45.178955 -113.68226 -2.5088873 -18.609795 -2.5161769 -18.65036 -39.294891 150.37549
1800500000 -39.313049 -95.475197 -2.5146284 -45.407814 -2.5222962 -45.451733 -39.624111 136.48773
1810000000 -36.037628 -86.750755 -2.5213397 -72.206024 -2.5292649 -72.25148 -37.189281 108.7694
1819500000 -33.385719 -88.209595 -2.5286441 -99.001137 -2.5366771 -99.047676 -34.873848 54.632198
1829000000 -31.159962 -100.29534 -2.5348823 -125.79379 -2.5434122 -125.8418 -33.085449 -1.0407094
1838500000 -29.398342 -116.09657 -2.5407734 -152.5929 -2.5497587 -152.64076 -31.622952 -40.232079
1848000000 -28.357718 -131.7766 -2.5477817 -179.38901 -2.5571826 -179.43724 -29.813793 -67.967003
1857500000 -28.064695 -148.80531 -2.5548203 153.82889 -2.5646877 153.78102 -28.26556 -95.822968
1867000000 -28.077518 -168.72156 -2.5608823 127.05819 -2.5710285 127.01121 -27.74291 -125.57486
1876500000 -28.146414 171.4167 -2.5649648 100.2858 -2.5752554 100.24078 -28.674772 -155.75249
1886000000 -28.895906 154.71039 -2.567909 73.488541 -2.5784082 73.44574 -30.945187 -179.771
1895500000 -31.145473 139.27992 -2.5727625 46.677631 -2.5836143 46.636841 -32.870583 162.93675
1905000000 -35.179447 119.2615 -2.5785666 19.877398 -2.5894077 19.838333 -35.028992 139.41371
1914500000 -40.149498 93.770897 -2.5835245 -6.9158573 -2.5941916 -6.9535017 -40.71883 120.02113
1924000000 -46.476841 94.657806 -2.5886681 -33.71394 -2.5993915 -33.749123 -45.226173 164.00156
1933500000 -46.484108 171.26938 -2.5951142 -60.51228 -2.6057415 -60.546589 -40.908768 164.6631
1943000000 -41.779606 -157.66071 -2.6014497 -87.311829 -2.611897 -87.345146 -41.989052 143.30501
1952500000 -40.930595 -131.11899 -2.607254 -114.11293 -2.6176009 -114.14684 -49.654095 146.5047
1962000000 -40.582733 -102.36834 -2.6132607 -140.91481 -2.6235378 -140.94818 -47.070618 -144.05356
1971500000 -40.303425 -94.436874 -2.6199968 -167.70985 -2.6302032 -167.74399 -43.188568 -133.2377
1981000000 -39.585556 -117.19556 -2.6267719 165.49977 -2.6370804 165.46536 -37.900024 -130.94066
1990500000 -35.844799 -138.83302 -2.6336017 138.71284 -2.6439888 138.6788 -34.4356 -156.84393
2000000000 -32.57552 -143.61783 -2.6400921 111.92396 -2.6504672 111.89016 -34.278236 169.30286
