!Keysight Technologies,N5242B,MY48420967,A.15.65.19
!Date: Thursday, December 15, 2022 09:51:52
!Correction: S11(C  2-Port  ) 
!S21(C  2-Port  ) 
!S12(C  2-Port  ) 
!S22(C  2-Port  ) 
!S2P File: Measurements: S11, S21, S12, S22:
# Hz S  dB   R 50
100000000 -21.784237 -52.189457 -0.59825671 75.836136 -0.60182953 75.823273 -23.628696 -29.6346
109500000 -22.185633 -68.880569 -0.61541551 48.843166 -0.6176241 48.838409 -23.714066 -57.136631
119000000 -24.206398 -81.941238 -0.62776428 21.85733 -0.63079602 21.839838 -25.101286 -85.890808
128500000 -27.723761 -95.43605 -0.64219463 -5.1556325 -0.64575213 -5.1698599 -27.9384 -109.93716
138000000 -31.443958 -105.82739 -0.65965205 -32.150917 -0.66308641 -32.163052 -31.27669 -125.04411
147500000 -33.499012 -100.07333 -0.67759752 -59.121994 -0.68122321 -59.134686 -35.410824 -137.81554
157000000 -33.099155 -90.070877 -0.69536436 -86.076851 -0.69923723 -86.089531 -42.648712 -124.90037
166500000 -33.509296 -97.431709 -0.71230644 -113.0256 -0.71601713 -113.03616 -41.26973 -91.135353
176000000 -37.215797 -124.95814 -0.72885996 -139.97139 -0.73262429 -139.98227 -42.943302 -115.56281
185500000 -45.20533 148.70602 -0.74584866 -166.9106 -0.74967206 -166.92102 -52.157703 129.56596
195000000 -36.296062 46.264923 -0.76284361 166.1635 -0.76667148 166.15366 -39.024792 56.157124
204500000 -30.831175 12.464805 -0.77886581 139.25107 -0.78277296 139.24164 -33.695469 28.59412
214000000 -29.300287 -14.748597 -0.79294497 112.34124 -0.79633743 112.3356 -31.863483 6.3141761
223500000 -30.089417 -45.485832 -0.80537635 85.433556 -0.80890447 85.427155 -31.646072 -13.831507
233000000 -32.037701 -77.082603 -0.81670481 58.519627 -0.8205952 58.513344 -33.757088 -37.28656
242500000 -37.301048 -95.367874 -0.82956666 31.596617 -0.83343345 31.590797 -41.295452 -50.384647
252000000 -43.43792 24.357147 -0.84407049 4.6771631 -0.8479197 4.6730499 -43.850582 53.335403
261500000 -31.744339 31.840752 -0.85989588 -22.231949 -0.86379296 -22.23562 -33.980095 49.768925
271000000 -28.37867 16.246973 -0.87568766 -49.122746 -0.87931114 -49.126049 -29.564419 24.828382
280500000 -27.1341 -9.3625011 -0.88899821 -75.997414 -0.89273012 -76.000603 -27.486034 -2.4868989
290000000 -25.932955 -37.720566 -0.90076154 -102.86948 -0.90444845 -102.87241 -26.479605 -27.903078
299500000 -25.300997 -58.560944 -0.9110927 -129.746 -0.91474909 -129.7498 -26.115351 -52.425144
309000000 -26.33914 -72.873138 -0.92051852 -156.63423 -0.92423022 -156.63794 -26.433651 -76.693909
318500000 -28.969416 -86.391563 -0.92946273 176.46445 -0.93313938 176.46095 -27.699823 -100.74673
328000000 -31.21566 -105.09515 -0.93924731 149.55609 -0.94293392 149.55167 -29.795776 -120.55417
337500000 -30.677935 -125.75163 -0.95098537 122.64417 -0.95475161 122.64072 -30.989279 -139.39372
347000000 -29.313887 -145.45107 -0.96491241 95.737343 -0.9688037 95.73436 -31.003843 -170.90199
356500000 -29.157633 -175.85367 -0.97965556 68.837631 -0.98360163 68.834793 -30.369881 153.27048
366000000 -28.300774 136.44792 -0.99575657 41.93597 -0.9995957 41.934399 -28.37747 124.79563
375500000 -25.327702 95.10672 -1.0143046 15.05098 -1.0182112 15.048237 -25.585335 99.186958
385000000 -23.166643 66.17157 -1.0333164 -11.793649 -1.0371541 -11.796343 -23.259428 71.770996
394500000 -22.311499 39.144421 -1.0477951 -38.605587 -1.0513062 -38.608688 -21.995861 43.73764
404000000 -21.893064 10.057038 -1.056334 -65.422691 -1.0602288 -65.426048 -21.615095 17.610306
413500000 -21.389736 -17.493977 -1.0649989 -92.254135 -1.0689809 -92.256142 -21.452688 -6.9806566
423000000 -21.321299 -40.439278 -1.0716282 -119.07488 -1.0753082 -119.07704 -21.483755 -34.087883
432500000 -22.299681 -60.949371 -1.0720583 -145.91104 -1.0757911 -145.91389 -22.36762 -62.860752
442000000 -24.295567 -83.145119 -1.071831 -172.79318 -1.0757161 -172.79672 -24.090258 -87.984184
451500000 -26.462271 -107.67776 -1.076001 160.30302 -1.0799556 160.30026 -25.873514 -108.84352
461000000 -28.0578 -127.56062 -1.0833304 133.40373 -1.087267 133.4017 -27.635201 -131.88693
470500000 -29.555792 -141.07813 -1.0918241 106.50987 -1.0956885 106.50661 -30.156507 -159.4713
480000000 -31.591675 -161.61792 -1.100898 79.613472 -1.1049699 79.609612 -32.837524 172.6879
489500000 -32.489567 153.59752 -1.1114391 52.718601 -1.1157899 52.714626 -32.986629 144.41167
499000000 -30.041393 108.93033 -1.1237625 25.840921 -1.1278971 25.836975 -30.640747 110.84939
508500000 -28.206316 76.744217 -1.1349708 -1.0168015 -1.138883 -1.0193332 -28.520613 78.954132
518000000 -27.674892 44.836124 -1.1440617 -27.869339 -1.1481175 -27.872454 -27.332209 52.794628
527500000 -27.334221 13.41099 -1.152078 -54.723537 -1.1563221 -54.726849 -26.720888 29.292011
537000000 -27.301788 -11.489944 -1.1587281 -81.578857 -1.163021 -81.581238 -26.927174 3.1856358
546500000 -28.362543 -29.982035 -1.1640226 -108.44102 -1.168229 -108.44392 -28.551437 -26.241472
556000000 -30.933149 -43.303211 -1.1696658 -135.31728 -1.1739261 -135.32027 -32.079712 -58.109604
565500000 -35.244743 -44.855522 -1.1770853 -162.20084 -1.181416 -162.20314 -38.484413 -98.047691
575000000 -37.992653 -12.941648 -1.1863927 170.91687 -1.1904634 170.91716 -45.305767 142.46085
584500000 -33.953651 2.7543311 -1.1965203 144.04306 -1.2004488 144.04657 -36.250248 64.601845
594000000 -30.488899 -11.061096 -1.2069361 117.1825 -1.2101673 117.18538 -32.147293 28.416273
603500000 -28.38279 -32.406361 -1.2168785 90.330353 -1.2190969 90.327156 -30.041939 0.85266167
613000000 -27.876886 -53.547272 -1.2244481 63.482189 -1.2269313 63.470455 -29.059025 -24.531864
622500000 -29.537067 -72.766266 -1.2294307 36.626003 -1.2332057 36.609474 -29.513519 -49.639416
632000000 -33.918804 -92.183777 -1.2335551 9.7526684 -1.2383013 9.7387934 -32.333286 -71.313126
641500000 -41.285004 -113.74159 -1.2403085 -17.131044 -1.2453579 -17.13954 -37.354889 -69.273026
651000000 -49.758598 -99.874397 -1.2484103 -44.00618 -1.2535477 -44.011902 -38.915543 -51.042965
660500000 -43.809223 -53.661896 -1.2568849 -70.876877 -1.2618443 -70.879997 -39.867168 -39.207577
670000000 -39.72477 -43.002064 -1.2654629 -97.744911 -1.2702775 -97.747063 -38.337341 -37.022034
679500000 -38.957779 -17.749882 -1.2741117 -124.61284 -1.2785498 -124.61456 -38.336353 -70.702866
689000000 -36.793999 14.59938 -1.2826958 -151.48021 -1.2871541 -151.48125 -40.717049 -144.37347
698500000 -34.82198 22.732265 -1.2911668 -178.34177 -1.295668 -178.34314 -38.39455 130.20367
708000000 -34.352585 5.7211599 -1.2990514 154.79784 -1.3034046 154.79698 -36.707573 83.132042
717500000 -32.452675 -24.614592 -1.3073077 127.93115 -1.3114357 127.93018 -36.121555 62.894543
727000000 -30.261112 -42.876907 -1.3163688 101.06754 -1.3205366 101.06548 -34.202888 38.362453
736500000 -30.926773 -52.199852 -1.3234472 74.206932 -1.3277771 74.205078 -34.989029 -1.7857898
746000000 -37.286587 -63.238857 -1.3291378 47.330929 -1.3334661 47.329212 -43.034519 -40.92857
755500000 -45.625134 128.82162 -1.3369751 20.44907 -1.3413037 20.446306 -42.865597 88.279831
765000000 -35.746342 86.389771 -1.3472143 -6.4267874 -1.3514819 -6.4304228 -34.023029 66.480606
774500000 -31.028234 36.721973 -1.3596694 -33.302074 -1.3641073 -33.306263 -29.472044 47.954391
784000000 -26.016724 5.7737079 -1.3750343 -60.165321 -1.3793762 -60.169704 -25.864264 26.050316
793500000 -23.526636 -12.247917 -1.3891307 -86.992447 -1.39378 -86.996559 -23.577347 -1.3628556
803000000 -23.216312 -31.004452 -1.3971907 -113.80154 -1.4016753 -113.80414 -22.863714 -29.664457
812500000 -23.638683 -56.465946 -1.4018415 -140.63127 -1.4062225 -140.63425 -23.082506 -54.77898
822000000 -23.487436 -82.816971 -1.4080485 -167.47633 -1.412434 -167.47974 -23.380072 -78.985596
831500000 -23.521393 -103.30073 -1.414328 165.68008 -1.4188091 165.67657 -23.812284 -106.25354
841000000 -24.571594 -122.96519 -1.4189906 138.82703 -1.4234759 138.82213 -24.586967 -134.62215
850500000 -25.976171 -149.67433 -1.4238815 111.95887 -1.428393 111.95445 -25.299717 -161.36035
860000000 -26.305372 177.94908 -1.4310496 85.083656 -1.4355848 85.079224 -25.507538 174.01547
869500000 -25.794054 147.14801 -1.4414254 58.208874 -1.4459699 58.204102 -24.963516 149.3985
879000000 -25.060516 115.80347 -1.4539554 31.343107 -1.4586011 31.339834 -24.100178 122.61642
888500000 -23.792381 83.299469 -1.4679188 4.4828401 -1.4725387 4.4821801 -23.168455 95.867203
898000000 -22.242586 52.991096 -1.4843599 -22.356979 -1.4887545 -22.358732 -21.996164 69.148979
907500000 -20.916246 25.06624 -1.5006112 -49.159859 -1.5051153 -49.161736 -20.863344 41.530121
917000000 -19.930874 -1.0778172 -1.5138899 -75.931358 -1.5184419 -75.932068 -20.010748 13.900476
926500000 -19.41573 -25.4039 -1.521371 -102.68053 -1.5258703 -102.68025 -19.575752 -13.853146
936000000 -19.552973 -48.897484 -1.5210885 -129.44237 -1.5254005 -129.44209 -19.729904 -41.0364
945500000 -20.2558 -72.800728 -1.5174903 -156.24226 -1.5216514 -156.24094 -20.344593 -67.215706
955000000 -21.233854 -96.657173 -1.5133357 176.93225 -1.5171525 176.9337 -21.353516 -93.695435
964500000 -22.476416 -118.6283 -1.5093642 150.08427 -1.5128263 150.08429 -22.790195 -120.93771
974000000 -24.335983 -138.42749 -1.5069109 123.22092 -1.5101415 123.21717 -24.607868 -149.76625
983500000 -26.935614 -159.21892 -1.5057102 96.342491 -1.5091418 96.335159 -27.058193 -179.35985
993000000 -29.501505 173.49777 -1.5077145 69.448753 -1.5114297 69.438141 -29.539724 156.25343
1002500000 -30.619581 141.7137 -1.5129832 42.561947 -1.516842 42.54977 -30.46154 131.29134
1012000000 -30.958216 112.51141 -1.5191636 15.692226 -1.5234528 15.679184 -31.004318 98.883133
1021500000 -31.609304 78.152756 -1.5251791 -11.176754 -1.5297438 -11.187943 -31.59967 69.962975
1031000000 -30.476789 35.168373 -1.5327877 -38.048084 -1.5377897 -38.057186 -30.760445 47.742226
1040500000 -27.782614 5.4727011 -1.5422776 -64.904411 -1.5472927 -64.912239 -28.69351 20.956022
1050000000 -26.536858 -12.578945 -1.5495847 -91.737801 -1.5545691 -91.743309 -27.427828 -12.364979
1059500000 -27.374599 -30.123655 -1.552424 -118.57583 -1.5574805 -118.58067 -28.016075 -44.402763
1069000000 -29.409794 -53.494843 -1.5556771 -145.43967 -1.5607226 -145.44318 -29.783281 -67.441811
1078500000 -30.857325 -73.808868 -1.5615406 -172.30754 -1.5666665 -172.3103 -31.320919 -90.998924
1088000000 -31.750414 -71.669846 -1.5680665 160.82779 -1.5730205 160.82623 -34.864338 -135.87813
1097500000 -31.208179 -50.710472 -1.5751119 133.96417 -1.5801293 133.9637 -39.282951 119.53607
1107000000 -29.520491 -40.86676 -1.5827175 107.10995 -1.5876281 107.10974 -33.916229 38.275936
1116500000 -28.920563 -51.904671 -1.5893701 80.261375 -1.5943106 80.26062 -31.410376 2.7690563
1126000000 -28.515619 -77.905258 -1.5964291 53.414242 -1.6013067 53.413357 -29.954569 -20.041035
1135500000 -27.666019 -101.73764 -1.6037349 26.57736 -1.6084523 26.577381 -28.787693 -46.067104
1145000000 -28.252235 -115.94675 -1.6079968 -0.25460672 -1.6125691 -0.25524861 -29.29484 -79.300583
1154500000 -31.876085 -123.66616 -1.6102132 -27.108526 -1.6148782 -27.109663 -33.077751 -111.65118
1164000000 -40.911449 -120.45918 -1.6148249 -53.98037 -1.619498 -53.980686 -41.110123 -112.48354
1173500000 -46.557392 -31.222288 -1.6211787 -80.846176 -1.6256433 -80.846748 -42.579899 -67.245552
1183000000 -39.572479 -45.483067 -1.6278676 -107.70805 -1.6324699 -107.70819 -39.156342 -38.10046
1192500000 -34.302689 -71.056244 -1.6355735 -134.56377 -1.6401805 -134.56508 -33.444794 -45.54845
1202000000 -31.478632 -82.288795 -1.6429968 -161.41016 -1.6474793 -161.4118 -31.137852 -73.413658
1211500000 -31.474041 -87.650162 -1.6483718 171.74448 -1.6531618 171.74252 -31.836012 -100.96963
1221000000 -33.844833 -94.395386 -1.6532129 144.89107 -1.658031 144.88974 -33.958897 -118.80207
1230500000 -37.123013 -111.77119 -1.6586416 118.03278 -1.663414 118.03164 -35.478317 -134.10947
1240000000 -37.945934 -137.16299 -1.6650565 91.171448 -1.669769 91.170837 -37.483814 -159.45628
1249500000 -37.843102 -155.87828 -1.671604 64.306885 -1.6762731 64.306229 -40.386353 177.72498
1259000000 -40.838657 169.83032 -1.6783345 37.435043 -1.6829566 37.435139 -39.024845 161.23132
1268500000 -38.758766 81.380936 -1.6865606 10.558683 -1.6912901 10.559119 -34.530712 128.90378
1278000000 -31.535233 39.703716 -1.697351 -16.315905 -1.7021056 -16.314667 -30.490948 94.681526
1287500000 -27.135471 12.411941 -1.7112607 -43.184849 -1.7157797 -43.184219 -27.132088 63.869686
1297000000 -24.169399 -12.485189 -1.7277961 -70.034042 -1.7323127 -70.032707 -24.401962 34.222042
1306500000 -22.249523 -35.70269 -1.7436411 -96.848114 -1.7482498 -96.845695 -22.471685 4.8218737
1316000000 -21.180801 -59.136665 -1.7562256 -123.64281 -1.7608728 -123.64005 -21.276903 -22.732859
1325500000 -20.519075 -83.33017 -1.7675767 -150.42844 -1.7723172 -150.42558 -20.437895 -48.921478
1335000000 -20.119991 -105.99519 -1.7761812 -177.19278 -1.7809923 -177.18857 -20.014194 -76.167526
1344500000 -20.352072 -127.05923 -1.7779229 156.03845 -1.7823453 156.04385 -20.287498 -103.77227
1354000000 -21.319427 -150.50616 -1.7756155 129.22795 -1.7797811 129.23393 -21.071054 -129.73813
1363500000 -22.268036 -178.2789 -1.7754607 102.39191 -1.7790223 102.39691 -21.889254 -154.93843
1373000000 -22.68045 155.7049 -1.7766702 75.560043 -1.779794 75.563515 -22.690479 177.39423
1382500000 -23.437609 133.57382 -1.7766855 48.721859 -1.7794061 48.722046 -23.807676 148.15811
1392000000 -24.905703 105.92686 -1.7785408 21.855043 -1.7810796 21.851568 -24.776917 122.03497
1401500000 -25.13209 67.427353 -1.7863768 -5.0178185 -1.7891246 -5.027319 -24.6017 97.206589
1411000000 -23.527109 35.411194 -1.7968243 -31.863577 -1.8000437 -31.876698 -23.733847 68.554169
1420500000 -22.556767 11.250968 -1.8049409 -58.687588 -1.8087674 -58.702423 -23.067427 38.765076
1430000000 -22.47743 -15.931336 -1.8114614 -85.510078 -1.8158072 -85.525078 -22.575558 11.667887
1439500000 -21.96294 -46.54792 -1.8189447 -112.32104 -1.8238786 -112.33562 -21.926199 -14.142692
1449000000 -21.064121 -70.621216 -1.825039 -139.10625 -1.8306987 -139.11842 -21.405333 -42.25309
1458500000 -21.088545 -87.860054 -1.8248239 -165.88765 -1.8306789 -165.89696 -21.653364 -72.401787
1468000000 -22.389549 -105.38054 -1.8201159 167.29025 -1.8260542 167.2832 -22.789095 -101.00671
1477500000 -24.117334 -128.74963 -1.8176664 140.43393 -1.8236628 140.42836 -24.22061 -127.6375
1487000000 -25.091162 -151.79251 -1.8180268 113.58175 -1.8238747 113.57718 -25.908726 -157.89847
1496500000 -26.201799 -163.88092 -1.818083 86.729416 -1.82371 86.727196 -28.725107 165.08572
1506000000 -28.647688 -165.87163 -1.8187677 59.865067 -1.8247714 59.863979 -33.223553 120.63674
1515500000 -32.14278 -166.22609 -1.8221006 32.993641 -1.8280629 32.993874 -38.095055 63.947803
1525000000 -34.735859 -179.83347 -1.8272017 6.1287646 -1.833053 6.1295199 -38.717709 2.9009962
1534500000 -34.369698 160.44414 -1.8328363 -20.729723 -1.8385808 -20.728178 -36.664425 -41.620625
1544000000 -34.584156 152.19623 -1.838078 -47.583847 -1.8436785 -47.582527 -36.010784 -75.827415
1553500000 -38.921848 148.1946 -1.8430563 -74.436523 -1.84869 -74.435204 -37.62492 -97.317863
1563000000 -53.616364 76.717484 -1.8481092 -101.28678 -1.8537103 -101.28457 -38.760265 -96.950867
1572500000 -41.159775 -1.6073976 -1.8533458 -128.13412 -1.8589408 -128.13271 -37.223045 -104.57287
1582000000 -37.701038 -9.939661 -1.8591771 -154.98378 -1.864617 -154.98291 -36.596333 -126.4169
1591500000 -35.716579 -24.656401 -1.8653563 178.16229 -1.8708073 178.16386 -36.590481 -156.92471
1601000000 -33.0158 -41.170307 -1.8716134 151.30838 -1.8772297 151.31059 -36.591469 159.28194
1610500000 -30.822348 -54.765018 -1.8781235 124.46204 -1.8836855 124.46436 -35.425484 108.3285
1620000000 -29.584393 -69.798195 -1.8846678 97.623909 -1.8902497 97.626694 -33.093521 61.766079
1629500000 -28.301031 -87.244217 -1.8915969 70.790657 -1.8970563 70.793991 -30.906313 22.242956
1639000000 -26.782595 -102.39096 -1.8988372 43.959579 -1.9039466 43.96278 -29.328487 -13.644598
1648500000 -26.10326 -115.54049 -1.9046594 17.132277 -1.9099159 17.135111 -28.606218 -48.251816
1658000000 -26.758987 -132.4128 -1.9085484 -9.6957722 -1.9137404 -9.6926413 -28.739405 -80.192192
1667500000 -27.927853 -156.27911 -1.9114513 -36.527664 -1.9166794 -36.524494 -29.372822 -109.72516
1677000000 -28.885384 -177.78261 -1.9139266 -63.36142 -1.9190619 -63.358395 -30.784948 -139.77826
1686500000 -31.246956 173.64604 -1.9163901 -90.203865 -1.9217676 -90.201096 -34.027672 -170.74098
1696000000 -36.845741 -175.26959 -1.9199475 -117.05659 -1.9253311 -117.05318 -41.745831 156.63347
1705500000 -41.92585 -125.26291 -1.9247975 -143.91403 -1.9299324 -143.91064 -47.107586 -35.724899
1715000000 -40.698734 -111.8463 -1.9300523 -170.76859 -1.935079 -170.76471 -36.531139 -73.363831
1724500000 -37.422455 -138.89313 -1.9351101 162.38554 -1.9402531 162.38866 -33.716213 -100.43231
1734000000 -33.363869 -154.86681 -1.9407566 135.54262 -1.9455987 135.54715 -32.459942 -121.40678
1743500000 -31.848299 -164.05551 -1.9472213 108.70818 -1.9519047 108.71346 -31.656977 -146.51881
1753000000 -33.154755 -178.72775 -1.9529063 81.877716 -1.9572814 81.8815 -32.380001 -175.04123
1762500000 -35.914433 149.36761 -1.9571213 55.035645 -1.9612945 55.038448 -34.319786 164.26613
1772000000 -36.864712 106.76198 -1.9616239 28.18429 -1.9655881 28.183895 -34.934082 154.15573
1781500000 -37.880692 69.616127 -1.9669783 1.3350016 -1.9707552 1.3330449 -33.719059 135.38051
1791000000 -38.738037 15.82171 -1.9720122 -25.508326 -1.9760491 -25.512257 -33.211567 107.11561
1800500000 -34.687309 -29.095835 -1.9773158 -52.35696 -1.981537 -52.362698 -33.21719 82.814827
1810000000 -30.765438 -50.577591 -1.9848465 -79.209251 -1.9891824 -79.215736 -31.340815 59.102249
1819500000 -28.20178 -68.929504 -1.9945631 -106.04678 -1.9989784 -106.05426 -28.645288 22.770206
1829000000 -26.457071 -89.680336 -2.0020344 -132.86757 -2.0069044 -132.87573 -26.981836 -16.966696
1838500000 -25.174839 -111.04186 -2.0075262 -159.69461 -2.0126297 -159.70329 -26.116543 -49.735634
1848000000 -24.426672 -131.52092 -2.0141101 173.47676 -2.0194237 173.46797 -25.113297 -76.777863
1857500000 -24.251816 -152.50896 -2.0207267 146.66881 -2.02619 146.66025 -24.194679 -104.49674
1867000000 -24.373747 -175.19711 -2.0247724 119.87758 -2.0303884 119.86842 -23.998449 -133.91751
1876500000 -24.62759 162.27995 -2.0249074 93.076385 -2.0305395 93.068268 -24.887447 -163.0345
1886000000 -25.444502 141.37184 -2.0239568 66.237587 -2.0297213 66.231354 -26.603811 172.72632
1895500000 -27.362141 119.21608 -2.0259535 39.381573 -2.0320578 39.376198 -28.012136 151.80667
1905000000 -30.182528 90.284103 -2.0287371 12.539242 -2.0348482 12.534979 -29.601364 125.98359
1914500000 -32.800308 56.429722 -2.0300641 -14.301755 -2.0360277 -14.305317 -32.856815 100.36315
1924000000 -35.9781 26.776648 -2.0324142 -41.153915 -2.0385268 -41.157444 -36.98114 90.371254
1933500000 -41.193169 -18.689327 -2.0373464 -68.006721 -2.0433326 -68.009041 -38.219902 84.576286
1943000000 -38.954803 -81.263321 -2.0425353 -94.855179 -2.0484524 -94.856812 -38.959759 53.23608
1952500000 -35.228127 -95.198929 -2.0470996 -121.70262 -2.0529809 -121.70478 -40.538273 -3.0048156
1962000000 -34.197212 -98.17054 -2.0515432 -148.55112 -2.0573337 -148.55257 -40.151726 -62.422138
1971500000 -34.974163 -108.11142 -2.0569675 -175.39441 -2.0627711 -175.39635 -37.703949 -94.178314
1981000000 -35.360821 -132.14069 -2.0625284 157.77014 -2.0683968 157.76778 -34.214836 -120.87952
1990500000 -33.569042 -150.52725 -2.067585 130.93784 -2.0734644 130.93573 -32.471661 -155.31041
