!Keysight Technologies,N5242B,MY48420967,A.15.65.19
!Date: Thursday, December 15, 2022 12:03:33
!Correction: S11(C  2-Port  ) 
!S21(C  2-Port  ) 
!S12(C  2-Port  ) 
!S22(C  2-Port  ) 
!S2P File: Measurements: S11, S21, S12, S22:
# Hz S  dB   R 50
100000000 -21.893204 -52.815765 -0.62736827 75.731712 -0.63354892 75.719505 -23.721914 -28.884132
109500000 -22.262852 -69.413315 -0.64595032 48.738625 -0.65083021 48.7351 -23.751221 -56.468346
119000000 -24.275158 -82.738945 -0.65953881 21.754995 -0.66516191 21.737621 -25.062548 -85.392838
128500000 -27.771965 -96.858696 -0.67489976 -5.2578702 -0.6810503 -5.2716374 -27.801592 -109.57752
138000000 -31.486345 -108.16071 -0.69345868 -32.252758 -0.69947684 -32.265034 -30.942715 -125.10446
147500000 -33.777248 -103.32896 -0.71244735 -59.223061 -0.7187503 -59.235806 -34.792042 -139.82327
157000000 -33.725201 -92.530029 -0.73115981 -86.177299 -0.73780566 -86.190445 -42.045464 -135.68225
166500000 -34.333069 -99.003746 -0.74926263 -113.12543 -0.75562823 -113.13686 -42.629494 -99.402603
176000000 -38.525459 -127.32694 -0.76689696 -140.06946 -0.77340972 -140.08125 -45.131248 -125.08163
185500000 -45.640751 126.16538 -0.78493816 -167.00595 -0.79143518 -167.01747 -48.671398 99.615631
195000000 -35.311089 42.958549 -0.80271447 166.07159 -0.80929774 166.06001 -37.707775 52.776367
204500000 -30.338285 11.394512 -0.81946743 139.162 -0.82603419 139.15111 -32.985409 26.677147
214000000 -28.922508 -15.596025 -0.83416116 112.25479 -0.84019792 112.24725 -31.388889 4.4312301
223500000 -29.668131 -45.954716 -0.84717083 85.348747 -0.85339147 85.339836 -31.307049 -15.695052
233000000 -31.591227 -76.913719 -0.85915756 58.435978 -0.86564064 58.427155 -33.406494 -39.693794
242500000 -36.675163 -95.190865 -0.87270486 31.514452 -0.87914795 31.505337 -40.91576 -56.480209
252000000 -44.364742 18.511969 -0.88792306 4.5956259 -0.89444572 4.58921 -44.951965 56.825283
261500000 -32.03421 30.952644 -0.90450519 -22.311525 -0.91115081 -22.31831 -34.20385 51.229935
271000000 -28.526812 15.768065 -0.92116272 -49.2001 -0.92740154 -49.206673 -29.63711 25.53196
280500000 -27.229565 -9.7725649 -0.93520266 -76.072548 -0.9416669 -76.079376 -27.508053 -2.1016695
290000000 -25.997494 -38.309052 -0.94774753 -102.94137 -0.95419014 -102.9476 -26.458845 -27.574116
299500000 -25.328917 -59.244686 -0.95878804 -129.815 -0.96520048 -129.8213 -26.059465 -52.153343
309000000 -26.354031 -73.550301 -0.96879071 -156.70007 -0.97521412 -156.70657 -26.350611 -76.493065
318500000 -29.02058 -87.348907 -0.97836614 176.40131 -0.98480725 176.39476 -27.594967 -100.6768
328000000 -31.29821 -106.88471 -0.98870403 149.49554 -0.99526727 149.48853 -29.649668 -120.74165
337500000 -30.746576 -127.78065 -1.0011154 122.58576 -1.0077389 122.58064 -30.824574 -140.23154
347000000 -29.426809 -146.89676 -1.0156741 95.683052 -1.0224119 95.677597 -30.849695 -172.07692
356500000 -29.310442 -177.33182 -1.0310583 68.786133 -1.0377526 68.780968 -30.236259 152.29025
366000000 -28.369417 134.88698 -1.0477368 41.888397 -1.0543272 41.884327 -28.272453 123.82539
375500000 -25.354866 94.161697 -1.0667604 15.0081 -1.0733786 15.003207 -25.556852 98.329811
385000000 -23.218294 65.502991 -1.0859962 -11.832976 -1.0925717 -11.83873 -23.274441 71.134445
394500000 -22.365582 38.600498 -1.1009223 -38.641544 -1.107072 -38.648037 -22.023155 43.164574
404000000 -21.945827 9.6979971 -1.109653 -65.455818 -1.1163148 -65.463112 -21.66703 17.025627
413500000 -21.461823 -17.754381 -1.1187727 -92.286034 -1.1254276 -92.291924 -21.522013 -7.4554777
423000000 -21.40659 -40.62859 -1.125861 -119.1036 -1.1321768 -119.11076 -21.560648 -34.549339
432500000 -22.389023 -60.879002 -1.1268477 -145.93848 -1.1331626 -145.94673 -22.47311 -63.319565
442000000 -24.409658 -82.722809 -1.1273233 -172.81836 -1.1338179 -172.82822 -24.227848 -88.407806
451500000 -26.611002 -107.13176 -1.1320579 160.2813 -1.1387531 160.27208 -26.060179 -109.30303
461000000 -28.194637 -126.8796 -1.1399144 133.38571 -1.1465833 133.37708 -27.892925 -132.3642
470500000 -29.683041 -139.74748 -1.1489812 106.49559 -1.1555779 106.48544 -30.51058 -160.10474
480000000 -31.783398 -159.31238 -1.1585567 79.602806 -1.1653959 79.591637 -33.318157 171.70576
489500000 -32.821827 155.57649 -1.1694574 52.711437 -1.1766315 52.700466 -33.500011 143.33675
499000000 -30.335192 110.13083 -1.1820314 25.836653 -1.1891026 25.825771 -31.048187 109.77426
508500000 -28.483042 77.674858 -1.193699 -1.0188862 -1.2004722 -1.0286113 -28.846994 78.132523
518000000 -27.95491 45.407223 -1.2032669 -27.868092 -1.2102377 -27.878819 -27.618935 52.168137
527500000 -27.597952 13.96126 -1.2118127 -54.720104 -1.2189159 -54.73085 -26.997726 28.936062
537000000 -27.570009 -10.692601 -1.2191223 -81.57312 -1.2262425 -81.58329 -27.201275 3.091732
546500000 -28.630747 -28.928293 -1.2251248 -108.4314 -1.2321622 -108.44261 -28.848425 -26.181204
556000000 -31.160698 -41.61274 -1.2313598 -135.30435 -1.2386022 -135.31502 -32.500267 -57.897636
565500000 -35.348286 -41.46944 -1.2394347 -162.18286 -1.2468154 -162.19315 -39.30265 -97.847397
575000000 -37.58152 -9.5877314 -1.2493759 170.93973 -1.2564077 170.93398 -45.308453 132.5573
584500000 -33.683182 3.1588578 -1.2600198 144.07126 -1.266625 144.06989 -35.950535 62.157528
594000000 -30.373638 -11.054027 -1.2707984 117.21561 -1.2761995 117.2132 -31.993013 27.176708
603500000 -28.270275 -32.186195 -1.2811542 90.369377 -1.2852045 90.356995 -29.937218 -0.050742127
613000000 -27.783283 -53.135391 -1.2888747 63.527065 -1.2933491 63.50214 -28.995901 -25.413477
622500000 -29.466398 -72.242546 -1.2936647 36.675053 -1.3000817 36.643116 -29.45813 -50.388988
632000000 -33.767464 -91.242996 -1.2977473 9.8044796 -1.3057015 9.7758675 -32.252403 -72.607918
641500000 -40.800812 -110.57754 -1.3047688 -17.078758 -1.3131968 -17.099005 -37.430141 -71.585968
651000000 -48.207268 -97.228943 -1.31338 -43.951653 -1.3219041 -43.967674 -39.342323 -52.770767
660500000 -43.452759 -56.919666 -1.3223463 -70.819633 -1.3306282 -70.832024 -40.421261 -37.582687
670000000 -39.674057 -45.61047 -1.3315233 -97.684113 -1.3395358 -97.69471 -38.579857 -34.180622
679500000 -39.088909 -20.587446 -1.3405839 -124.54826 -1.3480955 -124.55817 -38.627785 -67.433739
689000000 -37.088943 13.258075 -1.3495901 -151.41145 -1.3570809 -151.4212 -41.540371 -141.85132
698500000 -35.113647 22.790083 -1.3584603 -178.26964 -1.3659164 -178.27934 -39.049736 128.60225
708000000 -34.71418 6.0911818 -1.3667674 154.87355 -1.3740268 154.86414 -37.152374 81.20594
717500000 -32.783386 -25.04627 -1.3753519 128.01106 -1.3823969 128.00117 -36.624512 61.669662
727000000 -30.501497 -43.093086 -1.3848219 101.151 -1.3918808 101.13965 -34.635689 38.136875
736500000 -31.168707 -51.634193 -1.392333 74.293182 -1.399556 74.282249 -35.415024 -2.1094666
746000000 -37.768288 -61.249878 -1.3985654 47.421017 -1.4056801 47.410469 -43.998623 -41.826229
755500000 -44.996445 122.63646 -1.40692 20.543299 -1.4139447 20.531635 -42.175873 89.826668
765000000 -35.566479 85.157028 -1.4174843 -6.3278298 -1.4246666 -6.3409624 -33.803223 66.650124
774500000 -30.908409 36.407223 -1.4304515 -33.197659 -1.4377985 -33.213055 -29.349236 47.768589
784000000 -25.968775 5.9454956 -1.4461834 -60.055202 -1.4533772 -60.071392 -25.810951 25.742268
793500000 -23.517721 -11.93747 -1.4605066 -86.877594 -1.4680469 -86.895103 -23.564035 -1.5877768
803000000 -23.214117 -30.61883 -1.4689163 -113.68105 -1.4763337 -113.69841 -22.857548 -29.820774
812500000 -23.632528 -55.850616 -1.4737736 -140.50613 -1.4811863 -140.52309 -23.081911 -55.042568
822000000 -23.49885 -81.999908 -1.4802784 -167.34729 -1.4876536 -167.36371 -23.401592 -79.305305
831500000 -23.545235 -102.46172 -1.4868716 165.81425 -1.4942968 165.79671 -23.8424 -106.64373
841000000 -24.592405 -121.91611 -1.4917264 138.96564 -1.4991421 138.94751 -24.640299 -135.17543
850500000 -26.028908 -148.1032 -1.4969184 112.10105 -1.5043224 112.08469 -25.382713 -162.03659
860000000 -26.45043 179.66382 -1.5042254 85.23156 -1.5116731 85.214081 -25.631102 173.15637
869500000 -25.988401 148.6572 -1.514657 58.361454 -1.5221269 58.343361 -25.138506 148.49442
879000000 -25.291649 117.23283 -1.5272064 31.498613 -1.5349066 31.484795 -24.304033 121.76793
888500000 -24.070557 84.422134 -1.5411453 4.6426005 -1.5488111 4.6317124 -23.389517 95.082321
898000000 -22.519945 53.703705 -1.5575449 -22.19239 -1.5649209 -22.2066 -22.223967 68.497871
907500000 -21.174379 25.668846 -1.5736068 -48.992851 -1.5812122 -49.008781 -21.091696 41.025616
917000000 -20.183758 -0.44337094 -1.58691 -75.764465 -1.5946066 -75.778351 -20.236181 13.54352
926500000 -19.662413 -24.795713 -1.5946903 -102.51263 -1.6023686 -102.52499 -19.804602 -14.118361
936000000 -19.795124 -48.269951 -1.5947714 -129.27388 -1.6023614 -129.28549 -19.972681 -41.179096
945500000 -20.516958 -72.032715 -1.5919056 -156.07289 -1.5990394 -156.08244 -20.601107 -67.234016
955000000 -21.524948 -95.788467 -1.588455 177.10515 -1.5950443 177.09489 -21.637169 -93.619095
964500000 -22.783293 -117.67062 -1.5851887 150.26096 -1.5912845 150.24873 -23.115696 -120.7057
974000000 -24.676018 -137.07474 -1.5834018 123.40188 -1.5891719 123.38535 -24.983232 -149.41843
983500000 -27.375177 -157.22275 -1.5826527 96.529343 -1.5886356 96.507439 -27.530348 -179.00461
993000000 -30.094542 175.5152 -1.5849814 69.641396 -1.5914029 69.614494 -30.135574 157.01074
1002500000 -31.267569 143.00055 -1.5903395 42.759472 -1.5969945 42.729435 -31.081631 132.28311
1012000000 -31.630669 113.40373 -1.5966291 15.893228 -1.6039835 15.863007 -31.645847 99.71386
1021500000 -32.333508 77.916733 -1.6029643 -10.972038 -1.6106625 -11.000456 -32.209736 70.896263
1031000000 -30.969467 33.681789 -1.6108594 -37.840176 -1.618971 -37.866016 -31.259886 48.88813
1040500000 -28.073496 4.5000687 -1.6205896 -64.693016 -1.6287861 -64.717926 -29.051989 22.133396
1050000000 -26.762999 -13.206027 -1.6284189 -91.523132 -1.6365299 -91.545853 -27.701292 -11.341486
1059500000 -27.558102 -30.817831 -1.6316967 -118.35744 -1.639977 -118.37962 -28.270369 -43.153595
1069000000 -29.547327 -54.362919 -1.6355516 -145.21588 -1.6437428 -145.23775 -29.964552 -65.456078
1078500000 -30.963993 -74.755058 -1.6418655 -172.07756 -1.650088 -172.09953 -31.42363 -88.567612
1088000000 -31.867224 -72.94178 -1.6486964 161.06305 -1.6567696 161.04242 -35.09808 -131.78468
1097500000 -31.43121 -51.920719 -1.655919 134.20442 -1.6640952 134.18452 -40.53019 121.02792
1107000000 -29.791788 -41.219383 -1.6636722 107.35457 -1.6717155 107.33537 -34.447483 36.247818
1116500000 -29.227016 -51.657997 -1.6705661 80.509979 -1.6785947 80.489601 -31.787033 1.3335179
1126000000 -28.859394 -77.691612 -1.6778579 53.666424 -1.6857958 53.64563 -30.321667 -20.844147
1135500000 -27.954794 -101.61655 -1.6854508 26.833168 -1.6931603 26.813101 -29.140635 -46.290588
1145000000 -28.504534 -115.47086 -1.6900871 0.0047626533 -1.6977608 -0.016054943 -29.633015 -79.325371
1154500000 -32.219677 -122.31369 -1.6928223 -26.845114 -1.7005491 -26.866976 -33.51284 -111.82325
1164000000 -41.645119 -114.68392 -1.6978071 -53.711967 -1.7055757 -53.733097 -42.015697 -109.36639
1173500000 -45.135933 -26.600994 -1.7046181 -80.572258 -1.7120081 -80.594604 -42.228188 -61.343895
1183000000 -38.996124 -43.773094 -1.7115524 -107.42918 -1.7192249 -107.45135 -38.611603 -37.504803
1192500000 -34.016312 -69.387558 -1.7196183 -134.27998 -1.7272786 -134.30348 -33.167252 -46.105354
1202000000 -31.270489 -80.724922 -1.7273368 -161.12073 -1.7349449 -161.14554 -30.967754 -73.969498
1211500000 -31.217299 -86.223808 -1.7329642 172.03903 -1.7408954 172.01387 -31.68257 -101.36803
1221000000 -33.414753 -93.097023 -1.7380555 145.19168 -1.7460358 145.16586 -33.775192 -119.86992
1230500000 -36.452408 -109.59075 -1.7437726 118.33855 -1.7516388 118.31268 -35.470196 -136.36354
1240000000 -37.277313 -133.39128 -1.7504188 91.482903 -1.7583796 91.456108 -37.661312 -162.36253
1249500000 -37.141262 -151.70201 -1.7572246 64.625206 -1.7650485 64.596832 -40.789055 172.55937
1259000000 -39.953186 178.24107 -1.7640731 37.760712 -1.7718967 37.731178 -39.818581 156.51802
1268500000 -39.775124 89.819366 -1.7722899 10.89057 -1.7802355 10.859812 -35.159809 126.2527
1278000000 -32.253281 41.98391 -1.7830091 -15.977386 -1.7909869 -16.00931 -30.951893 92.92646
1287500000 -27.62779 13.809205 -1.7968082 -42.840496 -1.8045044 -42.874382 -27.528173 62.618649
1297000000 -24.56761 -11.329278 -1.8129635 -69.685234 -1.8207722 -69.720772 -24.751144 33.388439
1306500000 -22.593428 -34.7006 -1.8287759 -96.49633 -1.8365752 -96.532082 -22.777197 4.1811428
1316000000 -21.489882 -58.186363 -1.8413457 -123.28952 -1.8491069 -123.32292 -21.563227 -23.203388
1325500000 -20.817919 -82.349426 -1.8526318 -150.07632 -1.8605651 -150.10339 -20.707829 -49.159397
1335000000 -20.415144 -104.93405 -1.8614483 -176.84221 -1.8693181 -176.86356 -20.278061 -76.230156
1344500000 -20.639565 -125.81845 -1.8637935 156.38928 -1.8711489 156.37086 -20.566135 -103.65527
1354000000 -21.624138 -149.07463 -1.862211 129.58209 -1.8691155 129.56467 -21.374783 -129.47491
1363500000 -22.627464 -176.90825 -1.8624824 102.75125 -1.8685852 102.73238 -22.233425 -154.5647
1373000000 -23.069866 156.93335 -1.8639685 75.923248 -1.8695856 75.901344 -23.067921 177.88411
1382500000 -23.847723 134.99989 -1.8645618 49.089375 -1.8695931 49.063602 -24.211405 148.65942
1392000000 -25.409386 107.42202 -1.8665119 22.229101 -1.8714656 22.19767 -25.218645 122.65953
1401500000 -25.690891 67.87188 -1.8742706 -4.6387682 -1.8795818 -4.6776819 -25.040436 98.160316
1411000000 -23.972569 35.28952 -1.8845991 -31.481264 -1.8906031 -31.52507 -24.138824 69.550514
1420500000 -22.937321 11.212596 -1.8927923 -58.303364 -1.8996049 -58.349091 -23.459492 39.69595
1430000000 -22.835535 -16.095608 -1.8995371 -85.123833 -1.907051 -85.169472 -22.935253 12.645948
1439500000 -22.259857 -46.975235 -1.907308 -111.93242 -1.9155539 -111.97697 -22.236555 -13.163434
1449000000 -21.300562 -70.967644 -1.9136668 -138.71539 -1.9228859 -138.75745 -21.673676 -41.192112
1458500000 -21.308983 -87.986473 -1.9139822 -165.49464 -1.9234127 -165.53378 -21.890762 -71.178246
1468000000 -22.609877 -105.37774 -1.9100349 167.68546 -1.9194903 167.65021 -23.02046 -99.465836
1477500000 -24.322052 -128.82501 -1.9081944 140.83336 -1.9178206 140.80025 -24.445187 -125.69104
1487000000 -25.266615 -152.00095 -1.9091851 113.98674 -1.918565 113.95499 -26.152803 -155.67894
1496500000 -26.375179 -164.12389 -1.9097095 87.139954 -1.9189471 87.110352 -29.038986 167.74927
1506000000 -28.848419 -165.97507 -1.9107833 60.28056 -1.920445 60.252895 -33.680595 124.11097
1515500000 -32.3848 -166.05144 -1.9145191 33.414585 -1.9241117 33.38792 -38.933216 67.816414
1525000000 -35.034618 -179.77892 -1.9198681 6.5548768 -1.9294661 6.5290718 -39.727196 4.2201209
1534500000 -34.672215 159.91444 -1.9257598 -20.29937 -1.935208 -20.322983 -37.459217 -41.613255
1544000000 -34.927696 151.52225 -1.9312434 -47.148708 -1.9405587 -47.172928 -36.652557 -75.517868
1553500000 -39.520012 147.74667 -1.936605 -73.996521 -1.9459342 -74.020447 -38.106564 -95.906876
1563000000 -54.440094 54.795563 -1.9418855 -100.84197 -1.9511724 -100.86476 -38.973965 -93.878151
1572500000 -40.516464 -5.5980468 -1.9474601 -127.68454 -1.9566996 -127.70783 -37.07864 -101.01718
1582000000 -37.244663 -13.48877 -1.9535937 -154.52908 -1.962628 -154.55249 -36.296425 -122.89827
1591500000 -35.365025 -27.983194 -1.95995 178.62172 -1.9690121 178.59911 -36.343975 -152.80539
1601000000 -32.766125 -43.970997 -1.9665252 151.77234 -1.975628 151.75087 -36.520145 164.24266
1610500000 -30.656965 -57.226124 -1.973395 124.93113 -1.9824094 124.90913 -35.504158 112.55762
1620000000 -29.469229 -72.026688 -1.9801086 98.097862 -1.9891844 98.076729 -33.229073 64.748711
1629500000 -28.213589 -89.206795 -1.9872369 71.268501 -1.9962045 71.248596 -31.069901 25.063879
1639000000 -26.724463 -104.08907 -1.9948213 44.44236 -2.0034876 44.422131 -29.458855 -10.816236
1648500000 -26.066319 -117.07966 -2.0008981 17.620234 -2.0096123 17.599493 -28.733652 -45.790253
1658000000 -26.714176 -133.99748 -2.0050666 -9.2034683 -2.0137436 -9.22402 -28.862787 -77.751472
1667500000 -27.834293 -158.02003 -2.0082695 -36.030266 -2.0170131 -36.050758 -29.393625 -107.1245
1677000000 -28.741205 -179.69138 -2.0109859 -62.858456 -2.0196888 -62.878223 -30.681314 -136.82617
1686500000 -31.083685 170.7939 -2.0136802 -89.695168 -2.0224714 -89.714394 -33.740799 -166.15999
1696000000 -36.960129 178.02956 -2.0172517 -116.54227 -2.0260551 -116.56102 -40.780079 167.75723
1705500000 -44.154167 -127.9687 -2.0221193 -143.39575 -2.0307255 -143.41342 -49.782673 -57.971375
1715000000 -42.443031 -105.28941 -2.0274999 -170.24562 -2.0360029 -170.26263 -37.270931 -77.823357
1724500000 -38.728626 -135.05519 -2.0327327 162.9124 -2.0412676 162.89549 -34.348347 -102.65322
1734000000 -34.154694 -151.76633 -2.0385242 136.07385 -2.0467513 136.05873 -33.147377 -121.97715
1743500000 -32.403542 -160.50209 -2.0451884 109.24341 -2.0530827 109.22899 -32.347881 -146.48824
1753000000 -33.713177 -173.84239 -2.0511935 82.417473 -2.0586481 82.401711 -33.186188 -174.97328
1762500000 -36.871071 155.87988 -2.0556209 55.580742 -2.0628772 55.563656 -35.2598 165.27834
1772000000 -38.277916 111.34931 -2.0602779 28.735029 -2.0672519 28.715034 -35.817993 157.11328
1781500000 -39.594296 71.777893 -2.0656161 1.8905076 -2.0723774 1.8686762 -34.389175 139.63321
1791000000 -40.530388 10.688438 -2.0706441 -24.948128 -2.0776594 -24.973087 -33.791695 111.93681
1800500000 -35.516205 -34.557491 -2.0758655 -51.791969 -2.0832009 -51.819584 -33.804398 88.270195
1810000000 -31.299452 -53.547344 -2.083358 -78.640373 -2.0909021 -78.668419 -31.86063 64.061104
1819500000 -28.625496 -70.666397 -2.0928822 -105.47473 -2.1005023 -105.50406 -29.136435 26.109718
1829000000 -26.814608 -90.939026 -2.1002626 -132.29369 -2.1084039 -132.32375 -27.444212 -14.741683
1838500000 -25.47175 -111.95734 -2.1058927 -159.11992 -2.1142669 -159.15018 -26.506922 -47.720013
1848000000 -24.687836 -132.01485 -2.1127343 174.05423 -2.1214442 174.02391 -25.410934 -74.778145
1857500000 -24.499643 -152.66364 -2.119519 147.24846 -2.1285949 147.21841 -24.461725 -102.50553
1867000000 -24.594063 -175.21211 -2.1239886 120.45834 -2.1333337 120.42892 -24.255219 -131.78748
1876500000 -24.807085 162.37218 -2.1247468 93.660545 -2.1341133 93.633011 -25.132132 -160.84689
1886000000 -25.617332 141.67747 -2.1243188 66.826111 -2.1338992 66.800163 -26.827654 175.07396
1895500000 -27.557507 119.79443 -2.1267452 39.974243 -2.1367118 39.950047 -28.168001 154.38049
1905000000 -30.373301 91.11335 -2.1300457 13.136944 -2.1400399 13.114688 -29.690395 128.89925
1914500000 -32.961006 57.541187 -2.1318498 -13.698894 -2.1416368 -13.720431 -32.871189 104.34404
1924000000 -36.148354 28.084206 -2.1345055 -40.546455 -2.144356 -40.566185 -36.736217 95.685791
1933500000 -41.421001 -17.413326 -2.1396561 -67.394379 -2.1494229 -67.413071 -37.84359 89.031296
1943000000 -39.176144 -80.39946 -2.1451054 -94.238304 -2.1547463 -94.256363 -38.857265 57.81781
1952500000 -35.400551 -94.32766 -2.1499414 -121.08143 -2.1594586 -121.09959 -40.783009 1.2441409
1962000000 -34.273098 -97.077217 -2.1546402 -147.92491 -2.1641264 -147.94308 -40.35096 -60.624241
1971500000 -34.912426 -106.46918 -2.1602776 -174.7637 -2.1697834 -174.78236 -37.807594 -93.281059
1981000000 -35.287998 -129.77849 -2.166117 158.40544 -2.1756773 158.38649 -34.302433 -119.76285
1990500000 -33.520107 -148.49596 -2.171515 131.57747 -2.1811113 131.55875 -32.535198 -154.4003
