!Keysight Technologies,N5242B,MY48420967,A.15.65.19
!Date: Thursday, December 15, 2022 13:55:11
!Correction: S11(C  2-Port  ) 
!S21(C  2-Port  ) 
!S12(C  2-Port  ) 
!S22(C  2-Port  ) 
!S2P File: Measurements: S11, S21, S12, S22:
# Hz S  dB   R 50
100000000 -21.966082 -52.772633 -0.68733722 75.544174 -0.69368428 75.535095 -23.805384 -28.751734
109500000 -22.198753 -69.190086 -0.7092393 48.559868 -0.7142421 48.559097 -23.688982 -56.542549
119000000 -24.037424 -82.793594 -0.72551578 21.586399 -0.7312361 21.571796 -24.822624 -85.594589
128500000 -27.258587 -97.965645 -0.74305534 -5.4178476 -0.7492817 -5.4293594 -27.275932 -110.19231
138000000 -30.634163 -112.02516 -0.76374686 -32.405556 -0.76985991 -32.416035 -30.035244 -127.46893
147500000 -33.149506 -112.80823 -0.78488076 -59.368832 -0.79135877 -59.380054 -33.37323 -145.84438
157000000 -34.250725 -103.81577 -0.80572879 -86.31691 -0.81253541 -86.328445 -39.849281 -157.48309
166500000 -35.705639 -108.7384 -0.82615852 -113.2587 -0.83266985 -113.26867 -45.199158 -132.54691
176000000 -40.812439 -142.31618 -0.84628373 -140.19368 -0.85284901 -140.20433 -48.379295 -169.04257
185500000 -42.861748 99.219391 -0.86650866 -167.11938 -0.87313747 -167.12994 -43.304256 85.124596
195000000 -33.988346 39.893566 -0.88612658 165.96933 -0.89285856 165.95869 -36.040279 50.653774
204500000 -29.718376 9.5734186 -0.90448672 139.07063 -0.91117764 139.06038 -32.224373 25.479177
214000000 -28.528173 -17.393684 -0.92074156 112.17298 -0.92689329 112.16534 -30.97497 3.4807513
223500000 -29.349045 -47.865532 -0.93530416 85.275185 -0.94163728 85.266586 -31.11359 -16.369167
233000000 -31.323591 -79.127037 -0.9489674 58.370396 -0.95556599 58.36174 -33.380253 -39.821323
242500000 -36.524567 -99.261887 -0.96438265 31.457214 -0.97093415 31.448179 -41.204487 -54.816883
252000000 -45.059757 26.586184 -0.98150355 4.5478182 -0.98815894 4.5411172 -43.892113 56.770714
261500000 -31.907007 32.683315 -0.99996555 -22.348665 -1.0067668 -22.35535 -33.815098 50.247086
271000000 -28.359318 16.491182 -1.0184426 -49.22567 -1.0248685 -49.232193 -29.370207 24.933517
280500000 -27.046867 -9.4291191 -1.0342288 -76.084763 -1.0408194 -76.092033 -27.273645 -2.4071558
290000000 -25.811575 -38.249954 -1.0483167 -102.94092 -1.0548836 -102.94729 -26.230621 -27.71459
299500000 -25.131077 -59.571655 -1.060738 -129.80147 -1.0673145 -129.8085 -25.830368 -52.187836
309000000 -26.136383 -74.52906 -1.0720417 -156.67401 -1.0785663 -156.68088 -26.111818 -76.422905
318500000 -28.796211 -89.538055 -1.0828321 176.43961 -1.089375 176.43259 -27.320238 -100.54085
328000000 -31.123627 -110.55178 -1.0944197 149.54507 -1.1010717 149.53734 -29.317968 -120.85631
337500000 -30.733347 -131.67546 -1.1082609 122.6474 -1.1149433 122.6414 -30.519892 -140.78032
347000000 -29.609852 -150.10344 -1.1240599 95.757744 -1.1309283 95.75161 -30.648598 -172.47812
356500000 -29.605183 179.76134 -1.1406622 68.874428 -1.1474887 68.868561 -30.156462 152.05319
366000000 -28.611738 132.06714 -1.1584002 41.990646 -1.1651508 41.985653 -28.318289 123.4491
375500000 -25.553568 92.142059 -1.1782368 15.124145 -1.1849502 15.118492 -25.703375 97.943001
385000000 -23.448109 64.065361 -1.19803 -11.704332 -1.2046802 -11.711018 -23.480217 70.861237
394500000 -22.638279 37.475796 -1.2135055 -38.502701 -1.2197591 -38.510494 -22.268469 42.962955
404000000 -22.254147 8.7421465 -1.2230369 -65.308197 -1.2297938 -65.316383 -21.957024 16.879358
413500000 -21.798504 -18.533716 -1.2330548 -92.129349 -1.2397895 -92.136818 -21.858221 -7.4932632
423000000 -21.781698 -41.095837 -1.2411021 -118.93962 -1.2475454 -118.94773 -21.942404 -34.522137
432500000 -22.836924 -60.88171 -1.2435763 -145.76691 -1.2499541 -145.77663 -22.924185 -63.295979
442000000 -24.985992 -82.216423 -1.2457397 -172.63657 -1.2523286 -172.64818 -24.789879 -88.28981
451500000 -27.352718 -106.23816 -1.2520306 160.47556 -1.2588191 160.46452 -26.767815 -108.84113
461000000 -29.045855 -125.13938 -1.2612731 133.59283 -1.2680917 133.58247 -28.78211 -131.51918
470500000 -30.575413 -136.09125 -1.271677 106.71593 -1.278407 106.70377 -31.712391 -159.24451
480000000 -32.815491 -153.56918 -1.2823991 79.837212 -1.2893944 79.824051 -34.964588 172.13602
489500000 -34.235817 159.28908 -1.2942477 52.959549 -1.3015919 52.946827 -35.15271 142.92583
499000000 -31.405409 110.65376 -1.3076905 26.096748 -1.3148283 26.084362 -32.230782 108.44595
508500000 -29.284952 77.869148 -1.3203205 -0.74758697 -1.3272177 -0.7594381 -29.693808 76.841858
518000000 -28.637362 45.448132 -1.3310562 -27.585701 -1.3381406 -27.598654 -28.293663 51.335304
527500000 -28.169823 14.038811 -1.3409011 -54.426453 -1.3481171 -54.439068 -27.573027 28.627752
537000000 -28.052507 -10.136585 -1.3495544 -81.266693 -1.3568064 -81.279037 -27.716961 3.1681209
546500000 -29.044888 -27.628576 -1.3569185 -108.11225 -1.3641678 -108.12557 -29.357161 -25.839237
556000000 -31.479397 -39.218658 -1.364596 -134.97034 -1.3719949 -134.98366 -33.092319 -57.273293
565500000 -35.381542 -37.566681 -1.3738269 -161.83372 -1.3813504 -161.84573 -40.257961 -97.085716
575000000 -37.092033 -8.1987467 -1.384757 171.30383 -1.3919935 171.29695 -45.447083 124.65274
584500000 -33.516304 2.2036231 -1.3963356 144.45113 -1.4029824 144.44888 -35.933121 60.467117
594000000 -30.390694 -11.781036 -1.4079534 117.60995 -1.4131672 117.60648 -32.066044 26.410473
603500000 -28.338438 -32.477283 -1.419118 90.777542 -1.4228806 90.762962 -30.048933 -0.47034594
613000000 -27.873163 -53.117401 -1.4275644 63.949551 -1.4319235 63.920231 -29.134066 -25.635313
622500000 -29.581593 -71.958633 -1.4332041 37.111279 -1.4395434 37.074406 -29.609352 -50.385078
632000000 -33.926003 -90.579285 -1.4380851 10.253881 -1.446169 10.220452 -32.419159 -72.635109
641500000 -41.114838 -109.12167 -1.4459722 -16.616203 -1.4546461 -16.640984 -37.757416 -71.456963
651000000 -48.784359 -91.928978 -1.4554991 -43.475979 -1.4642769 -43.49548 -39.763012 -50.444283
660500000 -43.311092 -52.105656 -1.465451 -70.330467 -1.4738696 -70.345917 -40.527527 -32.748615
670000000 -39.247402 -42.640694 -1.4755447 -97.180946 -1.4836885 -97.19458 -38.376057 -29.921532
679500000 -38.394062 -21.046705 -1.4854895 -124.03044 -1.4932245 -124.04382 -38.471802 -61.84026
689000000 -36.829025 9.4956188 -1.4953169 -150.87956 -1.5028871 -150.89209 -42.240913 -132.85695
698500000 -35.227737 19.541191 -1.504944 -177.72353 -1.5124922 -177.73651 -40.261124 129.84633
708000000 -34.917973 3.3054657 -1.5140388 155.43365 -1.5214211 155.42085 -38.01952 80.842766
717500000 -32.914631 -27.175755 -1.5234668 128.58481 -1.5306393 128.57146 -37.370125 62.318504
727000000 -30.608469 -44.289341 -1.5337483 101.7383 -1.54093 101.72374 -35.176308 39.589882
736500000 -31.264078 -52.185287 -1.542179 74.894592 -1.5494924 74.880005 -35.874847 -0.23515968
746000000 -37.780052 -61.603794 -1.5492811 48.037216 -1.5565187 48.022736 -44.611298 -36.555817
755500000 -45.470989 125.61948 -1.5584383 21.175226 -1.5656528 21.159248 -41.975544 86.401276
765000000 -35.967159 86.615509 -1.5698304 -5.6806383 -1.5770844 -5.6981964 -33.892075 65.154877
774500000 -31.291725 36.778698 -1.5833254 -32.534821 -1.5908014 -32.554878 -29.522604 46.875648
784000000 -26.242029 6.2108235 -1.5995508 -59.377758 -1.606905 -59.398479 -26.020969 25.375399
793500000 -23.748833 -11.402186 -1.614409 -86.186897 -1.6221211 -86.208565 -23.776434 -1.5455619
803000000 -23.443296 -29.822666 -1.6235906 -112.97697 -1.6311299 -112.99896 -23.063889 -29.537291
812500000 -23.883512 -54.930473 -1.6292336 -139.7877 -1.6367559 -139.8093 -23.296913 -54.642315
822000000 -23.760033 -81.089249 -1.6363778 -166.61459 -1.6438898 -166.63541 -23.643856 -78.77845
831500000 -23.810568 -101.43305 -1.6437594 166.56116 -1.6512626 166.53914 -24.114584 -106.01407
841000000 -24.895891 -120.56437 -1.6492815 139.72777 -1.6568279 139.70456 -24.953005 -134.56998
850500000 -26.433441 -146.4489 -1.6550932 112.87902 -1.6626714 112.85686 -25.750084 -161.55038
860000000 -26.963568 -178.85483 -1.6629999 86.024994 -1.670485 86.002274 -26.059225 173.49722
869500000 -26.55043 149.85556 -1.6736906 59.170532 -1.6813624 59.147221 -25.616972 148.7702
879000000 -25.884697 118.17547 -1.6865596 32.323158 -1.694368 32.30304 -24.805635 121.99091
888500000 -24.656332 84.995766 -1.7006104 5.4811506 -1.7084382 5.4645796 -23.899191 95.2677
898000000 -23.057091 54.092804 -1.7168708 -21.341082 -1.7245754 -21.360914 -22.725761 68.718323
907500000 -21.664209 26.125151 -1.7330217 -48.131069 -1.7408042 -48.152069 -21.57457 41.31316
917000000 -20.640039 0.19345024 -1.7465854 -74.894035 -1.7544677 -74.91317 -20.699612 13.923353
926500000 -20.095476 -23.932129 -1.7549915 -101.6346 -1.7628777 -101.65208 -20.256052 -13.658074
936000000 -20.222816 -47.122818 -1.7561752 -128.38737 -1.7639111 -128.40367 -20.428522 -40.632862
945500000 -20.963444 -70.551147 -1.7545503 -155.17566 -1.7617986 -155.18993 -21.076624 -66.586685
955000000 -22.000656 -93.951172 -1.7524281 178.01375 -1.7590417 177.99936 -22.152699 -92.891586
964500000 -23.283783 -115.33258 -1.7504448 151.18277 -1.7565498 151.16629 -23.698065 -119.93801
974000000 -25.21641 -133.80237 -1.7499664 124.33924 -1.7556337 124.3166 -25.66189 -148.78612
983500000 -28.019726 -152.41522 -1.7503986 97.483246 -1.7562908 97.454468 -28.377199 -178.87811
993000000 -30.975857 -178.22829 -1.7536311 70.612366 -1.7599454 70.578255 -31.241552 156.77173
1002500000 -32.362717 149.12546 -1.7594501 43.74678 -1.7661059 43.708622 -32.313114 131.83362
1012000000 -32.782219 119.16522 -1.766441 16.895329 -1.7737594 16.85693 -32.874474 98.229355
1021500000 -33.652237 82.718597 -1.7733672 -9.9553795 -1.7811264 -9.9919748 -33.394688 68.753792
1031000000 -32.125008 35.412483 -1.7817885 -36.808834 -1.7900459 -36.842319 -32.295059 47.454258
1040500000 -28.809076 5.7760859 -1.7920697 -63.64893 -1.8004234 -63.681175 -29.816122 21.541348
1050000000 -27.260818 -11.332968 -1.8008459 -90.466545 -1.809065 -90.496857 -28.244043 -11.578725
1059500000 -27.916492 -28.287338 -1.8052442 -117.28609 -1.8136894 -117.31578 -28.682556 -43.139812
1069000000 -29.802893 -51.267109 -1.8100176 -144.12903 -1.81831 -144.15778 -30.296024 -65.002266
1078500000 -31.038036 -71.549881 -1.8171483 -170.97476 -1.8254921 -171.00401 -31.660269 -87.388489
1088000000 -31.615065 -70.862595 -1.824827 162.1824 -1.8330487 162.15498 -35.22126 -129.06306
1097500000 -31.146097 -52.687977 -1.8325441 135.3412 -1.8408548 135.31462 -41.340065 126.07547
1107000000 -29.780079 -42.744614 -1.8406872 108.50754 -1.8488319 108.48067 -35.08326 37.058907
1116500000 -29.363808 -52.699589 -1.848062 81.676888 -1.8561536 81.650284 -32.268002 2.0769036
1126000000 -29.03986 -78.322891 -1.8557833 54.848194 -1.863873 54.820892 -30.755579 -19.789804
1135500000 -28.117805 -101.87466 -1.8639542 28.028685 -1.8718261 28.002558 -29.534452 -44.810314
1145000000 -28.642143 -115.34568 -1.8693399 1.2145122 -1.8770573 1.1873652 -29.985237 -77.484169
1154500000 -32.356449 -121.84087 -1.8728185 -25.61968 -1.8806182 -25.648293 -33.849468 -109.5669
1164000000 -41.880817 -113.526 -1.8784143 -52.471214 -1.8862298 -52.499016 -42.288685 -105.11093
1173500000 -45.080929 -23.877741 -1.8858337 -79.316437 -1.8932998 -79.345345 -41.939407 -58.417583
1183000000 -39.049866 -41.600113 -1.8933551 -106.15719 -1.9010671 -106.18678 -38.44915 -37.265518
1192500000 -34.090401 -67.58535 -1.902006 -132.99269 -1.9097179 -133.02342 -33.20322 -45.430447
1202000000 -31.293236 -78.961807 -1.9102784 -159.81799 -1.9179723 -159.85033 -31.022654 -72.65847
1211500000 -31.160976 -84.269379 -1.9165249 173.35788 -1.924602 173.32513 -31.708273 -99.632957
1221000000 -33.250858 -90.58754 -1.922192 146.52611 -1.9303123 146.49309 -33.790894 -118.14467
1230500000 -36.210548 -105.58101 -1.9283861 119.68952 -1.9364146 119.65565 -35.620754 -134.62613
1240000000 -37.11237 -127.67629 -1.9355737 92.849937 -1.9436803 92.815063 -38.073772 -160.26273
1249500000 -36.95121 -144.37437 -1.9429255 66.008728 -1.950972 65.97274 -41.759075 174.18697
1259000000 -39.794899 -168.19948 -1.9501474 39.162258 -1.9581207 39.124275 -41.334705 158.5125
1268500000 -42.459694 99.330574 -1.95851 12.30999 -1.9666454 12.271221 -36.490662 127.62144
1278000000 -33.715576 42.481594 -1.9691478 -14.540208 -1.9772954 -14.581265 -32.023708 93.649818
1287500000 -28.60606 14.209383 -1.9825765 -41.387676 -1.9904741 -41.430031 -28.417604 63.229126
1297000000 -25.332207 -10.639729 -1.9984362 -68.218773 -2.0063541 -68.263214 -25.506929 34.094486
1306500000 -23.24342 -33.69035 -2.0140531 -95.018562 -2.0218897 -95.063667 -23.436539 4.9679832
1316000000 -22.080347 -56.898537 -2.0266006 -121.80202 -2.0344982 -121.84405 -22.167027 -22.289392
1325500000 -21.374525 -80.850456 -2.0381444 -148.57936 -2.046164 -148.61467 -21.273605 -48.019993
1335000000 -20.942724 -103.14942 -2.0474434 -175.33655 -2.0553861 -175.36549 -20.819839 -74.896217
1344500000 -21.154446 -123.55359 -2.0507383 157.90431 -2.058161 157.87866 -21.112589 -102.1784
1354000000 -22.179464 -146.26773 -2.0502815 131.10994 -2.0571301 131.08585 -21.959612 -127.86218
1363500000 -23.273151 -173.8911 -2.0513797 104.29346 -2.0573666 104.26788 -22.883938 -152.80293
1373000000 -23.764219 160.03142 -2.0537019 77.479881 -2.0590069 77.450645 -23.795458 179.689
1382500000 -24.58527 138.76213 -2.0550554 50.661556 -2.0598242 50.627804 -25.03821 150.22736
1392000000 -26.344097 111.91054 -2.0576339 23.819288 -2.0622668 23.778435 -26.174335 124.00498
1401500000 -26.84046 70.864983 -2.065347 -3.0329235 -2.070359 -3.0811906 -26.047684 99.601555
1411000000 -24.956585 37.02914 -2.0755441 -29.863155 -2.0813804 -29.917137 -25.096943 70.846146
1420500000 -23.792246 13.118762 -2.0839486 -56.674633 -2.090591 -56.73127 -24.3596 40.721481
1430000000 -23.665316 -14.157887 -2.0911732 -83.484726 -2.0986297 -83.541275 -23.778919 13.639887
1439500000 -23.017887 -45.490993 -2.0993245 -110.28323 -2.1076922 -110.33868 -23.007418 -12.021785
1449000000 -21.924511 -69.422333 -2.106437 -137.05803 -2.1157937 -137.11082 -22.365299 -39.882385
1458500000 -21.841354 -85.826515 -2.1082664 -163.82852 -2.1177676 -163.87761 -22.52293 -69.783508
1468000000 -23.106926 -102.39218 -2.1058414 169.36584 -2.1154633 169.31982 -23.639477 -97.997421
1477500000 -24.828104 -125.22491 -2.1053324 142.52916 -2.1151309 142.48573 -25.085218 -124.01395
1487000000 -25.722124 -148.2002 -2.1075838 115.69772 -2.1171312 115.65587 -26.825609 -153.90392
1496500000 -26.66033 -159.78326 -2.1093695 88.868004 -2.118741 88.828636 -29.785545 169.05794
1506000000 -28.828644 -160.70105 -2.1114509 62.027409 -2.1213417 61.990742 -34.553726 123.43176
1515500000 -31.924433 -160.15749 -2.1158531 35.180424 -2.1257463 35.144608 -39.579563 62.107231
1525000000 -34.32066 -173.7822 -2.1218059 8.3383608 -2.1316082 8.3033314 -39.512573 -1.2608879
1534500000 -34.034687 164.53372 -2.1281838 -18.498552 -2.137816 -18.531473 -37.095947 -43.699425
1544000000 -34.211647 154.15723 -2.1341333 -45.330898 -2.1436429 -45.364239 -36.245705 -75.914452
1553500000 -38.395306 148.15753 -2.1398306 -72.162682 -2.1493797 -72.195602 -37.561409 -96.348427
1563000000 -51.546772 77.195984 -2.1455789 -98.992386 -2.15505 -99.023819 -38.62698 -95.695129
1572500000 -40.318188 -0.68900496 -2.1516023 -125.81953 -2.1610098 -125.85116 -36.973976 -100.91869
1582000000 -36.888847 -12.265654 -2.1582186 -152.64822 -2.1674035 -152.67984 -36.182201 -120.71375
1591500000 -35.075481 -28.732103 -2.1650641 -179.48103 -2.1742964 -179.5127 -36.25951 -148.3152
1601000000 -32.622463 -45.590427 -2.1720881 153.68567 -2.1813805 153.65511 -36.667648 171.2773
1610500000 -30.645704 -59.080742 -2.1793299 126.86031 -2.1884665 126.82974 -36.106842 119.86909
1620000000 -29.566694 -73.886452 -2.1864116 100.04282 -2.1955347 100.0133 -34.049076 70.129723
1629500000 -28.391705 -90.829948 -2.1938045 73.228775 -2.202852 73.199684 -31.871008 29.158224
1639000000 -26.953114 -105.15986 -2.2016919 46.417213 -2.2105062 46.387939 -30.175936 -7.399394
1648500000 -26.318954 -117.48171 -2.2082469 19.608814 -2.2170513 19.57922 -29.378948 -42.912144
1658000000 -26.972239 -133.84503 -2.2129169 -7.2011018 -2.221669 -7.2302761 -29.446772 -75.161247
1667500000 -28.074917 -157.58438 -2.2168231 -34.013077 -2.2256763 -34.042576 -29.8874 -104.55518
1677000000 -28.920126 -179.11247 -2.2201779 -60.825539 -2.2290356 -60.854362 -31.063457 -134.12389
1686500000 -31.173929 171.44412 -2.223465 -87.646378 -2.2324264 -87.674812 -33.992439 -162.89151
1696000000 -36.971783 178.03601 -2.2275538 -114.47684 -2.2365003 -114.5042 -40.715919 172.9165
1705500000 -44.739288 -128.30142 -2.2328446 -141.31416 -2.2415152 -141.34021 -50.691086 -67.049965
1715000000 -43.098713 -100.8765 -2.2386401 -168.14812 -2.2471585 -168.17365 -37.74942 -77.429085
1724500000 -39.434547 -131.17484 -2.2442198 165.02524 -2.2527986 165.00015 -34.769455 -101.34691
1734000000 -34.647583 -148.22336 -2.2504435 138.20271 -2.2586768 138.17894 -33.614635 -120.04527
1743500000 -32.724903 -156.06094 -2.2575662 111.38787 -2.2654545 111.36494 -32.862083 -144.13922
1753000000 -33.934727 -167.14536 -2.2640426 84.577721 -2.2713962 84.553802 -33.813583 -172.64008
1762500000 -37.336952 167.25026 -2.2689543 57.757496 -2.2760816 57.731682 -36.141201 167.77589
1772000000 -39.687218 125.17356 -2.2739608 30.928925 -2.2807112 30.900101 -36.974091 161.45607
1781500000 -42.221901 86.748177 -2.279413 4.1010842 -2.2858932 4.0699816 -35.571529 145.90778
1791000000 -45.273647 7.6670437 -2.284564 -22.721485 -2.2914033 -22.755814 -35.091522 119.22746
1800500000 -37.79105 -43.164135 -2.2900851 -49.548988 -2.2971861 -49.586388 -35.325539 97.09024
1810000000 -32.914909 -57.778942 -2.2972414 -76.380257 -2.3045585 -76.418518 -33.350471 73.036285
1819500000 -29.979248 -72.477539 -2.306206 -103.2005 -2.3136585 -103.24046 -30.573874 32.612309
1829000000 -27.996923 -91.565086 -2.3134129 -130.00987 -2.3213491 -130.05058 -28.815222 -10.581084
1838500000 -26.524876 -111.75924 -2.3192353 -156.82483 -2.3275871 -156.86659 -27.779087 -44.531704
1848000000 -25.662636 -130.97482 -2.3262889 176.36049 -2.3349891 176.31888 -26.545168 -71.646294
1857500000 -25.442825 -150.85649 -2.3333728 149.56371 -2.3424013 149.52254 -25.481026 -99.293396
1867000000 -25.516445 -172.84544 -2.3385355 122.78193 -2.3478613 122.74184 -25.213358 -128.49306
1876500000 -25.69417 165.29462 -2.3405664 95.994659 -2.3499815 95.956078 -26.102701 -157.55652
1886000000 -26.495659 145.54642 -2.3412583 69.174484 -2.3509386 69.137627 -27.904789 178.70786
1895500000 -28.533012 125.16592 -2.3446627 42.337784 -2.3546271 42.30307 -29.334885 158.98366
1905000000 -31.671766 98.048798 -2.3488867 15.514539 -2.3589201 15.481445 -30.96949 134.3161
1914500000 -34.761532 64.936111 -2.3517826 -11.305505 -2.3616767 -11.337249 -34.533211 111.55465
1924000000 -38.728413 37.147694 -2.3553393 -38.134808 -2.3652029 -38.164818 -38.728104 110.35027
1933500000 -47.315201 -15.304226 -2.3609803 -64.964905 -2.3707838 -64.993988 -39.20974 109.46131
1943000000 -41.745892 -97.020012 -2.3668804 -91.792915 -2.3764765 -91.820778 -40.659065 81.196877
1952500000 -37.249237 -101.01168 -2.3721201 -118.62062 -2.3816531 -118.64915 -45.252571 20.70121
1962000000 -35.975449 -97.59214 -2.3773787 -145.44884 -2.3868713 -145.47728 -44.643589 -66.858078
1971500000 -36.489872 -103.32368 -2.3834615 -172.27168 -2.3929675 -172.30072 -40.433113 -98.492676
1981000000 -36.698334 -126.18757 -2.3896987 160.91232 -2.3993142 160.88327 -35.88271 -120.76388
1990500000 -34.422157 -145.18938 -2.3957295 134.09935 -2.405333 134.07005 -33.539986 -154.22273
2000000000 -32.17326 -148.57445 -2.401289 107.28248 -2.4108477 107.25423 -34.087795 168.65118
