!Keysight Technologies,N5242B,MY48420967,A.15.65.19
!Date: Thursday, December 15, 2022 15:53:20
!Correction: S11(C  2-Port  ) 
!S21(C  2-Port  ) 
!S12(C  2-Port  ) 
!S22(C  2-Port  ) 
!S2P File: Measurements: S11, S21, S12, S22:
# Hz S  dB   R 50
100000000 -22.137211 -52.928204 -0.71630222 75.479866 -0.72292322 75.47287 -24.028614 -28.950771
109500000 -22.30592 -69.100746 -0.74020177 48.502151 -0.74554777 48.503342 -23.834715 -56.723984
119000000 -24.085917 -82.5998 -0.75829339 21.536697 -0.76430982 21.52372 -24.903702 -85.73111
128500000 -27.229479 -97.889732 -0.77736646 -5.4593077 -0.78391606 -5.4690571 -27.277781 -110.26793
138000000 -30.498379 -112.52097 -0.79946053 -32.438797 -0.80588615 -32.447891 -29.925978 -127.68594
147500000 -32.999428 -114.746 -0.82187271 -59.39402 -0.82872856 -59.403919 -33.11182 -146.52905
157000000 -34.370594 -106.81743 -0.84399122 -86.334366 -0.85112834 -86.344681 -39.23531 -160.36108
166500000 -36.116978 -111.68626 -0.86566812 -113.26857 -0.87256181 -113.27711 -45.115028 -143.07156
176000000 -41.51717 -147.66776 -0.88710952 -140.19531 -0.89409524 -140.20461 -47.981613 176.65936
185500000 -42.070671 93.970467 -0.90859187 -167.11182 -0.91556269 -167.12119 -42.250015 83.712845
195000000 -33.661232 39.115791 -0.92934281 165.98613 -0.93638372 165.97661 -35.633469 50.15749
204500000 -29.559345 9.1845722 -0.94876838 139.09659 -0.95577729 139.08716 -32.015507 25.018415
214000000 -28.422901 -17.677204 -0.96607733 112.20809 -0.97251999 112.20181 -30.842463 2.9775772
223500000 -29.256865 -48.025784 -0.98164082 85.318916 -0.98822755 85.311272 -31.022474 -16.8993
233000000 -31.231379 -79.121201 -0.99629313 58.42305 -1.0031701 58.415356 -33.288063 -40.371628
242500000 -36.372646 -99.067238 -1.0127505 31.51914 -1.0196111 31.510744 -41.025646 -55.990444
252000000 -45.379688 24.194807 -1.0308558 4.6193819 -1.037848 4.6128526 -44.231544 56.346886
261500000 -32.020012 32.444527 -1.0503596 -22.267822 -1.057457 -22.273767 -33.932079 50.222363
271000000 -28.441366 16.44417 -1.0698478 -49.134754 -1.0765615 -49.14048 -29.447788 24.888309
280500000 -27.117685 -9.4564743 -1.0865695 -75.98452 -1.0935166 -75.990814 -27.341125 -2.4412215
290000000 -25.86944 -38.319023 -1.1016278 -102.83071 -1.1084673 -102.83634 -26.288177 -27.7225
299500000 -25.176567 -59.63887 -1.1150148 -129.68042 -1.1218541 -129.68718 -25.884075 -52.206059
309000000 -26.179441 -74.59919 -1.1271561 -156.5426 -1.1341002 -156.5488 -26.167913 -76.435928
318500000 -28.858332 -89.717392 -1.1388288 176.58167 -1.1457447 176.57509 -27.379486 -100.56452
328000000 -31.230528 -111.02936 -1.1513352 149.69809 -1.158361 149.6904 -29.394251 -120.93639
337500000 -30.881996 -132.29556 -1.1659606 122.81136 -1.1730111 122.80569 -30.636045 -140.88028
347000000 -29.802464 -150.53088 -1.1826092 95.932976 -1.1897808 95.927139 -30.80698 -172.64018
356500000 -29.852058 179.35515 -1.199875 69.060875 -1.2069751 69.055489 -30.347431 151.74872
366000000 -28.85433 131.24849 -1.2182716 42.188171 -1.2252982 42.183701 -28.519375 123.11646
375500000 -25.737364 91.369331 -1.2386239 15.333813 -1.2455962 15.327922 -25.902746 97.711182
385000000 -23.618923 63.504116 -1.2588654 -11.484864 -1.2657927 -11.491098 -23.672688 70.727478
394500000 -22.818188 37.051563 -1.2748487 -38.273838 -1.2813709 -38.280937 -22.460438 42.878746
404000000 -22.44467 8.3790674 -1.2850535 -65.069893 -1.2920924 -65.078194 -22.16135 16.823469
413500000 -21.995716 -18.825914 -1.2956568 -91.881569 -1.3026767 -91.888931 -22.08003 -7.4967942
423000000 -21.994501 -41.222679 -1.3044112 -118.68344 -1.3111416 -118.69146 -22.182808 -34.533722
432500000 -23.089293 -60.725689 -1.3077052 -145.50211 -1.3145168 -145.51176 -23.199387 -63.408859
442000000 -25.316828 -81.702805 -1.3109326 -172.36192 -1.3178959 -172.37311 -25.132328 -88.522873
451500000 -27.794069 -105.36234 -1.3182002 160.76175 -1.325289 160.75078 -27.21483 -109.07891
461000000 -29.565155 -123.56079 -1.3282934 133.89047 -1.3354459 133.87967 -29.366142 -131.78096
470500000 -31.104162 -133.01363 -1.339451 107.02489 -1.3466263 107.01278 -32.53933 -160.02489
480000000 -33.402657 -148.58072 -1.3509285 80.158211 -1.3583381 80.145691 -36.178646 170.17725
489500000 -35.238117 163.51236 -1.363361 53.293304 -1.3710726 53.280643 -36.39455 140.21172
499000000 -32.241241 111.75005 -1.3772148 26.441425 -1.3847556 26.429062 -33.064915 105.87358
508500000 -29.921663 78.430397 -1.3904287 -0.39263558 -1.3977157 -0.40483093 -30.272564 74.879929
518000000 -29.192383 45.727596 -1.4018809 -27.221222 -1.4093924 -27.234337 -28.762547 49.987286
527500000 -28.645899 14.155376 -1.412486 -54.051617 -1.4201213 -54.064632 -27.987045 27.870462
537000000 -28.461525 -9.8163939 -1.4220114 -80.881683 -1.4296412 -80.894432 -28.094059 2.8171167
546500000 -29.415695 -26.854418 -1.4303119 -107.71586 -1.4379715 -107.72955 -29.737383 -25.987444
556000000 -31.820667 -37.705006 -1.4387516 -134.5618 -1.4466594 -134.57486 -33.559525 -57.312359
565500000 -35.601021 -34.68425 -1.4488506 -161.4127 -1.456829 -161.42447 -41.071064 -97.696533
575000000 -36.899235 -5.8371587 -1.4605106 171.73782 -1.4682661 171.73186 -45.077446 118.77434
584500000 -33.38813 2.6813879 -1.4727077 144.89775 -1.4797324 144.89757 -35.786949 59.564789
594000000 -30.371904 -11.568482 -1.4849188 118.06966 -1.4903452 118.06783 -32.031303 26.066784
603500000 -28.355005 -32.230541 -1.4966623 91.25013 -1.5003928 91.23597 -30.058556 -0.63917518
613000000 -27.897816 -52.862034 -1.5055494 64.435013 -1.5098718 64.404449 -29.173191 -25.729448
622500000 -29.617844 -71.685471 -1.5115364 37.608913 -1.5181438 37.569897 -29.659782 -50.334579
632000000 -33.999851 -90.281181 -1.5168588 10.762766 -1.525391 10.727299 -32.47361 -72.717285
641500000 -41.372646 -109.01678 -1.5252377 -16.096447 -1.5345052 -16.121992 -37.96529 -71.571175
651000000 -49.733009 -88.396469 -1.5354054 -42.944965 -1.5447229 -42.964767 -40.053493 -48.548965
660500000 -43.263119 -46.766758 -1.5460209 -69.787926 -1.5548882 -69.80336 -40.512093 -28.795809
670000000 -38.81332 -39.493649 -1.5567679 -96.625755 -1.5653266 -96.639847 -38.090534 -26.635992
679500000 -37.724937 -21.377722 -1.5672988 -123.46266 -1.5753696 -123.47583 -38.168789 -57.382614
689000000 -36.57159 5.8889909 -1.5775641 -150.29922 -1.5855776 -150.31172 -42.539738 -123.56296
698500000 -35.382034 16.347876 -1.587636 -177.13126 -1.5955795 -177.14398 -41.476669 131.50517
708000000 -35.196136 0.72677976 -1.5972394 156.03755 -1.605026 156.02501 -38.866463 79.869286
717500000 -33.1404 -29.014568 -1.6072576 129.20074 -1.6147678 129.18726 -38.129181 61.964584
727000000 -30.806976 -45.101707 -1.618 102.36659 -1.625582 102.35196 -35.72311 39.784245
736500000 -31.454391 -52.0788 -1.6270437 75.534874 -1.6347085 75.520256 -36.28487 -0.56778455
746000000 -37.952763 -59.984409 -1.6347127 48.69017 -1.6423352 48.6754 -44.997417 -39.18824
755500000 -45.946838 122.20335 -1.6444659 21.841951 -1.6520237 21.825415 -42.328743 88.836937
765000000 -36.262428 85.859772 -1.6562427 -5.0009017 -1.6638538 -5.0190525 -34.168167 66.201149
774500000 -31.526064 36.087715 -1.6701181 -31.842268 -1.6779611 -31.862146 -29.768967 47.682846
784000000 -26.418259 5.8709393 -1.6866118 -58.672085 -1.6943237 -58.693413 -26.24898 26.148529
793500000 -23.914408 -11.415326 -1.7017777 -85.468773 -1.7097887 -85.491325 -23.991676 -0.73103791
803000000 -23.625137 -29.583586 -1.7112637 -112.24752 -1.7192268 -112.26968 -23.276123 -28.700384
812500000 -24.099609 -54.560829 -1.7173731 -139.04608 -1.7252408 -139.06824 -23.524864 -53.795891
822000000 -23.999752 -80.663818 -1.7248411 -165.86052 -1.732691 -165.88222 -23.903297 -77.897758
831500000 -24.07147 -100.78715 -1.732595 167.32748 -1.7404559 167.30463 -24.413946 -105.1619
841000000 -25.21081 -119.48465 -1.7385391 140.50691 -1.7464321 140.48207 -25.309425 -133.87003
850500000 -26.861097 -144.95573 -1.7447881 113.67133 -1.7526598 113.64729 -26.177795 -161.0585
860000000 -27.507416 -177.40941 -1.7529454 86.830185 -1.7608624 86.806221 -26.555719 173.83054
869500000 -27.148916 151.10954 -1.7638353 59.988747 -1.771771 59.964828 -26.15564 149.03462
879000000 -26.511311 119.16939 -1.7766702 33.153812 -1.7848148 33.132702 -25.355892 122.19053
888500000 -25.26092 85.582924 -1.7905974 6.3235335 -1.7988336 6.3068242 -24.440975 95.435616
898000000 -23.596367 54.47485 -1.8067578 -20.488371 -1.814768 -20.508057 -23.237661 68.915459
907500000 -22.143768 26.529924 -1.8227366 -47.270046 -1.8309094 -47.290894 -22.047937 41.552933
917000000 -21.07317 0.72341108 -1.8364353 -74.026184 -1.8447237 -74.045006 -21.138273 14.22156
926500000 -20.495844 -23.216192 -1.8453156 -100.76054 -1.853577 -100.77739 -20.669971 -13.318632
936000000 -20.61252 -46.176029 -1.8473209 -127.50636 -1.8553834 -127.522 -20.838427 -40.258411
945500000 -21.366768 -69.344757 -1.8467042 -154.28584 -1.8542296 -154.29936 -21.498487 -66.167099
955000000 -22.42481 -92.445114 -1.845679 178.91412 -1.8525501 178.90038 -22.606937 -92.478188
964500000 -23.723169 -113.37626 -1.8448366 152.09488 -1.85106 152.07819 -24.209906 -119.57454
974000000 -25.682987 -131.009 -1.8453144 125.26417 -1.8510997 125.24091 -26.25297 -148.68336
983500000 -28.557878 -148.16394 -1.8466524 98.422829 -1.8526846 98.392487 -29.119242 -179.49496
993000000 -31.692636 -172.34689 -1.8505222 71.567055 -1.8569428 71.530731 -32.246521 155.54881
1002500000 -33.264359 155.19519 -1.8566487 44.715481 -1.8635248 44.674393 -33.435513 130.37207
1012000000 -33.712799 124.95565 -1.8639991 17.876638 -1.8715991 17.835737 -33.953892 95.727455
1021500000 -34.740864 87.85627 -1.8713871 -8.9610243 -1.8795283 -8.9999304 -34.398861 65.682899
1031000000 -33.108379 37.431847 -1.8800479 -35.801506 -1.8887579 -35.837631 -33.160339 45.385113
1040500000 -29.390844 7.1415877 -1.8907571 -62.631054 -1.8995776 -62.664917 -30.419611 20.653643
1050000000 -27.614695 -9.5817719 -1.900195 -89.437553 -1.9088513 -89.46965 -28.631636 -11.957907
1059500000 -28.132547 -26.106133 -1.9053919 -116.24471 -1.9141953 -116.27587 -28.942165 -43.293076
1069000000 -29.915026 -48.795692 -1.9107543 -143.0739 -1.919492 -143.10378 -30.483561 -64.824486
1078500000 -30.996395 -69.303741 -1.9184555 -169.90576 -1.9272745 -169.93547 -31.74835 -86.607254
1088000000 -31.367428 -69.900703 -1.9266213 163.26604 -1.9353393 163.23747 -35.135262 -126.95997
1097500000 -30.962988 -53.814011 -1.9347237 136.43938 -1.9434612 136.41197 -41.850136 132.68427
1107000000 -29.842405 -44.115856 -1.9430251 109.61846 -1.9515334 109.59147 -35.708061 38.166534
1116500000 -29.548849 -53.504944 -1.9506621 82.800804 -1.9591188 82.773163 -32.730774 2.6081195
1126000000 -29.261263 -78.776031 -1.9587108 55.984413 -1.967171 55.956196 -31.164454 -19.158815
1135500000 -28.32444 -101.97511 -1.9672943 29.176922 -1.9754522 29.149466 -29.892338 -43.972988
1145000000 -28.834389 -114.94874 -1.9731288 2.3748772 -1.9812621 2.3466973 -30.294388 -76.670708
1154500000 -32.55793 -120.6033 -1.977106 -24.44644 -1.9852582 -24.476063 -34.156086 -109.29684
1164000000 -42.013699 -108.89946 -1.9832442 -51.284626 -1.9913929 -51.313694 -43.069557 -105.47898
1173500000 -44.266556 -24.779127 -1.9910489 -78.1166 -1.9989899 -78.146492 -42.450233 -53.226116
1183000000 -38.714859 -42.180134 -1.9990244 -104.9439 -2.007128 -104.97463 -38.484234 -32.987785
1192500000 -33.937691 -67.810081 -2.0081003 -131.76582 -2.0161743 -131.79778 -33.219303 -42.367233
1202000000 -31.22126 -79.260605 -2.0167508 -158.57707 -2.0248554 -158.61012 -31.062901 -69.637474
1211500000 -31.153839 -84.623032 -2.0232956 174.61244 -2.0317781 174.57858 -31.744816 -96.218994
1221000000 -33.340122 -90.677895 -2.0293338 147.79439 -2.0377984 147.76031 -33.810905 -114.17577
1230500000 -36.471367 -104.5814 -2.0359149 120.97138 -2.0443172 120.93707 -35.712521 -129.86473
1240000000 -37.548977 -124.7997 -2.0433888 94.146095 -2.0518909 94.110565 -38.447872 -153.71333
1249500000 -37.366863 -138.85089 -2.0510924 67.319626 -2.0594404 67.282562 -42.853523 -175.94244
1259000000 -40.239101 -156.43504 -2.0585504 40.488323 -2.0669649 40.450439 -42.946247 170.19281
1268500000 -46.35331 104.85645 -2.0668745 13.652905 -2.0753839 13.612998 -38.03849 134.45268
1278000000 -35.232185 39.363903 -2.0772827 -13.182397 -2.0858183 -13.223199 -33.308491 97.164383
1287500000 -29.591486 12.669877 -2.0902441 -40.015072 -2.0985029 -40.057491 -29.463282 65.439095
1297000000 -26.109764 -11.256781 -2.1053386 -66.834114 -2.113673 -66.878258 -26.370859 35.778992
1306500000 -23.920649 -33.663208 -2.1203454 -93.62439 -2.1286731 -93.669273 -24.185461 6.3420787
1316000000 -22.716476 -56.430691 -2.1326606 -120.39977 -2.14096 -120.44121 -22.858149 -21.028099
1325500000 -21.991323 -80.072601 -2.1439838 -147.16995 -2.1523407 -147.2049 -21.928314 -46.705387
1335000000 -21.54443 -101.97124 -2.1534235 -173.92137 -2.1616478 -173.95003 -21.45315 -73.584442
1344500000 -21.76705 -121.74856 -2.1573176 159.3261 -2.1649075 159.30072 -21.766397 -100.93
1354000000 -22.86689 -143.77791 -2.1576631 132.54071 -2.1647122 132.51707 -22.680031 -126.61478
1363500000 -24.087803 -171.09373 -2.1594472 105.73576 -2.1655598 105.71034 -23.703211 -151.48967
1373000000 -24.646774 163.07904 -2.162318 78.932465 -2.1677077 78.903198 -24.728672 -179.09026
1382500000 -25.523817 142.85583 -2.1645205 52.126217 -2.169359 52.091698 -26.125227 150.91736
1392000000 -27.530188 117.17553 -2.1676569 25.298857 -2.1723406 25.256733 -27.458794 124.24541
1401500000 -28.317461 74.165489 -2.1752617 -1.5385118 -2.1802816 -1.589139 -27.377735 99.996193
1411000000 -26.170702 38.658508 -2.1851964 -28.358904 -2.1910098 -28.41572 -26.292694 71.029823
1420500000 -24.811712 15.058894 -2.1936338 -55.163067 -2.2005105 -55.222328 -25.424007 40.552105
1430000000 -24.630001 -12.147962 -2.2011538 -81.964546 -2.2089558 -82.024277 -24.736376 13.536582
1439500000 -23.873552 -44.033932 -2.2097375 -108.75561 -2.2184675 -108.81402 -23.845322 -11.836156
1449000000 -22.601677 -67.888611 -2.2174938 -135.52536 -2.2273078 -135.58054 -23.086342 -39.506813
1458500000 -22.393515 -83.615112 -2.2205949 -162.28856 -2.2307007 -162.34006 -23.153559 -69.422585
1468000000 -23.596552 -99.311302 -2.2197399 170.91725 -2.2298722 170.86923 -24.231062 -97.757805
1477500000 -25.300301 -121.53147 -2.2204633 144.0938 -2.2307496 144.04883 -25.669823 -123.74299
1487000000 -26.11232 -144.41583 -2.2238448 117.27602 -2.2339256 117.23281 -27.378971 -153.68298
1496500000 -26.840796 -155.79135 -2.2267637 90.461472 -2.2366748 90.421249 -30.293404 168.61958
1506000000 -28.698664 -156.54823 -2.2296965 63.638588 -2.2400932 63.600243 -34.939548 121.22256
1515500000 -31.459471 -156.58841 -2.2346218 36.807468 -2.2449958 36.771496 -39.385529 58.33474
1525000000 -33.738529 -171.15996 -2.2409453 9.9812088 -2.2511907 9.9455061 -38.995529 -1.429098
1534500000 -33.583633 165.82982 -2.2476177 -16.840439 -2.2577896 -16.874136 -36.809315 -41.545963
1544000000 -33.855545 153.81842 -2.2538953 -43.658447 -2.2638488 -43.692245 -36.108944 -72.568314
1553500000 -38.150665 145.50613 -2.2598646 -70.476181 -2.2699049 -70.50959 -37.456287 -91.993698
1563000000 -49.970879 66.079613 -2.2659452 -97.292427 -2.2758703 -97.324432 -38.447113 -90.579521
1572500000 -39.452534 -3.0594831 -2.2723172 -124.10537 -2.2822106 -124.13777 -36.726799 -95.161163
1582000000 -36.319656 -16.55298 -2.2792716 -150.91994 -2.2889884 -150.95236 -35.859936 -113.75551
1591500000 -34.731789 -34.010803 -2.2864053 -177.73862 -2.2960885 -177.77094 -35.921543 -139.35918
1601000000 -32.528831 -50.553719 -2.2935922 155.44221 -2.3033392 155.41109 -36.612137 -176.77715
1610500000 -30.774849 -63.408348 -2.3009837 128.63055 -2.3105569 128.59941 -36.843128 132.34216
1620000000 -29.856297 -77.671768 -2.3081293 101.82623 -2.3177454 101.79597 -35.299557 78.534729
1629500000 -28.773628 -93.817619 -2.3156934 75.024986 -2.3251395 74.99501 -33.079556 34.203434
1639000000 -27.376368 -106.9473 -2.3237402 48.224499 -2.3328798 48.194641 -31.190199 -4.1904206
1648500000 -26.755274 -118.06499 -2.3305793 21.427057 -2.3398054 21.396641 -30.224974 -40.881046
1658000000 -27.405628 -133.52776 -2.3357542 -5.3714972 -2.3449602 -5.4015522 -30.173445 -73.771904
1667500000 -28.47365 -156.80046 -2.340287 -32.171364 -2.3495808 -32.201675 -30.487339 -103.41925
1677000000 -29.217005 -177.96983 -2.3443379 -58.970509 -2.3536282 -59.000118 -31.52356 -133.28909
1686500000 -31.319622 173.15094 -2.3481925 -85.776947 -2.357548 -85.805855 -34.295349 -162.52634
1696000000 -36.792515 179.90758 -2.3527288 -112.59241 -2.3621097 -112.62052 -40.642151 171.53319
1705500000 -44.604824 -133.16795 -2.3582919 -139.41461 -2.3674111 -139.44154 -54.124443 -61.542492
1715000000 -44.276962 -102.37463 -2.3642669 -166.23436 -2.3732135 -166.26038 -38.714657 -74.092308
1724500000 -40.69709 -131.63686 -2.3700891 166.95265 -2.3790805 166.92719 -35.633507 -98.682472
1734000000 -35.629486 -146.8116 -2.3765438 140.144 -2.3851073 140.11992 -34.533527 -116.98634
1743500000 -33.559395 -152.12514 -2.3838465 113.34238 -2.3920271 113.31944 -33.857159 -140.90926
1753000000 -34.75647 -159.28059 -2.3906457 86.5457 -2.3981817 86.520866 -35.12331 -169.7379
1762500000 -38.595985 -177.47981 -2.3959048 59.739567 -2.4031925 59.713127 -38.186501 171.93835
1772000000 -42.532009 147.08546 -2.401195 32.926689 -2.4080477 32.896587 -39.450443 171.99992
1781500000 -47.887524 120.82619 -2.4065819 6.11448 -2.4132583 6.081223 -37.778847 159.47136
1791000000 -52.338703 -71.069252 -2.411747 -20.69434 -2.4186804 -20.731052 -37.484203 133.71803
1800500000 -39.948532 -71.074768 -2.4172757 -47.506252 -2.4245064 -47.546467 -37.961781 114.81618
1810000000 -35.077778 -71.231712 -2.4239976 -74.320374 -2.4315112 -74.362465 -35.687393 89.384758
1819500000 -31.989386 -79.169746 -2.4318995 -101.12863 -2.4395707 -101.17224 -32.864914 42.328594
1829000000 -29.785229 -94.989014 -2.4384277 -127.93141 -2.4466836 -127.97558 -30.995296 -6.4033132
1838500000 -28.127783 -113.15349 -2.4442844 -154.73927 -2.4529214 -154.78448 -29.765938 -42.64893
1848000000 -27.153341 -130.65672 -2.4511967 178.45438 -2.4602952 178.40918 -28.265003 -70.089363
1857500000 -26.880886 -149.07918 -2.4581816 151.66345 -2.4677436 151.61839 -26.970873 -97.906059
1867000000 -26.91634 -169.98102 -2.463902 124.88531 -2.473845 124.84123 -26.576824 -127.40352
1876500000 -27.033541 169.21094 -2.4671569 98.104042 -2.4772401 98.062363 -27.484989 -157.04814
1886000000 -27.800386 151.09218 -2.4692159 71.295929 -2.4795041 71.255829 -29.527964 179.05727
1895500000 -29.9452 133.34146 -2.4733865 44.471306 -2.4839513 44.43359 -31.209614 160.50424
1905000000 -33.556156 109.74135 -2.4785457 17.659517 -2.4892018 17.623819 -33.099678 136.15987
1914500000 -37.55143 79.65596 -2.4826467 -9.1475782 -2.4931207 -9.1815443 -37.621609 114.09142
1924000000 -42.893513 61.498055 -2.4870849 -35.960194 -2.497565 -35.992474 -42.931725 129.58038
1933500000 -59.59145 144.85085 -2.4932196 -62.774303 -2.5035648 -62.805046 -41.387039 137.20409
1943000000 -43.870583 -132.56392 -2.499321 -89.587845 -2.5094912 -89.618088 -42.970406 112.37884
1952500000 -39.831921 -112.21871 -2.5049162 -116.40268 -2.5149896 -116.43287 -54.389423 60.456264
1962000000 -38.240204 -96.495262 -2.5106843 -143.21715 -2.52068 -143.24774 -47.496502 -101.94119
1971500000 -38.168938 -96.848091 -2.5171371 -170.02568 -2.5271308 -170.05724 -41.900055 -114.34449
1981000000 -37.885605 -119.9461 -2.5237203 163.17143 -2.5337951 163.14014 -36.721523 -125.8784
1990500000 -34.914173 -140.87778 -2.5302813 136.37137 -2.5404286 136.34053 -33.811592 -155.6132
2000000000 -32.162956 -145.83669 -2.5363626 109.56941 -2.5464363 109.53902 -33.975349 169.37657
