!Keysight Technologies,N5242B,MY48420967,A.15.65.19
!Date: Thursday, December 15, 2022 10:30:26
!Correction: S11(C  2-Port  ) 
!S21(C  2-Port  ) 
!S12(C  2-Port  ) 
!S22(C  2-Port  ) 
!S2P File: Measurements: S11, S21, S12, S22:
# Hz S  dB   R 50
100000000 -21.780317 -52.204781 -0.59803891 75.834473 -0.60319895 75.821434 -23.640129 -29.600327
109500000 -22.181103 -68.879601 -0.61533737 48.840462 -0.61910337 48.835819 -23.719213 -57.065765
119000000 -24.208067 -82.007904 -0.62777835 21.854656 -0.63234323 21.837038 -25.093409 -85.911057
128500000 -27.726692 -95.540497 -0.64215499 -5.1589394 -0.64726287 -5.173346 -27.93992 -110.02493
138000000 -31.44207 -105.78352 -0.65977108 -32.155094 -0.66475159 -32.167561 -31.271967 -124.98746
147500000 -33.496475 -99.963257 -0.6777969 -59.126259 -0.68303263 -59.139111 -35.387421 -137.832
157000000 -33.108418 -90.144722 -0.69562352 -86.081268 -0.70112902 -86.094116 -42.676224 -124.70605
166500000 -33.508705 -97.586472 -0.71263129 -113.02994 -0.71795225 -113.04101 -41.241405 -90.801552
176000000 -37.190632 -124.85138 -0.72927725 -139.97574 -0.73460394 -139.987 -42.964237 -115.09855
185500000 -45.322071 148.72026 -0.74634659 -166.9149 -0.7517432 -166.92598 -52.374287 128.52483
195000000 -36.273697 46.196251 -0.76331633 166.15939 -0.76877832 166.14854 -39.002869 56.028389
204500000 -30.838713 12.538235 -0.7794162 139.24655 -0.78487825 139.23637 -33.661507 28.60375
214000000 -29.308001 -14.814042 -0.79355741 112.33708 -0.79852211 112.33019 -31.853413 6.3032031
223500000 -30.067316 -45.585358 -0.80597997 85.429382 -0.81112421 85.421379 -31.650206 -13.686311
233000000 -32.017628 -77.102631 -0.81743902 58.515446 -0.82280904 58.507477 -33.744278 -37.19931
242500000 -37.310314 -95.406631 -0.83035481 31.592945 -0.83571285 31.585224 -41.325115 -50.454372
252000000 -43.503437 24.588436 -0.84483296 4.6732306 -0.8502388 4.6674623 -43.859066 53.490391
261500000 -31.768291 31.783047 -0.86067694 -22.235956 -0.86620367 -22.241634 -34.008774 49.749058
271000000 -28.383492 16.247185 -0.87651777 -49.126598 -0.88166994 -49.131428 -29.572126 24.786619
280500000 -27.136042 -9.3124743 -0.88983536 -76.001053 -0.89519769 -76.006516 -27.491213 -2.5729153
290000000 -25.939833 -37.743656 -0.90160316 -102.87315 -0.90690893 -102.87804 -26.480179 -27.954395
299500000 -25.300407 -58.617451 -0.91205353 -129.74962 -0.9172653 -129.75528 -26.110796 -52.459206
309000000 -26.333836 -72.840317 -0.92138863 -156.6378 -0.92672539 -156.64319 -26.428856 -76.723793
318500000 -28.97508 -86.283005 -0.93043631 176.46082 -0.93578321 176.45525 -27.706678 -100.79629
328000000 -31.224268 -105.11455 -0.94019574 149.55223 -0.9456442 149.54611 -29.811703 -120.55495
337500000 -30.662977 -125.85117 -0.95201564 122.64006 -0.95745182 122.63546 -31.002357 -139.46411
347000000 -29.302826 -145.35677 -0.96591014 95.733978 -0.97149485 95.729393 -31.018232 -171.09816
356500000 -29.166044 -175.76227 -0.98076862 68.833778 -0.98627502 68.82946 -30.3874 153.17841
366000000 -28.30641 136.46724 -0.99681348 41.932098 -1.0022421 41.928833 -28.379879 124.70933
375500000 -25.330099 95.169662 -1.0154426 15.047636 -1.0209273 15.04343 -25.59481 99.126076
385000000 -23.176706 66.202377 -1.034456 -11.79734 -1.0398778 -11.801696 -23.269737 71.760864
394500000 -22.317438 39.148102 -1.0490509 -38.608727 -1.0540824 -38.614269 -22.000069 43.710411
404000000 -21.894785 10.084333 -1.0575827 -65.425789 -1.0630497 -65.431442 -21.623808 17.556271
413500000 -21.397961 -17.49357 -1.0662717 -92.257576 -1.0718015 -92.262199 -21.459625 -6.9834824
423000000 -21.329954 -40.484982 -1.0730113 -119.07745 -1.0782145 -119.08252 -21.483793 -34.097481
432500000 -22.302509 -60.947426 -1.0734717 -145.9136 -1.0787356 -145.91982 -22.372337 -62.870411
442000000 -24.300465 -83.066872 -1.0733401 -172.79541 -1.0786679 -172.80309 -24.095778 -87.947151
451500000 -26.473021 -107.67329 -1.0775023 160.30107 -1.0830095 160.29449 -25.878443 -108.81214
461000000 -28.056309 -127.67367 -1.0848206 133.40254 -1.0903864 133.3965 -27.644192 -131.84833
470500000 -29.554306 -141.10948 -1.0933621 106.50846 -1.0988518 106.50115 -30.165342 -159.41428
480000000 -31.616974 -161.45973 -1.1024569 79.612015 -1.1081423 79.604141 -32.841206 172.74452
489500000 -32.517418 153.59706 -1.1130664 52.717472 -1.1189666 52.709469 -32.991882 144.49622
499000000 -30.043142 108.96904 -1.1252968 25.839792 -1.1311331 25.832048 -30.648762 110.91925
508500000 -28.212563 76.779495 -1.1365151 -1.0175527 -1.1420833 -1.0244733 -28.527239 79.056473
518000000 -27.681494 44.744499 -1.1456665 -27.86945 -1.1514378 -27.877382 -27.334345 52.839275
527500000 -27.335005 13.345593 -1.1536716 -54.723869 -1.1596382 -54.731316 -26.725229 29.324188
537000000 -27.312084 -11.49574 -1.1604239 -81.578972 -1.1663712 -81.586334 -26.926756 3.2519433
546500000 -28.373243 -30.049063 -1.1657221 -108.44048 -1.171644 -108.44874 -28.541605 -26.171551
556000000 -30.921385 -43.416012 -1.1713998 -135.31721 -1.1773949 -135.32458 -32.070717 -58.008804
565500000 -35.222389 -44.945187 -1.1789169 -162.20009 -1.1849309 -162.20714 -38.47369 -97.6548
575000000 -38.014778 -12.837261 -1.1882917 170.91768 -1.1940237 170.91435 -45.394428 142.72095
584500000 -33.995235 2.7812202 -1.1984414 144.04514 -1.2038816 144.04514 -36.273796 64.429718
594000000 -30.526606 -11.113284 -1.2088578 117.18417 -1.2134206 117.18367 -32.168552 28.35644
603500000 -28.382032 -32.407722 -1.2188368 90.333076 -1.2222228 90.32473 -30.051556 0.85005486
613000000 -27.872713 -53.524193 -1.2263439 63.486172 -1.230132 63.466911 -29.068026 -24.561899
622500000 -29.554794 -72.804436 -1.2311083 36.630375 -1.2364382 36.605392 -29.518215 -49.591763
632000000 -33.939869 -92.299622 -1.2350281 9.7566576 -1.2416637 9.7347097 -32.329006 -71.359001
641500000 -41.277325 -113.52293 -1.2417856 -17.128551 -1.2487831 -17.143719 -37.354401 -69.126274
651000000 -49.721054 -99.143715 -1.2499444 -44.004082 -1.257064 -44.015652 -38.884663 -51.177307
660500000 -43.856976 -53.286358 -1.2585244 -70.875122 -1.2653531 -70.883659 -39.854053 -39.209423
670000000 -39.743313 -42.864693 -1.2672335 -97.742752 -1.2738966 -97.750221 -38.311615 -37.18449
679500000 -38.929165 -17.977013 -1.2759606 -124.61081 -1.2821567 -124.61772 -38.318592 -70.862823
689000000 -36.770245 14.261163 -1.2845813 -151.47784 -1.2908214 -151.48425 -40.693604 -144.32224
698500000 -34.807125 22.634743 -1.2931232 -178.33913 -1.2992895 -178.34573 -38.388329 130.43147
708000000 -34.364277 5.7605395 -1.3010327 154.80063 -1.307079 154.79436 -36.691677 83.267517
717500000 -32.46719 -24.801455 -1.3092778 127.93427 -1.315164 127.92751 -36.11887 62.931984
727000000 -30.254723 -43.039513 -1.3183974 101.0708 -1.3242892 101.06326 -34.192657 38.48822
736500000 -30.912039 -52.204853 -1.3255548 74.21019 -1.3315303 74.202812 -34.959332 -1.6786867
746000000 -37.275326 -63.258568 -1.3312285 47.334709 -1.3372251 47.327217 -42.961857 -40.632648
755500000 -45.591541 129.6539 -1.3391651 20.453026 -1.3450344 20.44454 -42.911415 87.621086
765000000 -35.780975 86.641174 -1.3493252 -6.4226918 -1.3553051 -6.4322133 -34.058586 66.272369
774500000 -31.045601 36.684589 -1.3617616 -33.297424 -1.3679795 -33.307987 -29.489395 47.888645
784000000 -26.02593 5.7994585 -1.3771466 -60.16008 -1.3832415 -60.171543 -25.876694 25.992884
793500000 -23.54167 -12.21227 -1.391232 -86.987144 -1.3975908 -86.999092 -23.590815 -1.394061
803000000 -23.229717 -31.002434 -1.3993728 -113.7956 -1.4056017 -113.80654 -22.873695 -29.668344
812500000 -23.644194 -56.432964 -1.4040481 -140.62508 -1.4101436 -140.63634 -23.091318 -54.80674
822000000 -23.495461 -82.750038 -1.4102969 -167.47073 -1.4164296 -167.48138 -23.392233 -78.9879
831500000 -23.534004 -103.2991 -1.4166535 165.6862 -1.4228541 165.67468 -23.819067 -106.24184
841000000 -24.580572 -122.98922 -1.4212681 138.83315 -1.4274408 138.82082 -24.596336 -134.62109
850500000 -25.98357 -149.59718 -1.4261935 111.96478 -1.4324265 111.95337 -25.31036 -161.32153
860000000 -26.327005 178.02963 -1.4334159 85.090157 -1.4396073 85.077599 -25.51738 174.04137
869500000 -25.811169 147.14435 -1.4437532 58.215637 -1.4500104 58.2024 -24.977102 149.41113
879000000 -25.068834 115.84041 -1.4563663 31.349234 -1.4627337 31.339056 -24.113169 122.63303
888500000 -23.808466 83.340347 -1.4703825 4.4890137 -1.4767298 4.4817491 -23.178679 95.875114
898000000 -22.257357 52.959469 -1.4868625 -22.349779 -1.4930142 -22.359434 -22.004147 69.152596
907500000 -20.925089 25.051676 -1.5031477 -49.152225 -1.5094107 -49.162785 -20.870354 41.538105
917000000 -19.941017 -1.04656 -1.5164407 -75.924339 -1.5227757 -75.933044 -20.015224 13.919029
926500000 -19.424208 -25.392179 -1.524044 -102.6726 -1.5302619 -102.68039 -19.579449 -13.846813
936000000 -19.555576 -48.908764 -1.5236613 -129.43419 -1.5298834 -129.44138 -19.734476 -41.020348
945500000 -20.258745 -72.786369 -1.5202446 -156.23399 -1.5261049 -156.23994 -20.345352 -67.195251
955000000 -21.239769 -96.643684 -1.5161314 176.94136 -1.5215529 176.93518 -21.352629 -93.687569
964500000 -22.47633 -118.65634 -1.5121515 150.09421 -1.5171852 150.086 -22.788883 -120.91282
974000000 -24.330318 -138.42058 -1.5097307 123.2308 -1.5144416 123.21941 -24.602228 -149.72766
983500000 -26.935057 -159.13089 -1.5083714 96.353455 -1.5134002 96.337357 -27.051899 -179.34961
993000000 -29.50054 173.50931 -1.5103713 69.4599 -1.5156206 69.439888 -29.535759 156.28214
1002500000 -30.600742 141.67757 -1.5155362 42.573101 -1.5210114 42.550766 -30.452976 131.27725
1012000000 -30.950388 112.58636 -1.521629 15.703199 -1.5277301 15.68048 -31.000994 98.862709
1021500000 -31.621593 78.170464 -1.5276664 -11.166302 -1.533962 -11.18725 -31.588755 69.947632
1031000000 -30.470367 35.181293 -1.5352823 -38.038143 -1.5420364 -38.056759 -30.756493 47.679806
1040500000 -27.776752 5.5952964 -1.5447735 -64.894356 -1.5516109 -64.911545 -28.688869 20.935444
1050000000 -26.534161 -12.499472 -1.5521797 -91.727547 -1.5589672 -91.742668 -27.418066 -12.426071
1059500000 -27.360662 -30.146341 -1.5550512 -118.56544 -1.5619787 -118.57987 -28.011587 -44.462872
1069000000 -29.384626 -53.495579 -1.5583575 -145.42915 -1.5652134 -145.44247 -29.765263 -67.436775
1078500000 -30.844883 -73.720192 -1.5643038 -172.29633 -1.571182 -172.30972 -31.296324 -91.096375
1088000000 -31.737614 -71.70224 -1.5708635 160.83884 -1.5776546 160.82718 -34.855267 -135.87369
1097500000 -31.200953 -50.9496 -1.5779397 133.97559 -1.5848166 133.96425 -39.307095 119.78619
1107000000 -29.519661 -41.054592 -1.5856165 107.12179 -1.5922682 107.11092 -33.923424 38.409122
1116500000 -28.925388 -51.95039 -1.5923344 80.273155 -1.5990294 80.261986 -31.404169 2.8597047
1126000000 -28.532103 -77.912506 -1.5993736 53.426044 -1.6060742 53.414566 -29.951551 -20.005728
1135500000 -27.666418 -101.7808 -1.6067003 26.589928 -1.6131624 26.578827 -28.788807 -46.004337
1145000000 -28.230864 -115.97227 -1.6110095 -0.24173069 -1.6173539 -0.25291872 -29.283964 -79.241776
1154500000 -31.856897 -123.6965 -1.6132483 -27.095152 -1.6197265 -27.107588 -33.047794 -111.71955
1164000000 -40.930832 -120.62143 -1.617831 -53.96656 -1.6243114 -53.978844 -41.056908 -112.73072
1173500000 -46.672047 -31.230368 -1.6243348 -80.832245 -1.6305239 -80.844955 -42.554298 -68.23735
1183000000 -39.633293 -45.807091 -1.6310139 -107.69344 -1.6373786 -107.70618 -39.250786 -38.389919
1192500000 -34.321804 -71.171318 -1.6387714 -134.54913 -1.6451448 -134.563 -33.463074 -45.588688
1202000000 -31.502663 -82.224442 -1.6462096 -161.39494 -1.6524827 -161.40962 -31.157452 -73.499725
1211500000 -31.499773 -87.566307 -1.6516337 171.75949 -1.658221 171.74474 -31.869898 -100.85743
1221000000 -33.860626 -94.382179 -1.6565599 144.90723 -1.6631274 144.89169 -33.977547 -118.56255
1230500000 -37.141273 -111.65649 -1.6620091 118.04888 -1.6685472 118.03451 -35.530949 -133.95825
1240000000 -38.004459 -136.80841 -1.6684407 91.188126 -1.6750684 91.173141 -37.572147 -159.05173
1249500000 -37.899612 -155.56563 -1.675051 64.324768 -1.6815332 64.3088 -40.451977 178.07951
1259000000 -40.884418 170.24976 -1.6817589 37.453781 -1.6882844 37.43755 -39.09412 161.40277
1268500000 -38.879589 81.326866 -1.6900069 10.577701 -1.69657 10.561426 -34.573425 129.17552
1278000000 -31.58765 39.471184 -1.7007961 -16.295864 -1.7074324 -16.312172 -30.511847 94.89238
1287500000 -27.157761 12.327679 -1.7148322 -43.164417 -1.7211463 -43.181843 -27.157965 63.981701
1297000000 -24.188196 -12.486957 -1.7312856 -70.013008 -1.7376711 -70.030952 -24.427723 34.299416
1306500000 -22.265696 -35.724834 -1.7472174 -96.826813 -1.7536559 -96.843857 -22.489519 4.8425026
1316000000 -21.190054 -59.174698 -1.7598099 -123.6211 -1.7663399 -123.63759 -21.290012 -22.739441
1325500000 -20.527554 -83.341911 -1.7712018 -150.40755 -1.7777506 -150.4214 -20.443739 -48.914684
1335000000 -20.131319 -105.98354 -1.7798127 -177.17268 -1.7864327 -177.18312 -20.016174 -76.151833
1344500000 -20.358593 -127.0255 -1.7816527 156.05824 -1.7878222 156.05014 -20.291571 -103.72775
1354000000 -21.319199 -150.45634 -1.7794988 129.24805 -1.7852603 129.24101 -21.076069 -129.692
1363500000 -22.271019 -178.24303 -1.7794298 102.41342 -1.7844483 102.4043 -21.8993 -154.93245
1373000000 -22.687296 155.72014 -1.7805909 75.582222 -1.7851506 75.570747 -22.700365 177.37415
1382500000 -23.441774 133.63525 -1.7806072 48.744289 -1.7847383 48.729927 -23.80854 148.09592
1392000000 -24.912849 106.05337 -1.7823867 21.878716 -1.7864554 21.859091 -24.775335 121.95274
1401500000 -25.146254 67.512062 -1.7901714 -4.9937077 -1.7944125 -5.0200491 -24.600872 97.197403
1411000000 -23.535587 35.470371 -1.800494 -31.839621 -1.8053814 -31.869865 -23.734478 68.56675
1420500000 -22.561874 11.346862 -1.8085322 -58.663452 -1.8141418 -58.695335 -23.07786 38.750607
1430000000 -22.482647 -15.838212 -1.8150003 -85.485786 -1.8212143 -85.517639 -22.586731 11.628568
1439500000 -21.963802 -46.48621 -1.8224921 -112.29663 -1.8293644 -112.32776 -21.931673 -14.237082
1449000000 -21.063229 -70.558182 -1.8285109 -139.08195 -1.8362081 -139.1105 -21.404448 -42.344288
1458500000 -21.08989 -87.782516 -1.8283185 -165.86324 -1.8362508 -165.88913 -21.644169 -72.467331
1468000000 -22.386944 -105.28495 -1.8236812 167.31415 -1.8315779 167.2908 -22.780514 -101.02611
1477500000 -24.102583 -128.63751 -1.8212817 140.45741 -1.8293478 140.43639 -24.214458 -127.61664
1487000000 -25.073294 -151.68944 -1.82169 113.60588 -1.8296359 113.58595 -25.911646 -157.94043
1496500000 -26.191038 -163.84491 -1.8217635 86.75399 -1.8295223 86.735916 -28.73419 164.95732
1506000000 -28.635496 -165.85738 -1.8225354 59.889107 -1.8305302 59.873112 -33.198933 120.41235
1515500000 -32.106934 -166.16542 -1.8259056 33.018017 -1.8339446 33.002583 -38.002583 63.951759
1525000000 -34.677185 -179.69659 -1.8311015 6.153162 -1.8390343 6.138586 -38.677292 3.215688
1534500000 -34.330441 160.4808 -1.8367285 -20.705053 -1.8445436 -20.718309 -36.688667 -41.65358
1544000000 -34.564621 152.07472 -1.8419797 -47.558918 -1.8497168 -47.572487 -36.029503 -76.024696
1553500000 -38.897068 148.10513 -1.8470576 -74.411255 -1.854781 -74.424713 -37.574039 -97.728432
1563000000 -53.529316 78.119102 -1.8520528 -101.26133 -1.8597729 -101.27385 -38.727634 -97.636337
1572500000 -41.174332 -1.3596457 -1.8573716 -128.10846 -1.865037 -128.12143 -37.179161 -104.80254
1582000000 -37.696701 -9.8315353 -1.8632226 -154.95749 -1.870753 -154.9707 -36.549709 -126.48897
1591500000 -35.723907 -24.591021 -1.8694403 178.18874 -1.8769653 178.17584 -36.613663 -156.75562
1601000000 -33.023685 -41.142941 -1.8757379 151.33482 -1.8833708 151.32317 -36.668053 159.47856
1610500000 -30.829983 -54.740616 -1.8823369 124.48895 -1.8899029 124.47707 -35.460461 108.06741
1620000000 -29.595972 -69.728241 -1.8889079 97.650879 -1.8964442 97.639862 -33.085072 61.325367
1629500000 -28.310104 -87.145874 -1.895821 70.817696 -1.9032806 70.807304 -30.901707 22.105036
1639000000 -26.783566 -102.30151 -1.9031482 43.98719 -1.9103447 43.976395 -29.316553 -13.576097
1648500000 -26.095919 -115.44066 -1.9090542 17.160242 -1.9163152 17.149374 -28.60544 -48.337116
1658000000 -26.745579 -132.29709 -1.9129602 -9.6673899 -1.9201734 -9.6783762 -28.756277 -80.375191
1667500000 -27.914165 -156.14943 -1.9158694 -36.498787 -1.9230895 -36.509914 -29.364786 -109.97501
1677000000 -28.872944 -177.62582 -1.9184273 -63.331757 -1.9255424 -63.343292 -30.746876 -140.13817
1686500000 -31.220131 173.83476 -1.9209079 -90.17408 -1.928238 -90.185059 -33.96616 -170.99339
1696000000 -36.768513 -175.28056 -1.9243859 -117.02603 -1.9318193 -117.03644 -41.617371 156.77353
1705500000 -41.890907 -126.11666 -1.9293076 -143.88406 -1.9364154 -143.89333 -47.225895 -35.50227
1715000000 -40.707336 -112.52666 -1.9346054 -170.73746 -1.9415632 -170.74638 -36.507278 -73.070236
1724500000 -37.422443 -139.22861 -1.9395936 162.41635 -1.9466842 162.40738 -33.702492 -100.1142
1734000000 -33.370617 -154.9682 -1.9453053 135.57413 -1.9520893 135.56612 -32.472122 -120.96599
1743500000 -31.853889 -164.15797 -1.9518118 108.74027 -1.9583454 108.73232 -31.680525 -146.24219
1753000000 -33.165745 -178.83928 -1.9575162 81.910423 -1.9636739 81.901382 -32.428383 -174.98088
1762500000 -35.938293 149.40155 -1.961691 55.068901 -1.967761 55.05862 -34.344536 164.2274
1772000000 -36.896091 106.84358 -1.9662378 28.217812 -1.971997 28.205313 -34.932373 153.89058
1781500000 -37.911057 69.675499 -1.9715071 1.3693788 -1.9770664 1.3544863 -33.705154 135.3555
1791000000 -38.795578 15.764886 -1.9765277 -25.473442 -1.982308 -25.490421 -33.178959 107.30319
1800500000 -34.728607 -29.20006 -1.9817176 -52.321697 -1.987783 -52.341129 -33.217617 83.080055
1810000000 -30.784218 -50.501633 -1.9892249 -79.174255 -1.9954265 -79.19442 -31.376503 59.365421
1819500000 -28.21619 -68.819763 -1.9988821 -106.01163 -2.0051501 -106.0331 -28.683697 22.788132
1829000000 -26.472923 -89.647552 -2.0062482 -132.83261 -2.0131087 -132.85461 -27.008572 -17.132452
1838500000 -25.182798 -111.03551 -2.0117083 -159.66046 -2.0187147 -159.68263 -26.12319 -49.856384
1848000000 -24.431353 -131.43564 -2.0182831 173.51138 -2.0256443 173.48904 -25.103558 -76.839737
1857500000 -24.261065 -152.35265 -2.0248554 146.70293 -2.0323884 146.68114 -24.19529 -104.52476
1867000000 -24.380417 -175.05061 -2.0289142 119.91081 -2.0367112 119.88929 -24.010437 -133.89294
1876500000 -24.622778 162.40553 -2.0291736 93.110588 -2.0369542 93.089378 -24.903671 -163.09363
1886000000 -25.443243 141.53937 -2.0282483 66.271965 -2.0361464 66.252457 -26.626184 172.53232
1895500000 -27.378378 119.4689 -2.0303447 39.415825 -2.0385566 39.398006 -28.028494 151.55452
1905000000 -30.200735 90.65403 -2.0331938 12.573802 -2.0414512 12.557193 -29.601238 125.71567
1914500000 -32.818214 56.985138 -2.0345557 -14.267161 -2.0427291 -14.282962 -32.855476 100.19598
1924000000 -36.025227 27.439953 -2.0370533 -41.119865 -2.0452118 -41.134369 -37.001511 90.51561
1933500000 -41.296974 -18.150118 -2.0419002 -67.972404 -2.0500543 -67.985985 -38.279488 84.953354
1943000000 -39.0536 -81.08847 -2.0472004 -94.820786 -2.0552053 -94.833549 -39.124977 53.584965
1952500000 -35.312126 -95.106644 -2.0517941 -121.66798 -2.0597422 -121.68149 -40.716461 -3.500932
1962000000 -34.252129 -98.09993 -2.0563071 -148.51607 -2.0642142 -148.52911 -40.134312 -63.390244
1971500000 -34.983021 -107.95341 -2.0617092 -175.35854 -2.0696077 -175.37273 -37.674088 -94.664085
1981000000 -35.370338 -131.81354 -2.0672646 157.80606 -2.0752163 157.79221 -34.210361 -120.78439
1990500000 -33.603218 -150.33199 -2.0724206 130.97357 -2.0804358 130.96024 -32.481464 -155.21159
