!Keysight Technologies,N5242B,MY48420967,A.15.65.19
!Date: Thursday, December 15, 2022 10:11:24
!Correction: S11(C  2-Port  ) 
!S21(C  2-Port  ) 
!S12(C  2-Port  ) 
!S22(C  2-Port  ) 
!S2P File: Measurements: S11, S21, S12, S22:
# Hz S  dB   R 50
100000000 -21.780874 -52.200523 -0.59800446 75.836197 -0.60242778 75.822723 -23.633802 -29.613495
109500000 -22.181831 -68.882813 -0.61525053 48.842354 -0.61826819 48.837212 -23.71558 -57.095547
119000000 -24.206144 -81.981613 -0.62758726 21.856514 -0.63146955 21.838444 -25.094948 -85.903099
128500000 -27.723127 -95.500412 -0.64200437 -5.1569424 -0.6463781 -5.1715026 -27.93615 -109.99179
138000000 -31.439796 -105.81332 -0.65956771 -32.152527 -0.66380173 -32.165401 -31.270357 -125.02599
147500000 -33.496365 -100.01917 -0.67754215 -59.123749 -0.68199426 -59.136974 -35.393597 -137.85788
157000000 -33.104408 -90.117661 -0.6953364 -86.078773 -0.70008808 -86.092178 -42.663982 -124.85033
166500000 -33.511131 -97.530556 -0.71231502 -113.02779 -0.71686858 -113.03896 -41.253651 -91.015274
176000000 -37.204693 -124.92035 -0.72890067 -139.9734 -0.73350722 -139.98497 -42.961712 -115.39259
185500000 -45.267937 148.70131 -0.74591255 -166.9126 -0.75055534 -166.9239 -52.251488 128.98973
195000000 -36.284027 46.205471 -0.76291454 166.16158 -0.76761359 166.15062 -39.00713 56.131199
204500000 -30.834557 12.492199 -0.77899188 139.24895 -0.78369123 139.23845 -33.674122 28.629177
214000000 -29.303738 -14.797634 -0.79307455 112.33942 -0.79729092 112.33256 -31.856138 6.3401108
223500000 -30.077108 -45.560215 -0.80551565 85.431412 -0.80992097 85.423889 -31.646847 -13.728953
233000000 -32.025967 -77.11676 -0.81691599 58.517372 -0.82153589 58.509827 -33.75021 -37.212383
242500000 -37.307575 -95.438217 -0.82979918 31.594795 -0.83441269 31.587593 -41.312107 -50.364525
252000000 -43.478088 24.599865 -0.84423959 4.6747146 -0.8489576 4.6699572 -43.848007 53.427616
261500000 -31.757755 31.821026 -0.86011487 -22.234146 -0.8648811 -22.239124 -33.993198 49.743755
271000000 -28.381754 16.244326 -0.87592548 -49.124657 -0.88030964 -49.129288 -29.569019 24.80657
280500000 -27.135246 -9.3428917 -0.88925046 -75.999451 -0.8938179 -76.004082 -27.488251 -2.5256782
290000000 -25.936239 -37.738335 -0.90102977 -102.87144 -0.90554172 -102.87574 -26.478422 -27.932604
299500000 -25.300406 -58.60004 -0.91136795 -129.74774 -0.91587049 -129.7531 -26.11142 -52.437843
309000000 -26.336857 -72.868721 -0.92073262 -156.63651 -0.92530996 -156.64137 -26.428556 -76.705566
318500000 -28.973886 -86.351791 -0.92979586 176.46252 -0.9342823 176.45729 -27.701414 -100.76785
328000000 -31.221918 -105.12894 -0.93956321 149.55394 -0.94412315 149.54839 -29.801434 -120.54607
337500000 -30.670769 -125.82598 -0.95126086 122.64158 -0.95592308 122.63703 -30.99157 -139.42461
347000000 -29.308146 -145.41914 -0.96516782 95.735107 -0.96995926 95.731216 -31.007103 -170.99397
356500000 -29.162762 -175.81897 -0.98000073 68.835022 -0.98480755 68.831451 -30.375887 153.23738
366000000 -28.303553 136.43863 -0.99605674 41.933559 -1.0007478 41.930676 -28.375996 124.76254
375500000 -25.3283 95.13031 -1.0146724 15.04882 -1.0194206 15.045061 -25.588303 99.165092
385000000 -23.171583 66.184029 -1.0336822 -11.795959 -1.0383434 -11.80047 -23.263458 71.772102
394500000 -22.314188 39.140751 -1.0481569 -38.607853 -1.0525331 -38.612267 -21.996969 43.725807
404000000 -21.89366 10.06542 -1.0567272 -65.424614 -1.0614829 -65.42971 -21.618704 17.584904
413500000 -21.393658 -17.499338 -1.0654045 -92.25679 -1.0701963 -92.260185 -21.455351 -6.979188
423000000 -21.325897 -40.468231 -1.0720745 -119.07678 -1.0765313 -119.0807 -21.482655 -34.092632
432500000 -22.300386 -60.953785 -1.0725484 -145.9129 -1.0770873 -145.91785 -22.369438 -62.86515
442000000 -24.296886 -83.109138 -1.0723263 -172.79517 -1.0770292 -172.80121 -24.092173 -87.967117
451500000 -26.466488 -107.67814 -1.076524 160.30136 -1.0813154 160.29614 -25.875332 -108.83115
461000000 -28.054956 -127.61965 -1.0838739 133.40279 -1.0886312 133.39775 -27.639683 -131.87738
470500000 -29.55171 -141.09775 -1.0923986 106.50867 -1.0970323 106.50282 -30.161236 -159.46056
480000000 -31.600992 -161.53549 -1.1014644 79.612061 -1.1063515 79.605347 -32.838795 172.69235
489500000 -32.49947 153.61296 -1.1120377 52.71727 -1.1171875 52.710915 -32.989586 144.42897
499000000 -30.038795 108.97344 -1.1243037 25.839712 -1.1293083 25.833118 -30.644222 110.86591
508500000 -28.207151 76.783455 -1.1355047 -1.017812 -1.1402937 -1.0237443 -28.523628 78.987053
518000000 -27.676289 44.803173 -1.1445856 -27.869789 -1.1495808 -27.876396 -27.333746 52.803352
527500000 -27.332897 13.3882 -1.1526345 -54.724529 -1.1577655 -54.730671 -26.722784 29.297462
537000000 -27.305742 -11.480255 -1.1593393 -81.579758 -1.1644703 -81.585114 -26.926619 3.2054715
546500000 -28.36698 -30.00596 -1.1646261 -108.44156 -1.1697278 -108.4479 -28.546471 -26.212801
556000000 -30.924582 -43.356041 -1.1702629 -135.31808 -1.175424 -135.3239 -32.074451 -58.072796
565500000 -35.228107 -44.909874 -1.1777853 -162.20128 -1.182961 -162.20656 -38.479008 -97.861343
575000000 -38.003616 -12.93585 -1.1870925 170.91621 -1.1920906 170.91444 -45.348595 142.6066
584500000 -33.976051 2.7543137 -1.1972415 144.04338 -1.2019591 144.04413 -36.261154 64.521217
594000000 -30.508728 -11.099712 -1.2076502 117.18263 -1.2115487 117.18308 -32.157181 28.388567
603500000 -28.381964 -32.417206 -1.2176323 90.330917 -1.2204146 90.324287 -30.046267 0.85344982
613000000 -27.873972 -53.541756 -1.2251891 63.483269 -1.2282975 63.467152 -29.062551 -24.551077
622500000 -29.545137 -72.788254 -1.2299962 36.627216 -1.2345872 36.60582 -29.514919 -49.623672
632000000 -33.927006 -92.246658 -1.2340552 9.7539253 -1.2397306 9.735013 -32.330303 -71.350784
641500000 -41.27211 -113.62712 -1.2407876 -17.130915 -1.2468357 -17.143339 -37.356247 -69.224731
651000000 -49.715229 -99.515785 -1.2489256 -44.005859 -1.2551026 -44.015842 -38.90704 -51.131516
660500000 -43.833836 -53.56271 -1.2574768 -70.876877 -1.2633883 -70.883858 -39.868576 -39.192844
670000000 -39.741409 -42.985565 -1.2661142 -97.744888 -1.2718908 -97.750542 -38.3288 -37.081177
679500000 -38.951885 -17.875841 -1.274772 -124.61292 -1.2801512 -124.61779 -38.33176 -70.756577
689000000 -36.787369 14.459982 -1.2833616 -151.47998 -1.2887194 -151.48462 -40.711437 -144.35997
698500000 -34.814285 22.729158 -1.2918634 -178.34166 -1.2972709 -178.34654 -38.394497 130.27255
708000000 -34.35788 5.7927318 -1.299794 154.79788 -1.3049957 154.79399 -36.69976 83.169151
717500000 -32.459713 -24.680052 -1.3080115 127.93136 -1.3130592 127.92692 -36.119122 62.883846
727000000 -30.25626 -42.944153 -1.3171645 101.06776 -1.3221958 101.0624 -34.197521 38.403973
736500000 -30.916084 -52.189724 -1.3242481 74.207397 -1.3294369 74.201973 -34.970421 -1.739802
746000000 -37.276051 -63.232258 -1.3299204 47.331566 -1.3350695 47.326351 -42.99189 -40.7953
755500000 -45.617489 129.27257 -1.3377869 20.449982 -1.3429366 20.443466 -42.890373 87.936722
765000000 -35.768467 86.515541 -1.3479837 -6.4261889 -1.3531497 -6.4335546 -34.041862 66.376831
774500000 -31.038797 36.689411 -1.36046 -33.301071 -1.3658193 -33.30938 -29.480494 47.924469
784000000 -26.021063 5.7787571 -1.3758018 -60.163784 -1.3810775 -60.172424 -25.870152 26.022224
793500000 -23.534363 -12.235034 -1.3898808 -86.990891 -1.3954035 -86.999992 -23.58354 -1.3807564
803000000 -23.223024 -31.009066 -1.3980125 -113.79926 -1.4033453 -113.80788 -22.867979 -29.668802
812500000 -23.640358 -56.457394 -1.4026617 -140.62918 -1.4079314 -140.6375 -23.086164 -54.797211
822000000 -23.489847 -82.790192 -1.4088595 -167.47481 -1.4141726 -167.48268 -23.38504 -78.989723
831500000 -23.526339 -103.30768 -1.415154 165.68198 -1.4205693 165.67345 -23.814014 -106.25437
841000000 -24.574093 -122.98862 -1.4198169 138.8284 -1.4251798 138.81944 -24.590029 -134.62762
850500000 -25.977404 -149.64165 -1.4247762 111.96037 -1.430178 111.95201 -25.303516 -161.34465
860000000 -26.31356 177.98979 -1.4319422 85.085571 -1.4373267 85.076271 -25.510759 174.02071
869500000 -25.799803 147.14546 -1.4422631 58.210991 -1.4477555 58.200939 -24.96936 149.39479
879000000 -25.061842 115.82472 -1.4548415 31.344538 -1.4604117 31.337069 -24.105352 122.61609
888500000 -23.79825 83.323219 -1.4688495 4.4841514 -1.474381 4.4795423 -23.172052 95.859787
898000000 -22.248182 52.974567 -1.4852854 -22.354925 -1.4906754 -22.361366 -21.999058 69.145691
907500000 -20.919146 25.058287 -1.5015841 -49.157291 -1.5069929 -49.165001 -20.865625 41.528782
917000000 -19.934448 -1.0610386 -1.5149432 -75.929657 -1.5203699 -75.935112 -20.011795 13.903957
926500000 -19.418531 -25.397663 -1.5223783 -102.67805 -1.5278361 -102.68257 -19.576553 -13.853835
936000000 -19.552509 -48.904461 -1.5220844 -129.44 -1.5274332 -129.44418 -19.731077 -41.034386
945500000 -20.255121 -72.794815 -1.518638 -156.23973 -1.5236447 -156.24281 -20.343567 -67.211258
955000000 -21.234871 -96.651848 -1.5144428 176.9355 -1.519089 176.93213 -21.351713 -93.698624
964500000 -22.474621 -118.64252 -1.510492 150.08795 -1.5147964 150.08243 -22.78796 -120.93359
974000000 -24.330359 -138.42126 -1.5080112 123.22446 -1.5119957 123.21599 -24.603239 -149.75662
983500000 -26.9319 -159.16672 -1.5067713 96.346519 -1.5110344 96.333809 -27.053658 -179.36713
993000000 -29.497824 173.51634 -1.5087842 69.452782 -1.5132935 69.436577 -29.536409 156.24809
1002500000 -30.607252 141.70941 -1.5139409 42.565681 -1.5186807 42.547386 -30.457468 131.25951
1012000000 -30.95133 112.56757 -1.5200704 15.695557 -1.5253354 15.677475 -31.002632 98.860291
1021500000 -31.616041 78.176064 -1.526141 -11.173 -1.5316502 -11.190301 -31.593189 69.938652
1031000000 -30.474909 35.18362 -1.533717 -38.045189 -1.539624 -38.059708 -30.75931 47.703876
1040500000 -27.780569 5.5414758 -1.5431819 -64.901329 -1.5491953 -64.914665 -28.69158 20.94504
1050000000 -26.536619 -12.53464 -1.5505787 -91.734291 -1.5564765 -91.746193 -27.422985 -12.400953
1059500000 -27.368961 -30.137152 -1.5534577 -118.57259 -1.5594521 -118.58349 -28.014748 -44.436775
1069000000 -29.398857 -53.506157 -1.5566757 -145.43611 -1.5626775 -145.44594 -29.774837 -67.436943
1078500000 -30.852484 -73.772919 -1.5626152 -172.30365 -1.5686193 -172.31288 -31.308083 -91.046394
1088000000 -31.747198 -71.682281 -1.5691838 160.83188 -1.5750638 160.82343 -34.861721 -135.86571
1097500000 -31.204933 -50.814762 -1.5762105 133.96808 -1.5822304 133.96072 -39.299496 119.645
1107000000 -29.519613 -40.953171 -1.5839114 107.11398 -1.5896642 107.10703 -33.918945 38.324043
1116500000 -28.921518 -51.917625 -1.5905471 80.265266 -1.59635 80.258377 -31.405376 2.7990808
1126000000 -28.522799 -77.89119 -1.5975715 53.418087 -1.6033305 53.410736 -29.951653 -20.038342
1135500000 -27.664818 -101.74104 -1.6048499 26.581715 -1.6105015 26.574707 -28.787554 -46.051781
1145000000 -28.239433 -115.94368 -1.6092067 -0.25007984 -1.6146909 -0.25751546 -29.288946 -79.28936
1154500000 -31.862137 -123.6585 -1.6114345 -27.103695 -1.6170218 -27.112194 -33.06189 -111.72982
1164000000 -40.909874 -120.49708 -1.616019 -53.975349 -1.6216544 -53.983006 -41.092201 -112.68925
1173500000 -46.608932 -31.433224 -1.6224949 -80.841263 -1.6278137 -80.849152 -42.581642 -67.724991
1183000000 -39.602024 -45.773476 -1.6290882 -107.70274 -1.6346791 -107.7109 -39.208443 -38.166031
1192500000 -34.308865 -71.181755 -1.6368461 -134.55827 -1.6423498 -134.56779 -33.449944 -45.53252
1202000000 -31.489016 -82.300224 -1.6443026 -161.40439 -1.6497049 -161.41443 -31.14509 -73.434898
1211500000 -31.486008 -87.644791 -1.6497144 171.75 -1.6554332 171.74011 -31.848511 -100.8857
1221000000 -33.853714 -94.4431 -1.6545445 144.897 -1.6603045 144.88725 -33.960735 -118.66016
1230500000 -37.132668 -111.79929 -1.6600492 118.03907 -1.6656694 118.0292 -35.498405 -134.0173
1240000000 -37.974972 -137.05919 -1.6664001 91.177971 -1.6721416 91.167831 -37.520844 -159.24179
1249500000 -37.872215 -155.78665 -1.6730398 64.313957 -1.678653 64.303566 -40.410908 177.89281
1259000000 -40.859005 169.95233 -1.6798353 37.442673 -1.6853818 37.432522 -39.052162 161.28023
1268500000 -38.807922 81.362091 -1.6880045 10.566714 -1.6936488 10.55608 -34.547306 129.01431
1278000000 -31.55822 39.597958 -1.6988611 -16.307146 -1.7044793 -16.317854 -30.497721 94.775955
1287500000 -27.144192 12.375227 -1.7127469 -43.17643 -1.7181667 -43.187237 -27.142393 63.919922
1297000000 -24.176548 -12.483006 -1.7292316 -70.024872 -1.7347103 -70.036224 -24.413401 34.255306
1306500000 -22.255627 -35.709118 -1.7451614 -96.83886 -1.750716 -96.849464 -22.479023 4.8247027
1316000000 -21.1831 -59.154781 -1.7577343 -123.63327 -1.763383 -123.64359 -21.282202 -22.746727
1325500000 -20.52112 -83.332695 -1.7690812 -150.41945 -1.7747743 -150.42755 -20.439272 -48.929111
1335000000 -20.123598 -105.9853 -1.7777401 -177.18445 -1.7834083 -177.1897 -20.013489 -76.170807
1344500000 -20.353197 -127.03834 -1.7795612 156.04666 -1.7848312 156.04303 -20.288012 -103.76179
1354000000 -21.316698 -150.47427 -1.777295 129.23628 -1.7822672 129.23367 -21.072248 -129.72885
1363500000 -22.266809 -178.25247 -1.7771851 102.40067 -1.7814381 102.39678 -21.893574 -154.95042
1373000000 -22.68169 155.72343 -1.7783521 75.569221 -1.7822313 75.563499 -22.694958 177.36398
1382500000 -23.437723 133.61436 -1.7784001 48.731274 -1.7817795 48.722599 -23.807482 148.10316
1392000000 -24.907249 106.00421 -1.7801559 21.864988 -1.783456 21.851723 -24.775547 121.96893
1401500000 -25.138531 67.487991 -1.7879266 -5.0079584 -1.7914693 -5.0272388 -24.600317 97.184334
1411000000 -23.531364 35.453243 -1.7983049 -31.853363 -1.8023933 -31.877064 -23.733686 68.545876
1420500000 -22.558828 11.306325 -1.8064109 -58.677338 -1.811146 -58.703072 -23.073036 38.746407
1430000000 -22.479914 -15.878587 -1.8129231 -85.499947 -1.8182172 -85.524902 -22.581606 11.637491
1439500000 -21.963301 -46.513084 -1.8203907 -112.31126 -1.82634 -112.33562 -21.929508 -14.202792
1449000000 -21.063623 -70.589493 -1.8264709 -139.09601 -1.833239 -139.11845 -21.404696 -42.308884
1458500000 -21.089195 -87.821243 -1.8262718 -165.87738 -1.8331608 -165.89713 -21.648027 -72.445145
1468000000 -22.387865 -105.3341 -1.8215828 167.30034 -1.8285124 167.28296 -22.784225 -101.02434
1477500000 -24.109264 -128.6963 -1.8191745 140.44377 -1.8262796 140.42882 -24.217339 -127.62879
1487000000 -25.081785 -151.74466 -1.8195448 113.59167 -1.8264847 113.57767 -25.910028 -157.92595
1496500000 -26.196291 -163.86571 -1.819646 86.739189 -1.8263597 86.727715 -28.730536 165.01164
1506000000 -28.643539 -165.86133 -1.8203093 59.874538 -1.827354 59.864429 -33.212753 120.50579
1515500000 -32.12788 -166.17473 -1.8237156 33.003475 -1.8307319 32.994244 -38.04884 63.938179
1525000000 -34.707897 -179.73112 -1.8288 6.1386895 -1.8357736 6.1301179 -38.701614 3.0495009
1534500000 -34.3521 160.50317 -1.8344852 -20.719923 -1.8412982 -20.726807 -36.683128 -41.675102
1544000000 -34.577717 152.18094 -1.8397068 -47.573994 -1.8464488 -47.581177 -36.026318 -75.977348
1553500000 -38.912983 148.25235 -1.8447384 -74.426216 -1.8514514 -74.434151 -37.606106 -97.591637
1563000000 -53.658504 77.790138 -1.8497964 -101.27596 -1.8564807 -101.28315 -38.754948 -97.321243
1572500000 -41.188828 -1.5687314 -1.8549961 -128.12358 -1.8616824 -128.13095 -37.208427 -104.67157
1582000000 -37.714947 -9.9349222 -1.8608917 -154.97357 -1.8674104 -154.9809 -36.577847 -126.40707
1591500000 -35.732307 -24.657589 -1.8670276 178.17287 -1.8736289 178.16565 -36.61063 -156.76682
1601000000 -33.029003 -41.176937 -1.873338 151.3196 -1.8799781 151.31287 -36.642632 159.44376
1610500000 -30.834335 -54.763332 -1.8799078 124.47318 -1.8865024 124.4664 -35.455654 108.19953
1620000000 -29.596407 -69.76873 -1.8864903 97.634933 -1.8930309 97.62928 -33.096199 61.524082
1629500000 -28.31077 -87.19342 -1.8934171 70.801598 -1.8998771 70.796669 -30.909281 22.166626
1639000000 -26.787334 -102.34109 -1.9007055 43.970615 -1.9068631 43.965466 -29.326508 -13.612011
1648500000 -26.1029 -115.48667 -1.9065213 17.143713 -1.9128637 17.138247 -28.610683 -48.304203
1658000000 -26.755167 -132.35046 -1.9104698 -9.6842995 -1.9166589 -9.6894121 -28.753538 -80.297127
1667500000 -27.924417 -156.2124 -1.913331 -36.516018 -1.9195765 -36.521549 -29.373163 -109.87148
1677000000 -28.882952 -177.69566 -1.9158303 -63.349487 -1.9220723 -63.355141 -30.770617 -139.98273
1686500000 -31.238321 173.76227 -1.9184067 -90.191879 -1.9247733 -90.197311 -34.003239 -170.89238
1696000000 -36.810307 -175.20357 -1.9218832 -117.04394 -1.9282477 -117.04912 -41.699146 156.69455
1705500000 -41.892124 -125.60104 -1.9267545 -143.90204 -1.9328485 -143.90614 -47.126236 -35.727356
1715000000 -40.68103 -112.15557 -1.9320152 -170.75601 -1.9380531 -170.75987 -36.502529 -73.228554
1724500000 -37.407764 -139.0228 -1.9370579 162.39803 -1.9431753 162.39391 -33.696346 -100.28679
1734000000 -33.357056 -154.89738 -1.9426947 135.55563 -1.9485646 135.55251 -32.457626 -121.20452
1743500000 -31.840977 -164.09979 -1.9492276 108.72139 -1.9548035 108.71867 -31.663862 -146.40733
1753000000 -33.149765 -178.77251 -1.9549237 81.891472 -1.9601964 81.88739 -32.401379 -175.05632
1762500000 -35.914917 149.42522 -1.9591513 55.049252 -1.9642329 55.04454 -34.328327 164.16275
1772000000 -36.871609 106.87642 -1.9636772 28.1985 -1.9684273 28.190758 -34.933773 153.93326
1781500000 -37.89222 69.740517 -1.9689282 1.349001 -1.9735658 1.3395861 -33.712353 135.30444
1791000000 -38.775944 15.898305 -1.9739125 -25.494146 -1.9788799 -25.505756 -33.196777 107.16333
1800500000 -34.716671 -29.115112 -1.9791654 -52.342587 -1.9843976 -52.356152 -33.221241 82.929047
1810000000 -30.779175 -50.520641 -1.9866908 -79.195068 -1.9919984 -79.209282 -31.363796 59.222195
1819500000 -28.211758 -68.860374 -1.9964418 -106.03252 -2.0017209 -106.04823 -28.668896 22.757767
1829000000 -26.467178 -89.654472 -2.0038378 -132.85307 -2.0096502 -132.86961 -26.998507 -17.076653
1838500000 -25.180302 -111.03619 -2.0093176 -159.68074 -2.0153315 -159.69748 -26.121193 -49.820995
1848000000 -24.43037 -131.47299 -2.0158956 173.49092 -2.0221441 173.474 -25.109001 -76.828453
1857500000 -24.257368 -152.42325 -2.0224481 146.68242 -2.0290146 146.666 -24.196142 -104.52287
1867000000 -24.37784 -175.12198 -2.0264988 119.89068 -2.0332329 119.87448 -24.005634 -133.91269
1876500000 -24.625807 162.34482 -2.0266654 93.089577 -2.0333962 93.074501 -24.897978 -163.07578
1886000000 -25.445757 141.4572 -2.0257397 66.251236 -2.0326662 66.237175 -26.617807 172.61543
1895500000 -27.373377 119.33814 -2.0277648 39.395126 -2.0349987 39.382221 -28.023464 151.66838
1905000000 -30.195465 90.466164 -2.0306199 12.553088 -2.0378575 12.541438 -29.603661 125.84261
1914500000 -32.813858 56.692024 -2.0320218 -14.287624 -2.0390689 -14.298946 -32.858768 100.29595
1924000000 -36.009174 27.065723 -2.0343969 -41.14072 -2.0415652 -41.150314 -36.994221 90.510582
1933500000 -41.248516 -18.560104 -2.0393281 -67.993256 -2.0463693 -68.002335 -38.248226 84.852051
1943000000 -38.993504 -81.259537 -2.0445592 -94.84169 -2.0515528 -94.850082 -39.04213 53.496918
1952500000 -35.26479 -95.222954 -2.0491087 -121.68914 -2.0560644 -121.69773 -40.632008 -3.1752627
1962000000 -34.22126 -98.21122 -2.0535614 -148.53708 -2.0604651 -148.54538 -40.145191 -62.837044
1971500000 -34.974602 -108.12338 -2.0590327 -175.38049 -2.0658422 -175.38914 -37.684925 -94.357658
1981000000 -35.360722 -132.06825 -2.0645707 157.7845 -2.0715282 157.77527 -34.210411 -120.76089
1990500000 -33.583321 -150.51967 -2.0697131 130.95232 -2.0766425 130.94348 -32.474426 -155.20081
2000000000 -31.947512 -153.65355 -2.0743394 104.11507 -2.0811839 104.10639 -33.331112 167.64049
