!Keysight Technologies,N5242B,MY48420967,A.15.65.19
!Date: Thursday, December 15, 2022 11:24:30
!Correction: S11(C  2-Port  ) 
!S21(C  2-Port  ) 
!S12(C  2-Port  ) 
!S22(C  2-Port  ) 
!S2P File: Measurements: S11, S21, S12, S22:
# Hz S  dB   R 50
100000000 -21.8596 -52.743671 -0.61559355 75.775528 -0.62151724 75.761787 -23.687449 -28.954569
109500000 -22.250322 -69.364899 -0.63362914 48.781849 -0.63817585 48.776726 -23.74144 -56.492645
119000000 -24.284899 -82.611359 -0.6467554 21.79722 -0.65208709 21.778666 -25.084383 -85.368546
128500000 -27.816175 -96.467316 -0.66171813 -5.2161598 -0.66757619 -5.2312284 -27.873911 -109.46023
138000000 -31.56391 -107.16785 -0.67991948 -32.211201 -0.68566638 -32.22493 -31.092163 -124.646
147500000 -33.752495 -101.46954 -0.69853455 -59.181992 -0.70456952 -59.195972 -35.050323 -138.47113
157000000 -33.488663 -90.903679 -0.71688628 -86.136421 -0.72325283 -86.150864 -42.309708 -130.22513
166500000 -33.968494 -97.905113 -0.73454845 -113.08489 -0.74065185 -113.09718 -41.939632 -95.000114
176000000 -37.916576 -125.68731 -0.75176448 -140.02928 -0.75794572 -140.04228 -44.140915 -119.53752
185500000 -45.724957 136.42383 -0.76943308 -166.96667 -0.7756182 -166.97949 -50.528301 107.82403
195000000 -35.71104 44.400234 -0.78683537 166.10947 -0.79314381 166.09674 -38.242493 53.436256
204500000 -30.536978 12.059249 -0.80336851 139.19864 -0.80966049 139.18652 -33.251831 27.035538
214000000 -29.061848 -15.032179 -0.81784117 112.29062 -0.82358557 112.28179 -31.56179 4.7688298
223500000 -29.798794 -45.425991 -0.83060741 85.384109 -0.8365435 85.373947 -31.42602 -15.383311
233000000 -31.720568 -76.380272 -0.84234166 58.47084 -0.84854811 58.461079 -33.506516 -39.42812
242500000 -36.80941 -94.190781 -0.85563409 31.549126 -0.86179209 31.538849 -41.023899 -56.104069
252000000 -44.02634 17.744186 -0.8705132 4.6296372 -0.87675375 4.6219811 -44.931545 57.052238
261500000 -32.014709 30.609818 -0.88679487 -22.278172 -0.8931244 -22.285658 -34.229988 51.383621
271000000 -28.540451 15.61901 -0.90308422 -49.167892 -0.90903258 -49.175766 -29.67351 25.667473
280500000 -27.252428 -9.8318367 -0.9168874 -76.041252 -0.92301345 -76.048759 -27.549639 -1.984082
290000000 -26.024412 -38.284946 -0.92915845 -102.91163 -0.93528008 -102.91848 -26.506758 -27.474857
299500000 -25.360559 -59.126762 -0.93996823 -129.78653 -0.94605774 -129.79401 -26.112631 -52.056499
309000000 -26.38781 -73.308754 -0.94969732 -156.67274 -0.95588696 -156.68059 -26.408592 -76.389397
318500000 -29.043697 -86.859367 -0.95912701 176.42757 -0.96525931 176.41998 -27.662519 -100.55241
328000000 -31.298109 -106.05048 -0.96924275 149.52087 -0.97554266 149.51273 -29.729717 -120.52568
337500000 -30.715137 -126.88783 -0.98145944 122.61015 -0.98769063 122.60321 -30.899702 -139.88182
347000000 -29.357616 -146.18466 -0.99580473 95.706108 -1.0021867 95.699173 -30.909744 -171.76793
356500000 -29.220442 -176.63042 -1.010964 68.807755 -1.017419 68.801704 -30.276108 152.50697
366000000 -28.305286 135.65427 -1.0274479 41.908821 -1.0337913 41.903748 -28.287941 124.0187
375500000 -25.313387 94.730095 -1.0463189 15.027253 -1.0526429 15.020706 -25.546791 98.485847
385000000 -23.173731 65.929878 -1.0655921 -11.815162 -1.0717949 -11.822232 -23.249529 71.24041
394500000 -22.31679 38.958241 -1.0803499 -38.624409 -1.0862225 -38.63232 -21.989824 43.244522
404000000 -21.894764 10.000714 -1.0890427 -65.439484 -1.095368 -65.447792 -21.624435 17.089943
413500000 -21.407232 -17.507639 -1.0979661 -92.269905 -1.1043075 -92.276718 -21.471218 -7.4204173
423000000 -21.34614 -40.454277 -1.1049321 -119.08823 -1.1109039 -119.09584 -21.502665 -34.520638
432500000 -22.319876 -60.810364 -1.1056626 -145.923 -1.111704 -145.93176 -22.402945 -63.296204
442000000 -24.323812 -82.764824 -1.1058537 -172.80333 -1.1120584 -172.81361 -24.141001 -88.404907
451500000 -26.506994 -107.26237 -1.110283 160.29541 -1.1166666 160.28551 -25.951557 -109.34081
461000000 -28.085718 -127.15842 -1.1179526 133.3987 -1.1242632 133.38931 -27.756304 -132.4375
470500000 -29.580357 -140.31798 -1.1267159 106.5068 -1.1330396 106.49583 -30.328848 -160.15483
480000000 -31.672197 -160.20915 -1.1360974 79.612526 -1.1426555 79.601097 -33.076603 171.76906
489500000 -32.665539 154.83458 -1.1468941 52.719875 -1.1536919 52.708511 -33.257278 143.5392
499000000 -30.206488 109.75728 -1.1593031 25.844225 -1.1660069 25.83287 -30.86932 110.1011
508500000 -28.378836 77.383507 -1.1708056 -1.0120043 -1.1772689 -1.0224228 -28.713797 78.433128
518000000 -27.85993 45.164425 -1.1801744 -27.8626 -1.1867567 -27.874029 -27.508551 52.394333
527500000 -27.513584 13.713795 -1.1885071 -54.715221 -1.1952688 -54.726658 -26.899586 29.066826
537000000 -27.496546 -11.013081 -1.1955531 -81.569382 -1.2023698 -81.580177 -27.108973 3.1533258
546500000 -28.571074 -29.362501 -1.2012869 -108.42911 -1.208019 -108.4409 -28.754904 -26.167253
556000000 -31.129631 -42.23756 -1.2073408 -135.30354 -1.214286 -135.31479 -32.387207 -57.934784
565500000 -35.395287 -42.354561 -1.2152739 -162.18388 -1.2222661 -162.19441 -39.116222 -97.916756
575000000 -37.731773 -9.6773748 -1.2249827 170.93666 -1.2316486 170.93057 -45.256447 134.3604
584500000 -33.72403 3.5584614 -1.2354933 144.0674 -1.2417581 144.06485 -35.956837 62.664753
594000000 -30.368858 -10.778092 -1.2461538 117.21013 -1.2512864 117.20651 -31.978682 27.460373
603500000 -28.257067 -32.047001 -1.2563615 90.362053 -1.2602074 90.349174 -29.913822 0.14827003
613000000 -27.763475 -53.089779 -1.2639562 63.518459 -1.2682536 63.493591 -28.964035 -25.255688
622500000 -29.438364 -72.26545 -1.2687088 36.665268 -1.274804 36.633659 -29.420439 -50.293976
632000000 -33.735809 -91.3703 -1.2726399 9.7932634 -1.2802076 9.7652178 -32.207458 -72.498474
641500000 -40.77356 -111.04591 -1.2794867 -17.090601 -1.2875708 -17.111195 -37.348297 -71.590523
651000000 -48.254486 -98.191521 -1.2879145 -43.964748 -1.2960845 -43.98119 -39.254658 -53.14785
660500000 -43.493282 -57.04863 -1.2967666 -70.834106 -1.3046496 -70.847092 -40.377651 -38.374329
670000000 -39.690483 -45.584335 -1.3057564 -97.699821 -1.3133811 -97.711243 -38.583961 -34.845798
679500000 -39.102062 -20.471085 -1.3146545 -124.56547 -1.3218571 -124.576 -38.601608 -68.187302
689000000 -37.090012 13.413783 -1.3235434 -151.43008 -1.3306665 -151.4404 -41.379131 -142.59325
698500000 -35.104259 22.841066 -1.332263 -178.28964 -1.339384 -178.29996 -38.90443 128.84151
708000000 -34.694729 6.0753126 -1.3404585 154.85193 -1.347374 154.84229 -37.063442 81.510818
717500000 -32.761669 -25.038267 -1.3488696 127.98844 -1.3555973 127.97771 -36.542255 61.881153
727000000 -30.487585 -43.147671 -1.3581796 101.12663 -1.3649231 101.11499 -34.568256 38.187107
736500000 -31.161921 -51.813198 -1.3655587 74.267593 -1.3724855 74.256302 -35.35796 -2.137605
746000000 -37.7817 -61.730259 -1.3715831 47.39365 -1.37841 47.38279 -43.922104 -42.133305
755500000 -44.83968 123.29374 -1.3798232 20.514851 -1.3866514 20.50243 -42.194572 90.162521
765000000 -35.490818 85.411392 -1.3903471 -6.3576031 -1.3971518 -6.3718505 -33.78989 66.800117
774500000 -30.865263 36.656849 -1.4031107 -33.229355 -1.4101577 -33.24501 -29.330187 47.868031
784000000 -25.940243 6.058372 -1.4187269 -60.088776 -1.4256295 -60.104988 -25.786144 25.800764
793500000 -23.489727 -11.910886 -1.4330248 -86.912392 -1.4402282 -86.929596 -23.536026 -1.5744104
803000000 -23.18503 -30.635691 -1.4412804 -113.7171 -1.4483931 -113.73468 -22.829121 -29.841261
812500000 -23.602343 -55.901714 -1.4460036 -140.54343 -1.4531041 -140.56076 -23.053131 -55.071987
822000000 -23.467579 -82.078239 -1.4523797 -167.38625 -1.4594404 -167.4032 -23.368893 -79.347069
831500000 -23.512472 -102.56008 -1.4588945 165.7735 -1.4660467 165.7562 -23.806383 -106.68939
841000000 -24.555841 -122.06476 -1.4636101 138.92346 -1.4707391 138.90544 -24.597622 -135.2056
850500000 -25.979597 -148.31587 -1.4686716 112.05782 -1.4757912 112.04134 -25.332567 -162.04726
860000000 -26.384289 179.46742 -1.4759388 85.186409 -1.4830408 85.168495 -25.572294 173.18474
869500000 -25.914642 148.50211 -1.4862686 58.314709 -1.4934245 58.295906 -25.070875 148.54927
879000000 -25.212255 117.10063 -1.4987816 31.450663 -1.5061294 31.435616 -24.231239 121.83337
888500000 -23.986937 84.341972 -1.5127695 4.5929518 -1.5200667 4.5812664 -23.313774 95.152962
898000000 -22.440351 53.669807 -1.5291151 -22.243696 -1.5361608 -22.25815 -22.147778 68.55513
907500000 -21.10018 25.627796 -1.5451854 -49.045132 -1.5524468 -49.06123 -21.016258 41.064766
917000000 -20.111874 -0.51440269 -1.5584791 -75.817009 -1.565781 -75.83123 -20.161266 13.559486
926500000 -19.591848 -24.895454 -1.5661236 -102.56553 -1.5734711 -102.57834 -19.729151 -14.120133
936000000 -19.724234 -48.407963 -1.5660955 -129.32747 -1.5732312 -129.3392 -19.89432 -41.206787
945500000 -20.441275 -72.225876 -1.5629758 -156.12662 -1.5698415 -156.13683 -20.51856 -67.291374
955000000 -21.443037 -96.036163 -1.5593023 177.05011 -1.5656084 177.03943 -21.546785 -93.700691
964500000 -22.696795 -117.98679 -1.5558045 150.20465 -1.5616623 150.1918 -23.013723 -120.81755
974000000 -24.581345 -137.53377 -1.5537897 123.34431 -1.5593015 123.32707 -24.865398 -149.5407
983500000 -27.259871 -157.90213 -1.5528499 96.469872 -1.5585766 96.447617 -27.385506 -179.10081
993000000 -29.941204 174.70862 -1.5551198 69.579613 -1.5611182 69.55262 -29.957731 156.87965
1002500000 -31.091303 142.2975 -1.560324 42.696171 -1.56663 42.666283 -30.895306 132.15884
1012000000 -31.447922 112.77977 -1.5664916 15.828701 -1.5735086 15.79875 -31.459164 99.701851
1021500000 -32.13168 77.527534 -1.5727482 -11.038214 -1.5800823 -11.066671 -32.034546 70.928535
1031000000 -30.808208 33.689148 -1.5805159 -37.907944 -1.5883644 -37.933884 -31.113443 48.875961
1040500000 -27.971066 4.4801369 -1.5901686 -64.762199 -1.598101 -64.786873 -28.944016 22.081032
1050000000 -26.687635 -13.323727 -1.597856 -91.59314 -1.6056494 -91.615898 -27.620226 -11.398296
1059500000 -27.499685 -31.009808 -1.6009758 -118.42879 -1.608904 -118.45107 -28.202419 -43.254593
1069000000 -29.502443 -54.616531 -1.6046529 -145.28905 -1.6124632 -145.31082 -29.914055 -65.675743
1078500000 -30.941833 -75.053032 -1.610817 -172.15266 -1.6186836 -172.17445 -31.39007 -88.876572
1088000000 -31.887735 -73.114998 -1.6174955 160.98578 -1.6253328 160.96576 -35.059616 -132.40259
1097500000 -31.45513 -51.718575 -1.6246862 134.12566 -1.6324992 134.10593 -40.319309 120.44615
1107000000 -29.775318 -40.968594 -1.6323885 107.27422 -1.6400015 107.25448 -34.327682 36.371311
1116500000 -29.18552 -51.502632 -1.6392131 80.428108 -1.6468337 80.408028 -31.695232 1.3891343
1126000000 -28.807302 -77.584229 -1.6463768 53.582821 -1.6540186 53.562794 -30.237049 -20.898432
1135500000 -27.909878 -101.55233 -1.6538739 26.748369 -1.6613218 26.728678 -29.061073 -46.438065
1145000000 -28.465311 -115.50739 -1.6584467 -0.081720658 -1.6657104 -0.10176883 -29.556295 -79.529884
1154500000 -32.175098 -122.50746 -1.6610023 -26.932516 -1.6683882 -26.953976 -33.426575 -112.11188
1164000000 -41.583481 -115.41241 -1.6658967 -53.801537 -1.6732842 -53.821758 -41.923138 -110.30899
1173500000 -45.224861 -26.781181 -1.6725624 -80.663597 -1.6796978 -80.685165 -42.315392 -61.884361
1183000000 -39.000469 -43.838604 -1.6794101 -107.52191 -1.6867274 -107.54332 -38.64994 -37.374958
1192500000 -34.005787 -69.52388 -1.6874375 -134.37401 -1.6947463 -134.39748 -33.160313 -46.05233
1202000000 -31.257217 -80.941017 -1.6950201 -161.21681 -1.7022922 -161.24094 -30.946682 -74.017204
1211500000 -31.20892 -86.524307 -1.7005545 171.9418 -1.7081236 171.91722 -31.653975 -101.5218
1221000000 -33.422142 -93.542366 -1.7055622 145.09274 -1.713182 145.06775 -33.740211 -120.07787
1230500000 -36.470829 -110.34289 -1.7111962 118.23761 -1.7187281 118.21243 -35.40237 -136.58104
1240000000 -37.281403 -134.43359 -1.7177092 91.380127 -1.725336 91.354172 -37.545483 -162.64815
1249500000 -37.155056 -152.91917 -1.7244437 64.520416 -1.7319956 64.493309 -40.600437 172.35045
1259000000 -39.94511 176.1344 -1.7312307 37.653793 -1.7387106 37.625771 -39.589214 156.32875
1268500000 -39.42099 88.790169 -1.7394053 10.78218 -1.7470056 10.752332 -34.973511 126.16661
1278000000 -32.056004 41.938812 -1.7501496 -16.087633 -1.7577138 -16.118221 -30.806345 92.931068
1287500000 -27.494108 13.759744 -1.7639022 -42.95245 -1.7713058 -42.985035 -27.40597 62.641304
1297000000 -24.460169 -11.428433 -1.780193 -69.798706 -1.7876205 -69.832512 -24.645422 33.396133
1306500000 -22.500378 -34.8363 -1.7959744 -96.610779 -1.8034381 -96.64476 -22.683537 4.1811585
1316000000 -21.405329 -58.359467 -1.808486 -123.40494 -1.8159829 -123.43633 -21.476904 -23.226044
1325500000 -20.736536 -82.561462 -1.8197794 -150.19199 -1.8273571 -150.21849 -20.626598 -49.22113
1335000000 -20.336149 -105.19466 -1.8285298 -176.95834 -1.836049 -176.97911 -20.198833 -76.325417
1344500000 -20.562401 -126.15044 -1.8306777 156.27248 -1.8377141 156.25433 -20.48403 -103.78629
1354000000 -21.541653 -149.48459 -1.828899 129.46373 -1.8354852 129.44717 -21.286579 -129.6335
1363500000 -22.531517 -177.33974 -1.8290118 102.63145 -1.8348374 102.61272 -22.135466 -154.7448
1373000000 -22.967056 156.50586 -1.8303475 75.801506 -1.8357341 75.780968 -22.960075 177.6936
1382500000 -23.739073 134.49803 -1.8307626 48.966576 -1.8356211 48.941772 -24.093445 148.48621
1392000000 -25.272615 106.85448 -1.8327376 22.104437 -1.8374133 22.073658 -25.088486 122.48831
1401500000 -25.529753 67.560936 -1.8404756 -4.765439 -1.845529 -4.803009 -24.907309 97.952942
1411000000 -23.837036 35.157619 -1.8507905 -31.60918 -1.8565243 -31.651653 -24.01152 69.349365
1420500000 -22.818117 11.066757 -1.8589284 -58.432091 -1.8654395 -58.476414 -23.336151 39.522575
1430000000 -22.71883 -16.220358 -1.8656408 -85.253319 -1.8727622 -85.297691 -22.818747 12.468554
1439500000 -22.155161 -47.024651 -1.8733264 -112.06283 -1.8812099 -112.10654 -22.130047 -13.351437
1449000000 -21.213181 -71.036652 -1.8795898 -138.84669 -1.8883889 -138.88722 -21.575985 -41.405678
1458500000 -21.22901 -88.144272 -1.8797119 -165.62675 -1.8886968 -165.66444 -21.798754 -71.425789
1468000000 -22.529869 -105.62651 -1.8754508 167.55249 -1.8845196 167.51779 -22.926918 -99.770668
1477500000 -24.23918 -129.11838 -1.8734919 140.69917 -1.8827002 140.66666 -24.347063 -126.0724
1487000000 -25.188147 -152.31238 -1.8743454 113.85057 -1.8832698 113.8194 -26.043272 -156.10201
1496500000 -26.309507 -164.52661 -1.8746361 87.001808 -1.8834323 86.972878 -28.902756 167.3219
1506000000 -28.806078 -166.57948 -1.8755122 60.140602 -1.8847061 60.113628 -33.492882 123.81759
1515500000 -32.38414 -166.91154 -1.8791085 33.272511 -1.8882617 33.246525 -38.686958 68.249832
1525000000 -35.059158 179.20866 -1.8844066 6.4107914 -1.8935617 6.3856263 -39.58511 5.3372827
1534500000 -34.697353 159.08647 -1.8901478 -20.444897 -1.8991779 -20.468056 -37.403442 -40.740818
1544000000 -34.979061 150.86766 -1.895559 -47.296043 -1.9045254 -47.31982 -36.636898 -74.875748
1553500000 -39.650715 147.03807 -1.9008486 -74.145775 -1.9097537 -74.169319 -38.1231 -95.232323
1563000000 -54.212219 49.970085 -1.9060917 -100.993 -1.9149463 -101.01535 -38.945637 -93.115768
1572500000 -40.443859 -6.1440997 -1.9114947 -127.83698 -1.9204232 -127.8599 -37.035854 -100.7017
1582000000 -37.237991 -13.807364 -1.9176092 -154.68352 -1.92618 -154.70624 -36.26096 -122.84042
1591500000 -35.372807 -28.119423 -1.9238638 178.46591 -1.9325616 178.44333 -36.295807 -152.98337
1601000000 -32.773098 -43.945206 -1.9303373 151.61511 -1.9390975 151.59341 -36.44651 163.89375
1610500000 -30.658695 -57.123508 -1.9371084 124.7716 -1.94573 124.75013 -35.420582 112.28497
1620000000 -29.46312 -71.89756 -1.9437937 97.936874 -1.9524407 97.916397 -33.15168 64.583061
1629500000 -28.199993 -89.065346 -1.9508421 71.106308 -1.9594557 71.086388 -30.993877 24.847187
1639000000 -26.704962 -103.96864 -1.958358 44.278404 -1.9666238 44.258266 -29.388428 -11.085475
1648500000 -26.041927 -117.00455 -1.9643729 17.454565 -1.9727499 17.434269 -28.664009 -46.030102
1658000000 -26.685873 -133.9673 -1.9684733 -9.3707571 -1.9766881 -9.390976 -28.790775 -77.978195
1667500000 -27.803785 -158.00816 -1.9716176 -36.198776 -1.9799522 -36.218891 -29.332447 -107.35999
1677000000 -28.713392 -179.68924 -1.9741739 -63.028542 -1.9824706 -63.048412 -30.632113 -137.09807
1686500000 -31.060097 170.77594 -1.9767685 -89.867188 -1.9851769 -89.886513 -33.703243 -166.58432
1696000000 -36.923874 178.05809 -1.9802471 -116.71579 -1.9887837 -116.73431 -40.766586 166.82925
1705500000 -44.046047 -128.49326 -1.9851303 -143.57054 -1.993314 -143.58855 -49.772179 -56.121597
1715000000 -42.394337 -106.29746 -1.9904561 -170.42244 -1.9984834 -170.43942 -37.236805 -77.717636
1724500000 -38.658649 -135.85495 -1.9955425 162.73347 -2.0036852 162.71677 -34.307373 -102.76646
1734000000 -34.107704 -152.40814 -2.0012136 135.8938 -2.0090992 135.87849 -33.090725 -122.21513
1743500000 -32.379223 -161.19711 -2.0078824 109.06184 -2.015424 109.04704 -32.277737 -146.77629
1753000000 -33.700886 -174.84694 -2.0137103 82.234505 -2.0209014 82.218147 -33.095024 -175.25156
1762500000 -36.817486 154.19324 -2.0181699 55.395439 -2.0250509 55.378029 -35.148548 164.96545
1772000000 -38.091705 109.42358 -2.0227675 28.548008 -2.0293953 28.527817 -35.689568 156.64479
1781500000 -39.265739 69.882103 -2.0280259 1.701592 -2.034466 1.6795851 -34.259602 138.93629
1791000000 -40.006512 10.476799 -2.0330243 -25.138546 -2.0397272 -25.163584 -33.649033 111.08961
1800500000 -35.203602 -33.872913 -2.0382941 -51.984234 -2.0452893 -52.011978 -33.632164 87.252953
1810000000 -31.083107 -53.208282 -2.0457726 -78.834152 -2.0529284 -78.862114 -31.682657 63.06044
1819500000 -28.448803 -70.549057 -2.055382 -105.66934 -2.0626283 -105.69929 -28.959763 25.419809
1829000000 -26.659061 -90.917061 -2.0627365 -132.48941 -2.0705283 -132.51976 -27.274506 -15.168344
1838500000 -25.33268 -112.01112 -2.0683968 -159.31635 -2.0763586 -159.34683 -26.351057 -48.074379
1848000000 -24.559317 -132.16605 -2.0750906 173.85704 -2.0835049 173.82655 -25.27298 -75.150063
1857500000 -24.375086 -152.90904 -2.0818527 147.05043 -2.0905356 147.01997 -24.332806 -102.91058
1867000000 -24.472387 -175.51479 -2.0862093 120.25962 -2.0951846 120.23009 -24.128374 -132.2338
1876500000 -24.689951 162.01544 -2.0867774 93.461098 -2.0957248 93.432915 -25.000961 -161.32077
1886000000 -25.498917 141.21419 -2.0861413 66.62532 -2.0953436 66.598328 -26.685703 174.52364
1895500000 -27.422619 119.15823 -2.088454 39.771618 -2.0979187 39.746643 -28.023611 153.69571
1905000000 -30.199497 90.326141 -2.091552 12.932817 -2.1011124 12.909956 -29.539555 128.07362
1914500000 -32.738701 56.762646 -2.0931549 -13.904728 -2.1025157 -13.926986 -32.692314 103.16774
1924000000 -35.853687 27.277103 -2.0957038 -40.75433 -2.1051767 -40.775105 -36.557911 93.631783
1933500000 -40.913509 -17.411505 -2.1007576 -67.604027 -2.1100767 -67.623611 -37.735683 86.478447
1943000000 -38.897331 -78.937607 -2.1061819 -94.449783 -2.1153529 -94.468895 -38.673267 55.06036
1952500000 -35.213032 -93.627815 -2.1109221 -121.29433 -2.1199932 -121.31384 -40.370266 -0.92636675
1962000000 -34.104137 -96.890717 -2.1155248 -148.13943 -2.1246614 -148.1586 -39.929989 -60.975803
1971500000 -34.756428 -106.58312 -2.1211219 -174.98015 -2.1302032 -174.9995 -37.515545 -93.417206
1981000000 -35.145084 -129.92926 -2.1268694 158.18718 -2.1359611 158.16792 -34.107834 -120.09329
1990500000 -33.417671 -148.65901 -2.1321628 131.35789 -2.1413078 131.33855 -32.383495 -154.72711
2000000000 -31.715174 -152.38766 -2.1369576 104.5239 -2.1461656 104.50501 -33.215088 167.84055
