!Keysight Technologies,N5242B,MY48420967,A.15.65.19
!Date: Thursday, December 22, 2022 14:09:05
!Correction: S11(C  2-Port  ) 
!S21(C  2-Port  ) 
!S12(C  2-Port  ) 
!S22(C  2-Port  ) 
!S2P File: Measurements: S11, S21, S12, S22:
# Hz S  dB   R 50
100000000 -17.469042 -4.7736034 -2.21522 56.747143 -2.1974869 56.741199 -18.980671 12.544502
109500000 -16.460909 -28.467468 -2.2608979 28.186115 -2.2406626 28.179989 -19.010269 -14.505225
119000000 -15.997526 -48.937969 -2.2906404 -0.36771515 -2.272491 -0.37898815 -19.236498 -38.356068
128500000 -16.151838 -71.031868 -2.3152959 -28.960659 -2.2973435 -28.96863 -19.36307 -60.546635
138000000 -16.326187 -96.539383 -2.3382742 -57.593277 -2.3209114 -57.594444 -19.416063 -83.774925
147500000 -16.309645 -122.7663 -2.3648753 -86.237808 -2.3449891 -86.234932 -19.684389 -108.50854
157000000 -16.523214 -149.92781 -2.3900895 -114.87301 -2.370291 -114.87884 -20.072422 -133.96153
166500000 -16.866671 178.53993 -2.418793 -143.57025 -2.3999271 -143.56616 -20.383942 -162.45578
176000000 -16.850737 144.1503 -2.4607525 -172.24525 -2.4408491 -172.23814 -20.794037 165.0175
185500000 -16.66036 110.21381 -2.5051167 159.14388 -2.485796 159.15129 -21.106796 130.79869
195000000 -16.412962 76.551849 -2.5510678 130.58575 -2.5314088 130.59827 -21.072685 96.769257
204500000 -15.932703 45.568272 -2.5924151 102.09896 -2.5729296 102.10805 -20.868933 65.290749
214000000 -15.60275 19.092226 -2.6220267 73.621811 -2.6044669 73.644104 -20.653921 37.582268
223500000 -15.594145 -5.9119663 -2.6482441 45.156437 -2.6296394 45.18037 -20.653301 12.843535
233000000 -15.455523 -31.526606 -2.6653285 16.681513 -2.6471481 16.704226 -20.921431 -8.9675455
242500000 -15.141284 -55.680599 -2.6792607 -11.840232 -2.6610968 -11.811872 -21.30612 -29.59161
252000000 -15.113672 -79.135468 -2.6922879 -40.39856 -2.6739354 -40.376472 -21.711309 -50.916687
261500000 -15.493055 -105.46171 -2.7050166 -69.000946 -2.6863897 -68.97197 -22.22578 -73.947227
271000000 -15.664788 -135.92937 -2.7228894 -97.632172 -2.7032237 -97.607048 -22.869572 -100.43533
280500000 -15.529979 -166.58397 -2.7435296 -126.28613 -2.7244442 -126.26624 -23.568335 -130.3959
290000000 -15.569941 162.65509 -2.7739809 -154.96066 -2.7547655 -154.9346 -24.358414 -164.83168
299500000 -15.631152 128.79753 -2.8121247 176.40208 -2.7923393 176.42169 -25.130024 157.16092
309000000 -15.193994 93.928322 -2.8536465 147.78903 -2.8345361 147.81009 -25.460379 116.80842
318500000 -14.565695 62.482735 -2.8994687 119.23264 -2.8793294 119.25154 -25.235622 76.693039
328000000 -14.251729 33.883835 -2.9388518 90.745995 -2.9199855 90.762352 -24.82963 40.377136
337500000 -14.180648 5.7206645 -2.9694438 62.266609 -2.9495633 62.289291 -24.593115 9.7862959
347000000 -13.952466 -22.098576 -2.99403 33.759834 -2.9748354 33.779377 -24.613663 -17.226192
356500000 -13.622101 -48.452164 -3.0182431 5.2105632 -2.9994612 5.227109 -25.042913 -43.087524
366000000 -13.50432 -73.982391 -3.0424063 -23.348442 -3.0229056 -23.320951 -26.229668 -69.944466
375500000 -13.655551 -101.94919 -3.0610821 -51.956001 -3.0427296 -51.933205 -27.519588 -99.127968
385000000 -13.639266 -133.13799 -3.0886133 -80.64888 -3.0699198 -80.616814 -28.095724 -136.27391
394500000 -13.309528 -164.54463 -3.1305499 -109.33447 -3.1118431 -109.30619 -27.231895 179.68053
404000000 -13.067158 164.70364 -3.1818311 -137.98602 -3.1638315 -137.95023 -25.312548 138.22969
413500000 -12.902133 132.64412 -3.2389717 -166.58238 -3.2199962 -166.54355 -23.343485 102.9912
423000000 -12.428363 99.923698 -3.297828 164.83582 -3.2797363 164.87622 -21.648546 72.166039
432500000 -11.791002 69.178596 -3.3704193 136.31841 -3.3517971 136.36888 -20.183491 42.176682
442000000 -11.340195 40.322502 -3.4365525 107.98079 -3.4180155 108.02842 -19.220743 11.772007
451500000 -11.071925 11.995473 -3.4791601 79.657509 -3.4609973 79.71624 -18.747562 -17.193514
461000000 -10.874076 -15.839957 -3.5166085 51.277569 -3.4963772 51.337742 -18.494701 -44.899586
470500000 -10.722949 -42.747368 -3.5512061 22.891718 -3.5322969 22.942472 -18.464052 -72.866661
480000000 -10.644266 -69.128494 -3.5813334 -5.5155587 -3.5619354 -5.4469948 -18.767063 -101.80493
489500000 -10.677567 -95.9422 -3.6037128 -33.961048 -3.5835586 -33.904018 -19.290283 -131.41661
499000000 -10.742268 -124.17825 -3.6302936 -62.521614 -3.6100326 -62.455818 -19.653526 -161.94986
508500000 -10.699993 -153.68436 -3.6764283 -91.087059 -3.6564624 -91.022408 -19.476585 166.12138
518000000 -10.547832 176.90057 -3.7266233 -119.56477 -3.7074184 -119.50208 -18.935799 133.92342
527500000 -10.436683 147.44139 -3.7773399 -148.043 -3.7578332 -147.96732 -18.199276 103.83434
537000000 -10.320602 117.27878 -3.8367109 -176.47993 -3.815943 -176.41386 -17.419062 75.648239
546500000 -10.047421 87.426453 -3.8972642 155.17006 -3.8783004 155.24055 -16.799881 47.870396
556000000 -9.7406216 59.06995 -3.9522417 126.90922 -3.9305117 126.98354 -16.48871 19.844358
565500000 -9.5469332 31.709997 -3.9917169 98.699951 -3.9706516 98.758049 -16.443308 -8.7609701
575000000 -9.4328289 4.6387296 -4.0206223 70.468651 -3.998455 70.523903 -16.601336 -38.061409
584500000 -9.3899117 -22.019438 -4.0383759 42.249058 -4.018836 42.271881 -16.880444 -68.025772
594000000 -9.4494438 -48.229702 -4.03932 13.954376 -4.0275483 13.984882 -17.31554 -98.475845
603500000 -9.5445137 -74.429764 -4.0431714 -14.470408 -4.033576 -14.393594 -17.856482 -129.0565
613000000 -9.6876011 -100.82363 -4.0527525 -42.910919 -4.0419989 -42.803417 -18.42149 -160.77321
622500000 -9.9106722 -127.99691 -4.0581961 -71.426468 -4.0424414 -71.280693 -18.993595 166.20256
632000000 -10.085935 -156.74193 -4.0789914 -100.01923 -4.0565414 -99.893387 -19.161898 133.24614
641500000 -10.051954 173.92555 -4.1110616 -128.58517 -4.087204 -128.47452 -18.790436 100.6752
651000000 -9.9721756 145.03374 -4.1547475 -157.10544 -4.1293483 -157.01552 -18.072351 70.020645
660500000 -9.9829798 115.6867 -4.1940575 174.47014 -4.170639 174.53879 -17.358311 41.015541
670000000 -9.8878565 85.479256 -4.2278943 145.99174 -4.2063875 146.0659 -16.875193 13.800552
679500000 -9.617981 56.393181 -4.2761011 117.54002 -4.253819 117.6115 -16.524994 -13.22532
689000000 -9.4099941 29.274458 -4.3195853 89.224968 -4.2988968 89.291771 -16.372164 -42.1945
698500000 -9.368989 2.5820787 -4.3408027 60.933826 -4.320189 61.005558 -16.478344 -73.043106
708000000 -9.3490543 -24.734917 -4.3512573 32.517204 -4.3312645 32.581638 -16.6329 -104.28265
717500000 -9.2819538 -51.851952 -4.3752995 4.0322952 -4.3566923 4.1107078 -16.556267 -135.68768
727000000 -9.2924032 -78.068436 -4.3996363 -24.368296 -4.3789063 -24.296064 -16.373528 -167.5751
736500000 -9.4769325 -104.81564 -4.4037209 -52.841045 -4.3851337 -52.777275 -16.280981 161.12157
746000000 -9.705493 -133.75194 -4.4171352 -81.500206 -4.3978081 -81.422447 -16.173712 131.30226
755500000 -9.7062368 -163.82271 -4.4550743 -110.17064 -4.4355807 -110.09135 -15.843678 102.28074
765000000 -9.5845394 166.95918 -4.5060983 -138.76932 -4.4868135 -138.67628 -15.316561 73.484756
774500000 -9.603857 137.59775 -4.5572591 -167.30655 -4.5362706 -167.21155 -14.746666 45.485947
784000000 -9.5626822 106.20347 -4.6109185 164.10782 -4.5924907 164.20583 -14.190982 19.177624
793500000 -9.1991291 75.021217 -4.6906948 135.57747 -4.6705971 135.69597 -13.620468 -6.2538738
803000000 -8.815052 46.597301 -4.7673955 107.30166 -4.7466373 107.40446 -13.166225 -32.42915
812500000 -8.6806326 18.94138 -4.8143802 79.064445 -4.7932858 79.167564 -12.979526 -59.548546
822000000 -8.5807781 -9.5220337 -4.8553915 50.755585 -4.8348002 50.837528 -12.930577 -87.269928
831500000 -8.3504915 -37.176128 -4.895628 22.43881 -4.8772631 22.531345 -12.884288 -116.03064
841000000 -8.2392864 -63.520576 -4.9335456 -5.8773789 -4.9121852 -5.768877 -12.810877 -145.45528
850500000 -8.3343048 -90.365669 -4.9599576 -34.171669 -4.9397969 -34.05899 -12.706984 -175.05034
860000000 -8.4067068 -118.48483 -4.9748254 -62.561985 -4.9564381 -62.448292 -12.633743 155.78023
869500000 -8.4135838 -146.87709 -5.0054388 -91.061508 -4.9852395 -90.964989 -12.540284 127.29086
879000000 -8.4593534 -175.44435 -5.0507703 -119.52496 -5.0304441 -119.44543 -12.37988 98.797379
888500000 -8.4680567 155.24303 -5.0975938 -147.98132 -5.0760307 -147.88593 -12.190761 70.287476
898000000 -8.3790474 125.6966 -5.1516604 -176.43825 -5.1308784 -176.3307 -11.933784 42.284359
907500000 -8.2617645 96.235397 -5.2163172 155.17352 -5.1950998 155.29202 -11.618508 14.84027
917000000 -8.0900173 66.842613 -5.2817626 126.90755 -5.2588916 127.01831 -11.323115 -12.265721
926500000 -7.8397017 38.400803 -5.3372765 98.725792 -5.3153763 98.819237 -11.131523 -39.386341
936000000 -7.6468644 11.257851 -5.3807015 70.601181 -5.3596263 70.696152 -11.077763 -67.071022
945500000 -7.5639005 -15.488233 -5.4034472 42.488377 -5.3819785 42.567448 -11.162027 -95.633995
955000000 -7.5085268 -42.135582 -5.4144063 14.277227 -5.3967042 14.359098 -11.292025 -125.11033
964500000 -7.4750109 -68.122879 -5.4266801 -13.967577 -5.4084516 -13.872066 -11.400687 -155.49376
974000000 -7.5323863 -93.859009 -5.4290638 -42.230923 -5.4138689 -42.138817 -11.482296 173.72641
983500000 -7.6814942 -120.31675 -5.4270744 -70.585831 -5.4130301 -70.462357 -11.53928 143.03078
993000000 -7.8248506 -147.65141 -5.4242239 -99.030807 -5.4077029 -98.89785 -11.58063 112.61616
1002500000 -7.9119024 -175.5442 -5.4365983 -127.60463 -5.4207129 -127.45123 -11.562932 82.544464
1012000000 -7.9686327 156.50861 -5.471806 -156.08324 -5.4524412 -155.93848 -11.435947 52.516731
1021500000 -8.0269985 128.40985 -5.4915228 175.51193 -5.4730783 175.64764 -11.264916 22.766369
1031000000 -8.0855837 99.37104 -5.514132 146.96745 -5.4941874 147.11702 -11.067265 -5.9565625
1040500000 -8.0038691 69.900818 -5.5607738 118.46732 -5.5386829 118.59584 -10.839183 -33.93924
1050000000 -7.7833838 41.755352 -5.6104636 90.111923 -5.5909386 90.2407 -10.664526 -62.002853
1059500000 -7.6596727 15.129786 -5.641335 61.867504 -5.6216779 62.007484 -10.622439 -90.700447
1069000000 -7.6565242 -11.731281 -5.6452584 33.515236 -5.6256347 33.667198 -10.706982 -120.06796
1078500000 -7.599185 -39.034321 -5.6682615 4.9919 -5.6472316 5.1438112 -10.770545 -149.95033
1088000000 -7.4939957 -64.970322 -5.7082038 -23.353014 -5.6886344 -23.206123 -10.723901 179.2097
1097500000 -7.5268478 -90.04493 -5.7115521 -51.63052 -5.6928477 -51.471634 -10.681985 147.90762
1107000000 -7.7202072 -116.55983 -5.7030578 -80.147629 -5.6835566 -79.984505 -10.644924 117.35742
1116500000 -7.8544712 -144.67854 -5.720521 -108.77388 -5.7010674 -108.6137 -10.537367 87.584381
1126000000 -7.8806729 -172.70052 -5.7556505 -137.31229 -5.7369747 -137.15021 -10.359509 58.133945
1135500000 -7.975071 159.46207 -5.7766085 -165.7572 -5.757688 -165.59053 -10.16949 28.937206
1145000000 -8.1427994 130.2296 -5.7827735 165.61519 -5.7641826 165.78102 -9.997756 0.69533861
1154500000 -8.2059278 99.590744 -5.82864 136.85101 -5.8099136 137.0267 -9.7688913 -26.453947
1164000000 -8.0709944 69.519234 -5.8984728 108.33389 -5.8785195 108.50393 -9.5311136 -53.443485
1173500000 -7.8889441 40.733402 -5.9444237 79.93869 -5.9264331 80.107475 -9.407753 -80.574387
1183000000 -7.8065267 12.284244 -5.9803514 51.463573 -5.9620495 51.647533 -9.3875275 -107.92947
1192500000 -7.7214866 -16.33482 -6.0250959 22.935663 -6.0063286 23.120304 -9.3995037 -135.85725
1202000000 -7.5398369 -44.113037 -6.084393 -5.517457 -6.064528 -5.3251443 -9.3897514 -164.68283
1211500000 -7.3987823 -70.381859 -6.1280293 -33.812115 -6.1083465 -33.631985 -9.3754396 165.73473
1221000000 -7.4341717 -96.727272 -6.1443381 -62.229458 -6.1267371 -62.027264 -9.3754578 136.16626
1230500000 -7.5539742 -124.52683 -6.1794167 -90.785492 -6.1578536 -90.574944 -9.3340607 107.0507
1240000000 -7.578968 -152.83029 -6.2225928 -119.21676 -6.202436 -119.01867 -9.2423553 77.977974
1249500000 -7.5797915 179.22408 -6.2444463 -147.67233 -6.2254376 -147.45236 -9.1630764 49.0037
1259000000 -7.6832581 150.71327 -6.2710881 -176.28294 -6.2512217 -176.04919 -9.0610781 20.58849
1268500000 -7.7772818 121.05685 -6.3166823 155.10228 -6.2965713 155.3535 -8.9051657 -7.3266373
1278000000 -7.7467284 91.118423 -6.3677249 126.54688 -6.3466544 126.80762 -8.7476778 -34.826321
1287500000 -7.6461816 61.547756 -6.4221115 97.996658 -6.402297 98.267517 -8.6335936 -62.035412
1297000000 -7.5043283 32.452213 -6.4840779 69.474152 -6.464642 69.773453 -8.58671 -89.396736
1306500000 -7.3247709 4.1970592 -6.5461559 41.023449 -6.5255127 41.334564 -8.6151304 -117.36933
1316000000 -7.1633263 -23.267607 -6.6023097 12.598151 -6.583293 12.914066 -8.6878929 -146.1902
1325500000 -7.0188937 -50.30801 -6.6586304 -15.81481 -6.6393504 -15.516298 -8.7540445 -175.80348
1335000000 -6.8709517 -76.672585 -6.716002 -44.180611 -6.6980505 -43.930656 -8.7754507 154.05286
1344500000 -6.8041425 -102.35157 -6.7641435 -72.493355 -6.7478986 -72.262138 -8.7655382 123.64753
1354000000 -6.8532252 -128.5542 -6.7945919 -100.86044 -6.7775989 -100.64653 -8.7613955 93.376099
1363500000 -6.8986502 -155.93224 -6.8302822 -129.34091 -6.8166132 -129.14006 -8.7275963 63.422829
1373000000 -6.869482 176.79999 -6.8738394 -157.7533 -6.861896 -157.53439 -8.6402893 33.495094
1382500000 -6.8927741 150.0311 -6.8975239 173.81551 -6.8861699 174.04245 -8.5364876 3.7818682
1392000000 -7.0433383 122.16903 -6.9281769 145.19621 -6.9167871 145.4483 -8.4168129 -25.243853
1401500000 -7.1107531 92.826332 -6.9841008 116.5779 -6.9703054 116.8316 -8.2928543 -53.613419
1411000000 -6.9744682 63.878124 -7.0478487 88.019508 -7.0356355 88.2845 -8.205657 -81.708931
1420500000 -6.8563004 36.305473 -7.113862 59.536205 -7.0978765 59.827473 -8.1908903 -110.08961
1430000000 -6.8355842 8.7430105 -7.1681795 31.040663 -7.148705 31.318007 -8.2540798 -139.04387
1439500000 -6.7379141 -19.471783 -7.2416382 2.4406757 -7.2222095 2.7163966 -8.3126516 -168.56268
1449000000 -6.4992967 -46.589779 -7.3397665 -25.950333 -7.3186064 -25.679062 -8.2993116 161.30099
1458500000 -6.313108 -72.055893 -7.4098659 -54.152557 -7.3891835 -53.888786 -8.2429609 130.91945
1468000000 -6.3249226 -97.692963 -7.4574637 -82.441154 -7.4347377 -82.170677 -8.1772099 100.85526
1477500000 -6.384048 -124.66618 -7.5078168 -110.7888 -7.4842939 -110.54206 -8.1090155 71.23954
1487000000 -6.3333101 -151.87134 -7.5607696 -139.08763 -7.5399241 -138.83926 -8.0337811 41.816738
1496500000 -6.3131399 -178.24834 -7.596344 -167.31651 -7.5734777 -167.06187 -7.9542303 12.430956
1506000000 -6.4595032 154.88916 -7.6069379 164.31071 -7.5826111 164.545 -7.8665037 -16.649418
1515500000 -6.6354361 126.24325 -7.6346092 135.72578 -7.6099668 135.96539 -7.7601171 -45.110378
1525000000 -6.6503825 97.047127 -7.6865115 107.20261 -7.6617413 107.42291 -7.6588049 -72.974731
1534500000 -6.6245027 68.531784 -7.7309184 78.752403 -7.7089796 78.982086 -7.6122975 -100.50714
1544000000 -6.6940079 39.752018 -7.7685556 50.219513 -7.7428455 50.45422 -7.64221 -128.04915
1553500000 -6.7017107 10.169529 -7.8217096 21.584854 -7.7972207 21.790234 -7.7102251 -155.98587
1563000000 -6.5456381 -18.665169 -7.8978252 -6.9738879 -7.8752527 -6.7568202 -7.7735939 175.3452
1572500000 -6.3863349 -46.090504 -7.970561 -35.405148 -7.9472365 -35.197289 -7.8129368 146.18019
1582000000 -6.3370934 -73.317329 -8.0405884 -63.817478 -8.0186987 -63.602783 -7.8050146 116.98116
1591500000 -6.3159428 -100.7954 -8.1055403 -92.116081 -8.0811405 -91.909004 -7.7738514 87.950455
1601000000 -6.281929 -128.19043 -8.1437511 -120.42429 -8.1231604 -120.23413 -7.7582421 59.165092
1610500000 -6.3203478 -155.65559 -8.1818075 -148.82764 -8.1611605 -148.61342 -7.7543888 30.47422
1620000000 -6.3872628 176.60086 -8.2114792 -177.19736 -8.1891441 -176.99771 -7.7530408 1.6677791
1629500000 -6.4458251 148.57346 -8.2280188 154.24834 -8.2074623 154.45039 -7.7444611 -27.059736
1639000000 -6.5879412 120.04451 -8.2721577 125.56732 -8.2498446 125.76398 -7.7062988 -55.435009
1648500000 -6.7187953 90.481392 -8.3235588 96.946068 -8.3036108 97.135529 -7.666995 -83.410858
1658000000 -6.6977048 60.478107 -8.37747 68.251724 -8.3564901 68.458092 -7.66361 -111.01907
1667500000 -6.650826 31.219046 -8.4460573 39.583946 -8.4234476 39.773888 -7.7026219 -138.65912
1677000000 -6.6676402 1.9475002 -8.5116148 10.925692 -8.490077 11.108727 -7.7900128 -166.74483
1686500000 -6.5760884 -27.767046 -8.5922241 -17.805103 -8.5710459 -17.625587 -7.8871245 164.61868
1696000000 -6.3330855 -56.199059 -8.6946812 -46.4501 -8.6740055 -46.270519 -7.9525013 135.44395
1705500000 -6.1950607 -83.158234 -8.8024931 -74.948524 -8.7803917 -74.768517 -7.9885507 105.99607
1715000000 -6.2070904 -110.49098 -8.898262 -103.3145 -8.8759918 -103.15617 -8.0141182 76.567696
1724500000 -6.1364241 -138.5443 -8.974102 -131.6785 -8.9554977 -131.52435 -8.0420551 47.246807
1734000000 -6.0046411 -165.91011 -9.046608 -160.10538 -9.0268507 -159.9334 -8.0621443 17.910328
1743500000 -6.0236087 167.22015 -9.119235 171.45769 -9.0980892 171.60641 -8.0566368 -11.533326
1753000000 -6.1315041 139.45576 -9.1864672 142.98656 -9.1690483 143.13147 -8.0221519 -40.950069
1762500000 -6.1313066 110.92492 -9.2496586 114.40023 -9.2321758 114.55282 -7.9788027 -69.961845
1772000000 -6.1022286 82.461021 -9.3374243 85.68232 -9.3217115 85.838577 -7.934473 -98.34729
1781500000 -6.1643343 53.92622 -9.4541788 57.13892 -9.4362488 57.305656 -7.9149661 -126.43318
1791000000 -6.1750278 24.902018 -9.5459089 28.734035 -9.5290747 28.883163 -7.9614968 -154.55466
1800500000 -6.0709105 -4.2442794 -9.6347733 0.12704337 -9.6193514 0.29808241 -8.0528612 177.12474
1810000000 -5.9497652 -32.823101 -9.7628851 -28.474747 -9.7445717 -28.307314 -8.1325693 148.44371
1819500000 -5.8382998 -60.730499 -9.9074554 -56.852703 -9.8904629 -56.68557 -8.1750889 119.39178
1829000000 -5.7234883 -88.035339 -10.037453 -84.999916 -10.017886 -84.823792 -8.1964264 90.155823
1838500000 -5.6059651 -115.09072 -10.128733 -113.13259 -10.109424 -112.97511 -8.2241917 60.987106
1848000000 -5.5348587 -142.27507 -10.224323 -141.4521 -10.20606 -141.27985 -8.2457361 31.931442
1857500000 -5.5335937 -169.26486 -10.344234 -169.58545 -10.32269 -169.41267 -8.2356615 2.7239091
1867000000 -5.5347896 163.83241 -10.420283 162.48012 -10.398029 162.63969 -8.1985502 -26.648209
1876500000 -5.5206513 136.53203 -10.459274 134.26292 -10.436292 134.41295 -8.1308804 -55.761726
1886000000 -5.5562043 108.98346 -10.524963 105.77737 -10.503235 105.92027 -8.0350809 -84.315605
1895500000 -5.6710739 81.096565 -10.625607 77.35434 -10.603315 77.508789 -7.9555793 -112.3421
1905000000 -5.7559853 52.543118 -10.723737 49.135017 -10.69854 49.272804 -7.9434319 -140.04182
1914500000 -5.7203484 23.80389 -10.793965 20.914608 -10.771472 21.030935 -8.0038986 -167.67929
1924000000 -5.7017722 -4.743722 -10.86726 -7.470819 -10.846348 -7.3377466 -8.092289 164.42184
1933500000 -5.7439775 -33.621082 -10.966619 -35.823601 -10.943062 -35.692287 -8.1676235 136.04651
1943000000 -5.6600127 -62.546318 -11.069305 -64.005737 -11.046432 -63.89043 -8.225297 107.27673
1952500000 -5.4678917 -90.297394 -11.147694 -92.097427 -11.125519 -91.985504 -8.2891302 78.384453
1962000000 -5.3998823 -117.46004 -11.211982 -120.32811 -11.191663 -120.21499 -8.3746176 49.544777
1971500000 -5.4487925 -145.29288 -11.298461 -148.57344 -11.276885 -148.44504 -8.4674416 20.541082
1981000000 -5.399416 -173.15222 -11.373828 -176.63457 -11.350053 -176.52289 -8.5536375 -8.8887396
1990500000 -5.3151269 159.78148 -11.418107 155.2196 -11.397042 155.32545 -8.5995893 -38.578777
2000000000 -5.3749156 132.70053 -11.459902 126.92497 -11.4379 127.04299 -8.5752497 -68.094505
