!Keysight Technologies,N5242B,MY48420967,A.15.65.19
!Date: Monday, December 19, 2022 09:31:41
!Correction: S11(C  2-Port  ) 
!S21(C  2-Port  ) 
!S12(C  2-Port  ) 
!S22(C  2-Port  ) 
!S2P File: Measurements: S11, S21, S12, S22:
# Hz S  dB   R 50
100000000 -15.538886 -2.3146563 -2.2332089 57.923206 -2.2329316 57.900436 -17.592369 20.096003
109500000 -14.779334 -26.356434 -2.269804 29.339149 -2.2679863 29.326046 -17.719585 -5.8164849
119000000 -14.478552 -47.930729 -2.2898986 0.78973526 -2.2894912 0.7655949 -17.968138 -29.042685
128500000 -14.61862 -71.03511 -2.3009181 -27.824911 -2.3010883 -27.845778 -18.027061 -50.845898
138000000 -14.75783 -96.794678 -2.3144042 -56.492897 -2.3146086 -56.510239 -17.983332 -73.88327
147500000 -14.797507 -123.36068 -2.3327456 -85.159798 -2.3322339 -85.179123 -18.153921 -97.995972
157000000 -14.98724 -151.18752 -2.3494244 -113.83633 -2.3494558 -113.85848 -18.450953 -122.73906
166500000 -15.233668 177.52576 -2.3718019 -142.57422 -2.3720665 -142.59032 -18.805603 -150.17845
176000000 -15.244623 143.79089 -2.4085104 -171.29961 -2.4086142 -171.31429 -19.351849 178.84579
185500000 -15.08141 109.90712 -2.4524121 160.04527 -2.4527555 160.03088 -19.887274 145.66432
195000000 -14.801495 76.728264 -2.4988134 131.46597 -2.4991696 131.45268 -20.126703 111.93491
204500000 -14.412003 45.991028 -2.5406857 102.97009 -2.5410054 102.95696 -20.11747 80.450172
214000000 -14.169139 18.339598 -2.5720894 74.500313 -2.5719738 74.490799 -19.947102 52.749599
223500000 -14.131298 -8.0894966 -2.5972936 46.040535 -2.597441 46.030834 -19.874262 27.837521
233000000 -14.015286 -34.257732 -2.6136096 17.589911 -2.6140835 17.581743 -20.049839 5.7879629
242500000 -13.813622 -59.200146 -2.6218257 -10.904513 -2.622298 -10.9127 -20.239338 -14.76941
252000000 -13.866606 -83.795197 -2.6286762 -39.457691 -2.6292689 -39.464104 -20.455505 -36.249245
261500000 -14.195535 -110.99933 -2.6367679 -68.052689 -2.6371026 -68.058594 -20.744307 -59.309601
271000000 -14.331344 -141.45979 -2.6488352 -96.689034 -2.6488853 -96.697433 -21.144646 -84.785355
280500000 -14.184171 -172.08627 -2.6672604 -125.35 -2.6674833 -125.35505 -21.752565 -112.45335
290000000 -14.173481 157.34839 -2.6932867 -154.01334 -2.6932197 -154.01866 -22.599237 -142.29347
299500000 -14.20353 124.18996 -2.7275383 177.33817 -2.7275023 177.33142 -23.711231 -174.82881
309000000 -13.781191 90.159233 -2.7676024 148.7299 -2.7677307 148.72321 -24.907177 149.53183
318500000 -13.179395 59.440117 -2.8100019 120.17909 -2.8100898 120.1727 -25.825394 111.32545
328000000 -12.923806 31.221899 -2.8475778 91.703644 -2.847856 91.696503 -26.292442 74.989037
337500000 -12.88736 2.7957993 -2.8738899 63.246616 -2.8740275 63.239643 -26.348967 45.165504
347000000 -12.68306 -25.390873 -2.8947198 34.746101 -2.8947999 34.740993 -26.236574 20.629786
356500000 -12.409603 -51.674953 -2.915076 6.2255235 -2.9152861 6.2187138 -26.548595 -1.0171375
366000000 -12.365022 -77.467087 -2.9307859 -22.314173 -2.931108 -22.317564 -27.43022 -19.513924
375500000 -12.475257 -105.66026 -2.9429018 -50.918369 -2.9431608 -50.922344 -28.564905 -38.629974
385000000 -12.391083 -136.38156 -2.9617479 -79.603943 -2.9619157 -79.607994 -30.361252 -65.469177
394500000 -12.09743 -167.28055 -2.9968081 -108.31738 -2.9967997 -108.3214 -33.360825 -109.51968
404000000 -11.862597 162.05148 -3.044857 -136.97585 -3.0449328 -136.98022 -34.922249 178.42278
413500000 -11.647371 130.3856 -3.0948167 -165.58777 -3.0947196 -165.59132 -31.664675 117.70531
423000000 -11.217928 98.271385 -3.1518662 165.79483 -3.1518745 165.79231 -28.01581 78.691376
432500000 -10.648278 67.717766 -3.2236645 137.27597 -3.2234483 137.27589 -25.202991 44.328739
442000000 -10.200464 38.967583 -3.2877185 108.92577 -3.2875693 108.92313 -23.473427 11.577025
451500000 -9.9444799 10.763067 -3.3302782 80.606361 -3.3303499 80.606041 -22.597763 -18.053801
461000000 -9.7687244 -17.407705 -3.3650155 52.231049 -3.3645957 52.230545 -22.17005 -45.199749
470500000 -9.6022768 -44.89201 -3.4005826 23.844715 -3.4001639 23.843647 -22.09696 -72.598671
480000000 -9.515523 -71.524696 -3.4287784 -4.5257301 -3.4285147 -4.5255508 -22.543537 -101.9193
489500000 -9.550868 -98.497025 -3.4458141 -32.957779 -3.4457512 -32.957676 -23.367941 -132.98497
499000000 -9.5878706 -126.93091 -3.4686232 -61.505692 -3.4679556 -61.505302 -23.868219 -165.4789
508500000 -9.5003834 -156.34708 -3.5100248 -90.067001 -3.5095093 -90.065361 -23.437393 160.58649
518000000 -9.3488312 174.28078 -3.5584881 -118.54645 -3.5579629 -118.54362 -22.419189 127.41293
527500000 -9.235014 144.74503 -3.6056535 -147.00523 -3.6050384 -147.00304 -21.293179 97.666008
537000000 -9.1043806 114.74964 -3.6615455 -175.44792 -3.6608651 -175.44446 -20.240664 70.390518
546500000 -8.8704815 85.182457 -3.7233732 156.21687 -3.7223783 156.21866 -19.4167 43.142746
556000000 -8.6001568 56.839066 -3.7755888 127.99236 -3.7741747 127.99419 -18.970697 14.827605
565500000 -8.4069338 29.431057 -3.8122141 99.807884 -3.8104389 99.805168 -18.874559 -14.334275
575000000 -8.3182688 2.3350799 -3.8364494 71.618279 -3.8346732 71.612144 -18.999043 -44.244003
584500000 -8.3060789 -24.675951 -3.8476238 43.42104 -3.846745 43.404461 -19.315414 -75.005829
594000000 -8.3412771 -51.446983 -3.8452256 15.156715 -3.8474185 15.137554 -19.850748 -106.57703
603500000 -8.4251776 -77.900757 -3.8413687 -13.219858 -3.8446891 -13.223111 -20.541279 -139.19237
613000000 -8.5931368 -104.43668 -3.8414538 -41.645092 -3.8447669 -41.634007 -21.187521 -173.96228
622500000 -8.7963896 -131.90877 -3.8387716 -70.129654 -3.8406072 -70.10437 -21.605299 149.24814
632000000 -8.9031172 -160.67595 -3.84677 -98.717926 -3.8455391 -98.695641 -21.472523 113.87092
641500000 -8.8704157 170.15894 -3.8740923 -127.30253 -3.8723979 -127.28703 -20.720924 81.743988
651000000 -8.8239126 141.20372 -3.9105439 -155.79781 -3.9084265 -155.79056 -19.731455 52.414524
660500000 -8.8158045 111.85284 -3.9407566 175.76118 -3.9390125 175.76285 -18.915462 24.711582
670000000 -8.7199287 82.018806 -3.9717164 147.28169 -3.9703074 147.28239 -18.396082 -1.8481604
679500000 -8.4996691 53.165012 -4.0149283 118.84677 -4.0138292 118.84588 -17.992781 -28.69232
689000000 -8.326869 26.01387 -4.0530257 90.560745 -4.0520992 90.562531 -17.695332 -57.932961
698500000 -8.3067131 -0.73164499 -4.0644703 62.30265 -4.0635471 62.302814 -17.598724 -89.395477
708000000 -8.3254147 -28.250957 -4.0640664 33.893871 -4.0636001 33.893787 -17.58432 -121.26046
717500000 -8.2791958 -55.699715 -4.0787735 5.4133701 -4.0784016 5.414659 -17.386374 -152.72026
727000000 -8.2924442 -82.155022 -4.0935807 -22.987164 -4.0932255 -22.986773 -17.01796 175.38197
736500000 -8.4895706 -109.06324 -4.0875902 -51.460152 -4.0873785 -51.460522 -16.732512 143.56757
746000000 -8.698431 -138.12082 -4.0892797 -80.136475 -4.0891571 -80.136749 -16.488546 113.55828
755500000 -8.6641436 -168.06715 -4.1210999 -108.83455 -4.1204896 -108.83372 -16.062023 85.327774
765000000 -8.5470524 162.85112 -4.1652074 -137.42181 -4.164752 -137.42253 -15.480386 57.950214
774500000 -8.5616007 133.31535 -4.2053947 -165.97278 -4.2050376 -165.97156 -14.922852 31.377583
784000000 -8.4832869 102.06085 -4.2527814 165.41795 -4.2524552 165.41747 -14.44505 6.1554613
793500000 -8.1365271 71.398956 -4.32549 136.87642 -4.3253841 136.87997 -13.947191 -18.399096
803000000 -7.8132257 43.067005 -4.3972907 108.57876 -4.396903 108.58214 -13.491917 -43.975002
812500000 -7.6852822 15.277409 -4.4388285 80.347336 -4.4384794 80.352081 -13.23922 -70.810173
822000000 -7.5709343 -13.161021 -4.471518 52.0215 -4.4708562 52.023678 -13.127448 -98.244156
831500000 -7.3802466 -40.963017 -4.5079389 23.695311 -4.5082541 23.699036 -13.011864 -126.42258
841000000 -7.2909837 -67.737045 -4.5368915 -4.598547 -4.5363259 -4.5943165 -12.880083 -155.40436
850500000 -7.3574018 -94.868675 -4.5538816 -32.914482 -4.5537648 -32.91634 -12.741238 175.3036
860000000 -7.4189401 -123.03841 -4.5647202 -61.333126 -4.5648646 -61.328815 -12.61152 146.21906
869500000 -7.4211812 -151.62752 -4.5890756 -89.860817 -4.5886431 -89.859459 -12.455329 117.82684
879000000 -7.4245281 179.62427 -4.6320071 -118.3541 -4.6319656 -118.35391 -12.220879 89.828491
888500000 -7.3969264 150.39268 -4.6766052 -146.79591 -4.6757655 -146.79659 -11.965597 62.075562
898000000 -7.3062716 120.81722 -4.7273307 -175.24269 -4.7270212 -175.24309 -11.690225 34.909763
907500000 -7.1737232 91.294342 -4.7895164 156.38266 -4.7887292 156.38544 -11.385691 8.1471891
917000000 -6.9852242 62.148205 -4.8530588 128.13057 -4.8523521 128.12878 -11.094714 -18.559671
926500000 -6.7620811 33.96907 -4.9082685 100.00528 -4.9078989 100.00194 -10.866557 -45.592133
936000000 -6.6003461 6.8312511 -4.9416113 71.958122 -4.9416747 71.948883 -10.747677 -73.253944
945500000 -6.535018 -20.003269 -4.9536376 43.870026 -4.9541459 43.862827 -10.741284 -101.62852
955000000 -6.5041947 -46.786411 -4.9567409 15.720889 -4.957324 15.711556 -10.792742 -130.77693
964500000 -6.4876986 -73.107643 -4.9521317 -12.467154 -4.9542222 -12.47541 -10.852317 -160.77815
974000000 -6.5528626 -99.095024 -4.9401264 -40.717037 -4.9432073 -40.718201 -10.895246 168.61485
983500000 -6.7076211 -125.57422 -4.9229708 -69.040665 -4.926043 -69.03289 -10.90225 137.79468
993000000 -6.8508592 -153.04112 -4.9030356 -97.498116 -4.9053411 -97.482773 -10.881574 107.21958
1002500000 -6.9242554 178.96831 -4.9033546 -126.07389 -4.9052434 -126.05359 -10.793756 77.295662
1012000000 -6.9755225 151.1158 -4.9227839 -154.54741 -4.9235206 -154.5257 -10.619079 47.700958
1021500000 -7.0485187 123.00357 -4.9292283 177.03055 -4.9293251 177.04875 -10.44075 18.392599
1031000000 -7.0950813 93.953049 -4.9379954 148.48901 -4.9378362 148.50775 -10.271809 -10.185121
1040500000 -7.0074959 64.821388 -4.971374 119.96928 -4.9707065 119.98357 -10.068886 -38.277626
1050000000 -6.8444648 37.102798 -5.0106139 91.638321 -5.0104609 91.652649 -9.8631611 -66.613457
1059500000 -6.7772517 10.545515 -5.0209494 63.421871 -5.0206356 63.434418 -9.7464828 -95.593666
1069000000 -6.800663 -16.340387 -5.0067816 35.037216 -5.0068226 35.050594 -9.7458611 -124.97858
1078500000 -6.7816072 -43.485668 -5.0148478 6.5101571 -5.0145426 6.5238047 -9.7457943 -154.66101
1088000000 -6.7328691 -69.468147 -5.0343037 -21.849762 -5.034811 -21.841061 -9.6732178 174.79919
1097500000 -6.8052588 -94.766815 -5.0189505 -50.173397 -5.0198069 -50.158501 -9.6011505 143.58963
1107000000 -7.0079927 -121.34292 -4.9929495 -78.750832 -4.9931626 -78.73938 -9.5300398 112.85853
1116500000 -7.1489887 -149.438 -4.9977665 -107.454 -4.9984651 -107.44199 -9.3781166 83.061699
1126000000 -7.1764188 -177.50352 -5.0218534 -136.03757 -5.0225444 -136.02745 -9.1540928 53.895679
1135500000 -7.2543588 154.58792 -5.0300593 -164.53799 -5.0314231 -164.52577 -8.9446955 25.200653
1145000000 -7.403255 125.2831 -5.0271692 166.78923 -5.027792 166.80231 -8.7966881 -2.6513531
1154500000 -7.4435062 94.588837 -5.0604358 137.99368 -5.0613818 138.00107 -8.6244965 -29.587765
1164000000 -7.3051152 64.60656 -5.1191773 109.42474 -5.1202717 109.43763 -8.4059391 -56.532391
1173500000 -7.1465373 35.98756 -5.1539664 81.005569 -5.1545491 81.015282 -8.2487373 -83.824837
1183000000 -7.0755844 7.5213675 -5.1764417 52.478306 -5.1772766 52.489689 -8.1694584 -111.19762
1192500000 -6.9944372 -21.107767 -5.215766 23.916656 -5.2165031 23.924397 -8.1105413 -138.80394
1202000000 -6.839025 -48.823978 -5.2615218 -4.5079441 -5.2627759 -4.4986672 -8.0522537 -167.09384
1211500000 -6.7388482 -75.356087 -5.2837229 -32.840729 -5.2846208 -32.831459 -8.0252399 163.88702
1221000000 -6.793252 -102.12518 -5.2863836 -61.321041 -5.2876267 -61.311924 -8.018856 134.68639
1230500000 -6.900053 -130.08746 -5.3065157 -89.92807 -5.3073587 -89.916367 -7.9620929 105.68835
1240000000 -6.9164805 -158.4417 -5.3381953 -118.44264 -5.3393788 -118.43323 -7.8425055 76.830772
1249500000 -6.907166 173.38542 -5.3541584 -146.94571 -5.3554783 -146.93224 -7.72188 48.307587
1259000000 -6.9809103 144.59586 -5.371345 -175.57494 -5.3726015 -175.56076 -7.6049485 20.464432
1268500000 -7.0478783 114.76599 -5.4053378 155.78264 -5.4065075 155.80031 -7.4700499 -6.8899531
1278000000 -6.9969549 84.707825 -5.4461403 127.19939 -5.4472218 127.21692 -7.3364711 -34.075546
1287500000 -6.8718896 55.197258 -5.4899235 98.639694 -5.4912829 98.660294 -7.2207084 -61.304268
1297000000 -6.726263 26.402355 -5.5385499 70.113487 -5.5396223 70.137985 -7.1309404 -88.79808
1306500000 -6.5752192 -1.5786066 -5.5873451 41.661015 -5.5884242 41.68602 -7.0760255 -116.77314
1316000000 -6.4414687 -28.886175 -5.6265635 13.252219 -5.6279912 13.272259 -7.0648208 -145.33337
1325500000 -6.3191524 -55.777538 -5.6610398 -15.179389 -5.6631713 -15.165945 -7.0788255 -174.45038
1335000000 -6.2090693 -82.004524 -5.6967187 -43.586136 -5.6985106 -43.577446 -7.0872331 155.83043
1344500000 -6.1776338 -107.63979 -5.7181187 -71.950935 -5.7204022 -71.951393 -7.0859556 125.59157
1354000000 -6.2429395 -133.79008 -5.7229247 -100.42362 -5.7261572 -100.42278 -7.0727153 95.248581
1363500000 -6.2884951 -160.95395 -5.7386479 -129.01996 -5.7421899 -129.01906 -7.0135345 65.202827
1373000000 -6.2567677 171.96902 -5.7670884 -157.55118 -5.771297 -157.54669 -6.9020414 35.43232
1382500000 -6.2801232 145.26962 -5.7799139 173.9485 -5.7844024 173.9554 -6.7961612 5.9965019
1392000000 -6.4131675 117.50275 -5.7889624 145.28537 -5.7943201 145.30031 -6.7116647 -22.877108
1401500000 -6.4615192 88.404312 -5.8222775 116.54501 -5.8266549 116.56747 -6.6243711 -51.363583
1411000000 -6.3342605 59.876247 -5.8707867 87.881615 -5.87497 87.905212 -6.538096 -79.902672
1420500000 -6.2289448 32.669662 -5.9160357 59.28693 -5.9194727 59.319229 -6.4840612 -108.78221
1430000000 -6.2107406 5.4228797 -5.9573321 30.645782 -5.9593945 30.675489 -6.4732275 -137.97626
1439500000 -6.1116428 -22.297085 -6.0189495 1.9604002 -6.0208001 1.9914017 -6.4654651 -167.44492
1449000000 -5.8925891 -48.951111 -6.098999 -26.537228 -6.1002107 -26.509155 -6.4348984 162.64009
1458500000 -5.7385807 -74.170975 -6.1545744 -54.854469 -6.1558385 -54.829407 -6.404294 132.35051
1468000000 -5.7544904 -99.657463 -6.1836052 -83.25843 -6.1837864 -83.233894 -6.3753633 102.11292
1477500000 -5.8046803 -126.39548 -6.2190809 -111.76668 -6.2195363 -111.74938 -6.314404 72.178993
1487000000 -5.7543883 -153.32439 -6.2616506 -140.20885 -6.2620506 -140.18925 -6.2235212 42.518429
1496500000 -5.7255769 -179.65109 -6.2889347 -168.59053 -6.2887077 -168.57669 -6.1360722 13.202988
1506000000 -5.8459024 153.43459 -6.2975426 162.93048 -6.2978511 162.94176 -6.068809 -15.610736
1515500000 -5.9865246 124.84593 -6.3124504 134.28484 -6.3128037 134.29459 -6.0113435 -43.872704
1525000000 -5.989975 95.70993 -6.3474917 105.6277 -6.3481469 105.63703 -5.9519315 -71.810623
1534500000 -5.9640589 67.212692 -6.3812823 77.033203 -6.3816519 77.041092 -5.913157 -99.671158
1544000000 -6.0147548 38.472645 -6.4099298 48.344727 -6.4108038 48.350677 -5.9045591 -127.51514
1553500000 -6.0038686 9.0458488 -6.4613419 19.576439 -6.4620299 19.583145 -5.9059324 -155.48541
1563000000 -5.8476343 -19.657358 -6.532445 -9.0681601 -6.5336599 -9.0633221 -5.9125857 176.17673
1572500000 -5.7006874 -47.13459 -6.597199 -37.585072 -6.5982585 -37.579739 -5.9336166 147.48396
1582000000 -5.6497889 -74.436943 -6.6537218 -66.068962 -6.6552062 -66.065567 -5.9518237 118.62222
1591500000 -5.6167216 -101.96703 -6.7022357 -94.503944 -6.7037401 -94.496422 -5.9529943 89.694313
1601000000 -5.587955 -129.4212 -6.7341928 -122.93819 -6.7356396 -122.93645 -5.9404545 60.858189
1610500000 -5.6146011 -157.01854 -6.7568369 -151.4294 -6.7592287 -151.42238 -5.9175682 32.203529
1620000000 -5.651989 174.98845 -6.7734151 -179.97633 -6.7746406 -179.96771 -5.9007754 3.7571113
1629500000 -5.6938639 146.76884 -6.787847 151.36357 -6.7897243 151.36835 -5.8966603 -24.428577
1639000000 -5.8090034 118.00212 -6.8133721 122.59915 -6.8147445 122.60642 -5.8989677 -52.383007
1648500000 -5.9046731 88.186737 -6.84934 93.784767 -6.8512163 93.789116 -5.9024653 -80.188362
1658000000 -5.8641205 58.185322 -6.8969879 64.934296 -6.898396 64.945305 -5.9047799 -107.9475
1667500000 -5.8069549 28.927845 -6.9551959 36.102127 -6.9565263 36.103825 -5.9115639 -135.7943
1677000000 -5.8022618 -0.35742381 -7.018362 7.2704024 -7.0203981 7.2782445 -5.935235 -163.85205
1686500000 -5.6912923 -29.855906 -7.0961676 -21.569906 -7.0971198 -21.563757 -5.9768877 167.78923
1696000000 -5.4650526 -58.124058 -7.1878433 -50.323265 -7.1895266 -50.321049 -6.03058 138.99022
1705500000 -5.3423882 -85.148392 -7.282443 -78.963303 -7.2834797 -78.960495 -6.0947652 109.75662
1715000000 -5.3347292 -112.45423 -7.3680701 -107.49932 -7.3699064 -107.50039 -6.1543126 80.227425
1724500000 -5.2483892 -140.27847 -7.4358907 -136.02171 -7.4376941 -136.02032 -6.1972547 50.620594
1734000000 -5.1156039 -167.57852 -7.4996953 -164.62485 -7.5019517 -164.62837 -6.2086234 21.131279
1743500000 -5.1129503 165.49622 -7.569737 166.76826 -7.5725279 166.7693 -6.1955409 -8.2320232
1753000000 -5.1816607 137.82202 -7.6299295 138.16707 -7.6326647 138.16501 -6.1895871 -37.437038
1762500000 -5.1610746 109.33829 -7.6810904 109.40228 -7.6848397 109.40393 -6.2025876 -66.381119
1772000000 -5.1076717 80.838905 -7.7611413 80.473045 -7.7648234 80.478134 -6.2139487 -95.081215
1781500000 -5.1241584 52.425724 -7.8753905 51.688473 -7.8792362 51.697311 -6.2165709 -123.76512
1791000000 -5.1130204 23.696831 -7.9757051 23.084019 -7.9792213 23.095562 -6.2374301 -152.49614
1800500000 -4.9920526 -5.1773958 -8.0638914 -5.6616201 -8.067955 -5.6465673 -6.2763629 178.83046
1810000000 -4.8526077 -33.524525 -8.1907377 -34.486172 -8.1938314 -34.463676 -6.3136187 150.07608
1819500000 -4.7556062 -61.125118 -8.3468151 -63.034752 -8.3490763 -63.014774 -6.3589516 120.99411
1829000000 -4.6474099 -88.285789 -8.4760218 -91.311172 -8.4781599 -91.287598 -6.4283824 91.583405
1838500000 -4.5097346 -115.3056 -8.5701599 -119.65228 -8.5718613 -119.63008 -6.502141 62.057732
1848000000 -4.4235158 -142.25325 -8.6767912 -148.12172 -8.6782789 -148.09647 -6.5366654 32.545113
1857500000 -4.4146576 -169.14771 -8.8026772 -176.40019 -8.8028669 -176.37892 -6.5250664 3.0999386
1867000000 -4.3912959 163.84856 -8.8930216 155.53369 -8.8940964 155.55203 -6.4936724 -26.107454
1876500000 -4.3309774 136.59734 -8.9408102 127.27585 -8.9407701 127.29842 -6.4618449 -54.866077
1886000000 -4.3399978 108.99411 -9.0028963 98.723274 -9.002471 98.739746 -6.4268665 -83.18985
1895500000 -4.4357877 80.814987 -9.0988655 70.199791 -9.0985174 70.217705 -6.3985763 -111.30193
1905000000 -4.4797258 52.102352 -9.1892233 41.843868 -9.1888103 41.855476 -6.3963556 -139.31543
1914500000 -4.4313097 23.350403 -9.2552452 13.438962 -9.2548742 13.452339 -6.4191065 -167.22823
1924000000 -4.4197283 -5.3686647 -9.3313093 -15.143603 -9.3307419 -15.136224 -6.447341 164.91774
1933500000 -4.4513316 -34.35825 -9.4399948 -43.680336 -9.4402962 -43.670757 -6.4773517 136.89392
1943000000 -4.385355 -63.092815 -9.5543032 -71.986786 -9.5538006 -71.976845 -6.5330572 108.58511
1952500000 -4.2436047 -90.837326 -9.6393366 -100.18963 -9.6396074 -100.18512 -6.6230717 79.991241
1962000000 -4.1889987 -118.1888 -9.7087975 -128.52782 -9.7090769 -128.51826 -6.7286639 51.139633
1971500000 -4.2222342 -145.96663 -9.7999496 -156.89194 -9.8002872 -156.88448 -6.8158031 22.028732
1981000000 -4.1941481 -173.77971 -9.8853512 174.94586 -9.8852615 174.95724 -6.8746171 -7.2906952
1990500000 -4.1204019 158.9017 -9.932126 146.78337 -9.9323339 146.78767 -6.9076667 -36.527382
2000000000 -4.1389861 131.52654 -9.9597359 118.40347 -9.9603434 118.41705 -6.9171934 -65.444359
