!Keysight Technologies,N5242B,MY48420967,A.15.65.19
!Date: Monday, December 19, 2022 13:56:59
!Correction: S11(C  2-Port  ) 
!S21(C  2-Port  ) 
!S12(C  2-Port  ) 
!S22(C  2-Port  ) 
!S2P File: Measurements: S11, S21, S12, S22:
# Hz S  dB   R 50
100000000 -17.622046 -12.174381 -1.9901253 57.123669 -1.9934684 57.109928 -19.508389 5.2973194
109500000 -16.768909 -34.120346 -2.0302982 28.54446 -2.0321164 28.540173 -19.662334 -21.542156
119000000 -16.531384 -53.567177 -2.0570834 -0.0031181062 -2.0597801 -0.021534815 -20.126829 -45.136196
128500000 -16.782293 -75.169922 -2.0770297 -28.607931 -2.0802443 -28.623234 -20.421387 -66.10289
138000000 -16.968863 -99.956047 -2.0995023 -57.248589 -2.1026683 -57.260727 -20.50321 -88.302322
147500000 -17.012789 -125.63111 -2.125159 -85.878693 -2.1280825 -85.892502 -20.835512 -112.13654
157000000 -17.244566 -152.91417 -2.1488557 -114.51015 -2.1524129 -114.52599 -21.304604 -136.72946
166500000 -17.534513 175.4314 -2.1768854 -143.18362 -2.1802227 -143.1949 -21.708841 -165.0696
176000000 -17.507187 140.71863 -2.2146897 -171.83965 -2.2178488 -171.8511 -22.170168 161.33549
185500000 -17.247232 105.91987 -2.2563939 159.56184 -2.2596846 159.54988 -22.415998 125.1121
195000000 -16.850389 72.227913 -2.2978282 131.02132 -2.3012123 131.01024 -22.193502 89.566467
204500000 -16.369959 41.725082 -2.3339961 102.53721 -2.3373306 102.52722 -21.850084 57.82085
214000000 -16.115551 14.94797 -2.3611073 74.062889 -2.3640423 74.055367 -21.608597 30.979982
223500000 -16.107645 -10.335682 -2.3832979 45.584183 -2.3865497 45.575481 -21.660194 6.8982506
233000000 -15.985671 -35.221825 -2.3996952 17.103586 -2.4030447 17.096895 -22.197105 -14.541621
242500000 -15.732967 -58.699097 -2.410532 -11.413301 -2.4139094 -11.421289 -22.84021 -33.885471
252000000 -15.756276 -81.823212 -2.4214816 -39.977695 -2.4249005 -39.983841 -23.453943 -54.275101
261500000 -16.120693 -108.08578 -2.4339221 -68.572594 -2.4371893 -68.578033 -24.075104 -76.873619
271000000 -16.286316 -138.5218 -2.4493363 -97.19931 -2.4525101 -97.206932 -24.707081 -103.29312
280500000 -16.091398 -169.41164 -2.4704704 -125.84543 -2.4736893 -125.84971 -25.51792 -134.00087
290000000 -16.058685 159.85451 -2.4978728 -154.48901 -2.5010228 -154.49496 -26.449963 -169.36037
299500000 -16.114485 125.87798 -2.5322189 176.88 -2.5355213 176.87367 -27.233042 149.50597
309000000 -15.606989 90.590019 -2.5714366 148.28624 -2.5746667 148.27939 -27.278725 104.80156
318500000 -14.859956 59.473469 -2.6116183 119.74136 -2.6149182 119.73536 -26.458952 62.231487
328000000 -14.551508 31.483627 -2.6466968 91.25753 -2.6500454 91.250946 -25.622801 25.852518
337500000 -14.52091 3.1896129 -2.6714761 62.780846 -2.6750126 62.77364 -25.288029 -3.7579825
347000000 -14.278418 -24.862076 -2.6925571 34.256096 -2.6960726 34.251362 -25.382343 -29.565592
356500000 -13.935892 -50.57476 -2.7147577 5.7102571 -2.7182376 5.7041945 -26.081005 -55.999504
366000000 -13.86458 -75.68335 -2.7343416 -22.855194 -2.7380075 -22.858276 -27.526344 -84.641594
375500000 -13.987801 -103.64732 -2.7527671 -51.469036 -2.756192 -51.473156 -28.955242 -117.34873
385000000 -13.889525 -134.66165 -2.7771337 -80.142532 -2.7806351 -80.147224 -29.008051 -156.40933
394500000 -13.542209 -165.89429 -2.8157618 -108.83566 -2.8190804 -108.83971 -27.190294 162.92754
404000000 -13.264325 163.18352 -2.8659987 -137.4702 -2.869411 -137.47617 -24.826134 125.77991
413500000 -13.01891 131.12346 -2.9166322 -166.058 -2.9203396 -166.06403 -22.88962 93.603897
423000000 -12.530082 98.536583 -2.973691 165.35115 -2.9771323 165.34703 -21.196215 64.674301
432500000 -11.875276 67.771049 -3.0424054 136.8562 -3.0458081 136.85248 -19.698315 35.361206
442000000 -11.366241 39.114979 -3.1025696 108.5094 -3.1060238 108.50375 -18.689365 5.4992037
451500000 -11.094163 11.093637 -3.1423373 80.186005 -3.1459594 80.181282 -18.166117 -23.158537
461000000 -10.916021 -16.927589 -3.173527 51.803478 -3.177084 51.799118 -17.920425 -50.528622
470500000 -10.737383 -44.154087 -3.2054913 23.397282 -3.2089241 23.393482 -17.886974 -78.230927
480000000 -10.648326 -70.339928 -3.2316141 -5.006515 -3.2352214 -5.0122485 -18.160233 -107.33562
489500000 -10.703479 -96.897835 -3.2499814 -33.475311 -3.2538202 -33.479431 -18.643881 -137.50278
499000000 -10.756011 -125.1502 -3.275475 -62.041237 -3.2789032 -62.045616 -18.917793 -168.22189
508500000 -10.657419 -154.53917 -3.3183246 -90.610573 -3.3219609 -90.614143 -18.665257 160.37965
518000000 -10.493306 176.08292 -3.368041 -119.09928 -3.3714936 -119.10133 -18.070799 129.20367
527500000 -10.375743 146.47891 -3.4158695 -147.55887 -3.4193976 -147.56293 -17.375826 99.921799
537000000 -10.229303 116.33894 -3.4697778 -176.00621 -3.4734161 -176.00739 -16.677679 72.208626
546500000 -9.9657316 86.650444 -3.5291393 155.63991 -3.5322404 155.63676 -16.105272 44.56353
556000000 -9.6655579 58.294827 -3.5792134 127.38681 -3.582226 127.38231 -15.789009 16.227055
565500000 -9.4483662 30.991762 -3.6155672 99.165749 -3.6180999 99.157623 -15.719352 -12.631244
575000000 -9.3486347 4.0896406 -3.640301 70.942757 -3.6429033 70.930222 -15.807052 -41.969334
584500000 -9.3386078 -22.691313 -3.6520033 42.706806 -3.6553771 42.687279 -16.037502 -71.826752
594000000 -9.3796844 -49.194809 -3.6514254 14.400335 -3.6570539 14.377356 -16.424513 -102.05988
603500000 -9.4679213 -75.283203 -3.6497748 -14.016583 -3.6568449 -14.027013 -16.926119 -132.78316
613000000 -9.6456699 -101.40128 -3.6536489 -42.487103 -3.6607516 -42.484043 -17.440615 -164.7164
622500000 -9.8674812 -128.54796 -3.6568789 -71.00753 -3.6628096 -70.992584 -17.88489 162.1423
632000000 -9.9854507 -157.19754 -3.6701727 -99.61879 -3.6737714 -99.604523 -17.999548 129.45815
641500000 -9.9469671 173.60397 -3.7025015 -128.22209 -3.7052557 -128.21445 -17.624409 98.034142
651000000 -9.8893299 144.60303 -3.7430081 -156.73384 -3.7456639 -156.73228 -16.986057 67.967117
660500000 -9.8799791 115.17899 -3.7775123 174.80696 -3.7804697 174.80533 -16.404684 39.276619
670000000 -9.7791281 85.186577 -3.8113761 146.3175 -3.8143423 146.31328 -15.987604 11.869406
679500000 -9.525219 56.203671 -3.8557556 117.85945 -3.8592312 117.85437 -15.656645 -15.634271
689000000 -9.3080616 29.144503 -3.8965542 89.530151 -3.9001391 89.52845 -15.472483 -44.874481
698500000 -9.2661228 2.6448002 -3.9140108 61.230694 -3.9175637 61.226418 -15.512444 -75.59153
708000000 -9.2793665 -24.689421 -3.9202652 32.795013 -3.9239483 32.79211 -15.63455 -106.50986
717500000 -9.2080393 -52.000671 -3.9403441 4.288475 -3.9439998 4.2855034 -15.603736 -137.42346
727000000 -9.1866398 -78.159767 -3.962039 -24.147041 -3.9659123 -24.150091 -15.45534 -169.0596
736500000 -9.3819761 -104.66109 -3.9652569 -52.639183 -3.9689598 -52.642159 -15.382135 159.40294
746000000 -9.6130629 -133.53418 -3.9743471 -81.318069 -3.9782925 -81.321335 -15.276094 129.41277
755500000 -9.5729151 -163.56805 -4.0123367 -110.02341 -4.0159678 -110.02555 -14.938447 100.57029
765000000 -9.4297056 167.33203 -4.063189 -138.61729 -4.0667949 -138.62347 -14.437073 72.176468
774500000 -9.4483242 137.797 -4.1104231 -167.17113 -4.114387 -167.17529 -13.929843 44.587231
784000000 -9.3848133 106.28036 -4.1640162 164.22826 -4.1677294 164.22281 -13.446465 18.35815
793500000 -9.0079031 75.273155 -4.2395453 135.69135 -4.2436895 135.68663 -12.927475 -7.299541
803000000 -8.6397715 46.84153 -4.3150797 107.37473 -4.318902 107.37074 -12.48455 -33.786137
812500000 -8.4929171 19.110096 -4.3628035 79.13102 -4.3667412 79.127579 -12.2569 -61.123959
822000000 -8.3674269 -9.3194408 -4.4007702 50.79837 -4.4044104 50.795166 -12.1668 -88.834473
831500000 -8.1502943 -37.090488 -4.4426007 22.46348 -4.4468379 22.458399 -12.088368 -117.22616
841000000 -8.0347919 -63.671879 -4.4769106 -5.8418598 -4.480772 -5.8455868 -12.016232 -146.38164
850500000 -8.0965405 -90.548859 -4.5005813 -34.17054 -4.5045805 -34.177063 -11.946622 -175.82124
860000000 -8.1667452 -118.54567 -4.5186324 -62.585876 -4.5226145 -62.588787 -11.877121 154.92548
869500000 -8.1701736 -147.02734 -4.5476213 -91.104866 -4.5514679 -91.110199 -11.767743 126.24482
879000000 -8.1750612 -175.6794 -4.5945144 -119.60247 -4.5986667 -119.60526 -11.579157 97.844688
888500000 -8.1585131 155.11574 -4.6436071 -148.04716 -4.6469474 -148.05011 -11.365946 69.66584
898000000 -8.0774279 125.45839 -4.6977797 -176.49274 -4.7015681 -176.49789 -11.121411 42.031818
907500000 -7.9454122 95.813591 -4.7620287 155.12668 -4.7654123 155.12267 -10.84303 14.760826
917000000 -7.7502842 66.537186 -4.8273368 126.85303 -4.8310227 126.84473 -10.577986 -12.415444
926500000 -7.5125771 38.243187 -4.8860383 98.693787 -4.8897777 98.685608 -10.376395 -39.831863
936000000 -7.3308954 11.088116 -4.9241052 70.611801 -4.9285235 70.597343 -10.288098 -67.75119
945500000 -7.2509527 -15.657719 -4.9423237 42.487976 -4.9471445 42.477123 -10.31484 -96.257751
955000000 -7.210021 -42.325977 -4.9523745 14.305396 -4.9570098 14.290874 -10.406872 -125.45929
964500000 -7.1779037 -68.52523 -4.9555678 -13.920947 -4.9617691 -13.935494 -10.517739 -155.45911
974000000 -7.2255034 -94.314964 -4.9539075 -42.206627 -4.9605784 -42.212109 -10.619712 173.94742
983500000 -7.3736467 -120.55075 -4.9474216 -70.549675 -4.9543128 -70.549103 -10.690647 143.11273
993000000 -7.5206618 -147.86424 -4.9376206 -99.016869 -4.9438472 -99.009682 -10.729845 112.51557
1002500000 -7.5916247 -175.82137 -4.946795 -127.60028 -4.9525752 -127.58907 -10.689317 82.51799
1012000000 -7.6327305 156.32867 -4.9749475 -156.09392 -4.9798589 -156.07954 -10.557002 52.780365
1021500000 -7.7037735 128.22514 -4.9925542 175.47186 -4.9962721 175.48279 -10.418203 23.343853
1031000000 -7.7546592 99.093475 -5.0102386 146.92993 -5.0142384 146.93906 -10.278056 -5.3441753
1040500000 -7.6563897 69.736694 -5.0519605 118.38949 -5.0555477 118.39637 -10.096553 -33.560249
1050000000 -7.4596577 41.827671 -5.1024108 90.032753 -5.1058984 90.038307 -9.9159184 -62.025749
1059500000 -7.3559031 15.240088 -5.1257067 61.799137 -5.1291733 61.802017 -9.8390512 -91.07328
1069000000 -7.3551846 -11.611808 -5.1253729 33.411526 -5.129158 33.41452 -9.8825216 -120.41983
1078500000 -7.3073907 -38.784508 -5.1458735 4.888165 -5.1493578 4.890976 -9.926116 -150.09978
1088000000 -7.2128205 -64.782593 -5.1789227 -23.47768 -5.1828423 -23.478739 -9.9128008 179.27332
1097500000 -7.2428703 -89.941292 -5.1798019 -51.787727 -5.1840649 -51.784634 -9.9080601 147.9655
1107000000 -7.4259839 -116.31755 -5.1675158 -80.32486 -5.1712952 -80.325241 -9.8907042 117.11955
1116500000 -7.5586052 -144.36378 -5.1827898 -108.99422 -5.1871166 -108.99442 -9.7724085 87.140411
1126000000 -7.5682306 -172.44743 -5.2178454 -137.55353 -5.2218118 -137.55574 -9.5723457 57.737701
1135500000 -7.6326303 159.73701 -5.2380056 -166.02402 -5.2425823 -166.02455 -9.382658 28.832373
1145000000 -7.7919698 130.54395 -5.2452121 165.34784 -5.24892 165.34819 -9.2449722 0.82184911
1154500000 -7.8472157 99.779068 -5.2850718 136.58424 -5.2893038 136.57825 -9.0729294 -26.288912
1164000000 -7.7051859 69.638901 -5.3523145 108.02416 -5.3566861 108.02437 -8.8583393 -53.447758
1173500000 -7.534102 40.963078 -5.3980575 79.622597 -5.4015784 79.618591 -8.7152348 -80.932938
1183000000 -7.4533033 12.492709 -5.4302921 51.117092 -5.4342818 51.113125 -8.6544876 -108.45763
1192500000 -7.359777 -16.178585 -5.4802704 22.572977 -5.4841108 22.565378 -8.6169147 -136.23215
1202000000 -7.1802759 -43.922108 -5.5373554 -5.8312073 -5.5419564 -5.8378553 -8.5892477 -164.73973
1211500000 -7.0526786 -70.395821 -5.5722203 -34.14045 -5.5762901 -34.144917 -8.5999117 166.01521
1221000000 -7.0901728 -97.012253 -5.5875039 -62.574661 -5.5918241 -62.583038 -8.6249084 136.57491
1230500000 -7.1922355 -124.82536 -5.6171064 -91.133995 -5.6213083 -91.140182 -8.5903883 107.29141
1240000000 -7.2081099 -153.10167 -5.6584411 -119.61166 -5.6627798 -119.61923 -8.4883575 78.145493
1249500000 -7.1987557 178.81912 -5.6844091 -148.06837 -5.6887403 -148.07433 -8.3797302 49.374569
1259000000 -7.2816911 150.1601 -5.7089391 -176.64775 -5.7132068 -176.6548 -8.2709446 21.314135
1268500000 -7.3702354 120.38818 -5.7490292 154.74356 -5.7533684 154.73801 -8.1453848 -6.2368245
1278000000 -7.3391991 90.275299 -5.7966328 126.18149 -5.8010631 126.17422 -8.0257874 -33.596024
1287500000 -7.2243719 60.645947 -5.8486013 97.633743 -5.8530431 97.628487 -7.9291272 -60.977886
1297000000 -7.0792232 31.691227 -5.9071169 69.114723 -5.9111223 69.110207 -7.863977 -88.6073
1306500000 -6.9168997 3.5446086 -5.9678259 40.670322 -5.9720058 40.664944 -7.8391881 -116.71933
1316000000 -6.7660518 -23.885752 -6.0202522 12.275575 -6.0246124 12.26649 -7.8653646 -145.42256
1325500000 -6.6270308 -50.903732 -6.0691113 -16.140333 -6.0742531 -16.151735 -7.918232 -174.69209
1335000000 -6.4949603 -77.272911 -6.1212878 -44.519146 -6.1259332 -44.52927 -7.9628487 155.39456
1344500000 -6.4372377 -102.97595 -6.1592398 -72.832069 -6.1642237 -72.851936 -7.9920645 124.9378
1354000000 -6.4892845 -129.12991 -6.1787958 -101.23907 -6.1849833 -101.25549 -7.9985571 94.386169
1363500000 -6.5356126 -156.36801 -6.2074313 -129.76852 -6.2134924 -129.78459 -7.9484329 64.162796
1373000000 -6.4978061 176.40277 -6.24858 -158.23576 -6.2554202 -158.25035 -7.840251 34.262962
1382500000 -6.5108819 149.63094 -6.2744455 173.33865 -6.2814331 173.32643 -7.7370367 4.7461896
1392000000 -6.6498947 121.83575 -6.2933459 144.755 -6.3012362 144.74852 -7.6584878 -24.166105
1401500000 -6.7143574 92.547287 -6.3359208 116.07106 -6.3430462 116.073 -7.5807433 -52.664375
1411000000 -6.585608 63.727032 -6.396338 87.462921 -6.4031 87.464836 -7.5081296 -81.210098
1420500000 -6.4662423 36.298531 -6.4543176 58.93232 -6.4607096 58.9417 -7.4724593 -110.09297
1430000000 -6.4425297 8.8488693 -6.5084457 30.364405 -6.5135689 30.372673 -7.481585 -139.28896
1439500000 -6.3397155 -19.153547 -6.5821157 1.7591624 -6.5869927 1.7681284 -7.4927955 -168.78101
1449000000 -6.1049519 -46.099152 -6.6743236 -26.660656 -6.6785359 -26.653753 -7.4779549 161.25479
1458500000 -5.9341841 -71.504654 -6.7431765 -54.884804 -6.7474608 -54.880875 -7.4556117 130.89117
1468000000 -5.9438791 -97.103287 -6.7832618 -83.181778 -6.7866492 -83.17881 -7.4263506 100.57211
1477500000 -5.9977107 -123.97751 -6.8280115 -111.58406 -6.8316984 -111.58572 -7.3559546 70.573372
1487000000 -5.9489202 -151.04836 -6.8787928 -139.92171 -6.882194 -139.92108 -7.251019 40.871441
1496500000 -5.9180322 -177.45221 -6.9136119 -168.19986 -6.9163904 -168.20659 -7.1488895 11.547235
1506000000 -6.0453501 155.6162 -6.9291368 163.4263 -6.9327002 163.41882 -7.0694647 -17.263176
1515500000 -6.2021022 126.98099 -6.9491501 134.88467 -6.9528232 134.87527 -7.0052557 -45.51984
1525000000 -6.2159219 97.756622 -6.9890389 106.32219 -6.9930248 106.3146 -6.9436984 -73.456612
1534500000 -6.1932817 69.215149 -7.0275569 77.819557 -7.0308652 77.808632 -6.9082847 -101.33095
1544000000 -6.2534585 40.450447 -7.0611291 49.219032 -7.0655122 49.205791 -6.9078727 -129.20061
1553500000 -6.2526946 10.93208 -7.1177993 20.540781 -7.1217813 20.531981 -6.9228716 -157.21629
1563000000 -6.094336 -17.868706 -7.193367 -8.0123119 -7.1977167 -8.0253773 -6.9447646 174.38391
1572500000 -5.9450345 -45.365585 -7.2628078 -36.440945 -7.2671375 -36.451817 -6.9781222 145.58611
1582000000 -5.9009366 -72.657654 -7.3238535 -64.834846 -7.3283758 -64.849091 -7.0036492 116.57623
1591500000 -5.8743405 -100.19587 -7.3767471 -93.185318 -7.3816342 -93.193359 -7.0044103 87.480446
1601000000 -5.8500352 -127.61102 -7.4143043 -121.53002 -7.4187813 -121.54247 -6.9849019 58.471542
1610500000 -5.8864017 -155.1243 -7.4411211 -149.92598 -7.4466844 -149.93619 -6.9530997 29.664928
1620000000 -5.93892 176.92851 -7.4622521 -178.38692 -7.4666786 -178.39363 -6.927815 1.0950598
1629500000 -5.994391 148.76511 -7.4822173 153.05421 -7.4872379 153.04311 -6.9179201 -27.212091
1639000000 -6.1243491 120.0953 -7.5095296 124.39433 -7.5141854 124.38692 -6.9204159 -55.295025
1648500000 -6.2440443 90.315994 -7.5473847 95.664665 -7.5523 95.6548 -6.9273157 -83.219299
1658000000 -6.2212462 60.274071 -7.5981293 66.902664 -7.6026106 66.897942 -6.9348884 -111.0964
1667500000 -6.1706133 30.986017 -7.6584139 38.158348 -7.6629968 38.145096 -6.9506669 -139.0466
1677000000 -6.1762829 1.668992 -7.724659 9.4071684 -7.7298231 9.4016457 -6.985703 -167.19281
1686500000 -6.0747094 -27.92724 -7.8062086 -19.346321 -7.8101664 -19.353939 -7.0406365 164.35632
1696000000 -5.8467593 -56.301819 -7.9018826 -48.011921 -7.9067016 -48.023491 -7.105751 135.45239
1705500000 -5.723083 -83.357788 -8.0001793 -76.559639 -8.0044136 -76.571213 -7.1734228 106.08807
1715000000 -5.7255263 -110.67996 -8.0897045 -105.0038 -8.094882 -105.01775 -7.2247424 76.412941
1724500000 -5.6522288 -138.55974 -8.161705 -133.42897 -8.166378 -133.44054 -7.2488618 46.665447
1734000000 -5.5270405 -165.90204 -8.229146 -161.93179 -8.2344685 -161.95055 -7.2366657 17.081543
1743500000 -5.5354919 167.17848 -8.3026743 169.56375 -8.3089542 169.55305 -7.1992373 -12.320771
1753000000 -5.6250033 139.50337 -8.3663797 141.07132 -8.372016 141.05734 -7.1715841 -41.528812
1762500000 -5.6279554 110.9644 -8.4204664 112.42323 -8.4273787 112.4119 -7.1668563 -70.470444
1772000000 -5.5916562 82.404572 -8.5013514 83.617485 -8.5079269 83.60984 -7.1657615 -99.158577
1781500000 -5.6219878 53.939774 -8.614418 54.944172 -8.6215572 54.938145 -7.1564059 -127.79427
1791000000 -5.6278496 25.121664 -8.7153559 26.441751 -8.7220278 26.442301 -7.1636968 -156.46478
1800500000 -5.5183997 -3.8769345 -8.8043909 -2.1867819 -8.811511 -2.1865306 -7.1933923 174.92894
1810000000 -5.3793511 -32.330471 -8.9306183 -30.894516 -8.9371099 -30.885637 -7.2264142 146.26607
1819500000 -5.2813811 -59.992447 -9.0855999 -59.322762 -9.0910482 -59.31649 -7.2641306 117.28884
1829000000 -5.1776228 -87.21595 -9.212678 -87.480186 -9.2184153 -87.471695 -7.3170161 87.944763
1838500000 -5.0483346 -114.29733 -9.3051929 -115.69952 -9.3103151 -115.68981 -7.3656254 58.43412
1848000000 -4.9700465 -141.24631 -9.4084215 -144.02879 -9.4132795 -144.01761 -7.3696604 28.94309
1857500000 -4.9724483 -168.12296 -9.5249348 -172.17435 -9.5288477 -172.16815 -7.3174272 -0.44704932
1867000000 -4.9694171 164.86969 -9.6053591 159.85609 -9.6104603 159.86165 -7.2419467 -29.624105
1876500000 -4.9316511 137.64493 -9.6451521 131.69223 -9.6490078 131.70221 -7.1748705 -58.396507
1886000000 -4.9644041 110.12757 -9.6978655 103.2291 -9.7012691 103.23337 -7.1184735 -86.752159
1895500000 -5.0884924 82.039963 -9.7840319 74.774246 -9.7875338 74.778366 -7.0769539 -114.89648
1905000000 -5.1588426 53.377949 -9.8674355 46.467915 -9.8713627 46.466732 -7.064724 -142.95311
1914500000 -5.1278729 24.6845 -9.9315996 18.113007 -9.935359 18.116306 -7.0819559 -170.92363
1924000000 -5.1243238 -3.9261205 -10.007033 -10.373969 -10.010321 -10.379281 -7.1095285 161.15921
1933500000 -5.1578279 -32.84148 -10.111583 -38.814064 -10.116384 -38.817635 -7.1430616 133.095
1943000000 -5.0847745 -61.56031 -10.219685 -67.023422 -10.223574 -67.024796 -7.1987557 104.71712
1952500000 -4.9303517 -89.272758 -10.297939 -95.131622 -10.302628 -95.138771 -7.2844071 75.996674
1962000000 -4.8678608 -116.53823 -10.358663 -123.38161 -10.363201 -123.38358 -7.3823719 46.972042
1971500000 -4.9004459 -144.23711 -10.438277 -151.66544 -10.442916 -151.67323 -7.4544725 17.686579
1981000000 -4.8762832 -172.03571 -10.513454 -179.78609 -10.518381 -179.78839 -7.4884858 -11.780635
1990500000 -4.8063173 160.69101 -10.554162 152.09502 -10.558946 152.08749 -7.491538 -41.149208
2000000000 -4.8346071 133.43802 -10.576994 123.76222 -10.582555 123.7615 -7.4738865 -70.178703
