!Keysight Technologies,N5242B,MY48420967,A.15.65.19
!Date: Monday, December 19, 2022 15:58:40
!Correction: S11(C  2-Port  ) 
!S21(C  2-Port  ) 
!S12(C  2-Port  ) 
!S22(C  2-Port  ) 
!S2P File: Measurements: S11, S21, S12, S22:
# Hz S  dB   R 50
100000000 -17.592594 -8.8837404 -2.0883582 56.862125 -2.0923901 56.849972 -19.324184 8.5533781
109500000 -16.661343 -31.376219 -2.1323898 28.287489 -2.1349161 28.284706 -19.419209 -18.481041
119000000 -16.346754 -51.260689 -2.1621418 -0.24992444 -2.1654592 -0.26677698 -19.786539 -42.347286
128500000 -16.539921 -73.188271 -2.1838155 -28.844845 -2.1876864 -28.85853 -19.98716 -63.880493
138000000 -16.698503 -98.223671 -2.2072961 -57.480099 -2.211086 -57.490932 -20.01895 -86.645889
147500000 -16.733479 -124.10542 -2.2338216 -86.108345 -2.237515 -86.121162 -20.308922 -110.84708
157000000 -16.961617 -151.45879 -2.2583315 -114.74073 -2.2626238 -114.75536 -20.739168 -135.7075
166500000 -17.263924 177.03973 -2.2873275 -143.41864 -2.2913938 -143.4286 -21.128714 -164.01984
176000000 -17.276155 142.56644 -2.3265953 -172.08078 -2.3304455 -172.09105 -21.590691 162.87103
185500000 -17.062288 107.95126 -2.3702812 159.31541 -2.3742468 159.30499 -21.86735 127.32095
195000000 -16.70373 74.37394 -2.4138911 130.77147 -2.417959 130.76154 -21.710222 92.280983
204500000 -16.241564 43.889526 -2.452369 102.28716 -2.4563899 102.27809 -21.410006 60.762867
214000000 -15.97698 17.086418 -2.4817042 73.814842 -2.4853055 73.808296 -21.168123 33.884468
223500000 -15.943727 -8.2286673 -2.5056882 45.3396 -2.5097044 45.332222 -21.18354 9.6913729
233000000 -15.800062 -33.213474 -2.5237164 16.864014 -2.5278151 16.858311 -21.633749 -11.956377
242500000 -15.527136 -56.889977 -2.5356243 -11.648236 -2.5396965 -11.655222 -22.17415 -31.802048
252000000 -15.526541 -80.186279 -2.547334 -40.210621 -2.5514934 -40.215885 -22.707031 -52.774506
261500000 -15.87527 -106.46814 -2.5605328 -68.805397 -2.5645308 -68.809952 -23.266878 -75.870941
271000000 -16.05312 -136.8452 -2.5766087 -97.435043 -2.5806122 -97.440994 -23.851288 -102.45921
280500000 -15.881616 -167.74632 -2.5988066 -126.08544 -2.6027353 -126.08841 -24.608206 -132.88734
290000000 -15.865383 161.55911 -2.627506 -154.73351 -2.6312559 -154.73872 -25.492157 -167.38104
299500000 -15.954453 127.71791 -2.6634457 176.62914 -2.6673741 176.62399 -26.295528 153.05814
309000000 -15.495497 92.412689 -2.7046175 148.0293 -2.708518 148.02339 -26.516386 109.92755
318500000 -14.7693 61.154251 -2.7471557 119.48057 -2.7511849 119.47559 -25.947529 67.91362
328000000 -14.459373 33.08992 -2.7848158 90.996147 -2.7888134 90.990936 -25.256203 31.460552
337500000 -14.426341 4.7434258 -2.8120153 62.521648 -2.8162048 62.516087 -24.926586 1.6758287
347000000 -14.182268 -23.447214 -2.8351328 34.000629 -2.8393335 33.997234 -24.953804 -24.285196
356500000 -13.832948 -49.346214 -2.8591812 5.4585953 -2.8633604 5.4538875 -25.560165 -50.524837
366000000 -13.757129 -74.601334 -2.880393 -23.103344 -2.8847733 -23.105015 -26.87602 -78.362099
375500000 -13.887226 -102.6451 -2.9003079 -51.71524 -2.9044046 -51.717815 -28.231262 -109.85911
385000000 -13.808421 -133.71838 -2.926264 -80.388557 -2.9304299 -80.392311 -28.478218 -148.24515
394500000 -13.483348 -165.01817 -2.9667552 -109.0819 -2.9706898 -109.08467 -27.008709 170.04137
404000000 -13.225126 164.01897 -3.0190578 -137.71616 -3.0230527 -137.72093 -24.85848 131.31412
413500000 -13.001399 131.94395 -3.0717196 -166.30199 -3.0760252 -166.30704 -22.997002 98.026237
423000000 -12.535364 99.316528 -3.1308796 165.10881 -3.1348705 165.1055 -21.324238 68.282539
432500000 -11.895432 68.499893 -3.2018991 136.61687 -3.205852 136.61417 -19.853413 38.38736
442000000 -11.39377 39.832855 -3.2642772 108.27373 -3.2683768 108.26862 -18.87281 8.2285709
451500000 -11.128186 11.830424 -3.3064077 79.955734 -3.3106 79.951515 -18.36491 -20.540136
461000000 -10.954987 -16.182796 -3.3397548 51.580265 -3.3439469 51.576496 -18.126614 -47.948185
470500000 -10.776791 -43.410896 -3.3738093 23.181828 -3.3778152 23.178806 -18.108101 -75.65007
480000000 -10.687572 -69.57991 -3.4016619 -5.2126212 -3.4058943 -5.2177448 -18.410192 -104.69288
489500000 -10.747766 -96.113388 -3.4214294 -33.672268 -3.4259109 -33.675758 -18.930565 -134.79903
499000000 -10.809971 -124.35998 -3.4482067 -62.230858 -3.4522078 -62.234192 -19.239605 -165.62126
508500000 -10.721437 -153.74989 -3.4920185 -90.79438 -3.496238 -90.797203 -19.013304 162.65671
518000000 -10.567751 176.87906 -3.5428524 -119.27893 -3.5468397 -119.28053 -18.427826 131.11888
527500000 -10.460815 147.27805 -3.5918288 -147.73586 -3.5959735 -147.73921 -17.722979 101.56967
537000000 -10.32329 117.12656 -3.6470714 -176.18083 -3.651304 -176.18152 -17.010128 73.684685
546500000 -10.064625 87.420723 -3.7078149 155.46651 -3.7115154 155.46408 -16.430504 45.948124
556000000 -9.7655611 59.049118 -3.7596805 127.21324 -3.763236 127.20949 -16.116785 17.596224
565500000 -9.5465317 31.738186 -3.7981246 98.993286 -3.8012221 98.985786 -16.055868 -11.227714
575000000 -9.4443188 4.8426466 -3.8250499 70.772789 -3.8283033 70.760223 -16.15683 -40.515041
584500000 -9.4317713 -21.930487 -3.8392715 42.54039 -3.8432314 42.521317 -16.40535 -70.301918
594000000 -9.4688015 -48.434761 -3.8412602 14.240596 -3.8475001 14.217675 -16.814632 -100.44653
603500000 -9.5519695 -74.530602 -3.841964 -14.167677 -3.8496301 -14.178386 -17.343145 -131.09265
613000000 -9.7268257 -100.65647 -3.8478498 -42.628761 -3.8554981 -42.625618 -17.890535 -163.01628
622500000 -9.9501257 -127.82112 -3.8528154 -71.13929 -3.8594036 -71.124016 -18.366249 163.74997
632000000 -10.072669 -156.51003 -3.8676088 -99.741974 -3.8718064 -99.727371 -18.49103 130.87613
641500000 -10.038404 174.24261 -3.9013896 -128.33917 -3.9047759 -128.33063 -18.098412 99.228607
651000000 -9.9831667 145.20529 -3.9433701 -156.84659 -3.9465966 -156.84489 -17.428928 69.019157
660500000 -9.9757099 115.75468 -3.9800053 174.69926 -3.9835305 174.6981 -16.819725 40.294006
670000000 -9.8752642 85.72477 -4.0159931 146.21553 -4.0195398 146.21178 -16.380857 12.938636
679500000 -9.6170092 56.695339 -4.0627213 117.76398 -4.0666828 117.75898 -16.038181 -14.502966
689000000 -9.3925762 29.610842 -4.1059847 89.442886 -4.110054 89.44162 -15.856567 -43.686546
698500000 -9.34653 3.1057637 -4.125864 61.153294 -4.129879 61.149632 -15.908487 -74.344803
708000000 -9.3593988 -24.247505 -4.1345191 32.729973 -4.1388135 32.727707 -16.042065 -105.2332
717500000 -9.286068 -51.59322 -4.1568089 4.2374701 -4.1610022 4.2345376 -16.019281 -136.17625
727000000 -9.2621078 -77.763611 -4.1803551 -24.184034 -4.1847882 -24.186287 -15.877984 -167.88263
736500000 -9.4615507 -104.25282 -4.1853781 -52.660149 -4.1895747 -52.662731 -15.807528 160.51263
746000000 -9.7031574 -133.13855 -4.1957278 -81.322823 -4.200191 -81.326019 -15.695003 130.44511
755500000 -9.6717167 -163.20647 -4.2347465 -110.01326 -4.2389059 -110.01492 -15.343729 101.49703
765000000 -9.5353775 167.69391 -4.2864332 -138.59352 -4.290554 -138.59966 -14.826433 72.999809
774500000 -9.5654678 138.17963 -4.3343878 -167.13506 -4.3389287 -167.1394 -14.303231 45.343163
784000000 -9.5137596 106.65231 -4.3888216 164.27515 -4.3930688 164.26973 -13.805011 19.080729
793500000 -9.1399775 75.630386 -4.465065 135.74959 -4.4697642 135.74431 -13.276833 -6.5999694
803000000 -8.771244 47.225521 -4.5412049 107.44143 -4.545579 107.43715 -12.833519 -33.092155
812500000 -8.6277409 19.536852 -4.5898814 79.205521 -4.5944695 79.201653 -12.611501 -60.421181
822000000 -8.5065632 -8.8693008 -4.6289268 50.882477 -4.633245 50.87833 -12.529807 -88.135735
831500000 -8.290575 -36.617714 -4.6718168 22.557705 -4.676559 22.551991 -12.461917 -116.56264
841000000 -8.1762142 -63.147655 -4.7070146 -5.7364926 -4.7114778 -5.741612 -12.400366 -145.77954
850500000 -8.2440701 -89.963142 -4.7315564 -34.055836 -4.7360921 -34.063278 -12.339058 -175.29744
860000000 -8.3238325 -117.9152 -4.7504168 -62.459579 -4.7549567 -62.463154 -12.273694 155.35899
869500000 -8.335803 -146.36571 -4.7796774 -90.966331 -4.7840533 -90.972565 -12.165718 126.57848
879000000 -8.3488979 -174.98094 -4.8263254 -119.45479 -4.8310885 -119.45784 -11.976661 98.083214
888500000 -8.3424358 155.84552 -4.875092 -147.89305 -4.8791099 -147.896 -11.761518 69.821312
898000000 -8.2703753 126.19875 -4.9288883 -176.33517 -4.9332557 -176.34055 -11.514484 42.124584
907500000 -8.1434164 96.55394 -4.9927859 155.28403 -4.9967666 155.27898 -11.234839 14.813038
917000000 -7.9490805 67.277092 -5.0579882 127.00478 -5.0622687 126.99631 -10.971193 -12.380881
926500000 -7.7090464 38.987637 -5.1172628 98.83712 -5.1216264 98.828697 -10.7744 -39.799122
936000000 -7.5234866 11.850365 -5.1570449 70.745628 -5.1619468 70.730659 -10.694326 -67.717484
945500000 -7.4399095 -14.868919 -5.1775212 42.615089 -5.1829872 42.603451 -10.732051 -96.234535
955000000 -7.3959107 -41.515305 -5.1903362 14.428112 -5.1956053 14.412698 -10.836105 -125.46573
964500000 -7.3600106 -67.696205 -5.1966734 -13.799872 -5.2034841 -13.81472 -10.957415 -155.51707
974000000 -7.4046369 -93.459053 -5.1981559 -42.083363 -5.2054887 -42.089352 -11.065914 173.81784
983500000 -7.5535998 -119.66376 -5.1950083 -70.420341 -5.2025323 -70.420921 -11.138114 142.90695
993000000 -7.7046661 -146.96982 -5.1882377 -98.877907 -5.1951027 -98.871521 -11.17332 112.23962
1002500000 -7.778326 -174.94623 -5.1996555 -127.45092 -5.206079 -127.44067 -11.125247 82.193741
1012000000 -7.8202281 157.18242 -5.2299471 -155.93767 -5.2354074 -155.92389 -10.983162 52.437801
1021500000 -7.8936305 129.06282 -5.2499809 175.63548 -5.2542338 175.6458 -10.834346 23.011156
1031000000 -7.9473662 99.891762 -5.2699075 147.10164 -5.274437 147.10922 -10.686125 -5.6404591
1040500000 -7.8464017 70.467102 -5.313859 118.5681 -5.3180056 118.57371 -10.50032 -33.793629
1050000000 -7.6406422 42.506695 -5.3669968 90.215919 -5.3709807 90.220116 -10.319524 -62.17878
1059500000 -7.5288315 15.900026 -5.393477 61.988201 -5.3974514 61.989506 -10.24619 -91.142815
1069000000 -7.5242348 -10.970912 -5.3966737 33.612179 -5.4010105 33.612988 -10.295681 -120.4184
1078500000 -7.4720073 -38.18269 -5.4203534 5.1050653 -5.4243898 5.1057911 -10.347272 -150.05464
1088000000 -7.3704953 -64.207314 -5.4559841 -23.24485 -5.4603992 -23.248156 -10.341462 179.33717
1097500000 -7.3987122 -89.35907 -5.4597044 -51.538506 -5.464479 -51.537159 -10.339441 148.02641
1107000000 -7.5880828 -115.72308 -5.4496393 -80.054337 -5.4540482 -80.056618 -10.31933 117.15885
1116500000 -7.7290454 -143.78625 -5.4663877 -108.70247 -5.4712601 -108.70494 -10.195017 87.153419
1126000000 -7.7430992 -171.87904 -5.5023208 -137.24548 -5.5069251 -137.25018 -9.9876575 57.73634
1135500000 -7.8139391 160.33488 -5.5236163 -165.70267 -5.5288687 -165.70566 -9.7902718 28.827114
1145000000 -7.985147 131.16872 -5.5322227 165.68364 -5.536489 165.68181 -9.6463127 0.81359893
1154500000 -8.0491037 100.38798 -5.572825 136.93568 -5.5775952 136.92668 -9.4721594 -26.302113
1164000000 -7.9064894 70.2295 -5.6405492 108.38367 -5.6454592 108.38132 -9.259367 -53.454544
1173500000 -7.733305 41.576149 -5.687408 79.987999 -5.6915207 79.981277 -9.1204243 -80.932198
1183000000 -7.6530013 13.138713 -5.7212529 51.489391 -5.7259226 51.482738 -9.0667143 -108.46117
1192500000 -7.5584149 -15.514741 -5.7726994 22.953287 -5.7771349 22.943087 -9.0388823 -136.25844
1202000000 -7.3739538 -43.22887 -5.8313441 -5.4444375 -5.8364692 -5.4543242 -9.0222292 -164.80988
1211500000 -7.2429924 -69.636292 -5.8682604 -33.747883 -5.8729444 -33.75581 -9.0415068 165.87317
1221000000 -7.2833118 -96.167473 -5.8859673 -62.17326 -5.8908005 -62.184536 -9.070837 136.32993
1230500000 -7.3913455 -123.90786 -5.9173951 -90.720688 -5.9222536 -90.730339 -9.0360632 106.92796
1240000000 -7.4115791 -152.12404 -5.9602933 -119.18895 -5.9652085 -119.20027 -8.9299927 77.672302
1249500000 -7.406332 179.87659 -5.9882178 -147.63695 -5.9931259 -147.64705 -8.8144197 48.808109
1259000000 -7.4968133 151.30853 -6.0143714 -176.20645 -6.0192695 -176.21759 -8.6994877 20.66991
1268500000 -7.5945024 121.59515 -6.0559001 155.19304 -6.0608449 155.18317 -8.5710516 -6.9402633
1278000000 -7.5679908 91.504265 -6.1049638 126.63461 -6.1099777 126.62298 -8.4519711 -34.34053
1287500000 -7.4528832 61.884644 -6.1588283 98.088051 -6.1639171 98.078079 -8.3591509 -61.749554
1297000000 -7.3044195 32.928024 -6.2197804 69.569427 -6.2244511 69.559593 -8.3004513 -89.395874
1306500000 -7.1357684 4.773098 -6.2836428 41.124851 -6.2884979 41.113579 -8.2838964 -117.51965
1316000000 -6.9772058 -22.660759 -6.3398833 12.731478 -6.3449306 12.716681 -8.3188715 -146.23523
1325500000 -6.8313642 -49.683922 -6.3931355 -15.679835 -6.3989196 -15.695905 -8.3796501 -175.52667
1335000000 -6.6919808 -76.061546 -6.4499669 -44.049603 -6.4552126 -44.063953 -8.42941 154.53195
1344500000 -6.6283112 -101.75644 -6.492856 -72.348679 -6.4985194 -72.372086 -8.458683 124.04681
1354000000 -6.6804852 -127.89196 -6.5170312 -100.73417 -6.5238366 -100.75379 -8.4599457 93.474159
1363500000 -6.7306151 -155.14015 -6.5493512 -129.23909 -6.5560675 -129.25777 -8.4018726 63.252171
1373000000 -6.6940575 177.59904 -6.5938425 -157.68367 -6.6011891 -157.70119 -8.2850237 33.389511
1382500000 -6.7081661 150.81932 -6.6228647 173.91438 -6.6304622 173.89882 -8.1739435 3.9368067
1392000000 -6.8546438 123.01534 -6.6445603 145.35568 -6.6531119 145.34564 -8.0908432 -24.898237
1401500000 -6.927701 93.655472 -6.6894522 116.69557 -6.6972537 116.69457 -8.0133495 -53.307751
1411000000 -6.7982349 64.733109 -6.7522206 88.108856 -6.7595963 88.108017 -7.944859 -81.754013
1420500000 -6.674325 37.22908 -6.812449 59.599957 -6.8195639 59.60614 -7.9154959 -110.53417
1430000000 -6.6508203 9.7074986 -6.869091 31.054768 -6.8748603 31.060398 -7.9322443 -139.63368
1439500000 -6.5476284 -18.395128 -6.9447145 2.4749939 -6.9502621 2.4810011 -7.9519672 -169.04265
1449000000 -6.3066573 -45.428265 -7.0383759 -25.921642 -7.0431557 -25.918324 -7.944478 161.06448
1458500000 -6.1309204 -70.870781 -7.1086612 -54.125031 -7.1134806 -54.124271 -7.9265032 130.75484
1468000000 -6.1430798 -96.486031 -7.1500969 -82.402054 -7.1540022 -82.402191 -7.8981333 100.47275
1477500000 -6.2036157 -123.39633 -7.1961384 -110.78728 -7.2004113 -110.79182 -7.8259902 70.503273
1487000000 -6.1582694 -150.50711 -7.2482142 -139.10843 -7.2520528 -139.11079 -7.717104 40.831436
1496500000 -6.1301856 -176.91597 -7.2843924 -167.37425 -7.2877636 -167.38475 -7.6101336 11.537848
1506000000 -6.2670946 156.17261 -7.3021593 164.26416 -7.3064075 164.25323 -7.5260625 -17.245872
1515500000 -6.436018 127.53313 -7.324367 135.73875 -7.3285651 135.72574 -7.4591527 -45.483604
1525000000 -6.455008 98.280083 -7.3659468 107.19033 -7.3706112 107.17934 -7.3978696 -73.406166
1534500000 -6.4340806 69.739784 -7.4066553 78.698532 -7.4105043 78.684227 -7.3650517 -101.26984
1544000000 -6.498868 40.986084 -7.4428396 50.110699 -7.4478621 50.093914 -7.3697543 -129.13852
1553500000 -6.5009089 11.446785 -7.5020995 21.446892 -7.5067587 21.435116 -7.392427 -157.16417
1563000000 -6.3375306 -17.366987 -7.5799809 -7.0916233 -7.5849876 -7.1081243 -7.4227896 174.41142
1572500000 -6.1827655 -44.828655 -7.6519871 -35.509819 -7.6569734 -35.524212 -7.4633217 145.56682
1582000000 -6.1381593 -72.067612 -7.7160287 -63.893845 -7.7211637 -63.911118 -7.4934258 116.48874
1591500000 -6.1126366 -99.559341 -7.7724957 -92.234482 -7.7780981 -92.246208 -7.4948134 87.312515
1601000000 -6.0884829 -126.91473 -7.8144727 -120.56757 -7.8195133 -120.58327 -7.4724121 58.222569
1610500000 -6.1268163 -154.35159 -7.8459158 -148.94864 -7.8520131 -148.96132 -7.4360032 29.34309
1620000000 -6.1835799 177.77345 -7.8721099 -177.39159 -7.8771396 -177.40109 -7.405602 0.71270567
1629500000 -6.243628 149.68758 -7.8973455 154.07431 -7.9029813 154.06058 -7.3912969 -27.648512
1639000000 -6.3801413 121.10239 -7.9292727 125.4437 -7.9345441 125.43368 -7.3908372 -55.783302
1648500000 -6.5078249 91.377129 -7.9713116 96.744095 -7.9767385 96.731483 -7.3967199 -83.751663
1658000000 -6.4886546 61.356403 -8.0259771 68.013741 -8.0310879 68.005844 -7.4046035 -111.66045
1667500000 -6.4373012 32.094017 -8.0900202 39.299938 -8.0952864 39.284153 -7.4226189 -139.62738
1677000000 -6.4440637 2.7941024 -8.1603832 10.58102 -8.1662111 10.573164 -7.4620161 -167.77512
1686500000 -6.3409204 -26.823429 -8.2456522 -18.137543 -8.2502241 -18.147385 -7.5230994 163.78294
1696000000 -6.1056685 -55.216633 -8.3448915 -46.767052 -8.3503647 -46.781528 -7.594429 134.89548
1705500000 -5.9762344 -82.254211 -8.4467459 -75.279007 -8.4516354 -75.292801 -7.6661315 105.54697
1715000000 -5.9796071 -109.55761 -8.539773 -103.68618 -8.5456018 -103.70242 -7.717535 75.890564
1724500000 -5.9087944 -137.44289 -8.6154757 -132.07198 -8.6208334 -132.08472 -7.7377887 46.16898
1734000000 -5.7831798 -164.78151 -8.6861019 -160.52899 -8.6921282 -160.55081 -7.7204676 16.630089
1743500000 -5.7938337 168.32297 -8.7623806 171.01089 -8.7693682 170.99788 -7.678299 -12.697276
1753000000 -5.8920827 140.66159 -8.8287678 142.5654 -8.8350649 142.5491 -7.6466141 -41.811779
1762500000 -5.9049511 112.10526 -8.8848038 113.96949 -8.8924952 113.95638 -7.6397996 -70.657089
1772000000 -5.874855 83.516495 -8.9662094 85.21637 -8.9733963 85.207237 -7.6398139 -99.243637
1781500000 -5.9108315 55.020493 -9.0789585 56.588531 -9.0867929 56.580669 -7.6333776 -127.76317
1791000000 -5.9238586 26.144056 -9.180006 28.127237 -9.1874952 28.126314 -7.6442795 -156.30537
1800500000 -5.8185205 -2.9359708 -9.2692928 -0.45714441 -9.2770367 -0.45753404 -7.6795335 175.21825
1810000000 -5.6774573 -31.465033 -9.3945055 -29.117212 -9.4017334 -29.109142 -7.7214403 146.69106
1819500000 -5.5760002 -59.190289 -9.5471134 -57.506172 -9.553196 -57.500343 -7.7690949 117.84765
1829000000 -5.4721341 -86.472443 -9.6720715 -85.634735 -9.6785364 -85.62587 -7.8301368 88.610611
1838500000 -5.344501 -113.59892 -9.7633429 -113.82598 -9.7691593 -113.81704 -7.8852339 59.167336
1848000000 -5.2677975 -140.57047 -9.8643637 -142.1245 -9.8699188 -142.11453 -7.8919015 29.714626
1857500000 -5.2737727 -167.45877 -9.9772034 -170.25653 -9.9817772 -170.25159 -7.8388462 0.33185083
1867000000 -5.277492 165.52252 -10.056149 161.76671 -10.061881 161.77203 -7.7617416 -28.849466
1876500000 -5.2476711 138.30377 -10.097727 133.59697 -10.102245 133.60585 -7.6940084 -57.633369
1886000000 -5.2879539 110.82041 -10.15373 105.1377 -10.157743 105.1407 -7.6396933 -85.998001
1895500000 -5.4195104 82.768364 -10.243863 76.690994 -10.247983 76.694801 -7.6023178 -114.14287
1905000000 -5.4950266 54.118565 -10.33261 48.39851 -10.337056 48.396049 -7.5944514 -142.19949
1914500000 -5.4645133 25.441227 -10.404174 20.073318 -10.408574 20.07608 -7.6163754 -170.17157
1924000000 -5.4563823 -3.1436896 -10.484448 -8.3581095 -10.488258 -8.3638201 -7.6502175 161.89694
1933500000 -5.4821668 -32.05682 -10.590637 -36.739491 -10.596063 -36.743423 -7.692234 133.81796
1943000000 -5.3989697 -60.801777 -10.698433 -64.909897 -10.702871 -64.911339 -7.7584591 105.41815
1952500000 -5.233808 -88.523262 -10.776572 -92.985214 -10.781739 -92.992683 -7.854641 76.655258
1962000000 -5.1647005 -115.76154 -10.838395 -121.20873 -10.843503 -121.21153 -7.962348 47.565067
1971500000 -5.1941915 -143.42818 -10.918509 -149.47038 -10.923778 -149.47841 -8.0415182 18.196905
1981000000 -5.1686349 -171.20126 -10.995913 -177.57643 -11.001475 -177.5798 -8.0770493 -11.354252
1990500000 -5.0980673 161.57317 -11.041097 154.32074 -11.046464 154.31241 -8.0761137 -40.800251
2000000000 -5.1285481 134.41043 -11.069987 126.01814 -11.076176 126.01625 -8.0511961 -69.885918
