!Keysight Technologies,N5242B,MY48420967,A.15.65.19
!Date: Monday, December 19, 2022 10:44:47
!Correction: S11(C  2-Port  ) 
!S21(C  2-Port  ) 
!S12(C  2-Port  ) 
!S22(C  2-Port  ) 
!S2P File: Measurements: S11, S21, S12, S22:
# Hz S  dB   R 50
100000000 -16.391979 -6.959301 -2.0534551 57.758675 -2.0533481 57.738991 -18.444494 13.513847
109500000 -15.615983 -30.071909 -2.0885148 29.170929 -2.0868931 29.160847 -18.614401 -12.60724
119000000 -15.353785 -50.736126 -2.1088061 0.61332607 -2.1084292 0.59112006 -18.979025 -35.743919
128500000 -15.544883 -73.211258 -2.121527 -28.007368 -2.1217945 -28.025948 -19.145535 -56.967171
138000000 -15.706187 -98.579468 -2.1370819 -56.673199 -2.1373641 -56.688782 -19.159393 -79.513435
147500000 -15.747913 -124.82637 -2.1570666 -85.334351 -2.1568122 -85.352135 -19.404625 -103.41281
157000000 -15.94711 -152.53357 -2.1755655 -114.00264 -2.1760974 -114.02299 -19.784861 -128.0493
166500000 -16.192087 175.89801 -2.1996899 -142.7234 -2.2002554 -142.7377 -20.18713 -155.90962
176000000 -16.162989 141.661 -2.2364631 -171.42778 -2.2367954 -171.44095 -20.750828 171.8511
185500000 -15.93811 107.32714 -2.2791111 159.9344 -2.2797315 159.9211 -21.230698 137.00536
195000000 -15.592068 73.883987 -2.3231149 131.36649 -2.3237185 131.35402 -21.320375 101.92081
204500000 -15.156816 43.208332 -2.3620501 102.87102 -2.362628 102.85925 -21.186193 69.858353
214000000 -14.911944 15.859016 -2.391103 74.39357 -2.3914628 74.384926 -20.989014 42.351368
223500000 -14.893216 -10.177487 -2.4147513 45.919743 -2.4153516 45.910831 -20.984774 17.813982
233000000 -14.784195 -35.864223 -2.4309571 17.450441 -2.4317281 17.443205 -21.346952 -3.7035689
242500000 -14.579463 -60.212551 -2.4403896 -11.059487 -2.4411407 -11.067167 -21.747007 -23.286579
252000000 -14.640227 -84.235764 -2.4492536 -39.62162 -2.450155 -39.627682 -22.129831 -43.834984
261500000 -14.992521 -111.11577 -2.4596632 -68.219833 -2.4603531 -68.224686 -22.54862 -66.287148
271000000 -15.134757 -141.56898 -2.473623 -96.852463 -2.4741099 -96.859863 -23.04838 -91.811554
280500000 -14.966131 -172.23738 -2.4934778 -125.50542 -2.4941471 -125.50997 -23.768398 -120.3651
290000000 -14.946243 157.14699 -2.5202627 -154.15826 -2.5207484 -154.16344 -24.735939 -152.12326
299500000 -14.972769 123.67252 -2.554589 177.20396 -2.5551331 177.19766 -25.92012 171.85811
309000000 -14.504005 89.250664 -2.5940425 148.60548 -2.5945868 148.59903 -26.942078 131.257
318500000 -13.849639 58.475964 -2.6349435 120.06046 -2.6355462 120.05479 -27.273546 88.520683
328000000 -13.582882 30.376482 -2.6707947 91.58313 -2.6714666 91.576813 -27.126871 50.099815
337500000 -13.553844 2.0255301 -2.6957932 63.117805 -2.6965859 63.11187 -27.006184 19.981272
347000000 -13.339818 -26.036707 -2.7162042 34.608349 -2.7169521 34.603626 -27.079464 -4.439219
356500000 -13.048022 -52.022476 -2.7369423 6.0780182 -2.7377594 6.0720048 -27.813723 -27.253519
366000000 -12.998191 -77.513916 -2.7540085 -22.470856 -2.7548862 -22.473402 -29.50742 -48.677227
375500000 -13.108239 -105.61445 -2.7683334 -51.076324 -2.7691996 -51.079651 -31.65649 -72.179085
385000000 -13.006203 -136.43462 -2.7890284 -79.753555 -2.7898688 -79.757599 -33.694946 -110.38241
394500000 -12.679441 -167.44893 -2.8248651 -108.4546 -2.8255241 -108.45782 -33.280861 -170.29579
404000000 -12.415023 161.76947 -2.8728635 -137.09932 -2.8736482 -137.10349 -29.896387 136.05676
413500000 -12.170983 129.93504 -2.9220092 -165.6985 -2.922992 -165.7021 -26.819525 98.222641
423000000 -11.701995 97.65815 -2.9780722 165.69794 -2.9788282 165.69577 -24.30751 67.544029
432500000 -11.089536 67.045105 -3.0473616 137.1918 -3.0479705 137.19106 -22.237141 37.155136
442000000 -10.611713 38.322308 -3.1084559 108.84586 -3.1092069 108.8423 -20.887148 6.4577508
451500000 -10.342996 10.166315 -3.148243 80.525154 -3.1491365 80.524193 -20.190439 -22.51959
461000000 -10.161592 -17.955208 -3.1798701 52.145508 -3.1805458 52.144165 -19.853354 -49.787449
470500000 -9.9894972 -45.347786 -3.212461 23.747885 -3.2131462 23.746845 -19.784334 -77.40844
480000000 -9.9014635 -71.827995 -3.2385488 -4.6400757 -3.2392554 -4.6414742 -20.098942 -106.7282
489500000 -9.9409065 -98.658142 -3.2549939 -33.091808 -3.2559202 -33.092831 -20.681599 -137.41139
499000000 -9.9779377 -127.01791 -3.2780638 -61.652649 -3.278574 -61.652824 -21.008572 -168.82538
508500000 -9.8809748 -156.40451 -3.3197033 -90.220268 -3.3203347 -90.220139 -20.659807 159.00166
518000000 -9.7198601 174.24098 -3.3681624 -118.70325 -3.3686538 -118.70242 -19.889576 127.25623
527500000 -9.6005564 144.70827 -3.4148126 -147.16138 -3.4154167 -147.16083 -19.029251 97.925072
537000000 -9.4605656 114.7065 -3.4687111 -175.60519 -3.4692912 -175.60291 -18.195318 70.484413
546500000 -9.2139435 85.120026 -3.5284257 156.05066 -3.5287225 156.05136 -17.522648 43.051414
556000000 -8.9352751 56.787632 -3.5788209 127.81561 -3.5787747 127.8156 -17.152334 14.721838
565500000 -8.7381496 29.434618 -3.6138086 99.618172 -3.6133473 99.614037 -17.070196 -14.304169
575000000 -8.6509876 2.4152706 -3.6364517 71.414383 -3.6360598 71.406128 -17.172747 -43.935551
584500000 -8.6451054 -24.513817 -3.645952 43.198788 -3.6464233 43.181221 -17.435925 -74.240356
594000000 -8.6880503 -51.182613 -3.6424091 14.912353 -3.6455522 14.892133 -17.881536 -105.12852
603500000 -8.7800388 -77.491959 -3.6376603 -13.488564 -3.6421058 -13.493538 -18.459461 -136.72403
613000000 -8.9577045 -103.86935 -3.6380475 -41.940327 -3.6424484 -41.931561 -19.025204 -169.8777
622500000 -9.1704502 -131.21928 -3.6366537 -70.448814 -3.6396098 -70.426262 -19.464121 155.4576
632000000 -9.280673 -159.92717 -3.6462703 -99.0541 -3.6465485 -99.033646 -19.49139 121.63924
641500000 -9.2450485 170.9207 -3.6750829 -127.65107 -3.6746442 -127.63766 -18.970688 89.873451
651000000 -9.1944714 141.95793 -3.7124491 -156.15758 -3.7117062 -156.15114 -18.187298 60.079651
660500000 -9.1851921 112.57558 -3.7435234 175.39096 -3.7432182 175.39255 -17.504725 31.77804
670000000 -9.0865803 82.687599 -3.7745955 146.90416 -3.7745326 146.90402 -17.043051 4.7049141
679500000 -8.8561211 53.800327 -3.8171291 118.45664 -3.8173761 118.45484 -16.677229 -22.533972
689000000 -8.67171 26.682728 -3.8549588 90.148689 -3.8553646 90.150047 -16.434978 -51.818871
698500000 -8.6467104 0.010623001 -3.8674114 61.86657 -3.8678207 61.866043 -16.406244 -82.933708
708000000 -8.6645613 -27.451588 -3.8686004 33.43911 -3.8692224 33.438931 -16.462528 -114.32792
717500000 -8.6108007 -54.848309 -3.8843374 4.9396071 -3.885088 4.9408102 -16.352057 -145.51674
727000000 -8.6140099 -81.204193 -3.9008198 -23.484447 -3.9015636 -23.484135 -16.097775 -177.29181
736500000 -8.8099632 -107.99317 -3.8978133 -51.976307 -3.8986106 -51.97662 -15.92323 151.01842
746000000 -9.0205946 -137.00439 -3.9022541 -80.664154 -3.9032078 -80.664047 -15.754768 121.02155
755500000 -8.9764614 -166.97643 -3.9364552 -109.37419 -3.9370375 -109.37282 -15.377532 92.523407
765000000 -8.8435612 163.93257 -3.9833562 -137.97139 -3.9840326 -137.97295 -14.836349 64.680229
774500000 -8.8503685 134.37898 -4.0265694 -166.5289 -4.02738 -166.52885 -14.303536 37.628269
784000000 -8.765522 103.04032 -4.0765371 164.86139 -4.0773773 164.86032 -13.822659 11.925128
793500000 -8.4018126 72.289841 -4.1506009 136.31961 -4.1515989 136.32133 -13.309981 -13.158323
803000000 -8.0605831 43.938129 -4.2236795 108.01521 -4.2244434 108.01682 -12.852484 -39.192467
812500000 -7.922483 16.172602 -4.2670813 79.778778 -4.2679596 79.78157 -12.603929 -66.30249
822000000 -7.8006673 -12.242455 -4.3011079 51.449158 -4.3017292 51.45018 -12.494851 -93.88842
831500000 -7.6001663 -40.009979 -4.3389668 23.117708 -4.3402824 23.118803 -12.389083 -122.17268
841000000 -7.5013351 -66.711479 -4.3692284 -5.1838217 -4.3698864 -5.1815014 -12.278728 -151.23178
850500000 -7.5630436 -93.750076 -4.3880329 -33.507755 -4.3890128 -33.510201 -12.167879 179.41479
860000000 -7.6236739 -121.84473 -4.400878 -61.930172 -4.4019537 -61.927166 -12.064393 150.26492
869500000 -7.6234379 -150.38248 -4.4265852 -90.459671 -4.4272842 -90.459427 -11.929266 121.76017
879000000 -7.6235662 -179.09166 -4.4708815 -118.95848 -4.4720058 -118.95754 -11.714633 93.597237
888500000 -7.5951371 151.69568 -4.5170188 -147.40395 -4.5173025 -147.40298 -11.477971 65.664253
898000000 -7.5047112 122.10419 -4.5688601 -175.85101 -4.5696211 -175.85077 -11.216284 38.29604
907500000 -7.3712602 92.544243 -4.6315827 155.77281 -4.6319289 155.77493 -10.922126 11.307886
917000000 -7.1805935 63.354794 -4.6954412 127.51586 -4.6959028 127.51369 -10.639582 -15.61824
926500000 -6.9541869 35.138023 -4.7510157 99.382652 -4.7517161 99.379341 -10.418613 -42.837429
936000000 -6.7887406 7.9865265 -4.78475 71.325813 -4.7859592 71.316833 -10.307516 -70.627708
945500000 -6.7214227 -18.833542 -4.7973223 43.226398 -4.7989311 43.21933 -10.308744 -99.062546
955000000 -6.6898556 -45.592693 -4.8010116 15.064321 -4.8026876 15.054572 -10.370598 -128.2202
964500000 -6.6709452 -71.882202 -4.7973037 -13.140887 -4.8003798 -13.149519 -10.446394 -158.19232
974000000 -6.732687 -97.81427 -4.7869864 -41.410339 -4.7907653 -41.410812 -10.512532 171.24629
983500000 -6.8864093 -124.22846 -4.7719159 -69.750412 -4.7758851 -69.742729 -10.548535 140.46681
993000000 -7.0305681 -151.65662 -4.7543478 -98.220612 -4.7575235 -98.206322 -10.557268 109.92405
1002500000 -7.101778 -179.63892 -4.756803 -126.80862 -4.7595243 -126.78961 -10.49524 79.994553
1012000000 -7.14891 152.50719 -4.7785373 -155.29927 -4.7801785 -155.27765 -10.344823 50.351151
1021500000 -7.2201209 124.38758 -4.7881603 176.26669 -4.7888522 176.28398 -10.189253 20.986609
1031000000 -7.2661085 95.302017 -4.7994804 147.71692 -4.8001986 147.73381 -10.036906 -7.6517305
1040500000 -7.1739922 66.105865 -4.8352079 119.18449 -4.8353763 119.19798 -9.8443089 -35.825306
1050000000 -7.0016742 38.33609 -4.8773856 90.838943 -4.8777208 90.851135 -9.6485167 -64.256668
1059500000 -6.9245729 11.766226 -4.8910756 62.608719 -4.8914537 62.618832 -9.5465393 -93.307182
1069000000 -6.9402871 -15.107069 -4.8806267 34.21471 -4.8813152 34.225262 -9.5611773 -122.70918
1078500000 -6.9116139 -42.24435 -4.8920722 5.6782541 -4.8923264 5.6886468 -9.5756235 -152.40837
1088000000 -6.8486648 -68.215935 -4.9154243 -22.695198 -4.9162374 -22.689653 -9.5248823 177.00642
1097500000 -6.9058547 -93.467606 -4.9050756 -51.026878 -4.9062352 -51.015991 -9.4818935 145.75316
1107000000 -7.0968475 -119.97768 -4.883512 -79.604172 -4.8842106 -79.596359 -9.437252 114.98188
1116500000 -7.2285938 -148.04518 -4.8922391 -108.30809 -4.893312 -108.30043 -9.304163 85.115562
1126000000 -7.2447376 -176.11186 -4.9206691 -136.89442 -4.9216599 -136.88835 -9.0949774 55.845978
1135500000 -7.3115563 156.00146 -4.9335308 -165.39272 -4.9351296 -165.38542 -8.898222 27.051819
1145000000 -7.4553237 126.73003 -4.9347272 165.94312 -4.9354796 165.9511 -8.7577095 -0.8736369
1154500000 -7.4938016 96.028061 -4.9709287 137.15196 -4.9720883 137.15475 -8.5853405 -27.890879
1164000000 -7.3517208 66.010864 -5.0333858 108.58381 -5.0345955 108.59209 -8.3655977 -54.94413
1173500000 -7.1873198 37.380333 -5.0722437 80.170052 -5.0728559 80.1745 -8.2106342 -82.340088
1183000000 -7.1108632 8.9225378 -5.0980806 51.649288 -5.0990663 51.654907 -8.1341162 -109.79439
1192500000 -7.0249138 -19.704197 -5.1409907 23.092594 -5.1417909 23.0942 -8.07761 -137.48099
1202000000 -6.8623013 -47.419819 -5.1905036 -5.3260164 -5.191957 -5.3231435 -8.0254021 -165.86302
1211500000 -6.7525764 -73.936897 -5.2166867 -33.650608 -5.2177649 -33.647289 -8.0089216 165.03313
1221000000 -6.798018 -100.66302 -5.2229738 -62.116535 -5.2243381 -62.114349 -8.0133228 135.75864
1230500000 -6.8994989 -128.5777 -5.2458639 -90.710709 -5.2468739 -90.706406 -7.9656253 106.67743
1240000000 -6.9132171 -156.90886 -5.280611 -119.21504 -5.2818522 -119.21296 -7.8547449 77.728905
1249500000 -6.9008517 174.93701 -5.2994208 -147.70363 -5.3008251 -147.69847 -7.7422786 49.123474
1259000000 -6.9735532 146.17664 -5.318593 -176.31853 -5.3198142 -176.31291 -7.6311812 21.207491
1268500000 -7.0449939 116.36267 -5.3541818 155.04869 -5.3554068 155.05653 -7.5008783 -6.2191505
1278000000 -7.0008078 86.282997 -5.3969216 126.47166 -5.3980556 126.47884 -7.3715854 -33.475143
1287500000 -6.8805952 56.731697 -5.4427981 97.917015 -5.4441833 97.925888 -7.260323 -60.772251
1297000000 -6.7378507 27.886614 -5.4937825 69.393272 -5.4947877 69.405319 -7.17593 -88.33194
1306500000 -6.5874844 -0.15238126 -5.5454216 40.942867 -5.5464807 40.954418 -7.1276708 -116.37038
1316000000 -6.4520435 -27.514559 -5.5878663 12.536748 -5.5893416 12.544048 -7.1252441 -144.992
1325500000 -6.3266973 -54.457275 -5.6257148 -15.891258 -5.6278768 -15.888656 -7.1490517 -174.16797
1335000000 -6.212039 -80.740753 -5.6653461 -44.2938 -5.6669798 -44.293369 -7.167963 156.04901
1344500000 -6.1741109 -106.42274 -5.690578 -72.64859 -5.6927738 -72.656693 -7.1775208 125.74459
1354000000 -6.2340088 -132.60605 -5.6989479 -101.10792 -5.7021279 -101.11382 -7.1738753 95.341911
1363500000 -6.2768846 -159.81412 -5.7177529 -129.6918 -5.721158 -129.69795 -7.121913 65.242661
1373000000 -6.2420273 173.04286 -5.7495694 -158.2122 -5.7534952 -158.2148 -7.0162301 35.422798
1382500000 -6.2608442 146.2865 -5.7658801 173.30165 -5.7700868 173.30098 -6.9160299 5.9459786
1392000000 -6.391407 118.47563 -5.7777534 144.65353 -5.7829061 144.6602 -6.836576 -22.958187
1401500000 -6.4401569 89.310707 -5.8137722 115.92231 -5.8180065 115.9367 -6.7533779 -51.472046
1411000000 -6.3120337 60.694481 -5.8659806 87.267944 -5.8699169 87.283058 -6.6705565 -80.043686
1420500000 -6.2029624 33.407997 -5.9152808 58.685684 -5.9185743 58.709042 -6.6206961 -108.95897
1430000000 -6.1810513 6.0913854 -5.9607949 30.059229 -5.962688 30.081373 -6.6140556 -138.18517
1439500000 -6.0788965 -21.705225 -6.0265284 1.3915889 -6.0282335 1.4139971 -6.609869 -167.69241
1449000000 -5.8559566 -48.441601 -6.1110029 -27.086967 -6.111928 -27.067406 -6.5825214 162.34546
1458500000 -5.6969347 -73.733215 -6.1710715 -55.379131 -6.1720772 -55.362747 -6.5545464 132.00513
1468000000 -5.7074461 -99.276558 -6.2039657 -83.754669 -6.2040515 -83.737953 -6.5268836 101.7209
1477500000 -5.7537937 -126.06364 -6.2430644 -112.2327 -6.2433605 -112.22277 -6.4645247 71.745293
1487000000 -5.7003436 -153.03601 -6.2886443 -140.64241 -6.2888312 -140.6304 -6.3714385 42.044884
1496500000 -5.6677852 -179.40369 -6.3188467 -168.99301 -6.3183837 -168.9877 -6.2820015 12.700386
1506000000 -5.7833543 153.65842 -6.3300753 162.56328 -6.3302679 162.56618 -6.2128015 -16.139433
1515500000 -5.9200301 125.05743 -6.3464899 133.95158 -6.3468056 133.95348 -6.1541533 -44.42667
1525000000 -5.9223409 95.912666 -6.3835564 105.32312 -6.3841243 105.32537 -6.0937567 -72.390442
1534500000 -5.8946991 67.41423 -6.4192424 76.762749 -6.4193597 76.76284 -6.0543551 -100.28413
1544000000 -5.9434266 38.681774 -6.4492993 48.107201 -6.450139 48.106201 -6.0458589 -128.16429
1553500000 -5.9325542 9.2657738 -6.5020356 19.371681 -6.5026712 19.371389 -6.0483122 -156.17484
1563000000 -5.7780771 -19.432907 -6.5745025 -9.2386608 -6.5755563 -9.2410898 -6.056078 175.44688
1572500000 -5.6329865 -46.90696 -6.6403561 -37.719669 -6.6412926 -37.721149 -6.0779414 146.70706
1582000000 -5.584022 -74.200577 -6.6974249 -66.165833 -6.6987233 -66.169571 -6.0964351 117.79411
1591500000 -5.5532608 -101.72114 -6.7459378 -94.564857 -6.7472916 -94.563408 -6.0966086 88.81485
1601000000 -5.5272579 -129.1642 -6.7777834 -122.96257 -6.7790384 -122.96687 -6.0820365 59.929222
1610500000 -5.5565233 -156.74672 -6.7995558 -151.4165 -6.8018064 -151.41644 -6.0572433 31.231245
1620000000 -5.5971446 175.27115 -6.8148594 -179.92996 -6.8159089 -179.92802 -6.0391164 2.7499127
1629500000 -5.6429882 147.05919 -6.8279448 151.44267 -6.8296776 151.44124 -6.0345674 -25.468599
1639000000 -5.7622404 118.29915 -6.8512216 122.70854 -6.8525252 122.70998 -6.0376968 -53.457844
1648500000 -5.8638172 88.483765 -6.884881 93.917824 -6.8866248 93.916153 -6.0421481 -81.294571
1658000000 -5.8304276 58.469044 -6.9306974 65.088974 -6.9319491 65.093491 -6.0453362 -109.0863
1667500000 -5.7797251 29.184715 -6.9868879 36.275806 -6.988121 36.2714 -6.0530505 -136.96321
1677000000 -5.7813358 -0.1362163 -7.0485177 7.4596577 -7.0503945 7.4621148 -6.0774961 -165.04945
1686500000 -5.6767235 -29.678078 -7.1251001 -21.364815 -7.1258302 -21.363903 -6.1193786 166.56181
1696000000 -5.4564528 -57.99752 -7.215939 -50.102005 -7.217423 -50.105324 -6.1726103 137.72778
1705500000 -5.3386235 -85.075546 -7.3094645 -78.725342 -7.3105245 -78.728233 -6.2342987 108.45541
1715000000 -5.3356037 -112.43382 -7.3943958 -107.24561 -7.3961577 -107.25155 -6.2885261 78.884537
1724500000 -5.2537336 -140.30939 -7.4615245 -135.75201 -7.4631581 -135.75597 -6.3242688 49.238125
1734000000 -5.1251383 -167.66226 -7.5247169 -164.34035 -7.5268297 -164.34987 -6.3276343 19.722208
1743500000 -5.1263638 165.36028 -7.5944099 167.06726 -7.5972056 167.06322 -6.3064303 -9.6572266
1753000000 -5.1985888 137.63635 -7.6545978 138.48093 -7.6571646 138.47394 -6.2932506 -38.87553
1762500000 -5.1813836 109.10413 -7.7060356 109.73149 -7.709712 109.72822 -6.3000455 -67.834877
1772000000 -5.1309495 80.561119 -7.7866735 80.820473 -7.7901759 80.820435 -6.3056083 -96.549652
1781500000 -5.1492963 52.111691 -7.9014411 52.055504 -7.9052663 52.058414 -6.3014536 -125.24424
1791000000 -5.139576 23.351286 -8.0026321 23.471367 -8.0060444 23.478899 -6.3146772 -153.98755
1800500000 -5.0196023 -5.5468774 -8.0919838 -5.2498159 -8.0959921 -5.2403378 -6.3466506 177.3269
1810000000 -4.8807817 -33.905621 -8.2201605 -34.046375 -8.2232914 -34.028965 -6.3768673 148.56522
1819500000 -4.7845898 -61.505199 -8.3774242 -62.559349 -8.3796911 -62.544876 -6.4137225 119.47655
1829000000 -4.6773739 -88.665672 -8.5071783 -90.795265 -8.5094023 -90.777412 -6.4722896 90.054741
1838500000 -4.5410991 -115.68461 -8.6014166 -119.09244 -8.6032295 -119.07535 -6.5323753 60.514076
1848000000 -4.4570775 -142.6218 -8.7071924 -147.51039 -8.7087851 -147.49112 -6.5513811 30.99085
1857500000 -4.450686 -169.50644 -8.8304482 -175.73753 -8.8309078 -175.72313 -6.5236483 1.543794
1867000000 -4.4300346 163.49646 -8.9171038 156.246 -8.9185915 156.25926 -6.4755392 -27.663898
1876500000 -4.3732266 136.25824 -8.9599848 128.03587 -8.9601822 128.05299 -6.4294448 -56.44405
1886000000 -4.387506 108.67216 -9.0158148 99.524551 -9.0157614 99.535492 -6.3839869 -84.802704
1895500000 -4.4890304 80.511368 -9.1047525 71.033981 -9.1046963 71.045303 -6.3472281 -112.96001
1905000000 -4.5377922 51.824684 -9.1877613 42.697277 -9.1878977 42.702576 -6.3376932 -141.02774
1914500000 -4.4945245 23.10882 -9.2476521 14.303014 -9.2478056 14.311675 -6.3542209 -168.99985
1924000000 -4.4879642 -5.5706954 -9.3185091 -14.26935 -9.3183069 -14.268335 -6.377955 163.08838
1933500000 -4.522696 -34.521767 -9.4224205 -42.796726 -9.4234352 -42.793823 -6.4040604 135.01788
1943000000 -4.4585509 -63.214352 -9.5323429 -71.092117 -9.5325413 -71.087822 -6.4538131 106.65839
1952500000 -4.3189306 -90.92112 -9.6129599 -99.282738 -9.6138668 -99.284294 -6.5361791 78.003517
1962000000 -4.2666326 -118.24103 -9.6778841 -127.60824 -9.678894 -127.60517 -6.6324825 49.089958
1971500000 -4.3021297 -145.99124 -9.7640772 -155.95958 -9.7651348 -155.95894 -6.7083135 19.929892
1981000000 -4.277071 -173.78755 -9.844202 175.88686 -9.8451395 175.89052 -6.7543859 -9.4230461
1990500000 -4.2068014 158.90564 -9.8859882 147.73129 -9.8871355 147.72853 -6.7752247 -38.68338
2000000000 -4.2293787 131.54247 -9.908247 119.35561 -9.9100838 119.36175 -6.7753181 -67.62162
