!Keysight Technologies,N5242B,MY48420967,A.15.65.19
!Date: Monday, December 19, 2022 08:48:37
!Correction: S11(C  2-Port  ) 
!S21(C  2-Port  ) 
!S12(C  2-Port  ) 
!S22(C  2-Port  ) 
!S2P File: Measurements: S11, S21, S12, S22:
# Hz S  dB   R 50
100000000 -15.439935 -1.7162157 -2.2625127 57.933563 -2.260649 57.911274 -17.477491 20.948391
109500000 -14.680589 -25.882219 -2.2992537 29.351843 -2.2958157 29.338865 -17.599615 -4.9354501
119000000 -14.370961 -47.569176 -2.319268 0.80292648 -2.3173597 0.77911335 -17.830114 -28.168077
128500000 -14.505913 -70.748665 -2.3303452 -27.81016 -2.3289261 -27.830835 -17.87755 -50.071247
138000000 -14.644337 -96.570313 -2.3435738 -56.477047 -2.3422525 -56.493732 -17.83149 -73.164772
147500000 -14.681295 -123.18255 -2.3616455 -85.14502 -2.359482 -85.162926 -17.992683 -97.315071
157000000 -14.86798 -151.01089 -2.3782291 -113.822 -2.3765519 -113.8434 -18.281031 -122.10454
166500000 -15.115137 177.72847 -2.4002888 -142.56201 -2.3990052 -142.57703 -18.629904 -149.50063
176000000 -15.127889 144.04276 -2.4370973 -171.28989 -2.4355657 -171.30321 -19.169378 179.67874
185500000 -14.97016 110.2341 -2.4811399 160.05296 -2.4799054 160.03955 -19.707018 146.70564
195000000 -14.700019 77.094872 -2.527899 131.47237 -2.5266674 131.46049 -19.962765 113.17206
204500000 -14.314732 46.344143 -2.5702705 102.97675 -2.568887 102.96479 -19.967041 81.782463
214000000 -14.069999 18.67556 -2.6019123 74.50782 -2.6002445 74.499817 -19.799858 54.042786
223500000 -14.030933 -7.7863774 -2.6274307 46.050377 -2.6259396 46.042511 -19.720051 29.077175
233000000 -13.913442 -34.028469 -2.6436996 17.602306 -2.6425712 17.595957 -19.869562 6.9609103
242500000 -13.710963 -59.038094 -2.6520605 -10.889993 -2.6508636 -10.896155 -20.035513 -13.73994
252000000 -13.762957 -83.688782 -2.6585455 -39.440769 -2.6576338 -39.445621 -20.233131 -35.322868
261500000 -14.090401 -110.92652 -2.6662793 -68.035553 -2.6650052 -68.039146 -20.505331 -58.441101
271000000 -14.223619 -141.39125 -2.678215 -96.671883 -2.6765594 -96.67836 -20.896469 -83.926941
280500000 -14.079893 -171.99994 -2.6964715 -125.33292 -2.6949265 -125.33662 -21.488337 -111.50198
290000000 -14.073897 157.44066 -2.722286 -153.99846 -2.7204745 -154.00136 -22.313845 -141.16231
299500000 -14.104467 124.31365 -2.7565799 177.35231 -2.7547739 177.34717 -23.402967 -173.34074
309000000 -13.688002 90.341927 -2.7967527 148.74249 -2.7951646 148.73773 -24.590441 151.59888
318500000 -13.095398 59.625549 -2.839329 120.19067 -2.837666 120.18637 -25.540064 114.08054
328000000 -12.841157 31.371305 -2.877183 91.715256 -2.8757925 91.709282 -26.056755 78.180122
337500000 -12.802978 2.936419 -2.9038498 63.259396 -2.9021478 63.254166 -26.13146 48.427795
347000000 -12.600585 -25.257111 -2.9247496 34.761196 -2.9231076 34.757782 -25.997555 23.7733
356500000 -12.330353 -51.599621 -2.9450948 6.2417154 -2.9435101 6.2367792 -26.241434 2.0458436
366000000 -12.284458 -77.43882 -2.9607353 -22.295671 -2.9593003 -22.296556 -27.01907 -16.514244
375500000 -12.394924 -105.64308 -2.9724195 -50.898514 -2.9709868 -50.900936 -28.030079 -35.684444
385000000 -12.31418 -136.36359 -2.9910009 -79.585854 -2.989285 -79.587677 -29.705482 -61.917774
394500000 -12.023312 -167.25888 -3.0258734 -108.29947 -3.0242202 -108.30152 -32.680714 -102.98067
404000000 -11.792144 162.08603 -3.0737379 -136.96017 -3.072129 -136.96182 -35.146656 -171.46364
413500000 -11.582151 130.43227 -3.1238093 -165.57445 -3.1219115 -165.57567 -32.420681 122.96503
423000000 -11.155943 98.333084 -3.1808734 165.80693 -3.1791117 165.80731 -28.627199 81.315575
432500000 -10.590281 67.7948 -3.2528362 137.28465 -3.2507877 137.28793 -25.688356 45.890846
442000000 -10.147684 39.04023 -3.3173721 108.93394 -3.315335 108.93423 -23.889782 12.62527
451500000 -9.8929138 10.819751 -3.3602004 80.614403 -3.3584249 80.617081 -22.981627 -17.187439
461000000 -9.716897 -17.351269 -3.3954008 52.238022 -3.3929749 52.24144 -22.536116 -44.333504
470500000 -9.5524168 -44.835064 -3.4313641 23.852083 -3.4290681 23.854626 -22.46068 -71.697037
480000000 -9.4660196 -71.491478 -3.4599857 -4.5169444 -3.4578526 -4.5128322 -22.933281 -101.0097
489500000 -9.499485 -98.482948 -3.4772315 -32.946056 -3.4752679 -32.942379 -23.808247 -132.1244
499000000 -9.5364189 -126.91594 -3.500066 -61.493053 -3.4974165 -61.488354 -24.349272 -164.84006
508500000 -9.4518976 -156.33551 -3.5417585 -90.053856 -3.5392098 -90.048431 -23.903061 160.8448
518000000 -9.301075 174.29236 -3.5901501 -118.53176 -3.5877059 -118.5252 -22.838005 127.3694
527500000 -9.1875553 144.76768 -3.6374443 -146.99187 -3.6348977 -146.9847 -21.661634 97.553894
537000000 -9.059164 114.77793 -3.6938093 -175.43349 -3.6911592 -175.42659 -20.569389 70.317726
546500000 -8.8267241 85.206329 -3.7558613 156.2326 -3.7530203 156.23877 -19.721004 43.09943
556000000 -8.5575838 56.870472 -3.8084948 128.01035 -3.8049748 128.01649 -19.264484 14.794841
565500000 -8.366004 29.464233 -3.8452146 99.828217 -3.8416047 99.829514 -19.166143 -14.397969
575000000 -8.2771549 2.355536 -3.869673 71.640182 -3.8658288 71.637917 -19.296164 -44.36343
584500000 -8.2634201 -24.664297 -3.8812478 43.445301 -3.8784401 43.431568 -19.622364 -75.204765
594000000 -8.2984085 -51.438946 -3.8789222 15.184479 -3.8794398 15.168159 -20.174881 -106.90758
603500000 -8.3817072 -77.913101 -3.8752508 -13.189754 -3.8769023 -13.187696 -20.8866 -139.71846
613000000 -8.5476189 -104.47395 -3.8753819 -41.61058 -3.8771303 -41.594036 -21.545898 -174.80876
622500000 -8.7502098 -131.95811 -3.8726256 -70.09269 -3.8724711 -70.059998 -21.953424 147.98956
632000000 -8.8585234 -160.73445 -3.8807316 -98.678062 -3.8772593 -98.649223 -21.780901 112.36183
641500000 -8.8260574 170.0957 -3.9075174 -127.25887 -3.9037225 -127.23814 -20.986515 80.203995
651000000 -8.7795715 141.14105 -3.9438834 -155.75403 -3.9395497 -155.7417 -19.964521 51.025169
660500000 -8.7729998 111.79117 -3.9740787 175.80829 -3.9701114 175.81357 -19.126915 23.45858
670000000 -8.6774426 81.951462 -4.0046906 147.32877 -4.0013084 147.33434 -18.601597 -3.0043674
679500000 -8.4577093 53.10112 -4.048059 118.89476 -4.0448704 118.89857 -18.193884 -29.765985
689000000 -8.2871037 25.946583 -4.0861878 90.611992 -4.0832319 90.618088 -17.887112 -58.98391
698500000 -8.2679052 -0.8194164 -4.0975137 62.356239 -4.0945311 62.360825 -17.77795 -90.493492
708000000 -8.2854261 -28.351404 -4.0970216 33.950207 -4.0944905 33.953949 -17.7505 -122.41252
717500000 -8.2401114 -55.804577 -4.1116047 5.472209 -4.109302 5.4779963 -17.536406 -153.89763
727000000 -8.2557173 -82.278564 -4.1262507 -22.925724 -4.1238632 -22.921177 -17.150236 174.20322
736500000 -8.4519787 -109.21211 -4.1199374 -51.396736 -4.1178327 -51.39275 -16.846325 142.39795
746000000 -8.6596375 -138.27509 -4.1214323 -80.070808 -4.1194158 -80.066757 -16.589195 112.40367
755500000 -8.6272602 -168.2197 -4.152936 -108.76698 -4.1503468 -108.76157 -16.15547 84.22477
765000000 -8.5120621 162.68945 -4.1967211 -137.35428 -4.1943746 -137.34969 -15.568621 56.930702
774500000 -8.5264797 133.15768 -4.2367678 -165.90373 -4.2345324 -165.8967 -15.007704 30.435286
784000000 -8.4485645 101.91778 -4.2837844 165.48753 -4.2815886 165.49301 -14.530926 5.2856531
793500000 -8.1037254 71.263405 -4.3564935 136.94524 -4.3543968 136.95645 -14.036239 -19.189709
803000000 -7.7817669 42.940075 -4.4281926 108.65063 -4.4258909 108.65989 -13.581435 -44.698948
812500000 -7.6549869 15.153255 -4.4695888 80.420143 -4.4671893 80.431206 -13.328764 -71.494514
822000000 -7.5420108 -13.287875 -4.5022316 52.095509 -4.4995651 52.103878 -13.216328 -98.902863
831500000 -7.3516455 -41.088135 -4.5384202 23.771482 -4.5367904 23.781954 -13.099358 -127.07193
841000000 -7.2633438 -67.863548 -4.5672369 -4.5225239 -4.5646968 -4.5096149 -12.964738 -156.04083
850500000 -7.3312163 -95.003876 -4.5841784 -32.834896 -4.5820293 -32.829639 -12.821027 174.67386
860000000 -7.3922215 -123.18192 -4.5945535 -61.251682 -4.5928879 -61.240406 -12.68752 145.59401
869500000 -7.394618 -151.76622 -4.6187668 -89.777771 -4.616281 -89.769836 -12.528159 117.21838
879000000 -7.3997545 179.48698 -4.6614475 -118.26862 -4.6593761 -118.26321 -12.290782 89.241379
888500000 -7.372632 150.25166 -4.7055726 -146.70927 -4.7028203 -146.70517 -12.033537 61.509865
898000000 -7.281703 120.68603 -4.7560596 -175.15585 -4.7538204 -175.15016 -11.757189 34.370361
907500000 -7.1502657 91.174362 -4.8180265 156.46973 -4.8152409 156.47928 -11.452022 7.638515
917000000 -6.9631786 62.029907 -4.8813953 128.21968 -4.8785748 128.22444 -11.160474 -19.040586
926500000 -6.7402072 33.855701 -4.9361243 100.09458 -4.9338036 100.09726 -10.932489 -46.047272
936000000 -6.5794983 6.7246194 -4.9694362 72.046638 -4.9675126 72.044212 -10.813028 -73.690018
945500000 -6.5153041 -20.112545 -4.9813867 43.961304 -4.9798546 43.95974 -10.806391 -102.05849
955000000 -6.48423 -46.904377 -4.9840217 15.812906 -4.9827652 15.809896 -10.857033 -131.20505
964500000 -6.4683094 -73.227608 -4.9794092 -12.374635 -4.9795713 -12.376281 -10.91467 -161.21153
974000000 -6.5346928 -99.222214 -4.9671516 -40.621262 -4.9684396 -40.616844 -10.954442 168.17314
983500000 -6.6899791 -125.71958 -4.9496307 -68.944916 -4.9508839 -68.929764 -10.957438 137.34842
993000000 -6.8333058 -153.19095 -4.929451 -97.400566 -4.9299026 -97.378387 -10.932097 106.77193
1002500000 -6.9078846 178.8183 -4.9295607 -125.97559 -4.9296241 -125.9469 -10.840723 76.850182
1012000000 -6.9603009 150.95667 -4.9487705 -154.44771 -4.9476342 -154.41826 -10.662681 47.267551
1021500000 -7.0330548 122.839 -4.9547229 177.13257 -4.9530582 177.15837 -10.481198 17.971468
1031000000 -7.0801406 93.78952 -4.9632683 148.59097 -4.9612393 148.61784 -10.309927 -10.590994
1040500000 -6.9936295 64.660477 -4.9963255 120.0737 -4.9937601 120.09507 -10.105449 -38.669666
1050000000 -6.8309474 36.940838 -5.0348883 91.742508 -5.0329676 91.764183 -9.898838 -66.987892
1059500000 -6.7647772 10.384257 -5.0452814 63.52557 -5.0431762 63.546135 -9.7801781 -95.950836
1069000000 -6.789134 -16.505789 -5.0307274 35.14418 -5.0290041 35.166119 -9.7772274 -125.33265
1078500000 -6.7703857 -43.661758 -5.0382051 6.6169753 -5.0361338 6.6390495 -9.7753315 -155.00873
1088000000 -6.7234187 -69.646019 -5.0574546 -21.742481 -5.0561786 -21.724464 -9.6990967 174.46347
1097500000 -6.7981501 -94.950531 -5.0415606 -50.064777 -5.0406694 -50.040947 -9.6225681 143.26164
1107000000 -7.0021095 -121.54345 -5.0150638 -78.643311 -5.0135851 -78.621872 -9.5476007 112.54226
1116500000 -7.1433311 -149.64259 -5.0195274 -107.34601 -5.018548 -107.32464 -9.3926907 82.757591
1126000000 -7.1723304 -177.7038 -5.0432801 -135.92908 -5.0422783 -135.90921 -9.1661663 53.606991
1135500000 -7.2520027 154.37929 -5.0510664 -164.42818 -5.0507579 -164.40681 -8.9546452 24.925943
1145000000 -7.4006419 125.06523 -5.0476866 166.89803 -5.0466776 166.9207 -8.8049374 -2.9118414
1154500000 -7.4406624 94.381233 -5.0807281 138.10251 -5.0799947 138.1209 -8.6317987 -29.838064
1164000000 -7.3030686 64.410728 -5.1390347 109.53499 -5.1383643 109.55772 -8.4136105 -56.769596
1173500000 -7.1444645 35.791649 -5.173439 81.113991 -5.1724401 81.133835 -8.2565298 -84.044937
1183000000 -7.0735116 7.3326263 -5.1958036 52.588795 -5.1949902 52.610916 -8.1765738 -111.40936
1192500000 -6.9930029 -21.288504 -5.2342882 24.028141 -5.2334275 24.047827 -8.1175861 -139.00964
1202000000 -6.8388357 -49.004032 -5.2795887 -4.3986015 -5.2791262 -4.3772225 -8.0583401 -167.28825
1211500000 -6.7398448 -75.530449 -5.3015394 -32.730286 -5.3008566 -32.709587 -8.0292063 163.70094
1221000000 -6.7951508 -102.29548 -5.3034601 -61.211273 -5.3031449 -61.189262 -8.0214357 134.50748
1230500000 -6.9030356 -130.25964 -5.3234253 -89.820274 -5.32233 -89.795357 -7.963676 105.52317
1240000000 -6.9199839 -158.61143 -5.3546219 -118.33317 -5.3541327 -118.31087 -7.8427916 76.674713
1249500000 -6.9115815 173.22179 -5.3698206 -146.83722 -5.369482 -146.81007 -7.7215452 48.157303
1259000000 -6.9863443 144.4324 -5.3866625 -175.46883 -5.386199 -175.43932 -7.6039662 20.322136
1268500000 -7.0529904 114.60346 -5.4203434 155.8885 -5.4197807 155.92245 -7.4681916 -7.0247517
1278000000 -7.0016837 84.553406 -5.4604793 127.30536 -5.4597907 127.33992 -7.3342595 -34.202785
1287500000 -6.8771753 55.048656 -5.5037103 98.74379 -5.5033855 98.781937 -7.2186208 -61.419834
1297000000 -6.7315326 26.258089 -5.5518513 70.216064 -5.5512881 70.259666 -7.1287546 -88.90535
1306500000 -6.5802526 -1.7142546 -5.599987 41.762566 -5.5993018 41.807289 -7.0741067 -116.87403
1316000000 -6.4473381 -29.016335 -5.6386309 13.351461 -5.6384673 13.39188 -7.0623097 -145.42726
1325500000 -6.3257823 -55.905659 -5.6725454 -15.078712 -5.6730614 -15.047662 -7.0750332 -174.53906
1335000000 -6.2161865 -82.127762 -5.7073803 -43.485947 -5.7075791 -43.462742 -7.0819812 155.75189
1344500000 -6.1862154 -107.75752 -5.7281246 -71.854721 -5.7289009 -71.840446 -7.0790572 125.52537
1354000000 -6.2527161 -133.90697 -5.7325735 -100.33022 -5.7341323 -100.31585 -7.0650744 95.192734
1363500000 -6.2983499 -161.0708 -5.7478127 -128.92873 -5.7499309 -128.91452 -7.0056114 65.156975
1373000000 -6.2675877 171.8576 -5.7757139 -157.46208 -5.7785592 -157.4433 -6.8935337 35.392559
1382500000 -6.2923269 145.16069 -5.7878833 174.03419 -5.7910848 174.0547 -6.7867088 5.9616256
1392000000 -6.4260201 117.39001 -5.7967758 145.36575 -5.8006949 145.39607 -6.7008057 -22.904837
1401500000 -6.4741483 88.296715 -5.8298993 116.62457 -5.8327532 116.66125 -6.6126633 -51.383621
1411000000 -6.3470316 59.775787 -5.8777533 87.957794 -5.880527 87.996658 -6.526228 -79.911087
1420500000 -6.2424302 32.572304 -5.9228625 59.358967 -5.9246602 59.407108 -6.4719663 -108.7815
1430000000 -6.2240462 5.3317194 -5.9638257 30.715702 -5.9641395 30.760851 -6.461071 -137.97215
1439500000 -6.1248913 -22.382277 -6.0250583 2.0265844 -6.0251985 2.0729465 -6.4529109 -167.43661
1449000000 -5.90622 -49.028782 -6.1048245 -26.473148 -6.104125 -26.430515 -6.421195 162.65366
1458500000 -5.75243 -74.241348 -6.1597753 -54.794552 -6.1591644 -54.755768 -6.3892436 132.37465
1468000000 -5.7689934 -99.720703 -6.1886368 -83.204918 -6.1870365 -83.165215 -6.3595462 102.14792
1477500000 -5.8193245 -126.45168 -6.2240305 -111.71656 -6.2225742 -111.68504 -6.2991271 72.222397
1487000000 -5.7686396 -153.37625 -6.2664819 -140.16319 -6.2652063 -140.12924 -6.2090311 42.571011
1496500000 -5.7405057 -179.69551 -6.2938566 -168.5471 -6.2918258 -168.51848 -6.1214838 13.258059
1506000000 -5.8613095 153.39545 -6.3019743 162.97134 -6.3003378 162.99622 -6.0535254 -15.555418
1515500000 -6.0020075 124.80877 -6.3167615 134.31924 -6.3151922 134.34326 -5.9951696 -43.815536
1525000000 -6.0052404 95.681023 -6.3520527 105.65953 -6.3506489 105.68081 -5.9353733 -71.7481
1534500000 -5.9792147 67.190041 -6.3857765 77.061996 -6.3843765 77.083061 -5.896862 -99.600716
1544000000 -6.0297432 38.451546 -6.4143739 48.37093 -6.4132271 48.391048 -5.8890109 -127.43968
1553500000 -6.0183353 9.0284815 -6.4655914 19.600019 -6.4643483 19.618311 -5.8907766 -155.40779
1563000000 -5.8621545 -19.667034 -6.5365543 -9.0480375 -6.535955 -9.0305901 -5.8973036 176.25246
1572500000 -5.7150602 -47.13792 -6.6011615 -37.568382 -6.6003766 -37.551388 -5.9179688 147.56223
1582000000 -5.6637821 -74.436317 -6.6579485 -66.057686 -6.6575623 -66.041504 -5.9352899 118.70889
1591500000 -5.6307783 -101.95721 -6.7067485 -94.493698 -6.7061286 -94.474106 -5.936347 89.789711
1601000000 -5.6014428 -129.40494 -6.7382655 -122.93051 -6.7379651 -122.91756 -5.924861 60.962723
1610500000 -5.6281462 -157.00069 -6.7612715 -151.42732 -6.7618222 -151.40775 -5.9030156 32.314289
1620000000 -5.6656942 175.01494 -6.7780538 -179.97284 -6.7774434 -179.95325 -5.8865929 3.8664544
1629500000 -5.7071223 146.79951 -6.7918181 151.36391 -6.7918587 151.38 -5.8826809 -24.320776
1639000000 -5.822526 118.03447 -6.8177252 122.59338 -6.8172565 122.61189 -5.8843045 -52.270966
1648500000 -5.918262 88.226074 -6.8537974 93.780319 -6.8539181 93.795441 -5.8873272 -80.071625
1658000000 -5.8770037 58.224598 -6.9010224 64.925781 -6.9006257 64.948082 -5.8903894 -107.82104
1667500000 -5.8194847 28.968138 -6.9594221 36.089527 -6.9588389 36.102173 -5.8978882 -135.66084
1677000000 -5.8143973 -0.31260711 -7.0225258 7.2568727 -7.0227175 7.2752028 -5.9226155 -163.7175
1686500000 -5.703073 -29.813503 -7.0999742 -21.586641 -7.0991364 -21.570368 -5.9647307 167.92471
1696000000 -5.475924 -58.083008 -7.1916728 -50.344337 -7.1915755 -50.332092 -6.0181341 139.12885
1705500000 -5.3522658 -85.103806 -7.2863102 -78.988853 -7.2855406 -78.975594 -6.081974 109.90223
1715000000 -5.3444653 -112.4079 -7.3719797 -107.52829 -7.3718152 -107.5194 -6.1422677 80.385246
1724500000 -5.2575159 -140.23569 -7.4398341 -136.05469 -7.4398904 -136.04491 -6.1866856 50.790436
1734000000 -5.1235914 -167.53391 -7.503818 -164.66159 -7.5042877 -164.65437 -6.1998968 21.305927
1743500000 -5.1205072 165.54451 -7.5738921 166.72842 -7.5746961 166.73846 -6.1881995 -8.0577602
1753000000 -5.1892242 137.86812 -7.6341543 138.12329 -7.6351314 138.12961 -6.1824675 -37.264778
1762500000 -5.1678071 109.38361 -7.6855159 109.35507 -7.687458 109.36577 -6.195456 -66.205757
1772000000 -5.1134949 80.886757 -7.7656283 80.421608 -7.7675905 80.43573 -6.2067499 -94.896988
1781500000 -5.1301842 52.472946 -7.880197 51.634163 -7.882102 51.652359 -6.2100811 -123.57246
1791000000 -5.1183147 23.741755 -7.9804254 23.026575 -7.9821153 23.046486 -6.2326131 -152.29797
1800500000 -4.9965439 -5.1309147 -8.0689125 -5.72404 -8.0713253 -5.6997938 -6.2731233 179.02731
1810000000 -4.8569846 -33.476017 -8.1960602 -34.550182 -8.1972656 -34.518517 -6.3112612 150.26819
1819500000 -4.7591887 -61.081509 -8.3516741 -63.102512 -8.3522606 -63.073368 -6.3565454 121.18481
1829000000 -4.6506186 -88.241768 -8.481246 -91.384987 -8.4814644 -91.351807 -6.4259682 91.776756
1838500000 -4.5127711 -115.25361 -8.5753689 -119.72848 -8.5751362 -119.69819 -6.5007915 62.256329
1848000000 -4.4260149 -142.20474 -8.6817274 -148.20596 -8.681426 -148.1718 -6.5376139 32.748241
1857500000 -4.4166846 -169.0988 -8.8083344 -176.49234 -8.8064137 -176.4622 -6.5286884 3.2980399
1867000000 -4.3930187 163.90549 -8.8988533 155.43709 -8.8978186 155.46471 -6.4996815 -25.917496
1876500000 -4.3329234 136.65483 -8.9468231 127.17085 -8.9446545 127.20113 -6.4691105 -54.684845
1886000000 -4.3413835 109.05512 -9.0093746 98.608711 -9.0069761 98.632973 -6.4349861 -83.012611
1895500000 -4.4363527 80.886192 -9.1064816 70.073738 -9.1040144 70.099564 -6.4083605 -111.12077
1905000000 -4.4805236 52.179565 -9.1986513 41.7103 -9.1959505 41.729229 -6.4088416 -139.12511
1914500000 -4.4310913 23.429724 -9.2663288 13.302999 -9.2638407 13.322214 -6.4347334 -167.02617
1924000000 -4.4181514 -5.281806 -9.3439531 -15.282002 -9.341404 -15.267537 -6.4654908 165.12772
1933500000 -4.4498725 -34.264923 -9.4541855 -43.819401 -9.4522867 -43.802212 -6.4969378 137.10928
1943000000 -4.3835988 -63.004337 -9.5699396 -72.124924 -9.5673647 -72.108032 -6.5532961 108.80699
1952500000 -4.2402301 -90.749008 -9.6562185 -100.32514 -9.6544228 -100.31339 -6.644217 80.227432
1962000000 -4.1850138 -118.09516 -9.7266445 -128.6609 -9.7248592 -128.6445 -6.751112 51.395962
1971500000 -4.2188177 -145.87712 -9.8189478 -157.02226 -9.817152 -157.00621 -6.8404546 22.30088
1981000000 -4.1893468 -173.69383 -9.9048042 174.82051 -9.9024782 174.8374 -6.9020944 -7.0120258
1990500000 -4.1144915 158.9901 -9.9521227 146.65747 -9.950139 146.66824 -6.9372416 -36.248711
2000000000 -4.1336937 131.61638 -9.9807711 118.28116 -9.9791327 118.30099 -6.9478574 -65.166351
