!Keysight Technologies,N5242B,MY48420967,A.15.65.19
!Date: Monday, December 19, 2022 10:00:43
!Correction: S11(C  2-Port  ) 
!S21(C  2-Port  ) 
!S12(C  2-Port  ) 
!S22(C  2-Port  ) 
!S2P File: Measurements: S11, S21, S12, S22:
# Hz S  dB   R 50
100000000 -15.634433 -2.8674195 -2.2076249 57.909485 -2.2071357 57.889008 -17.700043 19.2868
109500000 -14.87409 -26.795046 -2.2439325 29.32443 -2.2419159 29.313789 -17.83383 -6.6448078
119000000 -14.579227 -48.262432 -2.2640305 0.77403164 -2.2633617 0.75186914 -18.096752 -29.84864
128500000 -14.725041 -71.295158 -2.2751119 -27.84185 -2.2750511 -27.860538 -18.166851 -51.572132
138000000 -14.866639 -97.001404 -2.2888327 -56.509998 -2.2887595 -56.52562 -18.128061 -74.546906
147500000 -14.908233 -123.52396 -2.3072886 -85.176544 -2.3066261 -85.193726 -18.306173 -98.62384
157000000 -15.099845 -151.33932 -2.3241465 -113.85213 -2.3241329 -113.8725 -18.61178 -123.34299
166500000 -15.346251 177.34309 -2.3467441 -142.5885 -2.3468666 -142.60243 -18.972094 -150.82646
176000000 -15.354288 143.55414 -2.3834314 -171.31143 -2.3833373 -171.32416 -19.52277 178.0527
185500000 -15.185627 109.60778 -2.4271619 160.03535 -2.4273438 160.02263 -20.055029 144.67184
195000000 -14.89814 76.389503 -2.4732149 131.45721 -2.473413 131.44571 -20.27944 110.76202
204500000 -14.504289 45.654156 -2.5147161 102.96114 -2.5148833 102.94975 -20.256989 79.191582
214000000 -14.26233 18.027588 -2.5457435 74.490532 -2.5455649 74.482658 -20.082891 51.509663
223500000 -14.226687 -8.3643026 -2.5707552 46.028496 -2.5708244 46.020535 -20.017937 26.639507
233000000 -14.111476 -34.476345 -2.5870297 17.575373 -2.5873542 17.568977 -20.216076 4.6603928
242500000 -13.910276 -59.353123 -2.5953655 -10.92096 -2.5956662 -10.927822 -20.428936 -15.778414
252000000 -13.964269 -83.888626 -2.6024179 -39.476212 -2.6028414 -39.480659 -20.664377 -37.150185
261500000 -14.295482 -111.06007 -2.6108112 -68.071693 -2.6110644 -68.076134 -20.968019 -60.144039
271000000 -14.432486 -141.52112 -2.6230614 -96.70826 -2.6230145 -96.714539 -21.38026 -85.618103
280500000 -14.282183 -172.15921 -2.6417654 -125.36845 -2.64182 -125.37193 -22.003094 -113.3699
290000000 -14.268493 157.26895 -2.6679516 -154.03038 -2.6677661 -154.0338 -22.868608 -143.40469
299500000 -14.296965 124.07592 -2.7021308 177.32271 -2.702045 177.31783 -24.000847 -176.3062
309000000 -13.868443 89.996193 -2.7422204 148.71602 -2.7422311 148.71106 -25.199133 147.4901
318500000 -13.258891 59.274158 -2.7843676 120.16603 -2.7843332 120.16166 -26.079197 108.64369
328000000 -13.001945 31.077705 -2.8216462 91.690155 -2.8217959 91.685204 -26.490633 71.906212
337500000 -12.966818 2.6630023 -2.8477354 63.232212 -2.8477535 63.227329 -26.530436 42.010567
347000000 -12.760878 -25.506855 -2.8684049 34.730209 -2.8684158 34.726963 -26.441854 17.568375
356500000 -12.48515 -51.746372 -2.8887773 6.2076955 -2.8889458 6.2035599 -26.813999 -4.0432029
366000000 -12.440638 -77.495476 -2.9046452 -22.334122 -2.9049513 -22.334988 -27.802698 -22.547873
375500000 -12.550419 -105.67448 -2.9170856 -50.938839 -2.9172652 -50.94062 -29.063826 -41.689777
385000000 -12.463608 -136.39723 -2.9361937 -79.623627 -2.9362853 -79.625816 -30.975302 -69.276665
394500000 -12.166507 -167.30069 -2.9714501 -108.33557 -2.9713809 -108.33781 -33.922642 -116.49589
404000000 -11.928173 162.02126 -3.019573 -136.99232 -3.0196247 -136.99477 -34.507923 169.79065
413500000 -11.709313 130.34079 -3.069423 -165.60223 -3.0693843 -165.60446 -30.963436 113.60454
423000000 -11.275917 98.210915 -3.1264727 165.78215 -3.1264415 165.78142 -27.472208 76.556129
432500000 -10.701601 67.647858 -3.1980381 137.26584 -3.1977904 137.26717 -24.77355 43.043438
442000000 -10.249784 38.899952 -3.2616479 108.9163 -3.2615693 108.91538 -23.102402 10.698244
451500000 -9.9925165 10.703753 -3.3039649 80.597626 -3.30392 80.599091 -22.255053 -18.795567
461000000 -9.8165379 -17.464512 -3.3382225 52.222469 -3.3378515 52.223423 -21.842985 -45.942272
470500000 -9.649086 -44.943142 -3.373297 23.835171 -3.3729584 23.836138 -21.770144 -73.372688
480000000 -9.5621033 -71.558182 -3.401202 -4.5370226 -3.4009197 -4.5355196 -22.194519 -102.69682
489500000 -9.5985317 -98.51516 -3.4179761 -32.971516 -3.4179642 -32.969608 -22.977381 -133.70694
499000000 -9.6354237 -126.94632 -3.4407189 -61.520737 -3.4400797 -61.518703 -23.445059 -166.01353
508500000 -9.5461264 -156.36084 -3.4820385 -90.082863 -3.481549 -90.079956 -23.026028 160.36867
518000000 -9.3934908 174.26675 -3.5303321 -118.56326 -3.529865 -118.55874 -22.047922 127.43851
527500000 -9.2792139 144.72514 -3.5773723 -147.02191 -3.5768852 -147.01863 -20.964808 97.756653
537000000 -9.1472025 114.72462 -3.6329756 -175.46492 -3.6324141 -175.46039 -19.945673 70.45163
546500000 -8.9115076 85.156342 -3.6944084 156.19768 -3.6935141 156.20103 -19.143688 43.172382
556000000 -8.6399441 56.808884 -3.7463658 127.97141 -3.7450716 127.97461 -18.708031 14.855735
565500000 -8.446002 29.401659 -3.7828934 99.784912 -3.7812307 99.783417 -18.6129 -14.283459
575000000 -8.3573799 2.3139529 -3.8068755 71.593697 -3.8051941 71.588478 -18.733244 -44.147659
584500000 -8.346261 -24.688814 -3.8178449 43.393753 -3.8170621 43.378769 -19.040831 -74.838852
594000000 -8.3821106 -51.451233 -3.8152986 15.126342 -3.8173823 15.108642 -19.561407 -106.29777
603500000 -8.4667425 -77.888329 -3.8112376 -13.253735 -3.8145607 -13.255398 -20.233463 -138.74246
613000000 -8.6359806 -104.40456 -3.8113608 -41.682568 -3.8146937 -41.67057 -20.868109 -173.24153
622500000 -8.8400955 -131.86438 -3.8088305 -70.170738 -3.8106673 -70.14431 -21.293285 150.31943
632000000 -8.9463196 -160.62393 -3.8170688 -98.761505 -3.8160069 -98.738121 -21.191437 115.17679
641500000 -8.9129753 170.21631 -3.8446133 -127.34789 -3.8430469 -127.33147 -20.477381 83.074806
651000000 -8.8658228 141.26103 -3.881242 -155.84448 -3.8792489 -155.83556 -19.518053 53.63665
660500000 -8.8569288 111.90959 -3.9115922 175.71301 -3.9100125 175.71661 -18.720543 25.81942
670000000 -8.7603855 82.075127 -3.9425814 147.23274 -3.9413168 147.23502 -18.207775 -0.83119869
679500000 -8.5391397 53.220665 -3.9857402 118.79659 -3.984803 118.79773 -17.808937 -27.742199
689000000 -8.3647938 26.07547 -4.0238085 90.508339 -4.0230169 90.512047 -17.519508 -57.000458
698500000 -8.3439159 -0.65529102 -4.0353742 62.247669 -4.0345349 62.249554 -17.433981 -88.424179
708000000 -8.3628645 -28.163528 -4.035111 33.836498 -4.0346498 33.838951 -17.430876 -120.23045
717500000 -8.3159494 -55.604271 -4.0498714 5.3541164 -4.0495501 5.3575206 -17.246178 -151.66685
727000000 -8.3276205 -82.043365 -4.0648656 -23.049265 -4.0645161 -23.046577 -16.8946 176.4379
736500000 -8.5248909 -108.93102 -4.0591469 -51.524654 -4.0589128 -51.522396 -16.625256 144.62527
746000000 -8.734354 -137.98 -4.0610795 -80.202126 -4.0609879 -80.199989 -16.392801 114.60561
755500000 -8.698823 -167.92761 -4.0930882 -108.90213 -4.0925364 -108.89888 -15.973393 86.330025
765000000 -8.5800591 162.99492 -4.1374922 -137.49008 -4.1370735 -137.48882 -15.397047 58.878929
774500000 -8.5942688 133.4586 -4.177876 -166.04208 -4.1776299 -166.03922 -14.842848 32.234264
784000000 -8.5156288 102.19292 -4.225554 165.34834 -4.2252455 165.34978 -14.364397 6.945384
793500000 -8.1671886 71.519958 -4.2982626 136.80617 -4.298234 136.81126 -13.864152 -17.680424
803000000 -7.8422484 43.183949 -4.3700681 108.50743 -4.3698258 108.51207 -13.408354 -43.318993
812500000 -7.7134323 15.393186 -4.4118338 80.27491 -4.4115725 80.280876 -13.156262 -70.19223
822000000 -7.5982928 -13.046245 -4.4445052 51.947353 -4.4439178 51.951504 -13.045012 -97.645149
831500000 -7.4068446 -40.847668 -4.4811563 23.619993 -4.4814639 23.624897 -12.930782 -125.83588
841000000 -7.3165064 -67.618279 -4.5101366 -4.675591 -4.5096841 -4.6700993 -12.801879 -154.827
850500000 -7.382288 -94.742607 -4.5272813 -32.993996 -4.5272779 -32.994076 -12.667129 175.87456
860000000 -7.4439068 -122.90711 -4.5384927 -61.414097 -4.5386443 -61.408066 -12.540943 146.78452
869500000 -7.4457917 -151.4969 -4.5630012 -89.943314 -4.5626187 -89.939705 -12.387691 118.38035
879000000 -7.4482203 179.75371 -4.6061859 -118.43886 -4.6062007 -118.43573 -12.155741 90.363174
888500000 -7.4200311 150.52127 -4.6510568 -146.88165 -4.6502795 -146.87943 -11.902589 62.589539
898000000 -7.3292284 120.93951 -4.7019506 -175.32904 -4.7018089 -175.32675 -11.628588 35.399647
907500000 -7.196075 91.407494 -4.764389 156.29543 -4.7636571 156.30009 -11.324697 8.6090918
917000000 -7.0066042 62.256123 -4.8281364 128.04269 -4.8275523 128.04297 -11.034214 -18.124882
926500000 -6.7828851 34.071972 -4.8835711 99.915802 -4.8832812 99.915359 -10.806241 -45.180714
936000000 -6.6204319 6.9302278 -4.9170527 71.868088 -4.9172158 71.861435 -10.687752 -72.859543
945500000 -6.5544147 -19.902767 -4.929297 43.778912 -4.9298763 43.7743 -10.681829 -101.2415
955000000 -6.5232892 -46.681164 -4.9325099 15.628695 -4.9331732 15.621666 -10.734084 -130.39053
964500000 -6.5063453 -72.998695 -4.9280438 -12.561138 -4.9302645 -12.567029 -10.795444 -160.38693
974000000 -6.5707426 -98.978912 -4.9164186 -40.813213 -4.9193759 -40.81181 -10.841106 169.01299
983500000 -6.7249522 -125.44764 -4.8994908 -69.138641 -4.9025545 -69.12822 -10.851904 138.19763
993000000 -6.8680062 -152.908 -4.8799219 -97.597015 -4.8821445 -97.57975 -10.835165 107.62573
1002500000 -6.9406824 179.10464 -4.880528 -126.17339 -4.8824186 -126.1515 -10.750746 77.699196
1012000000 -6.9909406 151.25586 -4.9002151 -154.64914 -4.9009895 -154.62502 -10.57904 48.095695
1021500000 -7.0636306 123.14834 -4.9071212 176.92815 -4.9071703 176.94852 -10.403615 18.776203
1031000000 -7.1099215 94.098167 -4.916173 148.38643 -4.9160695 148.40695 -10.236894 -9.8135004
1040500000 -7.0216093 64.963676 -4.9498854 119.86564 -4.9492035 119.88197 -10.035256 -37.919441
1050000000 -6.8577113 37.244808 -4.9895205 91.534286 -4.9892006 91.549721 -9.8304834 -66.27227
1059500000 -6.7895832 10.689219 -5.0000887 63.317001 -4.9996786 63.33062 -9.7157946 -95.267021
1069000000 -6.8121033 -16.192144 -4.9862127 34.931515 -4.9862318 34.945747 -9.7171707 -124.65699
1078500000 -6.7921286 -43.331894 -4.9946938 6.4039302 -4.9943042 6.4184699 -9.7187376 -154.34428
1088000000 -6.7419696 -69.310074 -5.0145431 -21.957287 -5.014843 -21.947386 -9.6491899 175.10672
1097500000 -6.8124909 -94.601677 -4.9996495 -50.281616 -5.000288 -50.266071 -9.581151 143.88899
1107000000 -7.013772 -121.16631 -4.9740038 -78.859024 -4.9741673 -78.846489 -9.5139046 113.15029
1116500000 -7.1539898 -149.25586 -4.9790916 -107.56187 -4.9796591 -107.54955 -9.3648109 83.34214
1126000000 -7.1802883 -177.32195 -5.0036087 -136.14616 -5.004097 -136.13562 -9.142972 54.16114
1135500000 -7.256834 154.77405 -5.012217 -164.64673 -5.0133734 -164.63426 -8.9355354 25.451286
1145000000 -7.4054661 125.47492 -5.0097203 166.68149 -5.0100775 166.69386 -8.7890234 -2.4114211
1154500000 -7.4459724 94.776215 -5.0431547 137.88516 -5.0439167 137.89325 -8.6172953 -29.357351
1164000000 -7.307364 64.786568 -5.1023369 109.31612 -5.1031995 109.32966 -8.3986721 -56.315094
1173500000 -7.1484709 36.164112 -5.137506 80.896965 -5.1377687 80.906113 -8.241931 -83.62175
1183000000 -7.0772643 7.6945925 -5.1601563 52.368652 -5.1608205 52.379585 -8.1632013 -111.00457
1192500000 -6.995811 -20.940405 -5.1999345 23.806379 -5.2005134 23.813271 -8.1045609 -138.61919
1202000000 -6.839376 -48.659981 -5.2461805 -4.6180611 -5.2472343 -4.6088352 -8.0469913 -166.91869
1211500000 -6.7381034 -75.195724 -5.2687759 -32.951397 -5.2695351 -32.941994 -8.02141 164.05324
1221000000 -6.7916346 -101.96612 -5.2719398 -61.430988 -5.2729273 -61.421944 -8.0164375 134.84579
1230500000 -6.8976068 -129.92786 -5.2924013 -90.037468 -5.2929196 -90.026726 -7.9608288 105.83871
1240000000 -6.9134755 -158.28482 -5.3245521 -118.55205 -5.3254828 -118.54375 -7.8423948 76.971992
1249500000 -6.903542 173.53862 -5.3410001 -147.05447 -5.3419919 -147.0423 -7.7227373 48.44088
1259000000 -6.9766746 144.74736 -5.3585062 -175.68307 -5.3594828 -175.67039 -7.6064868 20.59057
1268500000 -7.0437613 114.91505 -5.392869 155.6749 -5.3937922 155.69035 -7.4719601 -6.770864
1278000000 -6.9931021 84.850388 -5.4341435 127.09196 -5.434988 127.10677 -7.3386364 -33.96418
1287500000 -6.8681521 55.33363 -5.4784641 98.532303 -5.4795351 98.550308 -7.2229915 -61.200653
1297000000 -6.7224593 26.532522 -5.5275731 70.006424 -5.5284109 70.028046 -7.1334515 -88.702896
1306500000 -6.5712233 -1.4554269 -5.5769057 41.555195 -5.5776725 41.576111 -7.078774 -116.68577
1316000000 -6.4369674 -28.769215 -5.6166754 13.1466 -5.6178465 13.163097 -7.0682635 -145.25401
1325500000 -6.3139825 -55.664005 -5.6517081 -15.283812 -5.6535749 -15.272842 -7.0830083 -174.37781
1335000000 -6.2031865 -81.895851 -5.6881161 -43.689972 -5.6895986 -43.682343 -7.092587 155.8945
1344500000 -6.1707616 -107.53577 -5.7101164 -72.052223 -5.7120447 -72.053909 -7.0924659 125.64668
1354000000 -6.2350407 -133.68933 -5.7153115 -100.52274 -5.7182298 -100.52246 -7.0802331 95.295837
1363500000 -6.2799339 -160.85548 -5.7314749 -129.11693 -5.7346659 -129.11626 -7.0218287 65.242493
1373000000 -6.2474918 172.06259 -5.7603421 -157.64616 -5.764246 -157.64206 -6.9110146 35.464493
1382500000 -6.2698946 145.35938 -5.7737041 173.85674 -5.7778907 173.8624 -6.8058925 6.0213375
1392000000 -6.4022479 117.59175 -5.7830768 145.19698 -5.7881441 145.2106 -6.7221136 -22.857994
1401500000 -6.4505477 88.489853 -5.8167057 116.45822 -5.8208027 116.47932 -6.6354313 -51.350662
1411000000 -6.3231969 59.956554 -5.8657303 87.797539 -5.869555 87.819305 -6.5494294 -79.896667
1420500000 -6.2175398 32.74543 -5.9114227 59.205666 -5.9145279 59.23642 -6.4958544 -108.78435
1430000000 -6.1989455 5.4943004 -5.9530311 30.566969 -5.9547768 30.595457 -6.4854937 -137.98424
1439500000 -6.0998983 -22.230738 -6.0151234 1.8851126 -6.0167551 1.9143006 -6.4782195 -167.45844
1449000000 -5.8806419 -48.891754 -6.0956192 -26.608883 -6.0964956 -26.582754 -6.4482384 162.61942
1458500000 -5.7262177 -74.118111 -6.1516132 -54.922066 -6.1525683 -54.898788 -6.4182334 132.32188
1468000000 -5.7415767 -99.610664 -6.1807413 -83.321762 -6.180789 -83.298416 -6.389853 102.077
1477500000 -5.7916689 -126.35442 -6.2165008 -111.82609 -6.2166433 -111.8096 -6.3287592 72.136871
1487000000 -5.7412882 -153.28802 -6.2592072 -140.26392 -6.2593002 -140.24586 -6.2377753 42.469677
1496500000 -5.7121038 -179.61981 -6.2866206 -168.64201 -6.2860489 -168.62968 -6.1504269 13.150079
1506000000 -5.8320093 153.46182 -6.2953458 162.88274 -6.2953892 162.89273 -6.0833535 -15.666916
1515500000 -5.9723887 124.87041 -6.3102279 134.24117 -6.3104582 134.24988 -6.0261264 -43.932049
1525000000 -5.9759369 95.729485 -6.3452468 105.58627 -6.3457284 105.59525 -5.9668574 -71.873306
1534500000 -5.9501295 67.229225 -6.3791499 76.995384 -6.3792019 77.002083 -5.9280901 -99.738503
1544000000 -6.0009041 38.486668 -6.4077873 48.309322 -6.4085507 48.314953 -5.9194956 -127.58631
1553500000 -5.9901423 9.0572557 -6.4593124 19.544521 -6.4598427 19.550659 -5.9209251 -155.56056
1563000000 -5.8340511 -19.650784 -6.5304036 -9.0963249 -6.5314221 -9.0923758 -5.9275732 176.09821
1572500000 -5.6874065 -47.133755 -6.5951629 -37.609547 -6.5960336 -37.605064 -5.9487143 147.40105
1582000000 -5.6368313 -74.441467 -6.6516218 -66.090454 -6.6528282 -66.087715 -5.9670591 118.53394
1591500000 -5.6040845 -101.97746 -6.700047 -94.523102 -6.7012882 -94.515663 -5.9681602 89.600464
1601000000 -5.5755105 -129.43706 -6.731977 -122.95474 -6.7331948 -122.95329 -5.9552402 60.758869
1610500000 -5.6023765 -157.03909 -6.7545705 -151.44308 -6.7566853 -151.4369 -5.9319639 32.099125
1620000000 -5.6398339 174.96272 -6.7710519 -179.98792 -6.7720637 -179.98013 -5.9148641 3.6508002
1629500000 -5.682024 146.73814 -6.785605 151.35458 -6.7872453 151.35909 -5.9106164 -24.536802
1639000000 -5.797132 117.96735 -6.8109937 122.59272 -6.8122144 122.59991 -5.9130988 -52.495148
1648500000 -5.8929105 88.148308 -6.8468575 93.780067 -6.8486018 93.78389 -5.9164066 -80.303925
1658000000 -5.8527699 58.144398 -6.8947048 64.931335 -6.8958511 64.942177 -5.9183717 -108.06782
1667500000 -5.7960343 28.884703 -6.9528241 36.101849 -6.9539599 36.103214 -5.9248004 -135.91934
1677000000 -5.7916737 -0.40407932 -7.0160933 7.2718625 -7.0178995 7.280127 -5.9481072 -163.98068
1686500000 -5.6811085 -29.903273 -7.0940709 -21.565422 -7.0947709 -21.559031 -5.9894152 167.65688
1696000000 -5.4556875 -58.17215 -7.1858916 -50.315376 -7.1873355 -50.312843 -6.0428748 138.85277
1705500000 -5.3337126 -85.199142 -7.2803931 -78.951874 -7.2812409 -78.949196 -6.1066804 109.61259
1715000000 -5.326478 -112.50761 -7.3660402 -107.48461 -7.3676991 -107.4849 -6.1654167 80.076332
1724500000 -5.240653 -140.33206 -7.4338164 -136.00352 -7.435421 -136.00134 -6.2073121 50.462303
1734000000 -5.1085134 -167.63364 -7.4975185 -164.60301 -7.4995408 -164.60663 -6.2175241 20.968328
1743500000 -5.1063538 165.43797 -7.5674796 166.79286 -7.5701361 166.79459 -6.2034955 -8.3977804
1753000000 -5.1753116 137.76308 -7.6276016 138.19499 -7.6300669 138.19371 -6.1967134 -37.605026
1762500000 -5.155231 109.27843 -7.6785908 109.43297 -7.6822357 109.43614 -6.209331 -66.552727
1772000000 -5.1024361 80.777336 -7.7586203 80.506729 -7.7620234 80.512573 -6.220098 -95.258064
1781500000 -5.1191902 52.36414 -7.8728189 51.72517 -7.8765039 51.735031 -6.2220068 -123.94553
1791000000 -5.1083879 23.636024 -7.9730649 23.124041 -7.9763851 23.137058 -6.2419424 -152.67987
1800500000 -4.9880204 -5.2380862 -8.0612507 -5.6182828 -8.0650473 -5.6021037 -6.2801394 178.64462
1810000000 -4.8488851 -33.5854 -8.1880684 -34.440353 -8.1909256 -34.416889 -6.3167224 149.88901
1819500000 -4.7522583 -61.183243 -8.3441849 -62.984406 -8.3462639 -62.963348 -6.3614459 120.80561
1829000000 -4.6445575 -88.34333 -8.4733953 -91.256554 -8.4753838 -91.231873 -6.4302735 91.392914
1838500000 -4.5072265 -115.36389 -8.5676718 -119.59322 -8.5691347 -119.56979 -6.5029531 61.86676
1848000000 -4.4214168 -142.31186 -8.6743231 -148.05513 -8.6756392 -148.02879 -6.5356274 32.355801
1857500000 -4.4127998 -169.20706 -8.799902 -176.32706 -8.7999687 -176.30547 -6.522419 2.9120867
1867000000 -4.3897209 163.7865 -8.890029 155.61351 -8.8911104 155.63348 -6.489346 -26.28684
1876500000 -4.329567 136.53366 -8.9374266 127.36463 -8.9371939 127.38838 -6.4554605 -55.041676
1886000000 -4.3390031 108.92642 -8.9986076 98.820572 -8.9981451 98.838402 -6.418766 -83.364082
1895500000 -4.4353189 80.741631 -9.0934839 70.305595 -9.0930796 70.324409 -6.3886623 -111.47914
1905000000 -4.479619 52.025036 -9.1823282 41.955746 -9.1818829 41.968636 -6.3844256 -139.49916
1914500000 -4.4319029 23.270662 -9.2467928 13.553613 -9.2464075 13.568985 -6.4052038 -167.42041
1924000000 -4.4211454 -5.4530878 -9.3214769 -15.027622 -9.3207226 -15.018881 -6.4318213 164.71568
1933500000 -4.4530854 -34.445484 -9.4287205 -43.564842 -9.4290743 -43.553875 -6.4608059 136.68359
1943000000 -4.3876333 -63.177425 -9.5418892 -71.872383 -9.5413733 -71.859901 -6.5153842 108.365
1952500000 -4.2466969 -90.921608 -9.6258287 -100.07697 -9.6261473 -100.07067 -6.6042418 79.759377
1962000000 -4.1927304 -118.27519 -9.6944475 -128.4182 -9.6946831 -128.40625 -6.7083664 50.895935
1971500000 -4.2261457 -146.05115 -9.7848701 -156.78371 -9.7852898 -156.7742 -6.7937655 21.776316
1981000000 -4.1986275 -173.86378 -9.869544 175.05269 -9.8696289 175.06534 -6.8508615 -7.5489779
1990500000 -4.1255455 158.81619 -9.9157915 146.88808 -9.9159527 146.89485 -6.8821869 -36.78899
2000000000 -4.1443033 131.43971 -9.9426107 118.5059 -9.9433527 118.52127 -6.8905497 -65.709106
