!Keysight Technologies,N5242B,MY48420967,A.15.65.19
!Date: Monday, December 19, 2022 11:32:21
!Correction: S11(C  2-Port  ) 
!S21(C  2-Port  ) 
!S12(C  2-Port  ) 
!S22(C  2-Port  ) 
!S2P File: Measurements: S11, S21, S12, S22:
# Hz S  dB   R 50
100000000 -16.79892 -9.0427752 -1.9968772 57.633793 -1.9974566 57.616573 -18.848959 10.611791
109500000 -16.013058 -31.719198 -2.0318081 29.045673 -2.0309436 29.03768 -19.029774 -15.645711
119000000 -15.768698 -51.956669 -2.0527239 0.48579699 -2.0529575 0.46502036 -19.441961 -38.801479
128500000 -15.98551 -74.135254 -2.0665555 -28.136105 -2.0675111 -28.153151 -19.657986 -59.810661
138000000 -16.158356 -99.319733 -2.083374 -56.79974 -2.0842297 -56.81406 -19.696859 -82.155464
147500000 -16.201012 -125.41352 -2.1042824 -85.457771 -2.1047704 -85.474167 -19.973871 -105.99152
157000000 -16.406496 -153.05223 -2.1238527 -114.1218 -2.1250627 -114.14061 -20.389528 -130.61221
166500000 -16.65415 175.25403 -2.148952 -142.83472 -2.1501327 -142.84734 -20.804157 -158.6926
176000000 -16.607386 140.78864 -2.1858177 -171.52966 -2.1868589 -171.54164 -21.353729 168.45839
185500000 -16.353706 106.25896 -2.2281418 159.83968 -2.2293782 159.82764 -21.774658 132.88818
195000000 -15.976557 72.71817 -2.2713432 131.27589 -2.2725859 131.26468 -21.764421 97.350471
204500000 -15.518934 42.104713 -2.3094029 102.78025 -2.3105979 102.76965 -21.55641 65.207298
214000000 -15.271129 14.935408 -2.3378446 74.29969 -2.3388393 74.292198 -21.343279 37.880867
223500000 -15.258813 -10.882851 -2.3611612 45.820492 -2.3624504 45.812889 -21.366295 13.527166
233000000 -15.149128 -36.322811 -2.377665 17.344957 -2.3791332 17.339056 -21.807367 -7.8343015
242500000 -14.936895 -60.380131 -2.3878257 -11.169833 -2.3892269 -11.176189 -22.305832 -27.097391
252000000 -14.995186 -84.122246 -2.3977199 -39.733784 -2.3992422 -39.738689 -22.770372 -47.333012
261500000 -15.354393 -110.8419 -2.4091334 -68.33152 -2.410408 -68.335274 -23.254654 -69.602257
271000000 -15.49728 -141.30026 -2.4238434 -96.961777 -2.4250543 -96.967918 -23.800228 -95.257118
280500000 -15.31556 -172.01006 -2.4444375 -125.61086 -2.445724 -125.614 -24.565569 -124.38903
290000000 -15.288308 157.33109 -2.4717014 -154.25768 -2.4727762 -154.26175 -25.561346 -157.28813
299500000 -15.311755 123.68874 -2.5059943 177.11115 -2.5072224 177.10593 -26.696625 164.76595
309000000 -14.819483 89.056175 -2.5450556 148.519 -2.5462861 148.51392 -27.472502 121.94518
318500000 -14.137211 58.224003 -2.5851216 119.97909 -2.5864344 119.97459 -27.381002 78.179001
328000000 -13.860795 30.151505 -2.6199021 91.50338 -2.6212647 91.498436 -26.923611 39.901997
337500000 -13.83182 1.8104392 -2.6437886 63.037338 -2.6452863 63.032162 -26.721024 9.8228912
347000000 -13.611921 -26.220251 -2.6632619 34.523861 -2.6647174 34.520596 -26.854403 -15.024721
356500000 -13.312375 -52.098541 -2.6832891 5.9876847 -2.6848259 5.9832149 -27.681463 -39.180412
366000000 -13.261536 -77.471542 -2.7001328 -22.568169 -2.7016973 -22.569094 -29.520544 -63.599213
375500000 -13.374784 -105.53455 -2.7146649 -51.179386 -2.7162273 -51.181732 -31.752298 -91.689232
385000000 -13.26948 -136.39832 -2.7357116 -79.859344 -2.7373092 -79.861786 -32.984463 -133.84624
394500000 -12.932791 -167.45906 -2.7716987 -108.5612 -2.7730246 -108.56319 -31.189058 173.51472
404000000 -12.660278 161.71812 -2.819699 -137.20694 -2.8211699 -137.20988 -27.935165 129.07294
413500000 -12.409152 129.81676 -2.8688076 -165.80688 -2.8705254 -165.80998 -25.299011 94.555977
423000000 -11.927626 97.471275 -2.9247024 165.58972 -2.9261971 165.58844 -23.119354 65.035835
432500000 -11.299951 66.837532 -2.993403 137.08379 -2.9947202 137.08334 -21.268694 35.348103
442000000 -10.812051 38.134747 -3.0537078 108.7336 -3.0551562 108.73134 -20.040545 5.1014957
451500000 -10.54042 10.008501 -3.0930116 80.408394 -3.094686 80.407951 -19.404549 -23.717829
461000000 -10.3585 -18.083761 -3.1241226 52.023689 -3.1255705 52.023388 -19.100388 -51.021652
470500000 -10.185374 -45.428009 -3.156183 23.619087 -3.157603 23.618971 -19.039698 -78.68306
480000000 -10.097573 -71.835251 -3.1821079 -4.7779388 -3.1836488 -4.7786365 -19.327116 -107.95891
489500000 -10.139647 -98.60009 -3.1990557 -33.238888 -3.2008078 -33.239128 -19.856274 -138.48648
499000000 -10.177906 -126.93075 -3.2229238 -61.805161 -3.2241812 -61.804462 -20.147943 -169.6058
508500000 -10.077375 -156.31676 -3.2650123 -90.375175 -3.2665565 -90.374397 -19.825039 158.63773
518000000 -9.9119616 174.31973 -3.3139396 -118.86074 -3.3152914 -118.85864 -19.118912 127.23757
527500000 -9.7894459 144.77275 -3.3608613 -147.31932 -3.3622522 -147.31802 -18.325769 98.015938
537000000 -9.6445065 114.7448 -3.4145656 -175.76384 -3.4160175 -175.76086 -17.549198 70.530289
546500000 -9.3917389 85.135742 -3.4739511 155.8894 -3.4749651 155.89102 -16.917234 43.047607
556000000 -9.1068401 56.805958 -3.5238557 127.65049 -3.524682 127.65083 -16.566591 14.720758
565500000 -8.9051094 29.473461 -3.5586364 99.446587 -3.5590312 99.44281 -16.486938 -14.255755
575000000 -8.8161144 2.4848106 -3.5811679 71.236855 -3.5816119 71.228928 -16.580397 -43.793331
584500000 -8.8104544 -24.410549 -3.5905812 43.013802 -3.59185 42.997585 -16.825586 -73.949982
594000000 -8.8544788 -51.035328 -3.586982 14.719352 -3.5908642 14.700412 -17.242403 -104.62246
603500000 -8.9477482 -77.282776 -3.5824723 -13.690018 -3.5876853 -13.694077 -17.784103 -135.91354
613000000 -9.1272821 -103.59262 -3.5832226 -42.150978 -3.5884166 -42.141518 -18.32086 -168.60463
622500000 -9.3425703 -130.89076 -3.5827801 -70.667221 -3.5865858 -70.644249 -18.754349 157.34372
632000000 -9.4533634 -159.57506 -3.5932846 -99.277573 -3.5943911 -99.256416 -18.813179 124.01376
641500000 -9.415554 171.27721 -3.6228054 -127.87798 -3.6232567 -127.86353 -18.354614 92.420677
651000000 -9.3627319 142.3147 -3.6606631 -156.38744 -3.6608264 -156.38025 -17.63439 62.553345
660500000 -9.3529129 112.92573 -3.6922169 175.15805 -3.6928024 175.16057 -16.996912 34.101376
670000000 -9.2530689 83.020958 -3.7234049 146.66882 -3.7242029 146.66965 -16.557127 6.8788424
679500000 -9.0179491 54.127541 -3.7658038 118.21686 -3.7668979 118.21599 -16.207014 -20.48444
689000000 -8.8281651 27.034206 -3.8035338 89.900154 -3.8048301 89.902977 -15.985411 -49.775955
698500000 -8.801218 0.40387392 -3.81652 61.609119 -3.8178034 61.609604 -15.979067 -80.763474
708000000 -8.8187389 -27.024925 -3.8183694 33.174366 -3.8198879 33.175739 -16.05722 -111.99191
717500000 -8.7619686 -54.39164 -3.8346303 4.6677723 -3.8362122 4.6699963 -15.975192 -143.07516
727000000 -8.7612133 -80.698029 -3.8519342 -23.766096 -3.8535421 -23.764225 -15.759496 -174.78542
736500000 -8.9574423 -107.42905 -3.8502715 -52.265472 -3.8518353 -52.263973 -15.622617 153.59641
746000000 -9.170577 -136.41634 -3.8558116 -80.957245 -3.8575654 -80.95607 -15.479122 123.6209
755500000 -9.1243792 -166.40388 -3.8909371 -109.67171 -3.8923445 -109.66889 -15.119987 95.032059
765000000 -8.9864922 164.4951 -3.9390209 -138.27353 -3.940454 -138.27426 -14.596216 67.031563
774500000 -8.9921541 134.92915 -3.983458 -166.83449 -3.9851029 -166.83321 -14.075189 39.813564
784000000 -8.906992 103.54389 -4.0344901 164.55473 -4.0360584 164.55533 -13.596407 13.936831
793500000 -8.5369596 72.741608 -4.1089764 136.01164 -4.1108775 136.01442 -13.082522 -11.340745
803000000 -8.1884375 44.373268 -4.182693 107.70288 -4.1842561 107.70553 -12.628435 -37.540443
812500000 -8.0465765 16.613617 -4.2269888 79.462379 -4.2286615 79.466026 -12.384722 -64.744415
822000000 -7.9222178 -11.798967 -4.2617497 51.129406 -4.2632046 51.132183 -12.279084 -92.382957
831500000 -7.7175756 -39.559387 -4.3003535 22.794569 -4.3025031 22.796572 -12.17904 -120.705
841000000 -7.6150465 -66.233826 -4.3313923 -5.5107956 -4.3329372 -5.508461 -12.078406 -149.78874
850500000 -7.6756444 -93.239517 -4.3512297 -33.839912 -4.3529572 -33.841469 -11.978901 -179.16066
860000000 -7.7368517 -121.3112 -4.3651443 -62.264881 -4.3670254 -62.260494 -11.886198 151.66953
869500000 -7.7362514 -149.83838 -4.3915849 -90.796654 -4.3931952 -90.794449 -11.759464 123.12758
879000000 -7.7358661 -178.54131 -4.4366322 -119.29832 -4.4386539 -119.29568 -11.552876 94.905914
888500000 -7.707736 152.24162 -4.4836597 -147.74588 -4.4847751 -147.74355 -11.323921 66.907784
898000000 -7.6176152 122.63226 -4.5361733 -176.19478 -4.5378175 -176.19304 -11.068093 39.467239
907500000 -7.4834466 93.047943 -4.5993695 155.42699 -4.6005483 155.43025 -10.778697 12.396073
917000000 -7.2910547 63.833946 -4.6636853 127.16566 -4.6649528 127.16486 -10.500663 -14.609406
926500000 -7.0618968 35.598991 -4.7197661 99.026489 -4.7212596 99.024872 -10.284036 -41.897129
936000000 -6.8936763 8.4457083 -4.7541008 70.963974 -4.7561245 70.955879 -10.177643 -69.734207
945500000 -6.8244171 -18.364964 -4.7674289 42.856968 -4.7699256 42.851578 -10.183455 -98.192207
955000000 -6.791368 -45.109207 -4.7721629 14.687909 -4.7746582 14.679995 -10.250599 -127.35646
964500000 -6.770031 -71.379227 -4.7694721 -13.524844 -4.7734308 -13.5322 -10.333637 -157.32405
974000000 -6.8293424 -97.281296 -4.7605791 -41.80175 -4.7651711 -41.801083 -10.408976 172.12625
983500000 -6.9818792 -123.66257 -4.7470889 -70.148094 -4.7518888 -70.139336 -10.455351 141.35736
993000000 -7.1257362 -151.0703 -4.7312074 -98.622398 -4.735188 -98.60688 -10.474087 110.82323
1002500000 -7.1954565 -179.04404 -4.7351527 -127.21372 -4.7386928 -127.19337 -10.420395 80.889244
1012000000 -7.2403049 153.10777 -4.7582836 -155.70815 -4.7607675 -155.68564 -10.278089 51.224434
1021500000 -7.3106012 124.99193 -4.7697048 175.85428 -4.7711868 175.87262 -10.130366 21.839256
1031000000 -7.3561997 95.89917 -4.7825203 147.30385 -4.7840796 147.32169 -9.9832745 -6.8212209
1040500000 -7.2618628 66.68203 -4.8193765 118.76823 -4.8204112 118.78287 -9.7946377 -35.027145
1050000000 -7.0849004 38.89719 -4.8630528 90.418312 -4.8642125 90.431595 -9.6037121 -63.493725
1059500000 -7.0032597 12.331903 -4.8785024 62.184673 -4.8795919 62.195709 -9.5086069 -92.568375
1069000000 -7.0154233 -14.529408 -4.8698711 33.788334 -4.8713493 33.799976 -9.5305176 -121.97504
1078500000 -6.9825559 -41.660206 -4.8828902 5.2508726 -4.883996 5.2622671 -9.5518961 -151.68283
1088000000 -6.9134822 -67.625542 -4.9080477 -23.126513 -4.9096694 -23.119144 -9.5111265 177.71185
1097500000 -6.9647746 -92.854446 -4.8998899 -51.45916 -4.9019279 -51.446903 -9.4800835 146.44232
1107000000 -7.1522608 -119.3376 -4.88028 -80.034012 -4.8818364 -80.024414 -9.4456234 115.65598
1116500000 -7.2818589 -147.39769 -4.8904858 -108.73586 -4.8924484 -108.72675 -9.3196745 85.762741
1126000000 -7.2950983 -175.46945 -4.9205637 -137.32129 -4.9223671 -137.31412 -9.1161499 56.45507
1135500000 -7.3595986 156.64836 -4.9352632 -165.81795 -4.9376116 -165.80913 -8.9245863 27.626242
1145000000 -7.5036983 127.38264 -4.9378738 165.52104 -4.9394264 165.53065 -8.787219 -0.32468975
1154500000 -7.5435858 96.665268 -4.9751887 136.73203 -4.9771867 136.7364 -8.6154261 -27.3727
1164000000 -7.4008889 66.62101 -5.0389562 108.16313 -5.0409608 108.1729 -8.3967943 -54.466534
1173500000 -7.2343693 37.974293 -5.0794449 79.749405 -5.0809116 79.755188 -8.2445021 -81.898911
1183000000 -7.1561537 9.5099812 -5.1068168 51.229389 -5.1086369 51.236462 -8.1707926 -109.38219
1192500000 -7.0681286 -19.126797 -5.1512957 22.672327 -5.1529083 22.67535 -8.1173534 -137.10014
1202000000 -6.9019995 -46.852444 -5.2025766 -5.7464066 -5.204906 -5.7412796 -8.0695648 -165.5188
1211500000 -6.7881794 -73.370056 -5.2307887 -34.070141 -5.2326698 -34.064384 -8.0588884 165.34186
1221000000 -6.8305054 -100.08556 -5.2390466 -62.532078 -5.2411494 -62.528271 -8.0682831 136.03529
1230500000 -6.9303746 -127.99058 -5.263495 -91.122025 -5.2652888 -91.116127 -8.0243111 106.91792
1240000000 -6.9430985 -156.32271 -5.2998791 -119.62365 -5.3019314 -119.61987 -7.9166493 77.931793
1249500000 -6.9297071 175.52293 -5.3204741 -148.10788 -5.3225698 -148.10118 -7.8066988 49.294598
1259000000 -7.0023284 146.76921 -5.3409519 -176.71779 -5.3430257 -176.711 -7.6973543 21.35018
1268500000 -7.0755477 116.95407 -5.3778329 154.65227 -5.3798761 154.66185 -7.5685401 -6.103693
1278000000 -7.0330954 86.862267 -5.4218907 126.07758 -5.4238877 126.08588 -7.4410405 -33.3866
1287500000 -6.9134073 57.293713 -5.4693432 97.523781 -5.4715266 97.535065 -7.3320503 -60.710205
1297000000 -6.7702818 28.430553 -5.5219283 69.001656 -5.5237889 69.0158 -7.2508106 -88.29567
1306500000 -6.6185699 0.37248391 -5.5754318 40.552002 -5.5772867 40.565666 -7.2064667 -116.36082
1316000000 -6.4810743 -27.005716 -5.6199613 12.148511 -5.6221676 12.157162 -7.209178 -145.00972
1325500000 -6.3533196 -53.964352 -5.6599526 -16.276579 -5.6628728 -16.272514 -7.2384181 -174.2131
1335000000 -6.2357163 -80.263847 -5.7018366 -44.674477 -5.7043099 -44.672009 -7.2627983 155.97092
1344500000 -6.1947255 -105.95776 -5.7294617 -73.0224 -5.7323794 -73.029083 -7.2772565 125.63273
1354000000 -6.2526355 -132.14977 -5.7399092 -101.47382 -5.7438197 -101.47839 -7.277092 95.199379
1363500000 -6.2945886 -159.37144 -5.7606144 -130.04883 -5.7646718 -130.05325 -7.2273221 65.07357
1373000000 -6.2585497 173.46371 -5.794117 -158.56088 -5.7989197 -158.56215 -7.1232357 35.231384
1382500000 -6.2760234 146.69194 -5.812305 172.9624 -5.8172812 172.96275 -7.0243917 5.7379451
1392000000 -6.4064116 118.86967 -5.8257165 144.32388 -5.8315649 144.33168 -6.9465642 -23.178459
1401500000 -6.4560013 89.680794 -5.8632865 115.59974 -5.8682117 115.61564 -6.8649588 -51.703049
1411000000 -6.3274755 61.032951 -5.9172845 86.953011 -5.9219809 86.969322 -6.7843542 -80.287384
1420500000 -6.2169037 33.719624 -5.9685283 58.378906 -5.9725399 58.403629 -6.7371507 -109.21552
1430000000 -6.1938491 6.3789263 -6.0159054 29.763157 -6.0186486 29.786083 -6.7333536 -138.45569
1439500000 -6.090816 -21.448174 -6.0834498 1.1071137 -6.0859642 1.1308135 -6.7319279 -167.97882
1449000000 -5.8663697 -48.216702 -6.1697206 -27.359713 -6.171433 -27.338802 -6.7068291 162.03975
1458500000 -5.7058845 -73.532974 -6.2316971 -55.638294 -6.2334876 -55.620689 -6.6804309 131.67786
1468000000 -5.7156544 -99.095886 -6.2660961 -83.998177 -6.2668943 -83.980179 -6.6529765 101.37462
1477500000 -5.7621498 -125.90282 -6.3063807 -112.46011 -6.3074026 -112.44856 -6.5896106 71.383377
1487000000 -5.7087822 -152.89723 -6.3527122 -140.8551 -6.3536773 -140.84163 -6.4952979 41.671902
1496500000 -5.6762333 -179.28319 -6.3837671 -169.19185 -6.3840785 -169.18498 -6.404355 12.323255
1506000000 -5.7923179 153.76363 -6.3955498 162.37852 -6.3964748 162.38321 -6.3340559 -16.519205
1515500000 -5.9304495 125.14521 -6.4124727 133.77838 -6.4135652 133.78149 -6.2750206 -44.807648
1525000000 -5.9339495 95.983078 -6.4502416 105.1623 -6.4515276 105.16673 -6.2144332 -72.772942
1534500000 -5.9069047 67.467941 -6.4863992 76.612961 -6.4872231 76.61454 -6.1755528 -100.6715
1544000000 -5.9564705 38.720913 -6.5170631 47.967831 -6.5187678 47.968079 -6.1680527 -128.55722
1553500000 -5.9465289 9.2866907 -6.5706248 19.242329 -6.5721097 19.244936 -6.171946 -156.57503
1563000000 -5.7922797 -19.428181 -6.6438141 -9.3556423 -6.6457195 -9.3561888 -6.1813235 175.03674
1572500000 -5.6475749 -46.913673 -6.7104397 -37.824459 -6.7121768 -37.823833 -6.2043433 146.28195
1582000000 -5.5994792 -74.216537 -6.7680402 -66.257919 -6.7700758 -66.259567 -6.2233739 117.35034
1591500000 -5.569663 -101.74682 -6.8169932 -94.645325 -6.8192048 -94.641983 -6.2231903 88.350563
1601000000 -5.5447025 -129.1983 -6.8494658 -123.03168 -6.8514881 -123.03365 -6.2074399 59.446243
1610500000 -5.5751071 -156.78625 -6.8717098 -151.47372 -6.8747549 -151.47144 -6.1813025 30.73163
1620000000 -5.6169677 175.22517 -6.8875003 -179.97652 -6.8893094 -179.97169 -6.1619768 2.2373497
1629500000 -5.6644082 147.00908 -6.9012303 151.40794 -6.90376 151.40919 -6.1565824 -25.994974
1639000000 -5.7851882 118.24682 -6.9247937 122.68692 -6.9269023 122.6909 -6.1596351 -53.999588
1648500000 -5.8883042 88.426613 -6.9589429 93.907181 -6.9614568 93.907578 -6.1642289 -81.853989
1658000000 -5.8560877 58.408901 -7.0052776 65.090286 -7.0073085 65.097267 -6.1677685 -109.66409
1667500000 -5.8062043 29.123926 -7.0618529 36.288994 -7.0639062 36.286606 -6.1761436 -137.55917
1677000000 -5.8089447 -0.19906013 -7.1239915 7.4846573 -7.1267271 7.489861 -6.2015252 -165.66359
1686500000 -5.705061 -29.743443 -7.2011447 -21.326067 -7.2027478 -21.322971 -6.244647 165.92758
1696000000 -5.4852486 -58.063267 -7.2924433 -50.049599 -7.2947497 -50.050842 -6.2987437 137.07077
1705500000 -5.3689489 -85.139534 -7.3863745 -78.658806 -7.3880987 -78.65947 -6.3602219 107.77213
1715000000 -5.3677726 -112.49966 -7.4713383 -107.16502 -7.4739385 -107.16876 -6.412684 78.174706
1724500000 -5.2878141 -140.37962 -7.5386395 -135.65773 -7.5410686 -135.65845 -6.4452682 48.503819
1734000000 -5.1611953 -167.73456 -7.6018748 -164.23155 -7.6048164 -164.23904 -6.4448533 18.970024
1743500000 -5.1650176 165.28476 -7.6716285 167.18924 -7.6753402 167.18816 -6.4199958 -10.419347
1753000000 -5.2401805 137.5549 -7.7318501 138.61757 -7.7352552 138.61346 -6.4034519 -39.642864
1762500000 -5.2258859 109.01314 -7.7833037 109.88327 -7.7878389 109.8826 -6.4073606 -68.60759
1772000000 -5.178081 80.461411 -7.8637605 80.988121 -7.8680487 80.990944 -6.4106474 -97.326157
1781500000 -5.1987171 52.003029 -7.9780493 52.238117 -7.9827642 52.243847 -6.4040465 -126.02191
1791000000 -5.191061 23.22974 -8.0787983 23.667791 -8.0829792 23.678177 -6.4144936 -154.76576
1800500000 -5.072578 -5.6813846 -8.1677971 -5.0385261 -8.1726475 -5.0262985 -6.4440217 176.54941
1810000000 -4.934607 -34.048195 -8.2953911 -33.819229 -8.2994843 -33.799587 -6.4724126 147.78815
1819500000 -4.8392453 -61.653736 -8.4519949 -62.316727 -8.4551125 -62.299599 -6.5069289 118.70189
1829000000 -4.7331724 -88.821533 -8.5806684 -90.537827 -8.5838528 -90.517097 -6.5619144 89.27565
1838500000 -4.5986638 -115.84713 -8.6739378 -118.82113 -8.676569 -118.80152 -6.6176019 59.725414
1848000000 -4.5167265 -142.7874 -8.7789526 -147.22453 -8.7813883 -147.2028 -6.6322494 30.199364
1857500000 -4.5125914 -169.67648 -8.9005594 -175.43509 -8.9018183 -175.41763 -6.5984325 0.76050425
1867000000 -4.4947948 163.31889 -8.9850922 156.56004 -8.9873705 156.57564 -6.5439715 -28.44326
1876500000 -4.4413481 136.0762 -9.0260897 128.35687 -9.0271778 128.37691 -6.4931817 -57.224754
1886000000 -4.4596992 108.49024 -9.0803566 99.852699 -9.0811806 99.866013 -6.4448762 -85.586266
1895500000 -4.5652447 80.327927 -9.1676254 71.366318 -9.1685076 71.381042 -6.4061847 -113.74733
1905000000 -4.617013 51.638493 -9.2495813 43.032166 -9.2504978 43.040211 -6.3948522 -141.82076
1914500000 -4.5759521 22.925804 -9.308815 14.640227 -9.3098564 14.651806 -6.4099431 -169.80077
1924000000 -4.5711536 -5.7464652 -9.3796597 -13.92621 -9.3802643 -13.922189 -6.4326186 162.27841
1933500000 -4.6063318 -34.692898 -9.4831181 -42.444881 -9.4850435 -42.438572 -6.4577708 134.20122
1943000000 -4.5409713 -63.379791 -9.5924139 -70.729706 -9.5934496 -70.722435 -6.5060182 105.83021
1952500000 -4.4002347 -91.077904 -9.6720934 -98.911232 -9.6739054 -98.910149 -6.5859847 77.155151
1962000000 -4.3479013 -118.38901 -9.7360249 -127.22763 -9.7378845 -127.22096 -6.679162 48.217258
1971500000 -4.3834753 -146.13356 -9.8208551 -155.56808 -9.8228436 -155.56532 -6.7506685 19.033974
1981000000 -4.3582673 -173.92981 -9.899334 176.28358 -9.9012756 176.29089 -6.7911949 -10.336428
1990500000 -4.288559 158.76596 -9.9399843 148.13185 -9.9420118 148.13293 -6.8063989 -39.610973
2000000000 -4.3128939 131.40842 -9.9613571 119.76015 -9.9640903 119.76897 -6.8015161 -68.560509
