!CSV A.01.01
!Keysight Technologies,N5242B,MY48420967,A.15.65.19
!Date: Saturday, February 04, 2023 19:35:30
!Source: Standard

BEGIN CH1_DATA
Freq(Hz),DUTNPDI(DB),DUTNPDI(DEG)
100000000,-174.86166,80.274826
109500000,-174.23615,78.982536
119000000,-174.05806,78.579201
128500000,-173.77483,77.846436
138000000,-173.65395,77.538429
147500000,-171.81908,71.514503
157000000,-174.06145,78.738419
166500000,-173.47438,77.181313
176000000,-173.46506,77.190071
185500000,-173.41486,77.017578
195000000,-173.48901,77.285034
204500000,-173.30827,76.87458
214000000,-173.54532,77.68956
223500000,-173.56946,77.907082
233000000,-173.57654,78.101418
242500000,-173.49298,77.98497
252000000,-173.43881,77.878525
261500000,-173.44165,77.913284
271000000,-173.44907,77.899399
280500000,-173.4908,77.964897
290000000,-173.46289,77.864517
299500000,-173.54164,78.125008
309000000,-173.67918,78.497696
318500000,-173.48326,77.936096
328000000,-173.08359,76.785912
337500000,-173.40134,77.785019
347000000,-172.71846,75.902245
356500000,-172.5295,75.124092
366000000,-172.68666,75.621704
375500000,-173.45692,77.880989
385000000,-174.01674,79.394066
394500000,-173.93251,79.274834
404000000,-173.86111,79.219185
413500000,-174.0661,79.859917
423000000,-173.78691,79.361465
432500000,-173.51237,78.768333
442000000,-173.38124,78.495682
451500000,-173.3369,78.429916
461000000,-172.95264,77.367798
470500000,-173.05003,77.61467
480000000,-173.20908,78.010597
489500000,-173.22336,78.000977
499000000,-173.3157,78.198761
508500000,-173.43677,78.532913
518000000,-173.45837,78.614555
527500000,-173.382,78.450043
537000000,-173.46609,78.71254
546500000,-173.3298,78.410423
556000000,-173.37996,78.681198
565500000,-173.43799,79.01606
575000000,-173.36656,79.023575
584500000,-173.31787,79.098373
594000000,-173.42053,79.531975
603500000,-173.34361,79.450104
613000000,-173.21111,79.090263
622500000,-173.3199,79.313896
632000000,-173.36017,79.401093
641500000,-173.35518,79.391144
651000000,-173.39815,79.488853
660500000,-173.52466,79.726524
670000000,-173.51799,79.652725
679500000,-173.57599,79.713707
689000000,-173.68758,79.879913
698500000,-173.59128,79.564766
708000000,-173.59947,79.506447
717500000,-173.49797,79.187073
727000000,-173.32585,78.698555
736500000,-173.04198,77.966202
746000000,-173.08716,78.096428
755500000,-173.30371,78.742004
765000000,-173.11903,78.3424
774500000,-173.08128,78.319489
784000000,-173.17662,78.639641
793500000,-173.33148,79.105621
803000000,-172.95064,78.250534
812500000,-172.87614,78.169151
822000000,-172.95377,78.484741
831500000,-173.28503,79.412636
841000000,-173.44606,79.846695
850500000,-173.49472,80.00415
860000000,-173.48026,80.017593
869500000,-173.46904,80.038345
879000000,-173.54753,80.23777
888500000,-173.65254,80.463013
898000000,-173.67767,80.513367
907500000,-173.61665,80.378258
917000000,-173.50433,80.127487
926500000,-173.41644,79.937012
936000000,-173.36339,79.823181
945500000,-173.36247,79.828339
955000000,-173.37035,79.853706
964500000,-173.28899,79.724869
974000000,-173.17816,79.553406
983500000,-173.17009,79.621124
993000000,-173.2829,79.96492
1002500000,-173.40143,80.317657
1012000000,-173.51141,80.661469
1021500000,-173.59943,80.947182
1031000000,-173.57036,80.987381
1040500000,-173.40669,80.748672
1050000000,-173.52263,80.942253
1059500000,-173.62134,81.077057
1069000000,-173.55542,80.875237
1078500000,-173.38588,80.447243
1088000000,-173.28526,80.15657
1097500000,-173.24568,79.998238
1107000000,-173.19093,79.802185
1116500000,-173.17731,79.697693
1126000000,-173.25092,79.799843
1135500000,-172.96402,79.093155
1145000000,-172.82036,78.708771
1154500000,-172.85159,78.760895
1164000000,-173.17062,79.513504
1173500000,-173.38348,80.136818
1183000000,-173.53676,80.653435
1192500000,-173.60353,80.965096
1202000000,-173.48026,80.879272
1211500000,-173.36536,80.797935
1221000000,-173.54886,81.302635
1230500000,-173.64243,81.609215
1240000000,-173.51689,81.490669
1249500000,-173.1418,80.866219
1259000000,-173.31171,81.196022
1268500000,-173.37492,81.298424
1278000000,-173.39854,81.322136
1287500000,-173.34045,81.184006
1297000000,-173.17699,80.794258
1306500000,-173.00275,80.337173
1316000000,-172.98676,80.213188
1325500000,-173.08705,80.343689
1335000000,-173.25063,80.634247
1344500000,-173.13591,80.455849
1354000000,-173.24989,80.76387
1363500000,-173.26706,80.863869
1373000000,-173.24324,80.87796
1382500000,-173.78067,82.087074
1392000000,-174.29164,83.119354
1401500000,-174.29567,83.281349
1411000000,-173.97755,82.935776
1420500000,-173.87383,82.878624
1430000000,-174.09598,83.271675
1439500000,-174.03917,83.22509
1449000000,-173.84169,82.955666
1458500000,-173.59363,82.587463
1468000000,-173.45792,82.213516
1477500000,-173.31468,81.804329
1487000000,-173.24867,81.521194
1496500000,-173.45389,81.748871
1506000000,-173.15082,80.875511
1515500000,-172.98943,80.511627
1525000000,-172.98207,80.4711
1534500000,-173.18463,80.874046
1544000000,-173.3287,81.143631
1553500000,-173.38762,81.238068
1563000000,-173.38913,81.217918
1572500000,-173.65868,81.827904
1582000000,-174.05775,82.732544
1591500000,-174.23103,83.192528
1601000000,-174.24336,83.380981
1610500000,-174.1748,83.44017
1620000000,-173.93637,83.237907
1629500000,-173.57558,82.828049
1639000000,-173.34941,82.54776
1648500000,-173.39752,82.536697
1658000000,-173.33463,82.333244
1667500000,-173.26569,82.112213
1677000000,-173.25694,81.993889
1686500000,-173.2899,81.94912
1696000000,-173.24603,81.760094
1705500000,-173.18127,81.541458
1715000000,-173.2829,81.779526
1724500000,-173.37093,81.986343
1734000000,-173.38249,82.050766
1743500000,-173.37442,82.079018
1753000000,-173.4131,82.190651
1762500000,-173.41287,82.231987
1772000000,-173.25684,81.994057
1781500000,-173.43793,82.448898
1791000000,-173.66031,82.949959
1800500000,-173.73608,83.192337
1810000000,-173.60216,83.102272
1819500000,-173.44521,82.972
1829000000,-173.40855,83.03096
1838500000,-173.48294,83.260513
1848000000,-173.07974,82.526222
1857500000,-172.68054,81.639664
1867000000,-172.51648,81.131676
1876500000,-172.47638,80.849815
1886000000,-172.51593,80.722855
1895500000,-172.66251,80.8144
1905000000,-172.99963,81.284378
1914500000,-173.28293,81.789825
1924000000,-173.48242,82.234535
1933500000,-173.68286,82.656433
1943000000,-173.83215,82.973763
1952500000,-173.81934,83.02359
1962000000,-173.56361,82.678238
1971500000,-173.26613,82.242004
1981000000,-173.11815,82.062996
1990500000,-173.07742,82.088127
2000000000,-172.9451,81.945923
END

