!CSV A.01.01
!Keysight Technologies,N5242B,MY48420967,A.15.65.19
!Date: Saturday, February 04, 2023 15:53:28
!Source: Standard

BEGIN CH1_DATA
Freq(Hz),A_2(DB),A_2(DEG)
100000000,-104.03851,129.82297
109500000,-102.89172,-55.30122
119000000,-104.07057,-8.4787769
128500000,-104.413,-119.32568
138000000,-105.12444,-42.689301
147500000,-102.15103,-167.42738
157000000,-102.39352,5.2307405
166500000,-103.04286,-53.677017
176000000,-103.33984,-33.997074
185500000,-103.82864,165.76411
195000000,-104.31065,-27.825172
204500000,-104.82348,-148.69301
214000000,-102.50365,-154.3895
223500000,-102.97341,163.38144
233000000,-103.24107,161.41342
242500000,-103.37029,-81.73465
252000000,-98.640587,170.75288
261500000,-98.854759,60.010433
271000000,-99.338593,-112.66808
280500000,-99.985413,21.240582
290000000,-100.04852,166.54826
299500000,-99.882988,95.07383
309000000,-100.53021,-21.646763
318500000,-100.64246,113.46609
328000000,-100.82529,-31.12995
337500000,-101.0899,-72.931091
347000000,-101.37754,133.9976
356500000,-101.43718,-179.12009
366000000,-101.65802,-146.05516
375500000,-101.7054,11.732204
385000000,-102.07338,-56.445904
394500000,-102.4427,-71.948738
404000000,-101.64095,160.8156
413500000,-101.98321,48.772179
423000000,-101.75625,-168.94847
432500000,-101.93665,-0.16781239
442000000,-102.41664,-174.28603
451500000,-102.40918,56.53828
461000000,-102.47567,59.224426
470500000,-102.77965,91.942017
480000000,-103.04536,152.96753
489500000,-102.80013,-10.587099
499000000,-102.99998,-19.308483
508500000,-103.545,39.964142
518000000,-103.44344,51.309284
527500000,-103.41897,-9.6026258
537000000,-103.82191,122.17606
546500000,-103.66192,158.77852
556000000,-104.01918,-135.38881
565500000,-104.00182,-90.54715
575000000,-104.20493,-7.3551116
584500000,-104.23018,-92.154274
594000000,-104.42735,-166.1264
603500000,-104.08553,147.75409
613000000,-104.57487,-85.30793
622500000,-104.60932,90.632484
632000000,-103.68084,-54.448227
641500000,-103.54816,-95.405045
651000000,-103.97145,-148.95465
660500000,-103.8515,-108.59575
670000000,-103.86957,-150.36226
679500000,-103.97488,178.47327
689000000,-104.05162,-79.2994
698500000,-104.11691,19.839071
708000000,-104.26715,63.294613
717500000,-104.47829,49.534439
727000000,-104.4309,-87.291161
736500000,-104.67307,-169.31593
746000000,-104.53185,108.31979
755500000,-104.61166,50.066025
765000000,-104.97527,-15.728799
774500000,-104.51876,-58.543964
784000000,-104.37067,-7.4798374
793500000,-104.59905,-34.924938
803000000,-104.91678,-35.538914
812500000,-104.94502,-47.647293
822000000,-104.88972,-44.994244
831500000,-105.09126,-119.17838
841000000,-105.14848,149.96178
850500000,-104.92897,-79.842857
860000000,-105.2467,109.75375
869500000,-105.31703,-24.999876
879000000,-105.41898,-50.46756
888500000,-105.25804,157.84853
898000000,-105.22494,40.732052
907500000,-105.31516,-148.46858
917000000,-105.47817,-44.937378
926500000,-105.22555,-0.51770532
936000000,-105.33176,-146.26224
945500000,-105.41707,102.20316
955000000,-105.47356,-9.7605791
964500000,-105.72401,-169.40997
974000000,-105.77321,-109.28514
983500000,-105.55981,-100.67747
993000000,-105.60738,-9.0785065
1002500000,-102.84673,-30.006216
1012000000,-102.8251,-131.8958
1021500000,-103.14408,-177.7836
1031000000,-102.75875,-108.6338
1040500000,-102.84639,-127.229
1050000000,-102.88119,98.071022
1059500000,-103.10143,120.01899
1069000000,-102.7081,139.20596
1078500000,-103.03005,58.171917
1088000000,-102.95679,-137.46608
1097500000,-103.39066,93.686127
1107000000,-103.04897,-26.456301
1116500000,-102.97095,80.531876
1126000000,-102.95875,-25.506392
1135500000,-103.11427,-143.43611
1145000000,-103.10972,-98.48468
1154500000,-102.95979,-19.39937
1164000000,-103.06859,-29.311733
1173500000,-103.3828,60.802856
1183000000,-103.14452,152.55656
1192500000,-103.36231,89.421257
1202000000,-102.97934,11.685002
1211500000,-102.99871,23.439747
1221000000,-103.02828,-83.157234
1230500000,-102.86336,-72.106796
1240000000,-103.10899,-20.993614
1249500000,-103.33624,-20.48299
1259000000,-103.1004,-111.81899
1268500000,-102.88506,-7.0622697
1278000000,-103.0051,-128.89635
1287500000,-103.17233,-49.618565
1297000000,-103.04644,-94.090996
1306500000,-102.92946,92.475739
1316000000,-102.96317,-173.06206
1325500000,-103.07699,64.628105
1335000000,-103.15812,-13.715728
1344500000,-103.12762,61.974926
1354000000,-102.80207,97.451591
1363500000,-102.8919,53.151985
1373000000,-102.97272,121.2434
1382500000,-102.79267,84.265388
1392000000,-102.6752,62.131371
1401500000,-102.8326,-50.878433
1411000000,-102.86247,-100.25921
1420500000,-103.20157,175.65085
1430000000,-103.11662,-14.780936
1439500000,-102.79012,-140.46503
1449000000,-102.90835,-32.759995
1458500000,-102.79364,38.554047
1468000000,-102.86684,-79.31826
1477500000,-102.74297,-18.088148
1487000000,-102.74528,-61.951641
1496500000,-103.14517,-83.182228
1506000000,-105.53912,42.550491
1515500000,-105.43499,44.932018
1525000000,-105.36786,-35.587299
1534500000,-105.64,133.57533
1544000000,-105.623,84.522728
1553500000,-105.51152,7.9432368
1563000000,-105.48965,-95.215164
1572500000,-105.30503,41.439552
1582000000,-105.42816,68.430168
1591500000,-105.32789,-133.46616
1601000000,-105.42226,-11.556797
1610500000,-105.19778,-132.34418
1620000000,-105.23576,179.83362
1629500000,-105.27927,114.1959
1639000000,-105.18082,-8.0528269
1648500000,-105.07889,158.40717
1658000000,-105.01019,-99.201271
1667500000,-104.91511,3.6134698
1677000000,-105.05133,93.447624
1686500000,-105.10507,173.92221
1696000000,-105.09801,-100.49921
1705500000,-105.14781,-121.75536
1715000000,-104.83053,-5.2033992
1724500000,-104.88482,-97.631248
1734000000,-104.95074,40.657372
1743500000,-105.1866,93.019722
1753000000,-104.61874,-42.034618
1762500000,-105.14906,34.414318
1772000000,-105.05912,-21.446159
1781500000,-105.0386,141.70082
1791000000,-104.80354,-89.035225
1800500000,-104.91499,71.999954
1810000000,-104.7758,-132.0984
1819500000,-104.78162,101.58682
1829000000,-104.77977,15.058672
1838500000,-104.62741,31.331093
1848000000,-104.69131,75.804451
1857500000,-104.68843,9.4271383
1867000000,-104.74851,25.54734
1876500000,-104.76006,-33.616421
1886000000,-104.56914,170.8851
1895500000,-104.61933,-101.76896
1905000000,-104.69759,-32.972275
1914500000,-104.52218,-101.24989
1924000000,-104.57353,-68.713814
1933500000,-104.68961,24.13097
1943000000,-104.63419,-85.279785
1952500000,-104.63061,-47.32465
1962000000,-104.3877,21.148787
1971500000,-104.51332,89.777016
1981000000,-104.39633,13.060377
1990500000,-104.15574,-109.97195
2000000000,-104.50441,23.242941
END

