!CSV A.01.01
!Keysight Technologies,N5242B,MY48420967,A.15.65.19
!Date: Saturday, February 04, 2023 09:03:58
!Source: Standard

BEGIN CH1_DATA
Freq(Hz),A_1(DB),A_1(DEG)
100000000,-103.94318,131.88507
109500000,-103.01126,113.32557
119000000,-103.75697,42.068951
128500000,-104.50147,86.773247
138000000,-104.98466,-141.28769
147500000,-101.7574,34.987144
157000000,-102.46512,115.00018
166500000,-102.97962,-52.944557
176000000,-103.37668,-19.964819
185500000,-104.00241,-63.23959
195000000,-104.42005,-111.32698
204500000,-104.77356,146.08099
214000000,-102.535,-30.661922
223500000,-102.88299,175.30061
233000000,-103.24819,95.503937
242500000,-103.30704,124.58551
252000000,-98.72773,-50.677826
261500000,-99.248283,-172.57393
271000000,-99.546539,-170.69328
280500000,-99.786148,-11.511554
290000000,-99.927467,65.189072
299500000,-100.19699,-15.196
309000000,-100.49757,47.264404
318500000,-100.52613,-118.54362
328000000,-101.00442,86.455002
337500000,-101.11343,58.115559
347000000,-101.40945,-96.58931
356500000,-101.67568,-3.3433721
366000000,-101.58405,-11.621356
375500000,-101.74773,124.73363
385000000,-102.22089,-124.44875
394500000,-102.34368,90.332153
404000000,-101.43318,98.402809
413500000,-101.92056,-33.968712
423000000,-101.98521,-63.231884
432500000,-101.91769,38.680714
442000000,-102.33548,-58.489075
451500000,-102.45861,-142.32735
461000000,-102.79295,64.768906
470500000,-102.95431,-73.905235
480000000,-102.6878,-104.13975
489500000,-102.9943,-177.30148
499000000,-102.96792,114.59562
508500000,-103.25184,92.21331
518000000,-103.55641,-25.073969
527500000,-103.67823,-26.817337
537000000,-103.58581,-22.08206
546500000,-103.38034,-141.05269
556000000,-103.66579,76.377296
565500000,-103.82497,-156.28122
575000000,-104.27381,-15.857927
584500000,-104.11455,73.762482
594000000,-104.28189,77.63456
603500000,-104.38133,92.583755
613000000,-104.4031,58.387394
622500000,-104.70181,-110.37742
632000000,-103.44901,93.949165
641500000,-103.88926,91.299461
651000000,-103.75651,93.789711
660500000,-103.71002,18.747746
670000000,-103.96481,-49.052399
679500000,-104.05264,33.750439
689000000,-103.89059,-38.991287
698500000,-104.34783,125.13509
708000000,-104.31984,27.912083
717500000,-104.22787,137.77721
727000000,-104.56959,-128.1678
736500000,-104.5958,51.225712
746000000,-104.57006,-29.097809
755500000,-104.48695,129.41008
765000000,-104.84567,110.35669
774500000,-104.62188,44.905998
784000000,-104.4778,95.576561
793500000,-104.72657,-167.12857
803000000,-104.92432,-176.30652
812500000,-105.03941,29.420435
822000000,-104.98393,51.01453
831500000,-105.00673,22.565042
841000000,-105.06182,-138.6028
850500000,-105.15343,-132.30209
860000000,-105.08662,-134.83823
869500000,-105.23792,128.17995
879000000,-105.29753,1.2385476
888500000,-105.32301,-154.72266
898000000,-105.19379,-131.18684
907500000,-105.30162,-104.31712
917000000,-105.25093,120.1165
926500000,-105.46858,0.94070393
936000000,-105.3931,-136.33676
945500000,-105.51704,-74.434486
955000000,-105.36493,-116.73856
964500000,-105.82089,2.0957167
974000000,-105.8348,13.615495
983500000,-105.64351,78.175232
993000000,-105.77502,-150.11038
1002500000,-102.89896,-105.76923
1012000000,-103.05404,52.230431
1021500000,-103.02457,102.00878
1031000000,-102.99735,36.800629
1040500000,-102.81336,123.43853
1050000000,-103.07369,37.634892
1059500000,-103.1218,-111.96451
1069000000,-102.67384,-169.69604
1078500000,-103.09619,52.57708
1088000000,-103.07677,131.0515
1097500000,-103.07418,-22.238539
1107000000,-102.92893,-56.27264
1116500000,-102.98581,68.597656
1126000000,-103.30908,3.1474383
1135500000,-102.91792,-56.866276
1145000000,-103.16518,-27.844646
1154500000,-103.07841,122.78418
1164000000,-103.12631,123.29028
1173500000,-103.09391,120.29558
1183000000,-103.11757,89.836952
1192500000,-102.98721,-113.55571
1202000000,-103.03295,92.149635
1211500000,-102.95585,-132.43536
1221000000,-103.12562,50.130951
1230500000,-103.13424,-137.85216
1240000000,-103.1143,-114.30748
1249500000,-103.37205,-160.74147
1259000000,-103.16216,112.59399
1268500000,-102.91936,149.60368
1278000000,-103.36845,79.505882
1287500000,-102.93032,95.242432
1297000000,-102.97234,146.0186
1306500000,-103.21478,-175.80962
1316000000,-102.96452,-1.2838944
1325500000,-103.18237,-15.673935
1335000000,-102.82579,-47.748482
1344500000,-102.84848,-40.168205
1354000000,-103.15183,-154.09866
1363500000,-103.16356,-149.82254
1373000000,-103.00704,-62.917362
1382500000,-103.11943,124.45918
1392000000,-102.90935,-2.8833549
1401500000,-103.1913,26.015537
1411000000,-102.86092,9.0694323
1420500000,-102.96631,-160.03925
1430000000,-102.94114,159.78854
1439500000,-102.74495,40.827267
1449000000,-102.7876,-19.538054
1458500000,-102.93687,-148.53885
1468000000,-102.93539,91.397835
1477500000,-102.82377,80.931206
1487000000,-102.69968,-102.86207
1496500000,-102.731,116.29742
1506000000,-105.44817,118.58195
1515500000,-105.29103,-12.204831
1525000000,-105.54845,-58.261837
1534500000,-105.47887,-64.372574
1544000000,-105.38789,0.7240777
1553500000,-105.49122,-45.207035
1563000000,-105.21672,-98.385422
1572500000,-105.1722,-60.992359
1582000000,-105.52651,51.108612
1591500000,-105.39375,121.94418
1601000000,-105.39355,-47.320438
1610500000,-105.50148,142.0773
1620000000,-105.39268,-29.473871
1629500000,-105.34615,-135.37007
1639000000,-105.2324,-62.771179
1648500000,-105.06631,45.465767
1658000000,-105.3216,177.63747
1667500000,-105.00619,-46.221588
1677000000,-105.08272,-134.35555
1686500000,-105.20406,161.29243
1696000000,-105.1197,141.53848
1705500000,-105.01212,155.3019
1715000000,-105.07732,-38.999077
1724500000,-105.04552,121.93736
1734000000,-104.89388,-130.16223
1743500000,-105.01282,81.276993
1753000000,-105.19276,5.1760712
1762500000,-104.71092,-143.35329
1772000000,-104.86288,31.431215
1781500000,-104.95078,59.904701
1791000000,-104.78317,40.600582
1800500000,-104.67149,119.45781
1810000000,-104.84997,-0.31201804
1819500000,-104.63493,170.0047
1829000000,-104.89215,135.64478
1838500000,-104.54782,-105.54492
1848000000,-104.68086,-107.75257
1857500000,-104.74772,81.9832
1867000000,-104.68962,-175.01152
1876500000,-104.62,-67.1007
1886000000,-104.38506,-97.690231
1895500000,-104.45943,157.48755
1905000000,-104.48931,0.62061363
1914500000,-104.76383,173.14313
1924000000,-104.44234,12.481513
1933500000,-104.68193,-117.33287
1943000000,-104.39581,169.04324
1952500000,-104.40378,29.231936
1962000000,-104.21053,137.60263
1971500000,-104.39707,112.85946
1981000000,-104.17448,-96.563713
1990500000,-104.50788,-52.286884
2000000000,-104.52641,167.97562
END

