!CSV A.01.01
!Keysight Technologies,N5242B,MY48420967,A.15.65.19
!Date: Saturday, February 04, 2023 04:49:38
!Source: Standard

BEGIN CH1_DATA
Freq(Hz),A_1(DB),A_1(DEG)
100000000,-104.14323,85.255562
109500000,-103.00215,25.513657
119000000,-103.83884,-82.468987
128500000,-104.42265,87.351807
138000000,-104.92631,47.045757
147500000,-101.8579,-176.59895
157000000,-102.51957,25.715237
166500000,-102.94583,1.9948592
176000000,-103.38288,40.149281
185500000,-104.04264,115.57066
195000000,-104.17258,161.57663
204500000,-104.71503,-26.047523
214000000,-102.24523,38.711018
223500000,-102.70882,91.837997
233000000,-103.42649,-38.900169
242500000,-103.49221,-12.733634
252000000,-98.88327,-68.119537
261500000,-99.125671,-140.61186
271000000,-99.257362,-32.007645
280500000,-99.459564,-142.28546
290000000,-100.03895,171.75174
299500000,-100.02001,150.28671
309000000,-100.25017,-26.590246
318500000,-100.74274,-44.001617
328000000,-100.94048,162.94826
337500000,-100.964,159.74879
347000000,-101.54155,42.395538
356500000,-101.66733,166.75568
366000000,-101.78962,64.477898
375500000,-102.17604,0.075894341
385000000,-102.29075,-81.349388
394500000,-102.33778,-50.729889
404000000,-101.47104,-30.9179
413500000,-101.92154,-119.60585
423000000,-102.10001,-78.501671
432500000,-102.08291,175.43315
442000000,-102.17152,-35.412724
451500000,-102.47948,77.330498
461000000,-102.46494,101.98051
470500000,-102.71171,-25.216957
480000000,-102.51104,-53.82888
489500000,-102.9269,-153.07962
499000000,-103.12114,25.173374
508500000,-103.46358,-142.89532
518000000,-103.47178,141.37418
527500000,-103.46994,-139.75658
537000000,-103.55721,21.118589
546500000,-103.71411,-168.6322
556000000,-103.77154,126.11041
565500000,-103.96719,75.522285
575000000,-104.21579,-107.45656
584500000,-104.2364,90.194992
594000000,-104.39877,-115.08002
603500000,-104.43094,-51.467876
613000000,-104.4408,138.69518
622500000,-104.52922,146.03601
632000000,-103.43206,-97.432228
641500000,-103.88856,173.3689
651000000,-103.88131,-87.344444
660500000,-103.9198,35.263828
670000000,-103.70398,81.812599
679500000,-104.08289,-62.15065
689000000,-104.15684,116.49138
698500000,-104.08472,-18.583887
708000000,-104.31096,143.27654
717500000,-104.27391,-178.01395
727000000,-104.43965,-91.570511
736500000,-104.38891,-93.447609
746000000,-104.33758,91.990326
755500000,-104.64771,12.070482
765000000,-104.79488,-37.189121
774500000,-104.73094,40.067787
784000000,-104.63909,170.64542
793500000,-104.69683,-101.4221
803000000,-104.85175,-163.63594
812500000,-104.99148,154.27408
822000000,-104.80562,106.53341
831500000,-104.95782,-132.91051
841000000,-104.95782,-128.67055
850500000,-105.00833,-45.329929
860000000,-105.08494,38.969891
869500000,-104.90726,54.790859
879000000,-105.10686,105.53143
888500000,-105.38472,116.62605
898000000,-105.31423,-113.6374
907500000,-105.28313,-53.028824
917000000,-105.70071,79.755104
926500000,-105.31802,40.52467
936000000,-105.3693,-101.40849
945500000,-105.52683,-47.030743
955000000,-105.38917,136.75237
964500000,-105.48669,92.138313
974000000,-105.55346,-64.254715
983500000,-105.55824,102.05469
993000000,-105.59864,43.812824
1002500000,-102.99139,146.27507
1012000000,-102.92414,177.02927
1021500000,-102.86195,-118.66429
1031000000,-102.97084,-24.155607
1040500000,-102.74012,140.08885
1050000000,-102.72035,-103.34692
1059500000,-102.89658,-14.471629
1069000000,-103.00334,85.8825
1078500000,-103.06492,-62.609764
1088000000,-103.29572,-136.29884
1097500000,-102.76074,57.852913
1107000000,-102.71329,101.08941
1116500000,-102.87746,-161.68858
1126000000,-102.99403,-138.17006
1135500000,-103.19099,-107.62092
1145000000,-103.00741,123.48372
1154500000,-102.90327,-88.039986
1164000000,-103.06298,-57.560265
1173500000,-103.18369,-126.27986
1183000000,-103.28602,52.467968
1192500000,-103.11275,22.655226
1202000000,-103.21265,108.23898
1211500000,-102.98284,112.58833
1221000000,-102.90234,-159.91776
1230500000,-103.10802,48.408386
1240000000,-103.32798,-128.48997
1249500000,-103.10162,46.221203
1259000000,-103.17363,-105.58892
1268500000,-102.93593,-115.4753
1278000000,-103.06426,27.789679
1287500000,-103.00712,-118.62496
1297000000,-102.8123,158.81686
1306500000,-103.09315,162.27118
1316000000,-103.18556,179.14755
1325500000,-102.97553,16.861521
1335000000,-102.85025,-115.88377
1344500000,-102.72683,-106.48946
1354000000,-102.96106,91.29232
1363500000,-102.80627,-79.091431
1373000000,-103.2574,-6.3917637
1382500000,-103.20331,-30.11731
1392000000,-103.01625,-13.608243
1401500000,-102.8474,133.89609
1411000000,-103.18189,-173.17809
1420500000,-102.92976,-179.31567
1430000000,-102.9256,3.5394475
1439500000,-103.17331,30.00831
1449000000,-102.75178,103.7524
1458500000,-102.74441,-76.53212
1468000000,-102.94535,172.88829
1477500000,-102.65923,57.158382
1487000000,-102.72556,-154.44795
1496500000,-102.82108,112.91641
1506000000,-105.74614,-70.573814
1515500000,-105.84785,38.255627
1525000000,-105.4106,-174.36989
1534500000,-105.71057,-49.119621
1544000000,-105.51157,116.89544
1553500000,-105.44286,-20.881649
1563000000,-105.44107,91.837509
1572500000,-105.2573,47.223209
1582000000,-105.44245,50.334171
1591500000,-105.43038,94.273323
1601000000,-105.63641,136.00734
1610500000,-105.29625,-7.2863817
1620000000,-105.12872,131.09688
1629500000,-105.27457,7.7813897
1639000000,-105.31291,-148.1376
1648500000,-105.19121,63.809753
1658000000,-105.17912,177.40375
1667500000,-105.12897,175.81909
1677000000,-105.23186,-40.368786
1686500000,-105.14964,93.630638
1696000000,-105.10574,-9.8483829
1705500000,-105.13274,172.67178
1715000000,-105.13799,-96.109024
1724500000,-105.08694,-114.89055
1734000000,-104.80593,32.338478
1743500000,-104.87202,-14.73303
1753000000,-104.86947,-178.0127
1762500000,-104.80652,-141.43613
1772000000,-104.92525,-132.82397
1781500000,-104.82317,-130.7157
1791000000,-104.88341,-80.168999
1800500000,-104.68353,130.34543
1810000000,-104.63226,-67.590088
1819500000,-104.8502,5.836504
1829000000,-104.83891,-67.258118
1838500000,-104.74252,152.87372
1848000000,-104.59293,-143.43494
1857500000,-104.72344,176.8647
1867000000,-104.42517,55.516907
1876500000,-104.55603,15.615882
1886000000,-104.69427,14.259545
1895500000,-104.4672,-31.281796
1905000000,-104.59251,2.7605021
1914500000,-104.36928,135.12849
1924000000,-104.31605,-102.89226
1933500000,-104.51541,-137.70309
1943000000,-104.798,0.1192777
1952500000,-104.64345,161.30748
1962000000,-104.66979,-83.634796
1971500000,-104.47393,-76.181488
1981000000,-104.19918,170.47208
1990500000,-104.20612,163.67735
2000000000,-104.15171,-141.76985
END

