!CSV A.01.01
!Keysight Technologies,N5242B,MY48420967,A.15.65.19
!Date: Saturday, February 04, 2023 19:35:30
!Source: Standard

BEGIN CH1_DATA
Freq(Hz),B_1(DB),B_1(DEG)
100000000,-103.95023,121.2709
109500000,-102.62372,-0.34805194
119000000,-103.54746,-39.206928
128500000,-104.15779,-160.40504
138000000,-104.45428,113.11185
147500000,-102.06103,156.35602
157000000,-102.78478,-100.43984
166500000,-103.17169,-0.43522322
176000000,-103.72754,13.023023
185500000,-103.8177,30.276173
195000000,-104.28081,0.35377479
204500000,-105.05871,-90.719032
214000000,-102.273,-98.781631
223500000,-102.76879,-125.18656
233000000,-102.95844,23.742598
242500000,-103.02426,-53.181889
252000000,-98.531891,-105.3107
261500000,-98.694069,-21.553896
271000000,-99.026932,56.068859
280500000,-99.234642,-94.931793
290000000,-99.397072,-126.15514
299500000,-99.720451,-45.676212
309000000,-100.06163,-101.4503
318500000,-100.21793,69.198441
328000000,-100.51888,-128.63773
337500000,-100.62041,-73.725121
347000000,-100.99162,-178.43629
356500000,-101.19971,-155.2795
366000000,-101.23257,-156.1657
375500000,-101.50631,57.180485
385000000,-101.58763,-2.3349648
394500000,-101.93178,-9.6779995
404000000,-101.85585,-27.480095
413500000,-102.22618,129.97816
423000000,-102.19737,83.963333
432500000,-102.31254,-125.15907
442000000,-102.54086,-54.359276
451500000,-102.77463,10.280808
461000000,-102.93805,112.51969
470500000,-102.94132,-21.736753
480000000,-103.40163,-27.504641
489500000,-103.28045,49.454845
499000000,-103.61319,177.0137
508500000,-102.90028,-163.25288
518000000,-103.03229,9.3787899
527500000,-103.00095,-133.76118
537000000,-103.34728,98.12706
546500000,-103.4699,65.948975
556000000,-103.49016,-20.362917
565500000,-103.55904,-143.75653
575000000,-103.76517,-114.51276
584500000,-103.71062,3.1791868
594000000,-103.77865,-155.83006
603500000,-103.96661,45.296757
613000000,-103.8677,1.6076875
622500000,-104.02221,-133.36752
632000000,-103.14233,13.911435
641500000,-103.19434,49.04538
651000000,-103.25127,-75.140717
660500000,-103.66542,-47.437859
670000000,-103.54736,-63.257374
679500000,-103.34952,-172.79199
689000000,-103.76183,-71.443298
698500000,-103.81879,-38.490356
708000000,-103.93212,-145.18051
717500000,-104.01907,151.71382
727000000,-103.90543,-24.685133
736500000,-104.13416,-173.96082
746000000,-104.1096,-111.60752
755500000,-104.05915,174.39796
765000000,-104.51639,-151.96527
774500000,-104.3804,-95.291779
784000000,-104.47036,-163.53389
793500000,-104.1981,-142.6506
803000000,-104.53675,-90.454674
812500000,-104.48544,-58.382561
822000000,-104.37309,6.9917216
831500000,-104.70467,48.366051
841000000,-104.72223,37.078182
850500000,-104.81173,-67.999016
860000000,-104.65778,-151.44434
869500000,-104.64378,33.262794
879000000,-104.66834,16.061331
888500000,-104.87111,90.296906
898000000,-104.94639,62.860451
907500000,-105.24974,-153.38243
917000000,-105.05888,20.009689
926500000,-104.96615,94.92662
936000000,-104.89665,-158.93677
945500000,-105.27006,-167.55338
955000000,-105.28576,176.9346
964500000,-104.96146,-70.209976
974000000,-105.23028,10.475306
983500000,-105.15868,-92.545761
993000000,-105.11842,21.482149
1002500000,-105.15546,-170.8584
1012000000,-105.25637,-155.2589
1021500000,-105.00066,-40.979668
1031000000,-105.32403,62.17765
1040500000,-105.19679,-23.220554
1050000000,-105.36203,-147.16367
1059500000,-105.34078,-155.88155
1069000000,-105.25884,-132.43286
1078500000,-105.39938,71.995422
1088000000,-105.53584,58.407757
1097500000,-105.25374,118.56187
1107000000,-105.50111,138.17169
1116500000,-105.41055,54.11631
1126000000,-105.22335,-12.996061
1135500000,-105.29955,-151.55551
1145000000,-105.55195,-43.79723
1154500000,-105.40936,49.375732
1164000000,-105.51975,87.873192
1173500000,-105.65426,-36.023415
1183000000,-105.34967,-46.869534
1192500000,-105.72637,138.83282
1202000000,-105.42049,81.246101
1211500000,-105.75898,113.07751
1221000000,-105.66875,-6.886261
1230500000,-105.51637,47.128571
1240000000,-105.63948,112.81858
1249500000,-105.5361,45.88023
1259000000,-105.4396,11.541795
1268500000,-105.42934,-2.5922346
1278000000,-105.44912,-34.503899
1287500000,-105.22358,-121.34263
1297000000,-105.48027,42.770084
1306500000,-105.50648,46.362888
1316000000,-105.41606,-146.50719
1325500000,-105.57401,2.7763383
1335000000,-105.31905,82.059372
1344500000,-105.35352,47.162941
1354000000,-105.41007,9.231946
1363500000,-105.55043,-8.4917145
1373000000,-105.1505,25.789331
1382500000,-105.30959,99.402275
1392000000,-105.28038,-79.83313
1401500000,-105.3458,41.582111
1411000000,-105.46573,37.279118
1420500000,-105.13559,-14.449635
1430000000,-105.292,28.098568
1439500000,-105.24731,-60.665577
1449000000,-105.29415,173.53716
1458500000,-105.1,97.569916
1468000000,-105.2644,121.19759
1477500000,-105.02792,115.48995
1487000000,-104.86913,-101.43052
1496500000,-104.68447,-108.38702
1506000000,-105.32455,178.41656
1515500000,-104.94856,-124.24651
1525000000,-104.94132,70.906349
1534500000,-105.0349,-100.57706
1544000000,-104.72975,-135.88361
1553500000,-104.83301,106.38158
1563000000,-104.87614,71.221474
1572500000,-104.65414,15.544857
1582000000,-104.73481,165.90784
1591500000,-105.06962,137.06323
1601000000,-104.59718,-73.520111
1610500000,-105.00196,-60.837212
1620000000,-104.9596,164.20441
1629500000,-104.91839,-137.91283
1639000000,-104.71823,20.381744
1648500000,-104.60039,-89.28347
1658000000,-104.69164,-84.976204
1667500000,-104.63738,-147.22865
1677000000,-104.63113,-0.17594269
1686500000,-104.3707,-76.944763
1696000000,-104.63901,-7.2834287
1705500000,-104.34116,-97.302162
1715000000,-104.32872,-108.56419
1724500000,-104.34555,-7.2723894
1734000000,-104.21873,56.63361
1743500000,-104.09158,-111.37505
1753000000,-104.21232,167.49568
1762500000,-104.36642,130.03703
1772000000,-104.37102,-58.641178
1781500000,-104.21223,10.506468
1791000000,-104.22182,-139.51656
1800500000,-104.01407,42.156082
1810000000,-104.37167,153.43156
1819500000,-104.05575,131.57359
1829000000,-103.82799,76.750908
1838500000,-103.96576,-6.0698833
1848000000,-104.26089,-55.560963
1857500000,-104.01967,-93.951027
1867000000,-104.24651,172.04579
1876500000,-103.89312,-12.327563
1886000000,-104.11579,156.82817
1895500000,-104.1162,90.48558
1905000000,-104.0523,160.7003
1914500000,-104.255,153.83556
1924000000,-104.25163,-101.59493
1933500000,-104.24198,-147.94293
1943000000,-104.08101,81.821564
1952500000,-104.05335,127.05451
1962000000,-103.94656,-89.293541
1971500000,-103.80534,-97.1315
1981000000,-103.82337,170.69501
1990500000,-103.8705,23.451719
2000000000,-103.86768,-106.73207
END

