!Keysight Technologies,N5242B,MY48420967,A.15.65.19
!Date: Monday, January 23, 2023 03:18:09
!Correction: S11(C  1-Port  ) 
!S21(Off) 
!S12(Off) 
!S22(Off) 
!S2P File: Measurements: S11, S21, S12, S22:
# Hz S  dB   R 50
100000000 -1.4988861 40.419735 -81.485397 148.93788 -90.408859 168.69978 -2.5799046 43.38554
109500000 -1.4163916 11.00649 -84.247581 34.176853 -92.990501 32.055435 -2.4847202 -29.755737
119000000 -1.3245533 -17.701012 -81.333519 -110.55092 -93.652405 -99.6642 -2.8048129 -109.48225
128500000 -1.2515243 -46.077038 -83.522285 152.06299 -98.994431 119.83372 -3.2969224 177.82571
138000000 -1.2455821 -74.618744 -82.967644 78.495522 -91.96833 29.908457 -2.8528461 113.44932
147500000 -1.2968751 -103.46299 -80.923203 -62.149437 -105.28492 124.23181 -1.7223068 46.756233
157000000 -1.3570024 -132.60054 -76.237808 -153.7191 -91.300568 178.83504 -1.7805806 -29.04487
166500000 -1.442935 -162.12434 -80.408859 118.17358 -93.224632 15.993716 -3.6738846 -102.73193
176000000 -1.5578791 167.91971 -79.731186 3.8504953 -90.181854 133.86089 -4.918364 -171.45808
185500000 -1.647022 137.74698 -80.255608 -103.73122 -101.43018 55.859497 -4.2676244 118.16033
195000000 -1.6785444 107.78436 -78.64817 172.16653 -103.06158 -144.84984 -2.8760037 43.068409
204500000 -1.6809232 78.172852 -80.232796 46.459103 -88.799477 139.35156 -2.7505598 -30.481983
214000000 -1.6669464 48.807785 -78.185364 -53.635056 -102.99429 29.164047 -3.3663373 -95.931824
223500000 -1.6228541 19.798107 -75.956024 -137.36208 -94.726524 110.95752 -3.6601987 -160.86145
233000000 -1.5702852 -8.8851128 -77.73317 115.05218 -91.161079 -90.265221 -3.8630309 126.06165
242500000 -1.5495116 -37.502338 -78.007088 -6.9202409 -89.376213 49.084877 -4.4608278 48.764297
252000000 -1.5490496 -66.22422 -81.234734 -141.44144 -87.085129 -178.09084 -4.6029105 -22.650406
261500000 -1.5756851 -95.195633 -77.237633 -177.05698 -97.925713 70.602119 -3.7601681 -89.603386
271000000 -1.647656 -124.51722 -78.531128 73.075485 -101.47352 -53.739185 -2.8884606 -160.04054
280500000 -1.7356567 -154.26208 -76.715736 -45.273182 -86.103065 -6.8298993 -3.5011094 126.62407
290000000 -1.8133942 175.71552 -74.224129 -136.55212 -104.61148 -2.0945435 -4.8741345 57.247871
299500000 -1.8939717 145.60712 -77.146873 119.59963 -88.137001 126.34953 -5.3223357 -11.995121
309000000 -1.9589733 115.4297 -77.144249 9.376811 -86.075539 80.040573 -4.6118441 -86.295219
318500000 -1.977077 85.522285 -75.646027 -105.50394 -86.230278 19.212685 -4.1089387 -162.54424
328000000 -1.9565506 56.118202 -77.78463 169.44574 -89.723228 -115.81351 -4.3195248 127.90159
337500000 -1.9444158 26.933428 -76.758995 69.410759 -84.655197 -45.57975 -4.3743348 62.849659
347000000 -1.9413835 -2.126081 -74.39444 -37.436279 -90.871872 165.96114 -4.2098923 -6.8573384
356500000 -1.9213188 -31.019606 -75.699242 -138.76953 -85.643654 120.78993 -4.6958132 -82.783798
366000000 -1.9231672 -59.999756 -75.631195 124.92351 -85.766434 72.829903 -5.4794655 -155.54417
375500000 -1.9797897 -89.347984 -74.934914 29.49189 -90.873718 -62.400185 -5.3227315 137.13164
385000000 -2.0487688 -119.14798 -73.586655 -80.048378 -84.485725 122.02135 -4.349072 68.46241
394500000 -2.1169264 -149.20274 -73.894012 170.32359 -97.697876 149.87892 -4.0890002 -6.2100501
404000000 -2.1860533 -179.34599 -74.968704 57.073189 -89.183479 64.971535 -5.1925635 -79.061447
413500000 -2.2494035 150.40314 -76.458908 -46.304913 -96.994255 56.44326 -5.9853315 -147.24199
423000000 -2.2936897 120.2478 -74.999863 -128.2261 -90.192551 -93.90654 -5.5107861 143.28888
432500000 -2.2911577 90.555237 -73.878319 123.51186 -93.533661 152.19199 -4.6207137 69.430695
442000000 -2.2622328 61.355957 -72.805565 23.984516 -88.586525 107.69532 -4.6468968 -2.7399397
451500000 -2.241353 32.544403 -75.129791 -78.855942 -85.21698 -52.751717 -5.0816584 -68.191116
461000000 -2.2191052 3.9957833 -72.078484 -176.0426 -93.008598 29.617237 -5.0999541 -133.47282
470500000 -2.1925693 -24.365934 -73.48362 100.32554 -101.04136 -146.65645 -4.9824486 153.86729
480000000 -2.1824582 -52.636147 -74.410538 -19.139397 -114.50369 -40.550571 -5.4152431 77.715942
489500000 -2.209599 -81.159737 -70.928139 -110.68231 -93.008308 31.845211 -5.7293429 7.7104845
499000000 -2.2608726 -110.08427 -68.691452 149.37247 -95.419739 -91.452293 -5.2335329 -57.497231
508500000 -2.3040047 -139.22195 -67.323051 41.542484 -91.274338 -178.05577 -4.5069923 -125.30264
518000000 -2.3451922 -168.50775 -65.883614 -86.480797 -89.8302 148.67197 -4.8453002 162.82474
527500000 -2.3930914 162.08771 -67.074387 166.60181 -88.110222 79.11805 -5.9759583 92.59668
537000000 -2.421962 132.74065 -68.053627 60.186295 -86.45137 -58.764877 -6.3311777 22.894234
546500000 -2.4162252 103.73182 -69.845177 -55.192429 -102.06406 -73.307594 -5.5346928 -49.94379
556000000 -2.3890142 75.213829 -69.865509 -149.41045 -98.094727 131.04128 -4.901607 -123.69283
565500000 -2.356662 47.074638 -71.132195 102.25295 -93.356316 157.83511 -5.1201162 169.28053
575000000 -2.3253663 19.240377 -72.306564 -0.69624186 -90.584915 155.828 -5.3609285 108.18444
584500000 -2.2940335 -8.3431358 -70.509018 -88.564964 -96.522316 173.85788 -5.2463546 43.93055
594000000 -2.2773461 -35.884159 -70.777473 164.02193 -93.848076 -175.28146 -5.4120259 -29.969231
603500000 -2.2925963 -63.620926 -71.489563 55.034725 -106.85122 -140.52042 -6.2402124 -106.11671
613000000 -2.3328032 -91.71727 -71.612198 -37.744335 -93.776848 -141.47975 -6.4291177 -175.44817
622500000 -2.3798089 -120.21342 -70.814499 -135.82364 -93.0495 -55.363026 -5.6511869 119.21921
632000000 -2.4408147 -149.08476 -70.319359 127.01733 -88.294861 81.197098 -4.9670577 51.31039
641500000 -2.4979129 -178.20009 -71.811211 6.3941264 -89.795258 144.56551 -5.5044236 -18.755239
651000000 -2.541641 152.5269 -72.246078 -84.915718 -88.755432 -118.22836 -6.6335778 -87.800186
660500000 -2.5663929 123.33553 -71.471886 178.58446 -94.068954 -138.13234 -6.9659967 -159.53235
670000000 -2.5655401 94.340744 -71.36425 84.5019 -102.1848 129.68524 -6.3078709 124.7356
679500000 -2.5474224 65.682045 -71.993004 -21.41433 -98.997475 27.072977 -5.8212085 52.003754
689000000 -2.5151684 37.459694 -71.023682 -125.7961 -95.026833 -84.616379 -5.7656918 -12.191342
698500000 -2.4898 9.4862461 -71.454521 144.5406 -94.683174 23.47509 -5.6425157 -73.025604
708000000 -2.4820182 -18.362555 -71.380119 37.268459 -89.337929 -161.99292 -5.679915 -139.98529
717500000 -2.483242 -46.191154 -70.683655 -64.744843 -110.25306 89.504364 -6.6278272 144.00867
727000000 -2.5139306 -74.278465 -71.295097 -167.75298 -90.513649 -48.515251 -7.6480794 67.130798
736500000 -2.5834661 -102.82538 -70.303749 100.9733 -98.042221 99.47464 -7.216701 -4.2429905
746000000 -2.6580064 -131.8772 -71.457664 -6.7092204 -89.492538 91.972496 -5.8833494 -72.109795
755500000 -2.7213352 -161.29233 -69.905083 -112.75756 -95.613449 -147.82127 -5.2940435 -140.55365
765000000 -2.7900386 169.06432 -71.089684 144.59097 -95.085403 179.88524 -6.0982594 153.19127
774500000 -2.8443954 139.25481 -70.122375 46.849339 -87.212822 122.8791 -7.2124987 87.849915
784000000 -2.8575275 109.53731 -69.983192 -50.616726 -105.43857 -155.24055 -7.5737648 15.440742
793500000 -2.8396034 80.230408 -69.035416 -156.38347 -91.921425 -9.531229 -7.105875 -64.329178
803000000 -2.8108571 51.391933 -70.903824 99.412224 -92.84375 -153.78604 -6.6792369 -138.49254
812500000 -2.7759342 22.961311 -70.595078 -0.7369315 -96.791153 18.765568 -6.3258839 158.49797
822000000 -2.73825 -5.080544 -70.666641 -99.620049 -89.957161 93.375603 -5.8043475 98.681923
831500000 -2.715462 -32.850285 -69.91671 160.97275 -97.418564 19.264118 -5.6937194 32.3657
841000000 -2.7207737 -60.581593 -70.411354 61.401558 -111.4828 -33.649055 -6.8399692 -41.706181
850500000 -2.7545586 -88.528488 -70.435585 -45.767143 -92.820099 126.15569 -8.0754471 -116.98067
860000000 -2.8069239 -116.83693 -69.439507 -140.90923 -87.464485 118.83543 -7.6518688 170.65619
869500000 -2.864078 -145.51918 -69.865051 115.22163 -91.881332 93.414223 -6.2116189 101.53772
879000000 -2.9210167 -174.46005 -69.871315 12.154765 -93.570412 178.02718 -5.4911418 34.063587
888500000 -2.9666378 156.41934 -70.173149 -90.708939 -95.12722 173.19907 -5.971694 -29.699486
898000000 -2.9880898 127.26189 -69.562378 173.16702 -88.421295 134.98447 -6.8347135 -92.709419
907500000 -2.9747691 98.320953 -69.6325 72.021477 -92.740829 68.405518 -7.4638476 -163.12831
917000000 -2.9387393 69.807037 -69.304245 -28.453466 -95.946518 -137.85556 -7.6097026 117.98215
926500000 -2.8888245 41.746849 -69.773323 -134.79883 -95.105942 77.514214 -7.2278891 43.106636
936000000 -2.8322158 14.143365 -70.027588 127.4612 -97.497185 127.28027 -6.4524264 -21.571222
945500000 -2.7817533 -13.016924 -69.872299 28.694893 -93.721443 12.398046 -5.6328745 -82.519051
955000000 -2.7490799 -39.944771 -68.825447 -75.508377 -98.148308 171.69453 -5.5128407 -146.80125
964500000 -2.7470603 -66.831078 -68.422935 -171.96706 -84.856003 167.04089 -6.6182222 145.01764
974000000 -2.7683687 -93.874245 -68.59584 86.852753 -90.272118 71.154648 -7.9897981 73.899216
983500000 -2.8146405 -121.31216 -68.891266 -13.338593 -87.090523 -36.699574 -8.0758486 -0.6638754
993000000 -2.8732779 -149.16237 -67.975922 -113.84554 -101.94363 130.27029 -7.0067306 -74.093887
1002500000 -2.9241967 -177.37198 -67.901871 140.4559 -86.242149 125.68667 -6.2594137 -141.58546
1012000000 -2.9771464 154.07939 -69.308273 42.557747 -91.450287 -169.08099 -6.1647449 157.33455
1021500000 -3.0112805 125.36345 -68.243889 -54.358978 -86.804268 -42.253582 -6.3442421 96.681793
1031000000 -3.006829 96.683784 -67.595161 -160.25081 -96.768402 -40.511341 -6.9506278 28.21929
1040500000 -2.9837699 68.25399 -68.474319 101.90559 -88.597206 151.19542 -8.1521397 -49.209904
1050000000 -2.950439 40.178223 -68.937881 3.7863996 -96.037102 102.72722 -8.6137962 -125.84378
1059500000 -2.9024482 12.444424 -67.983849 -100.25667 -95.478104 34.055103 -7.5541573 165.67831
1069000000 -2.8585637 -14.891776 -68.021477 166.04601 -95.081528 149.08731 -5.9937277 100.68255
1078500000 -2.8402166 -41.929379 -67.184746 64.309082 -86.622383 136.38673 -5.4943285 33.50301
1088000000 -2.8424983 -68.971046 -66.85231 -46.566242 -94.705208 37.452579 -6.6081905 -32.446583
1097500000 -2.8782883 -96.233345 -67.441551 -144.52615 -90.042831 -76.181442 -8.070755 -97.665489
1107000000 -2.9421899 -123.84379 -67.197037 126.15865 -90.834137 -175.34488 -8.6077452 -169.19453
1116500000 -3.0176721 -152.00888 -66.335052 22.593727 -90.808846 170.22073 -7.9548745 113.65871
1126000000 -3.0969198 179.31036 -66.289063 -82.443459 -93.38559 6.3052864 -7.2047353 41.234459
1135500000 -3.1693645 150.24696 -66.523651 -178.73238 -109.98074 116.09717 -6.8074126 -22.362976
1145000000 -3.2220328 120.83931 -65.820778 79.226097 -89.86718 -94.585213 -6.6148434 -83.766563
1154500000 -3.2446821 91.366974 -64.970779 -25.56646 -82.836098 144.31058 -7.0761237 -151.2188
1164000000 -3.2306168 62.146042 -65.496452 -128.26344 -85.944527 94.861137 -8.5253916 134.12604
1173500000 -3.2002139 33.226501 -65.325508 138.61005 -90.643311 -22.296314 -9.3640184 57.359138
1183000000 -3.1633394 4.7208905 -65.780495 35.649708 -88.077286 153.09586 -8.2452545 -15.274301
1192500000 -3.1199064 -23.290222 -64.629288 -67.380814 -92.144157 128.61559 -6.4419303 -84.027878
1202000000 -3.0952928 -50.940285 -64.192139 -170.10547 -91.234169 4.7687922 -5.8132558 -151.27428
1211500000 -3.1026199 -78.481323 -65.067467 90.281738 -84.528351 -137.10091 -6.6039295 146.1248
1221000000 -3.1375208 -106.14539 -64.845932 -8.2172346 -90.40786 -102.60391 -7.7641907 84.975548
1230500000 -3.1982315 -134.07727 -63.678829 -107.42884 -83.774902 102.49967 -8.587369 16.40741
1240000000 -3.2645478 -162.39345 -63.146526 152.33353 -90.971001 29.809261 -8.6589403 -62.063274
1249500000 -3.332212 168.82246 -63.191963 47.801495 -109.86903 -135.32181 -8.0093822 -138.53362
1259000000 -3.4023018 139.69766 -62.842712 -54.142109 -85.743767 -167.74963 -7.1276402 154.60069
1268500000 -3.4420617 110.36224 -62.171902 -155.0416 -85.219368 87.406975 -6.454401 91.871964
1278000000 -3.4360945 81.039444 -61.884468 99.197495 -88.635689 6.4685535 -6.6354823 27.118093
1287500000 -3.4003735 52.1003 -62.455929 -3.2740223 -89.289848 -34.116684 -7.8678751 -40.555092
1297000000 -3.3539553 23.587204 -62.210522 -101.53922 -84.633919 171.66559 -8.9863539 -112.28475
1306500000 -3.2917399 -4.4418783 -61.662262 160.08543 -86.351013 120.13889 -8.5602655 171.72638
1316000000 -3.2182798 -31.858168 -61.342564 60.512356 -91.486336 -107.62602 -7.1782656 97.446815
1325500000 -3.171351 -58.825611 -60.741783 -42.812088 -92.178055 -107.34403 -6.4413657 30.022558
1335000000 -3.1668944 -85.688072 -60.172653 -146.18073 -83.755737 172.54866 -6.451273 -30.190788
1344500000 -3.1773891 -112.57259 -60.111519 114.51868 -83.267204 98.237679 -6.7542605 -89.332367
1354000000 -3.2013941 -139.5649 -59.796917 11.752947 -86.860237 27.689436 -7.4360585 -154.83473
1363500000 -3.2526779 -166.86592 -59.080669 -91.688095 -86.631111 -121.60537 -8.5166121 131.50369
1373000000 -3.3201263 165.32996 -58.353031 166.35742 -80.64801 148.61041 -8.8240862 56.393192
1382500000 -3.3752637 137.14857 -58.046318 54.300236 -81.641624 63.303226 -7.7680383 -13.134058
1392000000 -3.4075203 108.7737 -60.480385 -52.144016 -93.443802 -85.302963 -6.4348693 -79.650948
1401500000 -3.4177728 80.255157 -60.259605 -134.03844 -86.625465 -148.44055 -6.2717137 -146.70534
1411000000 -3.4077129 51.786674 -58.376213 127.38972 -84.760506 154.35484 -7.4854736 148.33023
1420500000 -3.3733242 23.625137 -57.044086 19.258648 -80.808243 89.452103 -8.8197021 82.512566
1430000000 -3.312609 -4.0924473 -57.05521 -83.859047 -83.466667 -31.515129 -8.9918718 8.9320116
1439500000 -3.255513 -31.31415 -56.219292 176.12138 -89.787605 -117.10477 -7.9038801 -69.343338
1449000000 -3.2208059 -58.150211 -55.710709 72.822128 -78.855736 126.37446 -7.0301528 -140.91035
1458500000 -3.2094438 -84.881844 -54.339676 -31.223019 -80.473541 73.154793 -6.7483988 157.81151
1468000000 -3.2222712 -111.66315 -52.966343 -140.92644 -80.057259 -54.001732 -6.7268581 100.22441
1477500000 -3.2546353 -138.52798 -53.070225 103.11226 -81.720421 -171.5406 -7.2119579 38.313271
1487000000 -3.3172231 -165.8053 -53.862377 -2.8766022 -84.788589 117.5694 -8.5563421 -31.548033
1496500000 -3.3997054 166.39279 -53.504589 -110.35773 -81.910416 7.4452519 -9.6634178 -107.79105
1506000000 -3.47101 138.17361 -54.297558 138.76868 -81.885849 -89.267242 -8.9257431 175.81139
1515500000 -3.5379238 109.57075 -55.687191 38.268967 -81.064758 179.48282 -7.3574896 103.97048
1525000000 -3.5904579 80.604378 -54.611572 -67.579201 -82.034172 73.728531 -6.8203659 36.470207
1534500000 -3.6087577 51.482952 -55.37476 -177.8243 -82.199371 -20.598463 -7.4387779 -26.163324
1544000000 -3.598834 22.517817 -56.31702 77.174362 -84.60183 -113.5518 -8.3594227 -89.07296
1553500000 -3.5711398 -6.0995111 -57.108833 -29.366951 -87.469154 159.91312 -8.9240274 -160.6308
1563000000 -3.5272508 -34.307896 -58.098846 -135.79683 -85.532806 25.006321 -8.7720604 120.08572
1572500000 -3.4930761 -62.095478 -59.592983 125.08154 -84.380432 -60.598053 -8.1150637 46.799198
1582000000 -3.49559 -89.653656 -60.539684 26.209194 -91.177925 -128.0193 -7.3245201 -16.223202
1591500000 -3.5231977 -117.2438 -60.973206 -76.867378 -87.204353 133.77324 -6.7156353 -76.458015
1601000000 -3.5589945 -144.93411 -61.817947 -173.72707 -87.913666 33.205452 -6.9926314 -140.84019
1610500000 -3.6186574 -172.88814 -62.308247 83.45063 -88.323624 -53.028603 -8.4743233 149.91199
1620000000 -3.7151997 158.67197 -63.277832 -18.219772 -105.34256 -138.8992 -9.7404642 75.957809
1629500000 -3.8039801 129.73775 -63.694332 -117.6627 -91.467926 155.15872 -9.0862427 -0.20058617
1639000000 -3.8599129 100.53503 -63.90015 143.82446 -102.4055 130.20091 -7.4544339 -72.651085
1648500000 -3.9022954 71.137306 -65.765663 45.053219 -94.022308 -39.16172 -6.7365541 -139.65791
1658000000 -3.9329751 41.548504 -66.721519 -53.828442 -87.246178 -143.32196 -7.0961843 158.70457
1667500000 -3.919148 12.133734 -66.385864 -150.25206 -93.15963 150.79939 -7.9102798 96.446884
1677000000 -3.8539672 -16.757641 -67.648689 110.86529 -102.44118 82.056374 -8.8337898 25.421024
1686500000 -3.7871246 -45.106171 -68.984108 17.358898 -93.67363 -10.131164 -9.2150459 -53.69352
1696000000 -3.7546747 -73.062424 -69.690331 -78.152649 -92.469589 -120.13993 -8.4428606 -127.48476
1705500000 -3.7302103 -100.70758 -70.343369 -160.854 -88.37722 84.372719 -7.1381884 168.52055
1715000000 -3.705291 -128.13647 -69.273232 111.41294 -99.308922 1.1746507 -6.1844501 107.30036
1724500000 -3.7142177 -155.46259 -68.546089 8.5461817 -99.645332 71.81208 -6.4339027 44.339684
1734000000 -3.763603 176.98682 -67.5336 -93.969681 -90.87767 -100.63437 -7.9053993 -19.959015
1743500000 -3.8282449 149.0222 -68.283768 -179.72168 -96.657135 -165.40784 -9.3895016 -88.894379
1753000000 -3.8757172 120.82612 -67.724548 85.007538 -94.646759 101.80763 -9.3492146 -165.35295
1762500000 -3.9086874 92.44442 -67.232979 -19.945766 -90.804665 13.586268 -8.0077705 118.56781
1772000000 -3.9561653 63.734177 -66.570793 -113.54459 -92.911316 -59.811897 -7.1249652 49.958527
1781500000 -3.9855642 34.903439 -66.117981 151.0547 -93.31031 151.42116 -7.0542998 -12.046465
1791000000 -3.9536264 6.2333655 -65.863701 47.990242 -83.892624 127.7346 -7.4933681 -74.2313
1800500000 -3.9022768 -22.060217 -66.1866 -49.649303 -96.643028 43.105061 -8.4031725 -143.15082
1810000000 -3.8623092 -49.902355 -65.169777 -146.67055 -90.840752 -66.393494 -9.1659775 141.90741
1819500000 -3.8315012 -77.51226 -66.343246 120.10535 -91.175003 176.61156 -8.6935205 69.980293
1829000000 -3.8020849 -104.83795 -64.9422 41.764801 -93.028076 -129.89082 -7.3289604 5.3465261
1838500000 -3.7744987 -131.78603 -61.536282 -61.344021 -96.250183 52.952869 -6.2540894 -57.118267
1848000000 -3.791461 -158.67992 -59.067299 -164.73766 -83.321831 -73.126244 -6.5063357 -120.39747
1857500000 -3.8668673 174.17075 -58.268211 82.751251 -89.661514 -161.65036 -8.0472984 176.06653
1867000000 -3.9406438 146.74307 -57.472683 -26.216509 -84.926338 100.94537 -9.7428246 106.92589
1876500000 -4.0090899 119.05397 -57.10202 -131.58041 -86.72628 4.9015012 -9.940218 27.152269
1886000000 -4.1098962 91.151863 -56.581654 124.34922 -84.898674 -95.557983 -8.4717808 -51.815147
1895500000 -4.2200804 62.816383 -56.389748 15.207574 -85.017113 154.08087 -7.2548113 -120.17218
1905000000 -4.295711 34.121014 -56.778336 -88.036583 -82.57869 91.288757 -6.8015394 179.14665
1914500000 -4.3177142 5.5771089 -56.65377 166.39366 -88.264435 1.0741631 -7.0171165 118.75809
1924000000 -4.3116841 -22.680035 -56.792751 60.083569 -88.820374 -143.97238 -8.0397816 53.050426
1933500000 -4.2986131 -50.822475 -57.401573 -44.683208 -83.38382 130.00388 -9.3421412 -19.118776
1943000000 -4.2601767 -78.757072 -57.502747 -149.57004 -82.956276 65.356903 -9.3825388 -93.562675
1952500000 -4.1917038 -106.36895 -58.775593 111.17747 -85.787727 48.357819 -8.0641699 -163.82219
1962000000 -4.14396 -133.75758 -60.996124 7.2855005 -94.361359 -137.67157 -6.9484177 129.37943
1971500000 -4.1398039 -161.07185 -61.307812 -73.540131 -84.775475 152.64832 -7.0922785 64.520393
1981000000 -4.1609139 171.37053 -60.029068 -162.98387 -87.677826 80.935829 -8.2185593 0.26127395
1990500000 -4.1917887 143.56834 -58.496601 100.10768 -89.051369 -3.6913741 -9.3817539 -69.555519
2000000000 -4.2419567 115.59962 -56.672543 -1.2455324 -87.997658 -47.601883 -9.4860735 -147.43074
