!Keysight Technologies,N5242B,MY48420967,A.15.65.19
!Date: Saturday, February 04, 2023 04:32:48
!Correction: S11(C  1-Port  ) 
!S21(Off) 
!S12(Off) 
!S22(Off) 
!S2P File: Measurements: S11, S21, S12, S22:
# Hz S  dB   R 50
100000000 -1.2983305 40.36816 -82.810776 145.23242 -100.34408 132.1441 -2.6438661 44.300247
109500000 -1.2271895 11.054281 -89.84008 18.920626 -98.202187 -157.87347 -2.5844183 -28.66781
119000000 -1.1559119 -17.82592 -81.214928 -86.389214 -93.875954 71.37529 -2.8957458 -108.15272
128500000 -1.0678288 -46.206615 -82.403923 163.274 -91.66259 -150.46716 -3.3734953 179.23273
138000000 -1.0499344 -74.637894 -82.631149 98.980545 -99.919228 -135.26056 -2.9429936 114.9421
147500000 -1.1189867 -103.58366 -82.66851 -51.552006 -89.780106 -95.997551 -1.8357697 48.504395
157000000 -1.1850679 -132.89113 -80.146866 -140.49571 -90.953644 -166.51543 -1.8931918 -27.046486
166500000 -1.2586185 -162.42006 -82.353653 137.9032 -99.383965 162.77103 -3.8118055 -100.83713
176000000 -1.3860134 167.59903 -83.105812 25.098156 -101.62381 -50.951523 -5.1325908 -169.80821
185500000 -1.493073 137.2832 -78.877609 -88.603363 -93.714584 -140.3087 -4.5553999 119.62308
195000000 -1.5188496 107.28332 -80.474144 -169.3396 -92.780861 109.7333 -3.1840711 44.71809
204500000 -1.5271572 77.71196 -78.580963 63.222862 -92.067688 72.405388 -3.0174828 -28.626091
214000000 -1.5419512 48.265713 -81.267166 -63.648087 -101.16321 -19.794916 -3.6275651 -94.056839
223500000 -1.5021363 19.163877 -80.322395 -150.18541 -92.412865 -97.451332 -3.9788399 -158.83443
233000000 -1.4373981 -9.4559622 -77.790459 138.39307 -91.906235 -24.027712 -4.2583284 128.37733
242500000 -1.4326168 -38.032261 -81.200684 11.875284 -94.685715 114.99767 -4.8876948 51.044338
252000000 -1.4525956 -66.865189 -78.067642 -99.402107 -89.384087 165.31694 -5.0369134 -20.749531
261500000 -1.4660165 -95.878967 -79.503418 -170.92941 -94.787849 95.56572 -4.2114325 -87.777718
271000000 -1.5241834 -125.0965 -80.298897 79.034042 -92.240913 -124.47952 -3.3521097 -157.69435
280500000 -1.6337038 -154.82961 -77.47197 -52.82613 -83.272934 -35.58844 -3.9279377 129.52344
290000000 -1.7177526 175.05417 -76.457169 -143.14882 -87.27375 154.07614 -5.3198247 60.193172
299500000 -1.7716199 144.96806 -76.739632 140.31049 -88.258537 -65.337044 -5.8744082 -9.240756
309000000 -1.832931 114.92249 -76.722656 44.813972 -95.643173 64.988739 -5.2560916 -83.597298
318500000 -1.8691835 85.029243 -78.303688 -81.588943 -95.145775 -35.707516 -4.7210975 -159.72713
328000000 -1.8399085 55.56205 -76.279617 -171.69777 -89.647652 36.18755 -4.8701444 130.63026
337500000 -1.8094345 26.428493 -76.077232 62.909245 -89.525322 56.80827 -4.9441276 65.607567
347000000 -1.8124496 -2.55848 -76.129852 -24.417892 -94.561134 65.878426 -4.8481088 -3.6736894
356500000 -1.7952621 -31.442568 -74.015892 -144.30019 -91.391319 37.080528 -5.3556151 -79.245094
366000000 -1.7753654 -60.419479 -75.518707 128.3907 -95.221664 -107.45485 -6.1397519 -152.44151
375500000 -1.8214691 -89.763512 -75.527405 37.301525 -92.721695 77.154007 -6.0198059 139.66374
385000000 -1.8991058 -119.56921 -75.518227 -86.680038 -89.863571 173.08025 -5.1061139 71.083275
394500000 -1.9547386 -149.59904 -73.550774 -167.65506 -90.887474 96.49678 -4.840982 -2.8641396
404000000 -2.0048523 -179.72322 -76.480194 64.835541 -96.588676 168.46819 -5.8967419 -75.650986
413500000 -2.0782609 149.9637 -76.218231 -28.590645 -86.067413 86.189949 -6.7370663 -144.44661
423000000 -2.1279886 119.76473 -74.647675 -121.77348 -96.153595 41.78294 -6.3503213 145.47891
432500000 -2.1087422 90.113983 -74.479401 122.36695 -115.06741 -79.75766 -5.4731188 71.639381
442000000 -2.0753033 60.89257 -74.773064 34.745789 -87.340202 54.024883 -5.4071035 -0.36031622
451500000 -2.0729611 31.938999 -75.534531 -64.323441 -101.3541 13.970026 -5.7922297 -65.916466
461000000 -2.0486958 3.3402376 -74.44548 -155.65416 -89.2034 -58.540676 -5.8694763 -131.17387
470500000 -2.0016215 -24.967852 -73.731216 112.20531 -89.813545 -36.821682 -5.8439155 156.49773
480000000 -1.9943476 -53.299988 -71.835243 -0.75736773 -88.2146 -80.022148 -6.2760181 80.296875
489500000 -2.0335352 -81.982483 -70.290764 -97.468689 -92.85508 -147.74026 -6.546093 9.6144838
499000000 -2.0718861 -110.93456 -69.062279 168.3383 -93.390671 -121.00807 -6.0454369 -56.024315
508500000 -2.0971577 -140.00549 -66.223213 55.478401 -95.379486 108.59431 -5.3450603 -123.48631
518000000 -2.1427474 -169.30551 -64.856064 -73.263611 -94.676659 -86.564835 -5.6577768 165.35782
527500000 -2.1982782 161.19566 -65.989792 170.72455 -98.884445 125.77785 -6.7754583 95.21125
537000000 -2.2161031 131.85652 -67.766304 56.615337 -103.11762 -10.725919 -7.1997299 25.031733
546500000 -2.2023244 102.91728 -68.04612 -50.135582 -92.110115 158.01048 -6.4671631 -48.166214
556000000 -2.1854239 74.385963 -69.367661 -154.98198 -96.322632 42.668499 -5.7842727 -121.77009
565500000 -2.1594553 46.221928 -71.422371 104.5327 -89.240562 93.821259 -5.9061966 171.20157
575000000 -2.1197586 18.426723 -73.371216 3.0255289 -95.282387 -159.35751 -6.1399641 109.99691
584500000 -2.0873694 -9.1456928 -71.718719 -87.22924 -89.104019 -135.22319 -6.1229796 45.986351
594000000 -2.0752766 -36.712734 -70.959602 169.46118 -102.11819 -10.640652 -6.3761811 -27.266691
603500000 -2.0793965 -64.445625 -71.974998 56.870872 -91.095261 -23.34996 -7.172236 -103.47408
613000000 -2.1081138 -92.516685 -72.995415 -36.237995 -92.843201 -63.492851 -7.3110666 -173.5265
622500000 -2.1552856 -121.05968 -73.093925 -136.90228 -91.439842 15.937654 -6.5378342 120.85097
632000000 -2.2137709 -149.9906 -72.900169 134.50873 -96.353172 83.107552 -5.8901935 53.486591
641500000 -2.2545536 -179.0305 -72.316116 28.643791 -88.653465 167.08098 -6.4320173 -15.906457
651000000 -2.2938395 151.75143 -71.94545 -83.098442 -89.967941 151.3573 -7.6181865 -85.007088
660500000 -2.3279827 122.47942 -71.817947 -172.6667 -93.80011 -168.80617 -8.0669022 -157.45633
670000000 -2.3193476 93.481964 -72.958641 86.514862 -91.674797 -174.56061 -7.4176359 126.27392
679500000 -2.2865536 64.961632 -72.370094 -19.59869 -95.755035 105.66928 -6.7929597 53.561714
689000000 -2.2634032 36.745728 -71.917404 -120.86005 -88.888832 -177.65413 -6.6255679 -10.585742
698500000 -2.2484391 8.64291 -72.125 147.82848 -98.722221 -7.172904 -6.5270209 -71.195709
708000000 -2.2260094 -19.195614 -71.965515 50.401516 -92.534767 177.92989 -6.7043819 -137.40489
717500000 -2.212013 -46.892998 -71.899956 -66.315773 -89.599876 136.00772 -7.7777963 147.21333
727000000 -2.2461004 -75.049942 -70.687233 -159.65099 -96.822205 56.796402 -8.8305511 69.348167
736500000 -2.3128433 -103.78548 -72.204369 100.66525 -99.87075 -155.07629 -8.3328304 -3.422044
746000000 -2.3635833 -132.80197 -71.362144 -13.395684 -92.305054 161.12114 -6.9421411 -71.483856
755500000 -2.4146438 -162.1313 -71.162979 -106.16646 -90.330261 -18.695415 -6.3046522 -139.07394
765000000 -2.4924209 168.10027 -71.713654 151.67323 -89.001183 15.498949 -7.0623455 155.33243
774500000 -2.5431137 138.17111 -71.057404 48.306618 -97.522697 -140.69395 -8.2638273 89.949333
784000000 -2.5413473 108.51683 -71.221817 -52.218674 -91.992714 70.655411 -8.8187571 16.841541
793500000 -2.5264983 79.240906 -71.029968 -149.60988 -90.458847 49.778839 -8.3690929 -63.710354
803000000 -2.5092688 50.292686 -70.384483 103.00182 -91.34536 160.06401 -7.7320209 -138.1172
812500000 -2.472584 21.774057 -71.989403 7.2519903 -88.165939 163.06679 -7.2268701 158.81358
822000000 -2.4308913 -6.2369981 -71.850281 -100.81895 -98.191299 157.95724 -6.7150617 99.228172
831500000 -2.4139199 -34.034832 -70.040642 161.69991 -89.583527 104.79758 -6.7252283 33.695713
841000000 -2.4218092 -61.915577 -71.577118 53.759777 -95.158791 -89.90844 -7.9715447 -39.739178
850500000 -2.444088 -89.959587 -70.694145 -42.687176 -96.442245 167.46812 -9.2435846 -116.00192
860000000 -2.4858739 -118.29144 -70.575996 -145.78806 -90.81591 76.278564 -8.7445126 170.16872
869500000 -2.5447011 -147.04272 -70.991058 118.76608 -91.893486 31.830349 -7.2158036 100.83311
879000000 -2.5981576 -176.11346 -71.061752 15.084656 -92.966164 31.272636 -6.4260144 34.135105
888500000 -2.6312683 154.71724 -69.970787 -86.75106 -94.640564 145.0457 -6.8569698 -28.978901
898000000 -2.6538415 125.60123 -70.932823 175.68355 -92.571014 97.196632 -7.7813396 -91.816841
907500000 -2.6487322 96.639961 -70.244316 78.808472 -93.046059 -97.440094 -8.571682 -162.48895
917000000 -2.6097634 68.060875 -70.537132 -28.512913 -99.808243 -136.11781 -8.7648163 117.92355
926500000 -2.5592992 40.024796 -70.223885 -130.50607 -103.36894 172.10707 -8.2153606 42.531944
936000000 -2.5152524 12.471959 -70.954308 129.40692 -90.503151 81.455887 -7.2959819 -22.181339
945500000 -2.4736683 -14.752086 -70.217468 31.074247 -90.972603 -124.71726 -6.4615774 -82.759499
955000000 -2.435524 -41.736935 -70.283165 -72.422386 -107.16454 -43.951164 -6.4002299 -146.22775
964500000 -2.4262531 -68.583206 -69.884972 -169.06151 -85.454727 141.56464 -7.5740142 146.28249
974000000 -2.4467192 -95.609528 -70.851151 85.4161 -89.320023 124.44919 -9.0420666 74.794601
983500000 -2.4900384 -123.13958 -71.042801 -11.391712 -98.411377 20.810738 -9.1575851 -0.96370643
993000000 -2.5356321 -151.04308 -69.365372 -118.33943 -92.19915 -125.64179 -7.9912395 -74.793388
1002500000 -2.5746188 -179.18779 -69.545967 143.47604 -90.099495 99.880005 -7.1257725 -141.81467
1012000000 -2.6201093 152.31548 -70.68985 45.540596 -90.903709 8.6449623 -6.975914 157.58846
1021500000 -2.6548684 123.59465 -70.252037 -55.842472 -88.914917 -86.055824 -7.21979 97.41227
1031000000 -2.6469331 94.959724 -68.922852 -151.84622 -93.556404 175.12473 -7.9895296 29.565277
1040500000 -2.6133351 66.649849 -69.778732 103.69894 -86.755272 -168.96414 -9.3116417 -47.937748
1050000000 -2.5842307 38.654453 -69.608475 -1.8387083 -91.62722 0.91882259 -9.7047501 -125.87971
1059500000 -2.5518868 10.911933 -68.921829 -94.763962 -95.958862 115.9315 -8.5065775 164.85776
1069000000 -2.5078325 -16.419201 -69.383614 171.01494 -88.44632 -160.76564 -6.9157748 100.17664
1078500000 -2.4762175 -43.390778 -68.059433 69.332695 -88.749405 142.9621 -6.4221005 34.164402
1088000000 -2.4794674 -70.404198 -67.993752 -37.020275 -88.621582 98.046326 -7.5205054 -30.904766
1097500000 -2.5242651 -97.782578 -68.079582 -139.44048 -93.915672 97.874863 -9.0789404 -96.171211
1107000000 -2.5697944 -125.4816 -68.180496 125.4476 -87.826569 178.30772 -9.7919331 -168.7135
1116500000 -2.6179893 -153.60406 -67.603294 21.093081 -86.418159 142.43016 -9.1545906 113.1141
1126000000 -2.6990628 177.66768 -67.198624 -83.112206 -88.371841 53.784378 -8.2538242 40.644596
1135500000 -2.7731593 148.45718 -67.321533 -175.72293 -93.883286 -28.133875 -7.7475224 -22.677448
1145000000 -2.800931 119.04128 -66.515053 80.968155 -88.722328 -165.2467 -7.5805893 -83.640022
1154500000 -2.8117385 89.674164 -66.256187 -25.178942 -88.998772 125.2747 -8.1639833 -150.33743
1164000000 -2.8167331 60.394028 -65.899117 -127.6888 -90.179787 75.478523 -9.7290363 135.14891
1173500000 -2.7907398 31.342461 -65.899635 132.55473 -89.980232 -98.991074 -10.568966 56.84557
1183000000 -2.7446144 2.8997056 -66.492317 33.433037 -86.049049 -167.455 -9.3140402 -17.065235
1192500000 -2.7123256 -25.076612 -66.355049 -66.764221 -94.966187 179.16351 -7.4418235 -85.583138
1202000000 -2.7076185 -52.922005 -65.338097 -169.72974 -88.885895 32.368526 -6.7717438 -151.73178
1211500000 -2.709065 -80.604317 -65.829422 92.214401 -87.539307 -128.41214 -7.5204601 146.3936
1221000000 -2.7253191 -108.24322 -65.965065 -7.3562412 -89.201996 177.83064 -8.7478132 85.254745
1230500000 -2.7885501 -136.28314 -64.898232 -106.317 -93.325706 82.08728 -9.7422304 16.019505
1240000000 -2.8604994 -164.86403 -64.663162 153.24431 -89.310104 150.80324 -9.8625154 -63.579445
1249500000 -2.9070768 166.24315 -64.059738 47.901421 -91.593307 -68.903999 -9.0369644 -140.4184
1259000000 -2.9585936 137.16629 -64.161018 -55.445122 -97.968483 -107.88761 -8.008893 153.02866
1268500000 -3.0060976 107.77593 -62.95282 -154.28017 -84.632149 101.58657 -7.3219981 90.865044
1278000000 -3.0045872 78.332977 -62.93082 101.47633 -93.611374 -26.02483 -7.5629582 26.854731
1287500000 -2.9570515 49.434772 -63.200699 -2.0250978 -89.608315 -64.279724 -8.8786888 -40.514908
1297000000 -2.908582 21.052862 -63.319729 -99.452408 -91.562798 -170.19002 -10.082545 -113.16851
1306500000 -2.8732498 -6.98246 -62.734646 160.59425 -94.505287 126.46598 -9.6099691 169.50638
1316000000 -2.8200197 -34.497204 -61.798775 60.901363 -101.3612 47.570423 -8.0942945 95.288948
1325500000 -2.7618053 -61.453159 -61.906239 -45.339119 -84.199226 -87.720406 -7.2441368 28.700575
1335000000 -2.7479305 -88.240204 -61.913937 -149.30298 -85.22937 178.22224 -7.2026272 -30.90134
1344500000 -2.7763669 -115.16779 -62.271252 115.18742 -88.292381 111.94882 -7.5596566 -89.685959
1354000000 -2.8037364 -142.31834 -61.570877 16.740395 -86.307892 12.231848 -8.3804293 -154.95621
1363500000 -2.8250322 -169.65271 -60.826271 -87.011444 -83.202652 -93.910461 -9.5666208 131.02484
1373000000 -2.8747039 162.65411 -59.591225 171.65967 -86.605446 143.32069 -9.8038988 54.877186
1382500000 -2.9434519 134.45872 -58.981991 60.102428 -88.407707 56.108814 -8.6223297 -15.101924
1392000000 -2.9713352 106.00858 -60.612663 -48.51511 -85.836487 -43.658459 -7.2754207 -81.090904
1401500000 -2.9484892 77.620323 -61.194649 -133.59837 -84.811813 -120.35307 -7.1150074 -147.00244
1411000000 -2.9355464 49.335674 -59.783184 131.70575 -93.52652 -172.42043 -8.3355083 148.66446
1420500000 -2.9289038 21.198168 -58.421719 29.963181 -88.037369 85.014992 -9.7695484 82.491982
1430000000 -2.8677444 -6.4962726 -57.261173 -78.751915 -84.651825 -44.482681 -10.053266 7.6877785
1439500000 -2.7985117 -33.575546 -56.832138 177.00128 -83.645744 -115.70166 -8.8984842 -71.142578
1449000000 -2.7811134 -60.343807 -56.849949 72.782219 -79.742142 149.25635 -7.8630419 -142.12683
1458500000 -2.7887883 -87.17849 -56.208241 -29.598444 -82.960487 70.575409 -7.4734249 157.14731
1468000000 -2.7851865 -113.99117 -54.978077 -132.12218 -82.668442 -39.947319 -7.4650335 99.948738
1477500000 -2.7960598 -140.78838 -53.767429 118.76768 -82.236 -128.50528 -8.0815935 38.519077
1487000000 -2.8619471 -168.14644 -54.20171 2.4688101 -81.837067 119.72319 -9.6029615 -31.09741
1496500000 -2.9388437 163.91098 -54.260036 -98.722298 -86.116692 38.482002 -10.829162 -108.70661
1506000000 -2.9777253 135.7496 -53.615314 150.55145 -82.999939 -70.604378 -10.011901 173.57103
1515500000 -3.027957 107.21997 -55.046917 36.997368 -80.575935 167.73938 -8.3264866 102.18024
1525000000 -3.0906036 78.167534 -55.582375 -61.115311 -83.700577 83.795456 -7.7132797 35.651234
1534500000 -3.0986404 48.984497 -55.746067 -167.64143 -83.916176 -13.658111 -8.3206558 -26.23332
1544000000 -3.0709093 20.137272 -55.667107 88.726463 -84.978096 -118.13591 -9.3513756 -89.050316
1553500000 -3.0560086 -8.4162922 -55.830715 -22.070932 -79.856544 160.02332 -10.110244 -161.26663
1563000000 -3.0361888 -36.754189 -57.080044 -131.15152 -83.348106 52.512661 -9.9577217 118.42574
1572500000 -2.9980514 -64.62986 -58.629921 127.42457 -82.706322 -55.424667 -9.092967 44.89299
1582000000 -2.9891231 -92.138992 -59.328358 26.613823 -91.535217 -174.61606 -8.1636543 -17.862392
1591500000 -3.0254946 -119.80154 -59.963188 -78.184196 -88.939476 159.70114 -7.5641637 -77.598557
1601000000 -3.0703402 -147.73486 -60.809673 -177.78325 -87.730698 48.949554 -7.9431677 -141.18475
1610500000 -3.1083016 -175.83542 -61.792404 80.209816 -91.100761 -58.371773 -9.556448 149.89346
1620000000 -3.1806993 155.71704 -62.257114 -22.131872 -88.917564 -148.89621 -10.929152 74.61293
1629500000 -3.2695751 126.70136 -62.724922 -123.35432 -86.250687 127.17319 -10.174574 -3.2567959
1639000000 -3.3214798 97.334633 -63.536808 136.49153 -95.941818 154.98178 -8.4015703 -75.65136
1648500000 -3.3387268 67.89016 -65.239807 34.787491 -92.633911 -43.492222 -7.5981297 -141.67377
1658000000 -3.3615847 38.371826 -65.904709 -61.683884 -85.059242 -170.1321 -7.9266706 157.42017
1667500000 -3.3633487 8.9540472 -66.709862 -156.95178 -88.846474 127.69202 -8.8218069 95.388664
1677000000 -3.3100469 -19.995819 -67.414047 101.03666 -95.697014 83.766365 -9.907568 23.979055
1686500000 -3.2458057 -48.338757 -68.201019 4.2557755 -89.119049 -46.495155 -10.288012 -56.213978
1696000000 -3.2251215 -76.270714 -69.056969 -93.298615 -95.420639 -154.44591 -9.3117495 -130.46909
1705500000 -3.2095883 -103.95071 -70.550278 -179.26898 -96.350082 125.62021 -7.8808942 165.80446
1715000000 -3.1849649 -131.43092 -71.773979 105.04169 -94.197563 -25.199183 -6.9315777 105.17648
1724500000 -3.1975033 -158.82027 -70.515327 -5.4737206 -91.483414 -131.23679 -7.2352376 43.06271
1734000000 -3.2470207 173.53827 -69.486206 -96.892212 -89.933365 -108.93351 -8.7761211 -20.793047
1743500000 -3.2924116 145.50667 -70.565659 161.5652 -96.92218 71.074341 -10.369639 -90.404297
1753000000 -3.3244681 117.34777 -70.19268 70.125519 -105.90923 31.866768 -10.33777 -168.3101
1762500000 -3.3604021 88.973549 -69.504433 -25.411003 -89.003426 -6.5254779 -8.879199 115.39982
1772000000 -3.3994739 60.2066 -68.933121 -122.29451 -103.75883 -33.840961 -7.8970571 47.552631
1781500000 -3.4023452 31.464043 -67.999245 144.70694 -93.458992 160.96526 -7.7864242 -13.80303
1791000000 -3.3743412 2.976733 -68.212524 49.315216 -90.480026 99.004105 -8.2719631 -75.590927
1800500000 -3.3516829 -25.289301 -68.699844 -54.350357 -99.405495 -134.59529 -9.2754574 -144.37706
1810000000 -3.3113239 -53.175415 -67.009521 -145.55301 -102.50986 162.36671 -10.053307 140.21265
1819500000 -3.2616994 -80.639633 -67.480881 111.23162 -94.19931 174.70726 -9.4722385 67.75885
1829000000 -3.2465255 -107.8092 -68.159363 33.350132 -86.483986 105.80522 -8.0359468 3.1333041
1838500000 -3.2441094 -134.82878 -65.055214 -55.526337 -89.412956 94.401779 -6.9809127 -58.83601
1848000000 -3.2458019 -161.86971 -62.007282 -152.91452 -90.861153 -67.40818 -7.2773128 -121.31342
1857500000 -3.2865014 171.02673 -59.037758 101.94373 -86.991585 -143.46344 -8.8792639 175.60626
1867000000 -3.3538036 143.65732 -57.874989 -13.640422 -85.467651 104.21513 -10.703695 105.97715
1876500000 -3.4235508 115.83568 -57.561714 -121.27698 -89.533409 96.861076 -10.939758 24.770025
1886000000 -3.4994357 87.753052 -56.914494 133.4279 -85.686913 -58.061268 -9.3309479 -54.461926
1895500000 -3.5713127 59.376762 -56.296799 25.226475 -87.497841 -177.94717 -7.9992023 -122.12756
1905000000 -3.6309767 30.661423 -56.402733 -80.801109 -85.472839 91.271606 -7.5143781 177.76813
1914500000 -3.6637375 2.0118656 -56.270588 174.28903 -86.310349 -15.843008 -7.7799039 117.81754
1924000000 -3.6723518 -26.427649 -56.057896 68.240532 -87.433762 -120.8542 -8.8981562 52.413319
1933500000 -3.6633153 -54.683861 -56.692402 -36.959015 -90.419891 125.96701 -10.268727 -20.16552
1943000000 -3.6413803 -82.581535 -56.561321 -139.55261 -92.041779 71.127007 -10.258222 -95.563606
1952500000 -3.6151514 -110.16167 -56.467007 116.79003 -84.047928 -40.183533 -8.8644171 -166.06831
1962000000 -3.6053135 -137.6619 -57.400669 8.9668932 -89.464058 -91.665939 -7.7507114 127.59052
1971500000 -3.5989225 -165.08867 -57.858917 -88.212265 -86.703804 138.73648 -7.9299746 63.34079
1981000000 -3.6045027 167.44914 -58.118706 172.44829 -84.561577 69.531715 -9.127243 -0.82463348
1990500000 -3.65031 139.70709 -58.506226 76.307533 -86.68644 -21.384523 -10.390865 -71.450638
2000000000 -3.7106228 111.55589 -58.251652 -17.628223 -95.069145 -152.51625 -10.447569 -150.49939
