!Keysight Technologies,N5242B,MY48420967,A.15.65.19
!Date: Monday, January 23, 2023 00:31:12
!Correction: S11(C  1-Port  ) 
!S21(Off) 
!S12(Off) 
!S22(Off) 
!S2P File: Measurements: S11, S21, S12, S22:
# Hz S  dB   R 50
100000000 -1.3919899 40.501171 -80.782692 143.63277 -90.290344 151.61179 -2.5134077 44.174614
109500000 -1.3056935 11.123002 -88.405319 9.734952 -97.973145 -96.112999 -2.4133618 -28.753075
119000000 -1.2106187 -17.555891 -83.026421 -79.556419 -102.17824 27.127115 -2.7335362 -108.41392
128500000 -1.1334754 -45.917068 -82.129089 149.61119 -90.442383 73.633682 -3.2479105 178.82462
138000000 -1.1240656 -74.458107 -82.345421 95.952301 -99.034897 172.50122 -2.8258922 114.43065
147500000 -1.1717771 -103.30669 -82.034355 -22.273373 -90.753487 -3.710088 -1.6945895 47.829693
157000000 -1.2299873 -132.45944 -76.41098 -151.99036 -98.50576 -18.74297 -1.7285132 -27.949999
166500000 -1.3151317 -162.01547 -79.396294 136.72932 -93.962181 156.41632 -3.625807 -101.7299
176000000 -1.431013 168.00548 -79.7015 25.544895 -88.275696 117.96981 -4.9066911 -170.45763
185500000 -1.521812 137.79938 -79.594711 -86.615273 -91.329582 -172.8374 -4.295269 119.16934
195000000 -1.5577068 107.81367 -78.558693 168.61031 -96.267906 -48.225655 -2.9141831 44.082291
204500000 -1.5646749 78.16143 -79.737495 63.957031 -107.11686 102.30267 -2.7793264 -29.54047
214000000 -1.5553771 48.761894 -78.726906 -38.442551 -90.465828 142.73784 -3.3970764 -95.04789
223500000 -1.5162525 19.723061 -77.602913 -146.15907 -95.084541 86.151291 -3.7045021 -159.89584
233000000 -1.4670565 -8.9951191 -78.952553 130.47121 -99.6091 121.32153 -3.9208148 127.19205
242500000 -1.4491733 -37.640224 -79.44989 9.9755955 -95.603882 -38.581848 -4.5293326 49.926338
252000000 -1.4504654 -66.385307 -80.017738 -79.915115 -87.585258 171.69176 -4.6896062 -21.589497
261500000 -1.4776671 -95.378281 -75.504745 -178.23195 -81.978432 164.78108 -3.8615637 -88.538925
271000000 -1.5491499 -124.71156 -76.532387 70.77951 -83.68277 141.1908 -2.9878378 -158.79054
280500000 -1.6357825 -154.46423 -80.752388 -51.875542 -96.382553 5.2090144 -3.5756583 128.01476
290000000 -1.7112799 175.52744 -75.696877 -163.41745 -103.42295 -52.326385 -4.9535761 58.667542
299500000 -1.7893372 145.43184 -78.77684 153.49997 -88.368431 86.199821 -5.4385934 -10.531835
309000000 -1.8521266 115.26872 -77.362175 23.396463 -84.716866 128.2618 -4.7608061 -84.749664
318500000 -1.8678907 85.400848 -74.990143 -70.607178 -89.141228 34.720562 -4.2465649 -160.98523
328000000 -1.8444178 56.021145 -75.987671 168.88184 -94.531593 -90.305824 -4.4424472 129.36725
337500000 -1.8295214 26.867624 -76.704376 74.369484 -101.54776 27.633797 -4.5048127 64.334251
347000000 -1.822348 -2.1643016 -78.959915 -55.032719 -89.486847 90.013496 -4.3540182 -5.1815996
356500000 -1.7969472 -31.035892 -76.401398 -139.01215 -94.434258 50.925869 -4.8367529 -80.996429
366000000 -1.7943178 -60.007885 -74.286865 125.49252 -92.807495 109.86098 -5.6309285 -153.92691
375500000 -1.844565 -89.337036 -75.295067 28.099077 -91.395622 176.54364 -5.4995241 138.56129
385000000 -1.9077028 -119.12541 -74.221962 -89.652382 -99.634018 -65.707611 -4.5469751 69.930206
394500000 -1.9703909 -149.17758 -75.026634 177.34492 -100.7674 -108.83519 -4.2723937 -4.5630193
404000000 -2.0354631 -179.32045 -75.499161 75.488457 -88.351929 98.804909 -5.3587217 -77.498589
413500000 -2.0958104 150.42041 -75.812721 -38.63065 -92.010628 133.63263 -6.1728883 -145.89655
423000000 -2.137501 120.25834 -73.442528 -117.07632 -97.138786 158.5159 -5.7321296 144.47137
432500000 -2.1357715 90.553406 -75.104355 134.28362 -91.014824 158.43901 -4.8449206 70.593437
442000000 -2.106101 61.323036 -75.322395 26.056892 -87.689156 89.520988 -4.843926 -1.6266923
451500000 -2.0851731 32.482445 -75.265297 -75.627556 -88.328346 103.15372 -5.2679377 -67.180595
461000000 -2.0609062 3.9051337 -73.248627 -162.53888 -84.32412 96.841103 -5.3031068 -132.46812
470500000 -2.0326362 -24.485857 -73.637474 109.54275 -89.345184 78.791824 -5.2057619 154.96881
480000000 -2.0209095 -52.790352 -71.537422 1.7064681 -100.35792 5.8208947 -5.6316047 78.787178
489500000 -2.0441179 -81.349518 -71.277435 -98.008865 -88.775291 -161.83046 -5.9340105 8.5787563
499000000 -2.0917456 -110.29343 -67.87426 161.99304 -92.817383 -146.823 -5.4404054 -56.733315
508500000 -2.1311529 -139.43744 -65.596939 53.216537 -98.028976 -9.8609562 -4.7210426 -124.42299
518000000 -2.1665146 -168.73125 -63.975994 -80.957657 -84.440987 -156.18622 -5.0496225 163.89417
527500000 -2.211098 161.84767 -66.494629 161.53914 -92.266273 149.12387 -6.1799254 93.653427
537000000 -2.2393241 132.50047 -67.638954 53.206738 -99.276268 29.952934 -6.5585918 23.815269
546500000 -2.234025 103.50233 -68.106171 -47.112068 -100.22309 -69.329483 -5.77988 -49.110394
556000000 -2.2074068 74.998878 -68.595665 -154.17174 -86.700562 -145.79393 -5.1249356 -122.82688
565500000 -2.1755433 46.877285 -70.695816 106.23132 -93.91095 92.234375 -5.3130441 170.13408
575000000 -2.1443579 19.061089 -71.747917 4.9521918 -88.61821 163.52609 -5.5527077 109.02304
584500000 -2.112227 -8.5101786 -71.629997 -93.627243 -91.825714 -107.50089 -5.4664545 44.89822
594000000 -2.0928411 -36.041847 -71.026901 166.25459 -101.21935 -69.198959 -5.6552024 -28.781178
603500000 -2.1042454 -63.773178 -70.913383 64.941452 -90.839706 95.078423 -6.4817152 -104.97511
613000000 -2.1386967 -91.866997 -72.637375 -33.670086 -102.87731 31.446072 -6.6655622 -174.56711
622500000 -2.1805553 -120.35387 -70.332428 -139.19965 -94.515335 -65.909859 -5.8916268 119.99121
632000000 -2.2364271 -149.2126 -70.719498 130.31607 -95.416496 39.703041 -5.2108231 52.246456
641500000 -2.2890272 -178.32353 -70.366722 22.563564 -90.313293 167.16286 -5.7399411 -17.634844
651000000 -2.3290229 152.41515 -73.37561 -76.564972 -90.941353 97.647346 -6.8828988 -86.668076
660500000 -2.3514514 123.23621 -72.153854 -171.80898 -89.652519 -158.7692 -7.2541437 -158.56288
670000000 -2.3489618 94.252457 -72.633888 87.44149 -93.40535 150.90929 -6.6069288 125.55032
679500000 -2.3305159 65.605904 -71.905617 -19.938908 -93.738708 68.154404 -6.0858536 52.755272
689000000 -2.2976356 37.381161 -70.824242 -112.80926 -90.629326 80.138306 -6.0021796 -11.496071
698500000 -2.2703519 9.4052114 -71.792038 142.36534 -100.05848 -93.601791 -5.8867059 -72.293724
708000000 -2.259732 -18.453556 -71.594337 50.72332 -89.546509 117.14766 -5.9585099 -139.02713
717500000 -2.2558084 -46.296055 -70.997086 -73.642563 -93.419098 -11.221544 -6.9352036 145.14842
727000000 -2.2799919 -74.400398 -70.527306 -167.25421 -98.680183 42.313496 -7.9651642 67.995148
736500000 -2.3422515 -102.96985 -71.261749 92.803131 -90.65329 -47.98354 -7.5221562 -3.7905385
746000000 -2.4086015 -132.03839 -70.512688 -8.6927414 -92.894417 -142.60153 -6.1754436 -71.747383
755500000 -2.4660637 -161.47658 -69.993568 -109.5609 -95.624405 77.661736 -5.5706811 -139.99341
765000000 -2.5298743 168.86159 -70.526558 144.88687 -97.834946 -38.593002 -6.3593607 153.89168
774500000 -2.5803022 139.02791 -71.291924 50.983856 -90.088234 -155.16641 -7.4958391 88.518425
784000000 -2.5934079 109.29737 -70.391121 -51.562721 -100.80643 171.47726 -7.9072046 15.910865
793500000 -2.5769255 79.965256 -69.358047 -150.95331 -89.678604 7.8508229 -7.4443336 -64.080719
803000000 -2.5497122 51.097595 -70.631569 106.30489 -107.34224 -78.838013 -6.9609771 -138.34724
812500000 -2.5163348 22.635916 -70.502983 3.7901366 -91.480698 -170.754 -6.5674324 158.5827
822000000 -2.4792819 -5.4469099 -70.54052 -98.350624 -99.557655 -179.74564 -6.048439 98.788231
831500000 -2.455878 -33.26067 -70.057243 160.99452 -95.233482 26.160498 -5.9698577 32.640675
841000000 -2.4594028 -61.040997 -70.645653 55.581524 -93.208145 -8.6861362 -7.139781 -41.296688
850500000 -2.488699 -89.038361 -70.911911 -37.344212 -88.567619 -169.15805 -8.3773193 -116.84577
860000000 -2.5363533 -117.39863 -69.16082 -142.50114 -88.221489 92.684624 -7.9293675 170.41919
869500000 -2.5878601 -146.11404 -71.00444 124.10922 -104.79674 -148.11519 -6.4649158 101.23563
879000000 -2.6408989 -175.0836 -69.861343 13.684918 -102.58138 -46.413895 -5.7289042 33.943516
888500000 -2.683351 155.78152 -69.885887 -84.989433 -89.631065 156.13889 -6.199131 -29.673286
898000000 -2.7037303 126.62641 -69.658058 171.40488 -90.277809 128.03775 -7.0766706 -92.679596
907500000 -2.6919675 97.694176 -70.557533 80.740051 -98.051849 21.969742 -7.7424598 -163.22128
917000000 -2.658618 69.193916 -69.633781 -31.287615 -97.784775 -54.683376 -7.8950548 117.7067
926500000 -2.6121161 41.148453 -69.291969 -132.21802 -92.452888 -155.79256 -7.4669204 42.735813
936000000 -2.5585675 13.560619 -69.945244 130.29166 -90.829628 124.2273 -6.6542792 -21.931011
945500000 -2.5094008 -13.592868 -69.848114 31.138636 -102.61044 -106.11863 -5.8315334 -82.79393
955000000 -2.4779632 -40.51543 -68.920052 -73.658173 -99.457283 -93.238319 -5.7293916 -146.89906
964500000 -2.4736569 -67.401985 -68.99144 -171.19527 -91.656776 142.69925 -6.8528881 145.07797
974000000 -2.4917669 -94.445473 -69.415787 86.434586 -89.768677 56.642647 -8.24193 73.871864
983500000 -2.5318527 -121.88202 -69.347054 -10.462614 -114.75336 82.160164 -8.3266935 -0.94856334
993000000 -2.5846648 -149.72986 -68.068642 -111.77412 -95.652946 -123.33913 -7.2342572 -74.423462
1002500000 -2.6292224 -177.92891 -68.507019 144.93974 -104.24421 138.76028 -6.4616647 -141.77875
1012000000 -2.6777217 153.53091 -69.790627 43.133785 -91.067627 48.619591 -6.3558125 157.2654
1021500000 -2.7083771 124.84388 -69.096573 -54.561081 -94.736107 153.86435 -6.5531082 96.724617
1031000000 -2.7035291 96.184784 -68.79567 -157.35912 -88.273651 -107.19144 -7.2008944 28.399597
1040500000 -2.6802347 67.780945 -68.803932 101.40555 -85.423729 125.4227 -8.429678 -49.038174
1050000000 -2.649544 39.724979 -68.888756 4.6157866 -89.634964 48.932732 -8.8741179 -125.95461
1059500000 -2.6023252 12.003407 -68.158539 -92.302086 -93.438576 36.20768 -7.7840838 165.3891
1069000000 -2.5598769 -15.331381 -67.677231 165.91998 -96.542526 -84.652893 -6.2197924 100.45535
1078500000 -2.5402963 -42.38179 -67.621628 64.289215 -89.279259 -147.97653 -5.7275271 33.547256
1088000000 -2.5393429 -69.433617 -67.917625 -42.102852 -99.159576 22.767937 -6.8391142 -32.198147
1097500000 -2.5703137 -96.724396 -67.534195 -139.59325 -89.182358 -87.899315 -8.3248129 -97.457581
1107000000 -2.6255393 -124.36565 -67.820518 124.91051 -91.601166 168.62997 -8.8992109 -169.27197
1116500000 -2.6920085 -152.54814 -66.467834 23.409414 -90.886841 -173.95116 -8.247962 113.34684
1126000000 -2.7626815 178.74631 -66.393143 -79.846527 -86.436813 70.570923 -7.4634461 40.923279
1135500000 -2.8271019 149.65617 -66.653877 -176.11627 -88.009819 -34.316917 -7.0427384 -22.627275
1145000000 -2.8747766 120.24007 -65.802788 79.862511 -86.437256 -147.74045 -6.8636894 -83.971092
1154500000 -2.8944385 90.760628 -65.904884 -23.052322 -86.441483 170.48283 -7.3664827 -151.32317
1164000000 -2.8815327 61.525635 -66.12899 -129.01006 -93.945793 70.836784 -8.8498278 133.96036
1173500000 -2.8540657 32.589931 -65.955101 132.24591 -93.354698 -31.058466 -9.6732674 56.739307
1183000000 -2.8201544 4.067162 -65.4077 34.406075 -95.210663 -148.33156 -8.5031204 -16.207443
1192500000 -2.7806106 -23.984358 -64.807877 -65.519096 -86.437141 132.06097 -6.6794004 -84.894791
1202000000 -2.7577085 -51.677895 -64.713951 -167.70462 -90.48455 83.289131 -6.0469632 -151.85544
1211500000 -2.7645128 -79.273026 -65.13562 92.050598 -87.586205 -106.02435 -6.8326178 145.73648
1221000000 -2.7966094 -107.00749 -65.040047 -9.7233238 -96.927689 7.0725212 -8.0100355 84.53186
1230500000 -2.8516011 -135.00206 -64.175682 -106.10192 -100.031 172.5759 -8.8708 15.680464
1240000000 -2.912163 -163.37662 -63.330345 154.93347 -85.685265 6.5941453 -8.9449444 -63.131588
1249500000 -2.9740312 167.79016 -63.327011 48.380466 -83.879395 -76.661743 -8.2483234 -139.64162
1259000000 -3.0382149 138.62024 -63.462227 -50.200142 -84.907387 -158.91763 -7.3289566 153.61923
1268500000 -3.0747354 109.2648 -62.667114 -155.8205 -87.402397 129.35547 -6.656003 91.002419
1278000000 -3.0688601 79.944221 -62.345524 103.00324 -99.89772 45.125683 -6.8576927 26.364454
1287500000 -3.0371096 51.005398 -62.905014 0.30372688 -92.163788 -66.088669 -8.1097918 -41.303265
1297000000 -2.9943297 22.499292 -62.523987 -98.581879 -86.776756 173.90918 -9.230072 -113.31121
1306500000 -2.9390559 -5.5110517 -62.797771 159.54048 -89.912613 141.04965 -8.7709417 170.42203
1316000000 -2.8720512 -32.916485 -62.036156 64.108032 -91.822517 4.2165022 -7.3585029 96.22477
1325500000 -2.8290615 -59.894272 -61.171284 -39.638481 -86.374352 -104.09492 -6.6058893 29.113497
1335000000 -2.8257835 -86.762848 -60.984581 -142.57167 -88.24234 -144.24644 -6.6078854 -30.923399
1344500000 -2.8335676 -113.6522 -60.46389 118.29189 -88.840744 130.94499 -6.9240246 -90.022476
1354000000 -2.8541934 -140.65466 -59.80434 16.433676 -87.825081 25.801605 -7.637032 -155.55869
1363500000 -2.9005215 -167.95966 -59.697201 -89.305893 -86.474548 -128.50816 -8.7329159 130.65912
1373000000 -2.959307 164.24342 -58.658554 172.27419 -82.819664 179.01402 -9.0087938 55.385429
1382500000 -3.0089924 136.08675 -57.758068 63.790359 -87.901001 68.320602 -7.9233627 -14.197329
1392000000 -3.0353749 107.742 -58.403736 -52.319908 -89.855507 -47.775173 -6.6042447 -80.551918
1401500000 -3.0422282 79.280022 -60.371681 -143.01672 -93.135864 -173.81952 -6.4483342 -147.33128
1411000000 -3.0318854 50.862141 -59.721355 128.04781 -84.875374 -175.29955 -7.6662693 147.83476
1420500000 -2.9997571 22.749163 -57.870827 29.906513 -80.867081 54.435493 -9.0112991 81.872032
1430000000 -2.943687 -4.9124503 -56.908466 -80.13295 -82.127052 -20.89599 -9.1911211 8.0236855
1439500000 -2.889488 -32.091663 -56.907867 176.23274 -80.431084 -133.18927 -8.0827904 -70.259529
1449000000 -2.8568883 -58.916523 -56.545624 79.443871 -82.872772 163.93103 -7.1821856 -141.60028
1458500000 -2.8444343 -85.641174 -55.21027 -20.562649 -83.412437 86.529869 -6.8823538 157.26048
1468000000 -2.8543632 -112.41425 -53.168201 -128.22345 -80.217186 -17.154053 -6.8726158 99.695534
1477500000 -2.8811901 -139.28291 -52.150009 118.15015 -79.192947 -137.22183 -7.4068551 37.799656
1487000000 -2.9352944 -166.57599 -52.891201 1.6644834 -82.942986 110.14294 -8.7942839 -32.028114
1496500000 -3.0075233 165.61867 -52.623234 -100.64138 -79.56485 20.945477 -9.9316463 -108.63935
1506000000 -3.0704827 137.38989 -52.262508 145.16716 -80.774933 -90.500565 -9.1752701 174.83179
1515500000 -3.127753 108.77982 -54.266781 34.675507 -79.999931 157.70338 -7.5734429 103.19261
1525000000 -3.1731081 79.81562 -53.919029 -62.851871 -82.315147 89.456093 -7.0310378 35.855736
1534500000 -3.187396 50.696835 -54.155701 -174.8208 -83.515617 -21.4699 -7.6537418 -26.604414
1544000000 -3.1783831 21.734516 -54.658859 80.248154 -81.136993 -116.84446 -8.595809 -89.552467
1553500000 -3.1531365 -6.889957 -55.430244 -30.80481 -81.214211 138.5078 -9.1910048 -161.36726
1563000000 -3.1129029 -35.116161 -56.845154 -139.0076 -82.817413 50.853031 -9.026597 119.12486
1572500000 -3.0810399 -62.942783 -58.509098 121.89619 -93.529068 -41.993954 -8.3231936 45.857193
1582000000 -3.083787 -90.553673 -59.103836 20.548092 -83.804115 -159.14589 -7.5067177 -17.084351
1591500000 -3.1088908 -118.19764 -60.145611 -81.974373 -86.066109 155.74792 -6.9089479 -77.275177
1601000000 -3.1410682 -145.95735 -60.969208 -179.24693 -89.864822 62.03035 -7.2248287 -141.6031
1610500000 -3.1938083 -173.99062 -61.415314 80.243118 -83.755585 -43.480034 -8.7417631 149.06113
1620000000 -3.2805696 157.49762 -62.254379 -22.213322 -92.082611 -143.53629 -10.007567 74.671082
1629500000 -3.3612967 128.50005 -62.996124 -121.02729 -87.361259 98.326233 -9.2994556 -1.8398383
1639000000 -3.4099193 99.24752 -63.393333 137.5497 -89.683205 66.576912 -7.6378183 -74.201454
1648500000 -3.4464226 69.809128 -64.470947 36.011662 -96.245041 -65.81089 -6.9193439 -140.94946
1658000000 -3.475328 40.207855 -66.137169 -62.647228 -96.51387 -149.41573 -7.2864919 157.55161
1667500000 -3.4636104 10.791039 -66.862862 -157.84509 -89.093475 145.72586 -8.1222124 95.185539
1677000000 -3.4043114 -18.099009 -67.52063 99.961349 -95.425598 26.583889 -9.0697374 23.829874
1686500000 -3.3448162 -46.45158 -68.920128 2.2652209 -104.43127 18.485893 -9.4150028 -55.549446
1696000000 -3.3186469 -74.420464 -68.689598 -86.299454 -97.144173 144.57909 -8.5777779 -129.19902
1705500000 -3.2979572 -102.08307 -70.098373 178.25929 -95.090286 82.527184 -7.2500486 167.02469
1715000000 -3.2758574 -129.51947 -69.751274 96.697784 -92.814568 128.30194 -6.3146062 105.93896
1724500000 -3.2835047 -156.87601 -69.667625 -0.94211936 -89.187416 -81.308319 -6.6005516 43.099186
1734000000 -3.3293028 175.53976 -69.443222 -101.62299 -92.93795 -160.42989 -8.0978937 -21.216707
1743500000 -3.3868403 147.56645 -68.491386 165.2083 -90.735931 -163.0995 -9.5834837 -90.473999
1753000000 -3.4283807 119.37185 -68.432991 76.135971 -106.58069 153.26422 -9.4976997 -167.27101
1762500000 -3.4552391 90.997742 -67.834892 -30.392597 -89.003609 11.059362 -8.1216221 116.77233
1772000000 -3.4974341 62.308464 -67.731995 -124.92337 -103.82366 -115.00964 -7.237895 48.477467
1781500000 -3.5223758 33.533146 -67.31292 142.66879 -88.260231 -179.04425 -7.1749196 -13.333117
1791000000 -3.4924226 4.9286399 -66.747688 43.167374 -96.434296 91.329422 -7.6322575 -75.507111
1800500000 -3.4437892 -23.302652 -66.821175 -51.289783 -95.656059 36.462086 -8.5588293 -144.53618
1810000000 -3.407722 -51.095432 -65.910507 -148.36485 -92.077621 -109.31905 -9.301301 140.41866
1819500000 -3.3798344 -78.659035 -66.766228 115.91237 -86.612167 -132.121 -8.7850084 68.588043
1829000000 -3.3525741 -105.95075 -66.703041 35.513802 -88.954025 133.52885 -7.4061923 4.1109004
1838500000 -3.3246474 -132.88113 -62.664871 -62.639992 -87.572098 78.237679 -6.3505592 -58.227028
1848000000 -3.3377087 -159.77483 -60.802345 -163.98727 -88.658127 -102.09406 -6.6362591 -121.37856
1857500000 -3.4037013 173.0666 -58.544888 92.72644 -89.794876 -153.33151 -8.2044287 175.10977
1867000000 -3.4649887 145.62267 -57.436718 -20.945568 -84.534355 120.17782 -9.9145565 105.71747
1876500000 -3.5205696 117.90613 -57.320465 -127.81616 -85.026207 29.461103 -10.080226 25.598829
1886000000 -3.6075439 89.955856 -56.430893 128.6561 -85.647408 -72.147514 -8.5742664 -53.244144
1895500000 -3.7033648 61.562908 -56.051636 18.423323 -84.960602 176.31575 -7.3501582 -121.30927
1905000000 -3.7695799 32.817596 -56.051964 -88.270782 -82.840584 59.288582 -6.9061713 178.19055
1914500000 -3.7893312 4.2125974 -56.038677 167.85329 -99.496094 -9.8688402 -7.1445823 117.85336
1924000000 -3.7901776 -24.139366 -56.125484 60.495998 -89.296349 -110.80344 -8.1981544 52.088043
1933500000 -3.7881575 -52.355129 -56.826313 -45.816765 -86.725273 172.9097 -9.5066967 -20.278728
1943000000 -3.7686865 -80.323647 -56.532368 -150.50192 -86.315376 82.078445 -9.5149202 -94.914185
1952500000 -3.7202442 -107.96013 -57.449989 108.06948 -85.569138 -30.800766 -8.1731825 -165.16684
1962000000 -3.686214 -135.35448 -58.439404 -2.7866282 -88.361748 -141.60681 -7.0710568 128.13997
1971500000 -3.691093 -162.68867 -60.711857 -97.944214 -85.484589 125.658 -7.2407355 63.391094
1981000000 -3.716475 169.74736 -61.530563 178.80002 -89.273346 116.83555 -8.3880615 -0.91499043
1990500000 -3.7449591 141.93802 -60.889156 88.743546 -94.679695 11.028206 -9.5600147 -71.048035
2000000000 -3.7852497 113.92474 -59.103527 -6.7929025 -95.311203 9.1286945 -9.6307402 -149.22269
