!Keysight Technologies,N5242B,MY48420967,A.15.65.19
!Date: Sunday, January 22, 2023 19:26:28
!Correction: S11(C  1-Port  ) 
!S21(Off) 
!S12(Off) 
!S22(Off) 
!S2P File: Measurements: S11, S21, S12, S22:
# Hz S  dB   R 50
100000000 -1.3001806 40.517872 -82.294563 146.22459 -91.228813 132.87952 -2.5252743 44.706284
109500000 -1.2149215 11.164717 -87.143066 17.661356 -92.35006 154.67656 -2.4335148 -28.082739
119000000 -1.1204982 -17.508121 -81.664581 -87.446281 -91.830208 179.35759 -2.7572856 -107.67205
128500000 -1.0452937 -45.87619 -84.944008 -166.63055 -94.77697 -149.68951 -3.2812648 179.50928
138000000 -1.0365753 -74.4356 -82.420074 99.623894 -93.759895 -102.3792 -2.8741679 115.0976
147500000 -1.0858083 -103.31357 -78.846085 -49.676598 -91.253204 15.996003 -1.7530308 48.620853
157000000 -1.14543 -132.49634 -81.415085 -137.18019 -87.239449 145.96278 -1.7749583 -26.9779
166500000 -1.2335062 -162.08379 -79.579124 129.81206 -95.783195 62.967739 -3.6679707 -100.74002
176000000 -1.3514172 167.89995 -83.660034 0.23949912 -90.482765 -121.81538 -4.9808931 -169.49741
185500000 -1.4458454 137.67509 -80.505341 -78.875397 -95.286392 -139.30431 -4.410603 120.0891
195000000 -1.4853557 107.66898 -80.354988 -173.29272 -96.543739 -129.92886 -3.0434499 45.058159
204500000 -1.4960887 78.005775 -80.121857 81.613258 -97.37851 46.144756 -2.8900738 -28.536963
214000000 -1.4900407 48.600494 -80.421555 -61.854748 -90.146721 53.992832 -3.5037041 -94.061218
223500000 -1.4535719 19.568888 -79.729149 -147.0056 -90.397881 123.78439 -3.8297846 -158.81152
233000000 -1.4072794 -9.1437483 -76.933151 132.02765 -95.342461 -16.245903 -4.0713811 128.4639
242500000 -1.3902847 -37.779285 -79.339592 10.314752 -97.72448 151.78819 -4.694077 51.212433
252000000 -1.3926744 -66.514694 -78.106567 -123.30367 -92.394699 140.83228 -4.8665824 -20.474321
261500000 -1.4202728 -95.488327 -76.56134 -163.58362 -88.767357 162.39461 -4.0554142 -87.48922
271000000 -1.4906799 -124.81741 -79.940216 63.902336 -89.69146 107.87586 -3.1860659 -157.53069
280500000 -1.5763334 -154.5578 -75.086632 -43.162739 -91.390976 82.178276 -3.7538061 129.48082
290000000 -1.65133 175.44273 -77.180786 -149.54572 -93.933495 -177.30502 -5.1370664 60.131168
299500000 -1.7285899 145.35117 -76.385246 146.3255 -90.741455 -72.856148 -5.6700964 -9.1362152
309000000 -1.7900779 115.20534 -79.355156 27.915775 -86.564453 -85.074791 -5.0350132 -83.362938
318500000 -1.8048331 85.340714 -77.084755 -76.921982 -88.145866 127.27101 -4.5106034 -159.56178
328000000 -1.7806404 55.967331 -78.461411 -167.11165 -83.799202 -165.53964 -4.6809387 130.72801
337500000 -1.7640203 26.822273 -77.384323 91.625641 -100.99596 -97.759651 -4.7542048 65.695564
347000000 -1.7553662 -2.1963384 -75.522202 -23.434111 -85.20343 163.0107 -4.6308899 -3.60794
356500000 -1.7275113 -31.064943 -75.389275 -132.90837 -88.007881 -1.8754686 -5.1198325 -79.242172
366000000 -1.7215407 -60.032009 -78.661827 133.87585 -92.749596 -5.741519 -5.9158688 -152.34167
375500000 -1.7690843 -89.364899 -74.649628 28.506557 -97.021431 -142.13618 -5.8062835 139.90192
385000000 -1.8285878 -119.14465 -75.088249 -78.877495 -104.01658 -161.15834 -4.8819151 71.33741
394500000 -1.889711 -149.20381 -73.84127 178.44104 -99.061668 -43.480064 -4.6008096 -2.8227646
404000000 -1.951839 -179.35107 -74.721939 74.258911 -88.164215 47.071617 -5.6602063 -75.723083
413500000 -2.0112092 150.39149 -76.09993 -27.422354 -89.21299 127.41461 -6.4964724 -144.35828
423000000 -2.0527375 120.22073 -75.51194 -119.53609 -89.954468 -33.184593 -6.0974164 145.78773
432500000 -2.050257 90.506516 -73.821213 138.90707 -92.370186 120.7247 -5.2178187 71.947441
442000000 -2.0216167 61.264668 -75.686104 38.077698 -97.476913 -111.82516 -5.1754375 -0.21650378
451500000 -2.0007436 32.406555 -74.604424 -56.699905 -90.185257 84.996552 -5.5810184 -65.844299
461000000 -1.9761058 3.8111842 -74.267433 -160.78702 -95.142822 107.92297 -5.6454592 -131.12157
470500000 -1.9476002 -24.595634 -75.298248 104.46238 -88.388222 139.20103 -5.5840936 156.49493
480000000 -1.9347508 -52.923531 -73.281166 3.0292048 -92.43927 -163.94087 -6.0025587 80.313293
489500000 -1.9561163 -81.502304 -71.543961 -100.87388 -106.64414 146.99887 -6.2863026 9.8088369
499000000 -2.0023537 -110.46422 -68.613274 162.1012 -92.432739 -171.33421 -5.7940979 -55.677437
508500000 -2.0408926 -139.6138 -66.229195 54.776733 -90.805954 -40.203957 -5.0888386 -123.18522
518000000 -2.0752256 -168.91173 -64.58532 -74.209587 -87.802605 -139.09778 -5.408278 165.44223
527500000 -2.1182799 161.6664 -65.781242 165.39101 -90.374115 151.54582 -6.5406923 95.190582
537000000 -2.1451843 132.32808 -68.200249 59.574234 -91.45388 -54.605106 -6.957006 25.089125
546500000 -2.1396523 103.33358 -69.132973 -51.415146 -90.601715 -116.98421 -6.2027469 -48.021542
556000000 -2.1138861 74.834412 -69.421852 -153.46645 -91.930115 151.04721 -5.51402 -121.67879
565500000 -2.0820765 46.721302 -70.2173 103.20424 -94.186096 -56.737576 -5.6509113 171.27278
575000000 -2.0514183 18.911684 -72.574989 -1.7827191 -94.241425 -32.232456 -5.8854642 110.14556
584500000 -2.0184999 -8.6543703 -71.512581 -88.479492 -98.312675 57.519032 -5.8449831 46.198467
594000000 -1.9982702 -36.190586 -71.739555 167.81714 -100.37625 174.27089 -6.0797873 -27.152472
603500000 -2.0075722 -63.923634 -71.259392 67.886658 -89.417374 43.910988 -6.9014573 -103.42327
613000000 -2.0393307 -92.021477 -73.63166 -37.939301 -101.60825 170.64571 -7.0710263 -173.41772
622500000 -2.0784602 -120.51833 -71.067017 -136.90865 -92.541222 -177.61145 -6.2968755 120.97022
632000000 -2.1313906 -149.37999 -71.246895 139.20016 -94.591919 26.335865 -5.6232953 53.491631
641500000 -2.1821017 -178.50386 -72.590553 24.796738 -110.91218 91.027351 -6.142221 -16.057878
651000000 -2.2202604 152.22998 -72.216133 -91.586174 -97.933937 -141.71136 -7.3066587 -85.066269
660500000 -2.2419524 123.03496 -72.18943 -178.3719 -87.644379 130.49243 -7.7356005 -157.22217
670000000 -2.2400398 94.048004 -72.879005 93.758804 -118.57621 128.69598 -7.1031322 126.64396
679500000 -2.221653 65.395592 -71.66935 -24.65163 -90.485794 96.534302 -6.5244184 53.78215
689000000 -2.1880128 37.168282 -72.192635 -120.29942 -96.445992 -1.1618814 -6.3903298 -10.501171
698500000 -2.1610968 9.1842175 -72.462173 146.95653 -98.152969 109.7274 -6.2835116 -71.195908
708000000 -2.1488969 -18.677488 -71.605667 40.956524 -86.905602 127.04731 -6.4124231 -137.53525
717500000 -2.143163 -46.5285 -70.636696 -69.314095 -86.551994 -2.380182 -7.4369111 146.99751
727000000 -2.164777 -74.642487 -70.693268 -161.83835 -121.26289 144.34903 -8.4877987 69.43148
736500000 -2.2242706 -103.2205 -72.306755 94.232979 -94.736488 154.85829 -8.0249939 -3.0082321
746000000 -2.2870033 -132.28694 -71.116173 -6.2327571 -91.947014 131.5005 -6.6547556 -71.067719
755500000 -2.3419733 -161.72784 -71.124626 -106.08023 -95.74469 -16.608675 -6.0216236 -138.94249
765000000 -2.4037313 168.60585 -71.065651 153.39395 -91.985519 -88.57444 -6.7834764 155.23521
774500000 -2.4527719 138.77661 -71.903397 53.810619 -101.93248 127.90916 -7.9577765 89.890877
784000000 -2.4660249 109.04894 -71.67865 -51.321861 -96.107483 110.00336 -8.4626322 17.063019
793500000 -2.4499137 79.718208 -69.816269 -148.98195 -97.034447 104.96109 -8.0134678 -63.262859
803000000 -2.4234169 50.844494 -70.8396 105.37868 -105.36874 161.3287 -7.4383469 -137.72987
812500000 -2.3912518 22.374176 -70.559196 2.8514972 -88.11161 -125.67001 -6.976685 159.11008
822000000 -2.3549933 -5.7175894 -70.505287 -97.458221 -88.49115 113.93014 -6.460824 99.416092
831500000 -2.3317053 -33.549038 -69.583099 162.57077 -96.617859 89.460258 -6.4288607 33.68428
841000000 -2.3345921 -61.351948 -70.082367 62.258808 -92.676476 127.73121 -7.6344886 -39.908333
850500000 -2.3621368 -89.370438 -71.146812 -40.939091 -95.372139 -161.47321 -8.8939648 -115.85844
860000000 -2.4070489 -117.75711 -70.010872 -139.93005 -99.096878 -101.99702 -8.4241076 170.73221
869500000 -2.4572563 -146.49525 -70.789413 120.74003 -97.5093 34.601757 -6.9218206 101.4333
879000000 -2.50845 -175.4884 -70.581604 15.295652 -95.347061 68.102463 -6.1466041 34.465199
888500000 -2.5502598 155.35391 -70.219879 -91.406441 -95.497551 170.85513 -6.5881391 -28.877747
898000000 -2.5696652 126.18109 -70.253708 173.87566 -99.740807 61.539875 -7.4922452 -91.768944
907500000 -2.5580487 97.238678 -70.432343 73.052162 -98.352257 -164.87001 -8.2345705 -162.32921
917000000 -2.5266271 68.72731 -69.804665 -29.451799 -85.98436 157.68742 -8.4156046 118.30814
926500000 -2.4816272 40.667439 -69.58136 -131.91626 -98.131897 118.24433 -7.9181242 43.00956
936000000 -2.4298105 13.064924 -69.731728 130.80974 -96.483559 89.723862 -7.0419331 -21.751295
945500000 -2.3822381 -14.102513 -70.275482 34.761208 -98.802414 -68.345497 -6.2075505 -82.457123
955000000 -2.3502479 -41.040081 -69.997894 -70.732903 -95.758713 -171.46614 -6.1213689 -146.1702
964500000 -2.3446293 -67.94664 -69.196762 -174.50182 -96.361023 -176.82188 -7.267056 146.1544
974000000 -2.3606594 -95.017273 -69.650681 88.326134 -103.35899 136.79784 -8.7029486 74.847694
983500000 -2.3978817 -122.46815 -69.60202 -11.366181 -95.041168 -4.6891265 -8.8152256 -0.48564881
993000000 -2.4467287 -150.32394 -69.07045 -111.70463 -93.562286 146.84711 -7.6844583 -74.203453
1002500000 -2.4888873 -178.52522 -69.151543 140.0699 -87.082069 101.2248 -6.853745 -141.4203
1012000000 -2.5328317 152.93886 -69.521767 48.296085 -87.220284 56.123199 -6.7177296 157.79637
1021500000 -2.5614851 124.2574 -68.921654 -57.807579 -91.644997 72.792427 -6.9403248 97.478775
1031000000 -2.5552673 95.627121 -69.232056 -157.18883 -89.200516 170.10828 -7.6552343 29.508425
1040500000 -2.5319226 67.243835 -69.232666 103.58519 -90.937187 -175.01672 -8.9413939 -47.901196
1050000000 -2.5021539 39.21484 -69.036354 1.4284362 -85.980095 52.757725 -9.370738 -125.44814
1059500000 -2.4564686 11.516144 -68.799545 -97.063286 -92.262672 -79.668503 -8.2281809 165.45906
1069000000 -2.4147494 -15.802946 -68.837166 162.94872 -98.22924 48.712139 -6.646955 100.63499
1078500000 -2.3958082 -42.843201 -68.065941 63.273945 -85.621033 52.449207 -6.1438437 34.244007
1088000000 -2.3938801 -69.891373 -68.734268 -40.549812 -92.019897 76.339073 -7.2390203 -31.130821
1097500000 -2.4234643 -97.186317 -68.127182 -138.31967 -93.059204 -46.787498 -8.7631435 -96.368706
1107000000 -2.4754746 -124.84365 -67.996162 126.44542 -86.176262 153.26164 -9.4190264 -168.52411
1116500000 -2.5384214 -153.03761 -67.010017 22.446733 -90.490784 148.12241 -8.7814569 113.6937
1126000000 -2.6066597 178.23755 -66.835037 -80.728065 -87.743851 119.60552 -7.9295259 41.218956
1135500000 -2.6687479 149.12964 -67.135674 -176.96208 -93.687866 -145.77068 -7.4611201 -22.245016
1145000000 -2.7137775 119.69559 -66.620354 84.735016 -89.914597 131.82198 -7.2942681 -83.377289
1154500000 -2.7333884 90.2071 -66.08844 -21.973347 -98.807716 51.642368 -7.8507385 -150.33095
1164000000 -2.721606 60.959118 -66.265121 -129.58775 -92.810043 30.996054 -9.3916845 135.05707
1173500000 -2.6955318 32.008892 -66.181915 135.38832 -100.9144 99.856613 -10.232224 57.094234
1183000000 -2.6632733 3.4730258 -66.402748 32.845985 -87.368858 154.28653 -9.0047989 -16.497175
1192500000 -2.6262534 -24.594095 -65.416359 -65.441101 -98.500862 114.23019 -7.1356812 -85.085358
1202000000 -2.6041467 -52.308975 -65.349915 -167.74922 -91.659203 -99.810066 -6.4635921 -151.54869
1211500000 -2.6098018 -79.928406 -65.547287 89.157852 -87.576546 -62.137299 -7.2164369 146.37134
1221000000 -2.6414843 -107.69231 -66.061584 -9.4595804 -94.824905 167.30362 -8.4206562 85.268913
1230500000 -2.6938765 -135.71132 -64.751152 -107.71377 -90.771889 84.087563 -9.3692799 16.296576
1240000000 -2.751364 -164.11575 -64.276024 153.15187 -87.836914 -25.539185 -9.4920292 -62.925186
1249500000 -2.8101897 167.02933 -63.970535 50.463345 -94.286797 -20.990932 -8.7301064 -139.73531
1259000000 -2.8713882 137.84361 -63.846355 -53.621109 -86.099892 -137.05008 -7.7438817 153.53351
1268500000 -2.9057705 108.47205 -62.944572 -151.75737 -87.839966 138.96432 -7.0533404 91.142517
1278000000 -2.8996887 79.161423 -62.790138 103.88631 -86.419411 45.693462 -7.2659364 26.862389
1287500000 -2.8688388 50.232571 -63.132534 -1.7346064 -90.370529 -133.52832 -8.546464 -40.614815
1297000000 -2.8288436 21.732353 -63.156342 -101.33855 -93.56797 173.50949 -9.7169342 -112.93747
1306500000 -2.7757988 -6.274827 -63.176559 159.13068 -86.666672 101.01753 -9.2602901 170.22171
1316000000 -2.7111681 -33.676666 -63.077644 62.666332 -90.464523 69.677849 -7.7905874 95.958466
1325500000 -2.6692386 -60.6637 -61.787445 -39.470215 -89.779327 -127.73277 -6.9747372 29.123074
1335000000 -2.6656899 -87.541176 -61.242783 -142.87079 -81.996872 176.69637 -6.9419904 -30.705929
1344500000 -2.674392 -114.44323 -61.309544 120.53181 -86.260727 78.397583 -7.2726741 -89.617111
1354000000 -2.6922269 -141.47348 -60.398884 14.609643 -93.502441 68.776207 -8.0405293 -154.93622
1363500000 -2.7351117 -168.793 -59.8578 -91.173882 -91.870148 -128.02718 -9.189292 131.24469
1373000000 -2.7907724 163.40004 -59.40522 171.91203 -84.716133 -173.44943 -9.4605503 55.507778
1382500000 -2.8367569 135.22693 -58.66095 65.817459 -82.088905 106.17924 -8.3336191 -14.365566
1392000000 -2.860409 106.88866 -58.467716 -50.405666 -86.360489 -26.255129 -7.002738 -80.566528
1401500000 -2.8646562 78.432594 -61.180176 -146.06288 -89.51252 -132.06584 -6.8333549 -146.89172
1411000000 -2.8548272 50.035252 -60.684868 127.15067 -82.859398 160.45528 -8.0435114 148.52455
1420500000 -2.8233142 21.942719 -58.903481 30.617655 -82.697083 107.8046 -9.4340782 82.454124
1430000000 -2.7690904 -5.7044287 -57.439182 -79.719589 -92.707565 -48.815754 -9.6756401 8.1443777
1439500000 -2.71718 -32.868816 -57.911358 177.60052 -84.672005 -112.54472 -8.5459433 -70.398727
1449000000 -2.6855233 -59.686092 -57.655605 78.024292 -83.865387 133.76753 -7.5668201 -141.58022
1458500000 -2.6748428 -86.412346 -56.422016 -20.286695 -82.580742 101.94326 -7.2112927 157.46353
1468000000 -2.6842504 -113.19318 -54.817585 -126.43557 -81.659782 -49.095654 -7.1963215 100.08638
1477500000 -2.708293 -140.08731 -53.621979 122.73302 -81.479172 -146.1588 -7.7672191 38.450932
1487000000 -2.7591281 -167.40263 -53.678829 6.1216145 -82.26281 125.95374 -9.2281284 -31.193745
1496500000 -2.8280547 164.77316 -53.862041 -93.13147 -82.820572 58.642262 -10.42345 -108.29357
1506000000 -2.8869603 136.52174 -53.06255 155.30298 -81.769188 -58.571018 -9.6630516 174.47572
1515500000 -2.9410703 107.8852 -54.328121 41.466469 -80.815117 169.9265 -8.027112 102.93655
1525000000 -2.9825597 78.920563 -54.627056 -54.206306 -83.429207 74.609207 -7.4351292 35.970463
1534500000 -2.9957263 49.802475 -54.397957 -164.97078 -79.671913 -16.236975 -8.0451984 -26.235947
1544000000 -2.9874392 20.839693 -54.357773 87.757278 -79.679779 -105.22476 -9.0320787 -89.114601
1553500000 -2.9630566 -7.7735791 -55.000317 -23.590313 -82.071136 165.69508 -9.7077665 -161.07442
1563000000 -2.9242709 -35.988842 -56.429722 -132.89809 -82.460625 70.320938 -9.5486221 119.07034
1572500000 -2.8951108 -63.816311 -57.93589 124.32122 -83.407135 -67.066689 -8.7617121 45.674358
1582000000 -2.8981304 -91.436089 -58.790192 24.442945 -85.612495 -138.54602 -7.8883862 -17.19294
1591500000 -2.9223471 -119.09346 -59.462246 -78.833557 -86.787613 146.76459 -7.2911105 -77.149063
1601000000 -2.9532938 -146.87061 -60.307697 -178.37698 -99.26342 75.257774 -7.6384349 -141.06926
1610500000 -3.0031955 -174.93021 -61.169849 80.800896 -87.475983 -38.764259 -9.2010288 149.81708
1620000000 -3.0859697 156.53413 -61.766308 -18.916492 -88.608299 -124.90314 -10.524348 74.964699
1629500000 -3.1626859 127.51995 -62.019798 -122.42403 -83.715126 121.44814 -9.7978773 -2.2418623
1639000000 -3.2082739 98.249603 -62.562141 136.44728 -88.614098 36.109699 -8.0795383 -74.615532
1648500000 -3.2426116 68.803917 -64.237823 35.189804 -94.971046 -56.572277 -7.3132949 -140.99176
1658000000 -3.2708232 39.203751 -64.689224 -64.73143 -89.770493 -165.69913 -7.659946 157.77531
1667500000 -3.2597532 9.7963743 -65.462654 -161.80411 -102.33296 60.59074 -8.5292921 95.535606
1677000000 -3.2030849 -19.085829 -66.096298 99.756645 -90.24382 85.568985 -9.5490532 24.100563
1686500000 -3.1460519 -47.434639 -68.666008 0.17403682 -98.135979 -140.21796 -9.9008951 -55.732677
1696000000 -3.1226399 -75.401955 -68.815399 -94.720123 -87.151329 -173.08548 -8.9805984 -129.66301
1705500000 -3.1046648 -103.07498 -69.522003 174.48448 -89.402924 178.94751 -7.5961757 166.62561
1715000000 -3.0826399 -130.52458 -71.200752 88.025803 -92.87883 153.283 -6.653914 105.82446
1724500000 -3.090508 -157.90314 -70.44313 -16.002615 -97.891129 -137.65237 -6.9479833 43.386616
1734000000 -3.1345942 174.48491 -69.784836 -106.1511 -100.01532 71.283073 -8.4715347 -20.697157
1743500000 -3.1890156 146.48589 -69.616989 163.98328 -102.24149 -114.04428 -10.019245 -90.176956
1753000000 -3.2271731 118.27473 -68.43158 75.560646 -99.502068 98.544075 -9.9638147 -167.58279
1762500000 -3.2515686 89.881317 -69.032478 -32.962322 -88.114754 -9.1369419 -8.5428114 116.29123
1772000000 -3.2910852 61.187347 -68.062897 -120.12501 -92.627586 -107.48152 -7.6024728 48.24511
1781500000 -3.3141112 32.414478 -68.623596 143.79111 -89.744545 154.89067 -7.5154018 -13.337103
1791000000 -3.2840118 3.818512 -67.547691 43.294853 -103.53769 110.97405 -7.9914656 -75.331001
1800500000 -3.2363813 -24.395567 -67.279465 -50.820183 -93.455315 43.812595 -8.961771 -144.29904
1810000000 -3.2006149 -52.180447 -67.169662 -148.30153 -94.156647 -158.33023 -9.7153749 140.37466
1819500000 -3.1762364 -79.728638 -67.8228 114.70124 -94.542549 -153.7769 -9.1500015 68.21788
1829000000 -3.1493547 -107.02133 -68.517029 37.495331 -94.256721 -46.985954 -7.7331343 3.7356961
1838500000 -3.1220727 -133.95886 -64.095863 -57.863293 -88.9086 58.476746 -6.6759276 -58.322445
1848000000 -3.1342239 -160.8763 -61.701427 -156.2811 -103.89282 -74.163124 -6.9673109 -121.05576
1857500000 -3.1969576 171.95192 -59.228882 98.098419 -83.87883 -155.60509 -8.5639458 175.69852
1867000000 -3.2545869 144.47163 -57.739799 -16.044893 -83.676697 89.815895 -10.354854 106.15856
1876500000 -3.305661 116.72963 -57.193581 -121.39903 -96.367775 42.769005 -10.570037 25.315475
1886000000 -3.3866241 88.735626 -56.653275 131.93736 -86.574722 -74.451439 -8.9947958 -53.805477
1895500000 -3.4767466 60.305546 -56.083874 22.459806 -84.477509 169.05952 -7.6981983 -121.63241
1905000000 -3.5392284 31.541483 -56.208553 -83.954109 -82.791183 85.305305 -7.224762 178.12712
1914500000 -3.5584583 2.9209766 -56.028938 171.5997 -93.788307 -46.029915 -7.4759283 118.04818
1924000000 -3.5610423 -25.455389 -56.210709 64.16011 -85.090462 -125.65529 -8.5698986 52.503124
1933500000 -3.5626285 -53.674404 -56.48867 -41.054585 -84.755341 155.49185 -9.9243832 -20.021717
1943000000 -3.5476034 -81.644089 -56.47142 -147.38985 -86.008644 61.681057 -9.9282999 -95.160103
1952500000 -3.5057173 -109.28072 -57.031235 108.12966 -87.456383 -43.82793 -8.5518732 -165.57916
1962000000 -3.4778438 -136.66675 -57.466148 -1.8831534 -83.949318 -154.92715 -7.4308629 127.96584
1971500000 -3.4861784 -164.01193 -59.99865 -101.50834 -88.684074 139.90598 -7.5940909 63.561646
1981000000 -3.5132113 168.4269 -61.13504 169.60764 -88.880264 77.550247 -8.7617865 -0.57823968
1990500000 -3.5407784 140.625 -60.86026 81.87114 -88.153748 -2.1887085 -9.9893589 -70.890717
2000000000 -3.578985 112.60113 -59.905781 -11.411996 -98.779762 -120.29359 -10.073652 -149.5563
