!Keysight Technologies,N5242B,MY48420967,A.15.65.19
!Date: Monday, January 23, 2023 06:02:32
!Correction: S11(C  1-Port  ) 
!S21(Off) 
!S12(Off) 
!S22(Off) 
!S2P File: Measurements: S11, S21, S12, S22:
# Hz S  dB   R 50
100000000 -1.4896263 40.364368 -83.494179 164.10356 -90.183975 129.22603 -2.644922 43.102375
109500000 -1.4123834 10.907351 -83.722847 33.305634 -92.141083 162.92769 -2.5614548 -30.131859
119000000 -1.3208103 -17.836342 -81.854378 -86.225929 -95.916962 101.94387 -2.8872137 -109.86326
128500000 -1.2521977 -46.245014 -81.863106 163.96564 -89.835899 125.96613 -3.3687294 177.46089
138000000 -1.2510992 -74.808731 -84.209747 70.982086 -91.276451 -28.577211 -2.9192266 113.06297
147500000 -1.3030751 -103.67732 -79.397713 -58.202221 -92.043365 71.616257 -1.8006735 46.353313
157000000 -1.3655013 -132.82758 -77.435516 -155.93152 -88.708496 120.40196 -1.8778746 -29.344635
166500000 -1.4562353 -162.35434 -78.675079 128.73973 -101.17969 -127.38166 -3.7680833 -102.95858
176000000 -1.5712965 167.68097 -80.792091 14.545382 -100.09562 168.34323 -5.0049129 -171.7485
185500000 -1.6609871 137.52029 -79.555092 -92.076149 -99.338448 -41.041168 -4.3531046 117.77882
195000000 -1.6952724 107.58194 -79.90374 166.56633 -90.76667 92.614029 -2.9684427 42.707523
204500000 -1.6980941 77.969109 -79.160683 64.285362 -93.023331 148.6098 -2.8430462 -30.721624
214000000 -1.684862 48.616333 -80.318306 -47.853493 -92.380081 138.39752 -3.4546003 -96.133408
223500000 -1.6428713 19.635281 -78.960632 -127.91496 -95.39859 -36.759338 -3.7563624 -161.08693
233000000 -1.5927542 -9.0511646 -81.980316 120.77041 -96.751404 90.081635 -3.9751494 125.82256
242500000 -1.5734972 -37.66613 -77.432846 3.6794064 -95.047005 164.17667 -4.5748692 48.521492
252000000 -1.5755382 -66.372902 -76.865128 -105.02449 -88.366959 72.384567 -4.7078905 -22.933455
261500000 -1.606727 -95.352097 -80.243507 163.94075 -90.161102 -122.22561 -3.8648176 -89.927589
271000000 -1.6809762 -124.68918 -77.694351 76.960472 -87.321198 65.318733 -3.0076988 -160.3141
280500000 -1.7721179 -154.43655 -77.383728 -35.68499 -93.058914 138.24524 -3.6271024 126.45148
290000000 -1.8549591 175.5349 -75.810089 -137.47752 -82.845306 -88.775261 -4.9996972 57.079876
299500000 -1.9385511 145.40564 -79.03804 117.87998 -82.777519 101.58753 -5.4517946 -12.282036
309000000 -2.0061817 115.22453 -74.062408 1.0865225 -94.456696 135.64566 -4.7516699 -86.657097
318500000 -2.0287509 85.319466 -73.468666 -107.85574 -91.051636 71.411926 -4.2481036 -162.84926
328000000 -2.0110812 55.894382 -76.768959 169.35796 -97.83902 -39.563271 -4.44943 127.65188
337500000 -2.0022693 26.714945 -77.839142 63.906094 -84.090294 -74.114601 -4.5065784 62.592392
347000000 -2.0026271 -2.3375335 -76.45694 -46.269714 -93.368385 -79.577156 -4.3596716 -7.105617
356500000 -1.9878415 -31.243055 -75.141327 -141.00635 -98.671158 -177.83374 -4.8526645 -82.968216
366000000 -1.9941649 -60.217667 -74.398247 119.56491 -99.022957 -33.9119 -5.6263866 -155.74063
375500000 -2.0550346 -89.559334 -78.076683 2.4928293 -99.077606 -73.166046 -5.4629765 136.8573
385000000 -2.1314404 -119.36396 -73.8498 -99.481873 -87.681084 48.78912 -4.5004106 68.185028
394500000 -2.2034507 -149.40997 -75.331192 167.89717 -91.449249 -103.2058 -4.2531486 -6.3257661
404000000 -2.2755189 -179.53471 -76.159363 69.260254 -88.670296 169.03189 -5.3475389 -79.084015
413500000 -2.3446906 150.21599 -77.785179 -46.161438 -91.623825 43.53635 -6.1339459 -147.32648
423000000 -2.3902116 120.06886 -74.049454 -143.18938 -101.36256 32.559586 -5.6662984 143.12968
432500000 -2.3883417 90.392731 -73.790024 111.56861 -85.782486 -141.90131 -4.7818561 69.336617
442000000 -2.3617222 61.209362 -74.918358 6.4797096 -90.142578 64.908028 -4.7987108 -2.7091005
451500000 -2.3437264 32.397022 -76.765236 -77.650772 -101.1164 -49.098946 -5.2258596 -68.123772
461000000 -2.3213403 3.8704784 -74.726845 -174.49847 -87.302361 157.64897 -5.255302 -133.40544
470500000 -2.2975302 -24.464285 -74.364304 82.182198 -96.904091 -17.080828 -5.1557059 153.99239
480000000 -2.292706 -52.725983 -73.972122 -20.600389 -98.568481 103.16122 -5.5866675 77.88591
489500000 -2.3218296 -81.235214 -71.898788 -112.59644 -88.360016 -179.41272 -5.8877559 7.8122392
499000000 -2.3766596 -110.13917 -70.141777 144.18474 -93.188568 102.83685 -5.3913851 -57.44791
508500000 -2.4256222 -139.27266 -67.49884 39.021679 -101.6282 108.61425 -4.6772814 -125.18827
518000000 -2.4700603 -168.54094 -67.240196 -81.962891 -90.460754 93.920822 -5.0181794 163.07541
527500000 -2.5196505 162.08113 -68.464981 157.43895 -101.5671 -81.196785 -6.1486058 92.831726
537000000 -2.5521789 132.74248 -69.204269 53.967392 -104.3923 131.60837 -6.5112848 22.99044
546500000 -2.5461874 103.73455 -70.262314 -43.562103 -92.078148 -154.21071 -5.7217536 -49.935471
556000000 -2.5168121 75.227646 -69.718819 -155.35536 -91.447754 -164.85515 -5.0771956 -123.62294
565500000 -2.4868829 47.105721 -71.556267 107.06494 -95.772011 -157.02798 -5.2759528 169.40057
575000000 -2.45644 19.272738 -71.339966 4.5585585 -99.398727 -118.31105 -5.5140653 108.29134
584500000 -2.4251873 -8.3122797 -71.866348 -92.114189 -87.79071 -55.644985 -5.4215364 44.056492
594000000 -2.4125018 -35.833351 -71.020653 167.29443 -91.036652 -164.30717 -5.6102161 -29.757301
603500000 -2.4319594 -63.573463 -71.895584 67.277931 -96.072105 -69.446556 -6.4333448 -105.91803
613000000 -2.4759433 -91.680847 -71.776535 -36.321312 -106.51778 33.506271 -6.6076336 -175.38045
622500000 -2.5270271 -120.16827 -71.101822 -134.3591 -93.334221 151.17957 -5.8265576 119.23039
632000000 -2.5953848 -149.04411 -70.98967 129.64244 -91.757629 47.393261 -5.1492352 51.434582
641500000 -2.6558406 -178.17038 -72.521515 16.331116 -90.066711 159.84146 -5.6862645 -18.489807
651000000 -2.6997333 152.54636 -71.416656 -85.21183 -88.155937 96.62355 -6.8219142 -87.53714
660500000 -2.7288406 123.34711 -71.074905 -168.12363 -100.35744 123.65167 -7.170208 -159.4015
670000000 -2.7278788 94.334991 -72.087433 79.09082 -90.459572 125.86744 -6.5113463 124.79764
679500000 -2.7084804 65.672226 -70.838631 -23.367935 -93.130562 62.174141 -6.0022736 52.108185
689000000 -2.6782434 37.458088 -71.253738 -128.4832 -96.183434 -96.487907 -5.9269252 -12.051162
698500000 -2.6544046 9.4793262 -71.505173 137.97313 -93.680786 -110.38757 -5.8087511 -72.839943
708000000 -2.6473773 -18.370024 -71.210991 33.162045 -92.86544 -178.78697 -5.8723502 -139.65488
717500000 -2.6524887 -46.170952 -70.348648 -73.889534 -88.799446 122.32665 -6.8397784 144.47446
727000000 -2.6886804 -74.236732 -71.533073 -168.62036 -89.880653 162.71153 -7.8590317 67.47242
736500000 -2.7629192 -102.78132 -70.977516 90.554024 -89.728813 -112.11966 -7.4146347 -4.0966039
746000000 -2.8418827 -131.79892 -70.28212 -6.9885483 -87.170959 123.0563 -6.0731978 -71.951393
755500000 -2.9109061 -161.1889 -70.406578 -113.57121 -89.083809 8.6965094 -5.4750938 -140.19781
765000000 -2.9832518 169.17799 -70.354332 147.5267 -90.099426 -83.90313 -6.2682648 153.70468
774500000 -3.0386682 139.39551 -71.499763 44.989151 -94.6008 -178.71043 -7.3957987 88.421326
784000000 -3.053206 109.70724 -71.316833 -57.398533 -92.432632 179.39053 -7.7938786 15.987448
793500000 -3.0354857 80.405708 -69.954712 -160.94742 -97.138489 121.21104 -7.3350492 -63.842918
803000000 -3.003454 51.599712 -71.703712 100.20231 -95.601234 87.264778 -6.8735814 -138.04604
812500000 -2.9673836 23.207035 -71.335854 -1.71771 -97.787308 -139.34364 -6.4945946 158.91586
822000000 -2.9305987 -4.8121324 -70.224747 -99.233482 -98.042923 112.26143 -5.9757609 99.183922
831500000 -2.9068613 -32.556583 -70.067947 161.97154 -99.371689 114.2942 -5.8823876 33.113285
841000000 -2.9138448 -60.236755 -70.165565 56.141232 -100.75458 162.04602 -7.0396008 -40.73444
850500000 -2.9523256 -88.142067 -71.20816 -49.99398 -88.710678 147.11008 -8.2913733 -116.13004
860000000 -3.0079288 -116.43754 -69.629585 -146.05048 -98.266327 147.59074 -7.8738966 171.2274
869500000 -3.0675323 -145.08913 -70.333458 117.23605 -88.040085 -88.079041 -6.4222074 102.04552
879000000 -3.1288252 -174.00291 -69.794983 11.093486 -96.070633 56.427944 -5.6791158 34.720497
888500000 -3.1769583 156.87923 -69.478241 -88.72448 -101.16829 -89.620193 -6.1421146 -28.922689
898000000 -3.1978757 127.72708 -69.400063 173.32399 -105.23409 76.446434 -7.0160289 -91.843605
907500000 -3.1846521 98.788933 -70.04184 71.692528 -97.990791 46.064014 -7.6849003 -162.18277
917000000 -3.1468532 70.267151 -69.81266 -36.574657 -96.763924 121.58884 -7.8552613 118.8442
926500000 -3.0929389 42.191994 -69.119362 -135.05089 -89.963173 164.29169 -7.4489684 43.746933
936000000 -3.0345035 14.598783 -69.653351 131.00374 -90.695251 61.102058 -6.6452231 -21.058491
945500000 -2.9831436 -12.559822 -69.629845 28.748154 -96.006592 71.617905 -5.8190222 -81.951904
955000000 -2.9480717 -39.49345 -68.622223 -74.470673 -100.73544 -3.7502797 -5.7007365 -146.02426
964500000 -2.9468288 -66.364838 -69.21241 -176.56372 -87.907997 144.95448 -6.8121176 145.98201
974000000 -2.9728024 -93.392189 -69.05648 85.977623 -104.04274 120.85163 -8.2103634 74.832336
983500000 -3.02301 -120.83675 -69.419662 -18.524593 -93.637527 -36.37022 -8.3219461 0.0096164225
993000000 -3.0849407 -148.68114 -68.7313 -115.65172 -87.39164 -148.65881 -7.2395983 -73.593674
1002500000 -3.1420434 -176.88521 -69.277702 142.39481 -88.672256 154.14737 -6.4602232 -141.08371
1012000000 -3.1994054 154.54872 -69.839317 39.705379 -89.430138 170.43309 -6.3457031 157.87247
1021500000 -3.2348773 125.82178 -68.865501 -56.061394 -90.539604 30.418377 -6.5350161 97.333786
1031000000 -3.2320185 97.126091 -67.809883 -161.25493 -91.707764 139.29018 -7.1702938 29.070389
1040500000 -3.2081943 68.676422 -68.326111 100.32266 -88.641212 100.62864 -8.3973408 -48.330078
1050000000 -3.1726573 40.577541 -68.486427 -0.57321322 -94.052818 48.273125 -8.8556328 -125.2882
1059500000 -3.1232419 12.840989 -68.403091 -99.886398 -88.858475 69.551132 -7.7741132 165.99107
1069000000 -3.0788932 -14.495067 -67.804153 164.04988 -92.114655 -132.33324 -6.2033033 101.02736
1078500000 -3.0597494 -41.551247 -67.52166 62.507748 -96.056053 -170.61465 -5.6913514 34.101772
1088000000 -3.062916 -68.570724 -67.691605 -44.821491 -89.235893 21.847458 -6.7873831 -31.662596
1097500000 -3.1044316 -95.809151 -67.121643 -140.95511 -88.826469 -64.360344 -8.26402 -96.839478
1107000000 -3.1734281 -123.41933 -67.389153 121.88203 -93.803734 165.13226 -8.840601 -168.45172
1116500000 -3.2540658 -151.56674 -66.337929 16.364164 -102.13935 154.40916 -8.1985569 114.28274
1126000000 -3.3405445 179.78447 -66.543625 -84.663284 -88.308723 3.3129764 -7.4185467 41.827824
1135500000 -3.4181621 150.73193 -66.21476 178.31352 -88.432983 -26.1388 -6.9952884 -21.733168
1145000000 -3.4748416 121.33008 -65.560219 80.060036 -86.287376 -115.58274 -6.8034644 -82.983803
1154500000 -3.4980772 91.879082 -64.879166 -29.865095 -83.348068 95.575508 -7.275094 -150.12527
1164000000 -3.4843481 62.66819 -65.325363 -129.56166 -89.295502 29.885862 -8.7425508 135.40921
1173500000 -3.4524274 33.757927 -65.012383 132.42229 -95.893265 -61.490219 -9.6105738 58.419987
1183000000 -3.4116244 5.2818089 -65.152565 31.808884 -106.34953 122.19896 -8.4940863 -14.528195
1192500000 -3.3667033 -22.695694 -64.791428 -70.140862 -84.286728 114.03759 -6.6719079 -83.252045
1202000000 -3.3402634 -50.317097 -63.973473 -172.26759 -87.409508 -30.789608 -6.0049438 -150.27768
1211500000 -3.347142 -77.804192 -64.809799 84.605995 -84.949615 -78.55262 -6.7649765 147.25894
1221000000 -3.3843703 -105.40953 -64.730125 -12.061992 -99.988869 -58.081184 -7.933238 86.255661
1230500000 -3.4499791 -133.29993 -63.651546 -111.25784 -83.02813 120.79184 -8.8065157 17.867664
1240000000 -3.5214272 -161.567 -62.925114 147.33455 -90.714935 21.696724 -8.9269915 -60.603134
1249500000 -3.5927353 169.70685 -62.786545 43.405865 -92.327209 -26.920469 -8.2682352 -137.33348
1259000000 -3.6676297 140.61528 -62.78886 -58.272629 -95.879227 -147.74724 -7.3565483 155.65697
1268500000 -3.7108891 111.2813 -61.701542 -159.70067 -87.673225 36.863953 -6.6677527 93.004898
1278000000 -3.7029555 81.979622 -61.836639 95.695465 -88.875 -4.1534605 -6.837471 28.485886
1287500000 -3.6671548 53.035168 -62.276775 -7.2365565 -86.374847 -80.536568 -8.0764694 -38.977997
1297000000 -3.6163909 24.509333 -62.166958 -106.62663 -84.542694 162.57854 -9.2434874 -110.73349
1306500000 -3.5490773 -3.5301318 -61.341175 154.3136 -91.091057 98.669418 -8.8620768 172.98158
1316000000 -3.471312 -30.947598 -60.94268 54.296696 -91.297569 -34.162224 -7.4533372 98.483704
1325500000 -3.4225361 -57.919327 -60.230484 -48.628105 -90.70443 -141.7412 -6.6696224 31.001362
1335000000 -3.41682 -84.774574 -59.758392 -153.26622 -84.562843 -179.94576 -6.6507578 -29.202579
1344500000 -3.4290497 -111.64874 -59.924843 103.60275 -81.489578 77.627762 -6.9550281 -88.224266
1354000000 -3.4549005 -138.63438 -59.427696 0.62861937 -89.606277 -33.948563 -7.6633301 -153.47791
1363500000 -3.5099916 -165.93532 -59.081028 -103.68851 -84.247658 -130.44655 -8.7818489 132.9599
1373000000 -3.582608 166.2677 -58.872528 146.67651 -83.244987 151.06107 -9.1131897 57.581097
1382500000 -3.6427522 138.07768 -60.650383 40.989792 -92.099693 116.05412 -8.0361586 -12.266353
1392000000 -3.6800423 109.66177 -61.636097 -45.271278 -84.226852 -58.562378 -6.6886134 -78.858337
1401500000 -3.6926553 81.119476 -59.272808 -138.46739 -86.76693 -95.889336 -6.5062661 -145.69513
1411000000 -3.6811633 52.616932 -57.558723 113.01524 -81.249611 163.30296 -7.7064466 149.48695
1420500000 -3.6455925 24.39711 -57.907185 3.4056673 -82.584694 62.24617 -9.0658865 83.678665
1430000000 -3.5832047 -3.3564234 -57.603912 -95.582146 -87.171333 -48.541443 -9.2953053 9.8949661
1439500000 -3.5217638 -30.603241 -56.763958 160.22885 -82.585777 -154.92798 -8.2128544 -68.543594
1449000000 -3.4857318 -57.4673 -56.470024 50.770287 -82.230339 122.80687 -7.2825985 -140.09964
1458500000 -3.4743395 -84.211761 -56.438351 -55.727612 -81.654129 34.575191 -6.9466133 158.67406
1468000000 -3.4886079 -110.99216 -56.738678 -166.4045 -85.992043 -97.344955 -6.8942671 101.18919
1477500000 -3.5255845 -137.85312 -57.572395 91.761581 -82.952568 165.95776 -7.372169 39.430984
1487000000 -3.5927372 -165.1312 -58.378017 -12.477748 -83.865242 120.72197 -8.7288475 -30.230152
1496500000 -3.6814356 167.0788 -58.16967 -115.46619 -105.34614 2.370219 -9.8672943 -106.65018
1506000000 -3.7604599 138.87315 -58.843884 144.4664 -93.990463 -120.26163 -9.1564884 176.52757
1515500000 -3.8332789 110.26748 -58.961475 46.161255 -89.830353 177.36243 -7.5855203 104.63981
1525000000 -3.8914797 81.301231 -58.29105 -65.227158 -84.551399 82.474152 -7.0058818 37.274048
1534500000 -3.9109693 52.188744 -59.283745 -171.27095 -86.774902 -23.497747 -7.6048408 -25.293293
1544000000 -3.9007721 23.223051 -60.106514 90.706573 -83.118149 -126.01879 -8.5408258 -88.086914
1553500000 -3.8723288 -5.3852158 -60.461369 -14.872549 -89.064743 164.27193 -9.1523705 -159.51379
1563000000 -3.82499 -33.56765 -60.809704 -120.18042 -88.233665 64.295471 -9.0253429 121.17841
1572500000 -3.787101 -61.323803 -62.239799 141.30894 -92.163773 -1.8378594 -8.3433704 47.731262
1582000000 -3.7902269 -88.834053 -62.546528 41.26408 -87.179756 -89.251167 -7.5261474 -15.333126
1591500000 -3.8190472 -116.36565 -63.281551 -59.169731 -86.343605 146.98836 -6.907474 -75.399689
1601000000 -3.8576181 -143.99779 -63.158184 -159.21017 -90.233551 68.852112 -7.1757588 -139.41919
1610500000 -3.9231904 -171.88373 -64.254486 100.20406 -89.746201 -8.2324104 -8.6619081 151.66695
1620000000 -4.0261717 159.75688 -64.83606 2.0861876 -90.374161 -117.497 -9.9849815 77.7686
1629500000 -4.121675 130.87891 -65.364929 -94.406532 -87.011353 114.92437 -9.3837004 1.3067117
1639000000 -4.1839623 101.72177 -64.721878 162.49005 -93.464737 111.36692 -7.7346187 -71.278511
1648500000 -4.2313285 72.370384 -65.821701 62.95916 -96.664726 -60.500847 -6.9660978 -138.21577
1658000000 -4.2639251 42.809635 -66.289246 -33.936047 -100.05171 -146.72296 -7.2921915 160.25461
1667500000 -4.2497611 13.392124 -66.456497 -134.7431 -91.997589 84.866791 -8.1126375 98.227264
1677000000 -4.1828365 -15.495551 -67.725082 130.30313 -89.021263 59.725636 -9.0865469 27.504976
1686500000 -4.1103773 -43.845757 -67.941498 33.963074 -90.536201 22.713751 -9.5197744 -51.769341
1696000000 -4.074811 -71.801262 -68.657791 -59.855061 -93.573799 -72.597748 -8.7380562 -126.05271
1705500000 -4.047493 -99.434082 -68.059052 -149.07471 -92.527466 149.40729 -7.3993583 169.73276
1715000000 -4.020997 -126.8493 -67.691772 113.34348 -85.370079 78.063179 -6.4180284 108.63947
1724500000 -4.0310268 -154.1696 -66.831085 13.87186 -94.305969 -1.125289 -6.6363549 45.956318
1734000000 -4.0831933 178.31166 -67.03315 -88.013092 -90.236542 -136.68185 -8.1034355 -18.107563
1743500000 -4.1525121 150.3567 -66.237976 179.64381 -91.724548 -149.19646 -9.6505442 -86.937454
1753000000 -4.206109 122.14667 -66.310211 89.49588 -95.684113 121.50014 -9.6947193 -163.67557
1762500000 -4.2435374 93.762138 -65.701904 -16.312073 -91.554024 45.335766 -8.3488703 119.89297
1772000000 -4.2968063 65.027115 -65.117516 -115.61308 -92.532646 -29.101852 -7.4103746 51.167439
1781500000 -4.3296041 36.144753 -64.613464 148.09079 -90.885567 120.09437 -7.3018775 -10.827968
1791000000 -4.2962227 7.4162402 -64.205215 45.251122 -86.367683 140.96768 -7.7392573 -72.878662
1800500000 -4.2430859 -20.928974 -64.90731 -51.770218 -104.62442 168.10634 -8.6740999 -141.64226
1810000000 -4.2010679 -48.818172 -64.775452 -149.62592 -95.764732 8.1395044 -9.4664459 143.22786
1819500000 -4.165082 -76.480812 -64.685951 118.25198 -88.340782 134.0531 -8.9864292 70.877914
1829000000 -4.1338568 -103.84105 -64.092819 32.393196 -89.135963 156.61317 -7.5979009 6.0569205
1838500000 -4.1075144 -130.80199 -60.831799 -64.734642 -87.329697 87.228111 -6.5010328 -56.260555
1848000000 -4.1261463 -157.71976 -58.774094 -175.5215 -86.011604 -76.074364 -6.7282076 -119.26101
1857500000 -4.2057595 175.14465 -58.590885 76.743294 -88.360191 -129.25349 -8.2663679 177.41841
1867000000 -4.2867975 147.72916 -57.880108 -26.763565 -82.478203 122.0908 -10.020995 108.37695
1876500000 -4.364677 120.05163 -57.300217 -132.57973 -85.4291 -7.3233185 -10.294692 28.267939
1886000000 -4.4735208 92.169563 -56.557018 123.58488 -83.947548 -92.848007 -8.7997866 -51.069206
1895500000 -4.59303 63.889629 -56.309269 14.462574 -83.598648 165.95119 -7.5175562 -119.46069
1905000000 -4.6765327 35.237167 -56.779587 -91.002495 -86.435669 96.535965 -7.0232186 179.95906
1914500000 -4.6972013 6.7409225 -56.563519 167.013 -88.726898 -5.3621087 -7.2250643 119.78152
1924000000 -4.6828799 -21.440516 -56.598671 58.324009 -91.223 -150.54384 -8.2547302 54.369579
1933500000 -4.6569996 -49.51973 -57.23782 -47.643604 -89.431412 169.55376 -9.5889397 -17.688091
1943000000 -4.603271 -77.450203 -58.475803 -152.77339 -84.278709 70.666367 -9.6632013 -92.369949
1952500000 -4.5166225 -105.05083 -59.199913 107.87702 -91.483002 -21.676262 -8.3385344 -162.78564
1962000000 -4.4587679 -132.41089 -60.869171 13.023849 -90.925522 66.830681 -7.1960545 130.56042
1971500000 -4.4477472 -159.71841 -60.418392 -77.582687 -88.654907 159.136 -7.3040237 65.948303
1981000000 -4.4652514 172.74294 -59.739708 -171.79875 -85.672661 61.291145 -8.4215403 1.9342099
1990500000 -4.4989886 144.99785 -58.985775 96.515083 -99.332169 -4.6179323 -9.6294117 -67.665123
2000000000 -4.5549049 117.09306 -56.818413 -5.7582955 -89.677475 -89.721672 -9.7917252 -145.64053
