!Keysight Technologies,N5242B,MY48420967,A.15.65.19
!Date: Sunday, January 22, 2023 21:40:30
!Correction: S11(C  1-Port  ) 
!S21(Off) 
!S12(Off) 
!S22(Off) 
!S2P File: Measurements: S11, S21, S12, S22:
# Hz S  dB   R 50
100000000 -1.282654 40.539951 -79.631226 150.49686 -88.696785 150.73448 -2.5308211 44.824909
109500000 -1.1978728 11.183045 -83.758553 7.7283745 -91.408455 51.735165 -2.4416988 -27.935745
119000000 -1.1046673 -17.495741 -83.833229 -107.55577 -111.79589 -117.4584 -2.7661829 -107.51425
128500000 -1.0299208 -45.875214 -84.226601 -157.06017 -89.559135 94.087029 -3.2918963 179.66171
138000000 -1.0217427 -74.450996 -82.951447 89.370872 -91.745781 88.495087 -2.8874774 115.24091
147500000 -1.0718141 -103.34137 -83.215721 -24.626776 -93.960999 -107.44838 -1.7691077 48.792751
157000000 -1.1321073 -132.54192 -78.387108 -122.81255 -87.867508 80.897011 -1.7882758 -26.754343
166500000 -1.2204417 -162.13959 -82.7453 124.29314 -95.505028 -50.96069 -3.6807308 -100.51146
176000000 -1.3386648 167.83469 -81.381638 31.249855 -90.955437 122.89923 -4.999897 -169.27496
185500000 -1.4337018 137.60783 -82.161354 -90.493881 -98.179955 -112.07784 -4.4398074 120.30948
195000000 -1.4733945 107.6028 -79.585114 -178.04211 -94.526596 148.63194 -3.0744278 45.292988
204500000 -1.4843923 77.950569 -81.09388 79.244545 -96.098351 134.56456 -2.9163363 -28.289396
214000000 -1.4785446 48.559673 -78.960426 -37.304829 -95.874115 -178.21556 -3.5287273 -93.812508
223500000 -1.4419106 19.538258 -79.581642 -132.54823 -98.335892 -86.602959 -3.8593614 -158.5377
233000000 -1.3954606 -9.1624584 -80.298073 122.45731 -87.604904 -57.245316 -4.105629 128.78487
242500000 -1.3784747 -37.785397 -79.165222 10.057521 -101.73395 -127.48441 -4.7321029 51.541901
252000000 -1.3796724 -66.507858 -74.83638 -58.425056 -106.00045 96.391716 -4.9086857 -20.19075
261500000 -1.4079232 -95.485344 -81.453827 -161.93803 -87.431572 -158.16264 -4.1009378 -87.2192
271000000 -1.4783795 -124.81129 -79.831581 55.496227 -93.975571 25.907827 -3.2329123 -157.21594
280500000 -1.5637683 -154.54857 -79.500046 -37.78138 -85.612938 131.89568 -3.7947955 129.8475
290000000 -1.6381716 175.45056 -78.545349 -143.88249 -96.915108 -7.0695667 -5.1799264 60.502491
299500000 -1.7151591 145.35831 -77.0439 119.54114 -89.638855 34.102726 -5.7244039 -8.7799168
309000000 -1.7765756 115.20425 -81.601089 35.672523 -86.862762 122.23392 -5.0998883 -83.015495
318500000 -1.7913966 85.338692 -77.576805 -72.035927 -87.008049 -139.44139 -4.573113 -159.21561
328000000 -1.7673535 55.960163 -77.528641 178.55905 -88.080727 -140.89796 -4.738874 131.05675
337500000 -1.7499002 26.810041 -77.573227 91.696053 -99.716217 -35.659908 -4.8123951 66.01844
347000000 -1.7420837 -2.2177422 -74.772522 -33.750072 -90.052612 97.991135 -4.6970901 -3.2367656
356500000 -1.7141237 -31.089016 -75.058022 -136.5641 -100.83299 174.09174 -5.188097 -78.827332
366000000 -1.7077308 -60.057827 -75.731979 118.01824 -87.119225 9.8459978 -5.9839907 -151.97673
375500000 -1.7546023 -89.389496 -81.608063 21.120548 -85.5513 -122.56618 -5.8799868 140.20917
385000000 -1.815357 -119.18041 -75.015526 -80.991371 -90.647194 177.34535 -4.9626899 71.649796
394500000 -1.8747652 -149.23547 -75.515312 177.27969 -91.294777 154.57086 -4.6801815 -2.4332883
404000000 -1.937413 -179.38071 -74.965416 79.518135 -96.699127 -4.1604548 -5.734921 -75.318275
413500000 -1.9961406 150.35471 -78.920181 -11.461929 -88.089226 9.176384 -6.5757222 -144.01248
423000000 -2.037915 120.18649 -75.488266 -106.30742 -94.406944 -104.40588 -6.1858778 146.08929
432500000 -2.0351179 90.472 -74.615112 144.13503 -91.075638 169.07214 -5.3074679 72.262253
442000000 -2.0060098 61.227184 -76.879768 49.2644 -95.591156 -167.85025 -5.2562346 0.11375911
451500000 -1.9853814 32.366955 -74.282196 -62.898884 -86.95079 23.496017 -5.6569633 -65.534775
461000000 -1.9603838 3.7749133 -73.547333 -152.62144 -87.375298 108.54724 -5.7273655 -130.79564
470500000 -1.931577 -24.631727 -73.875107 99.54496 -92.263962 125.33443 -5.6744447 156.8707
480000000 -1.9182799 -52.960442 -72.303963 7.464817 -102.49079 78.958694 -6.0913019 80.683144
489500000 -1.9396324 -81.534729 -71.297676 -91.834633 -87.424126 105.29722 -6.3704443 10.119365
499000000 -1.9851512 -110.49554 -69.046799 162.05629 -89.660217 144.8483 -5.8781152 -55.409618
508500000 -2.0240533 -139.64729 -66.599152 53.707817 -101.71311 -62.139935 -5.1764636 -122.87209
518000000 -2.0582275 -168.94087 -64.212822 -74.09716 -90.069 -138.02437 -5.4935384 165.83113
527500000 -2.1009159 161.64053 -66.664642 164.24057 -90.242203 96.532532 -6.6263433 95.583549
537000000 -2.1276278 132.29453 -67.528267 61.427711 -103.1316 157.05908 -7.0528846 25.422443
546500000 -2.123117 103.29695 -68.555031 -45.735584 -94.935509 -122.68166 -6.3050594 -47.734425
556000000 -2.097759 74.799469 -68.669945 -152.94522 -106.16 -155.91083 -5.6078625 -121.38466
565500000 -2.0658517 46.671944 -70.756142 107.23584 -95.469452 32.756844 -5.7319269 171.56528
575000000 -2.0349846 18.854967 -73.067818 6.5495596 -93.144997 98.820702 -5.9659877 110.43589
584500000 -2.0018854 -8.7237148 -71.621849 -90.198769 -96.040627 -82.288628 -5.9360266 46.529015
594000000 -1.9816391 -36.268166 -71.410385 164.61707 -91.805969 125.86623 -6.1807108 -26.738922
603500000 -1.9904553 -64.007988 -72.538246 67.14238 -89.308357 101.88922 -7.0033002 -103.0314
613000000 -2.0215561 -92.111481 -72.184288 -27.408312 -88.600792 52.597275 -7.1695757 -173.12854
622500000 -2.0604181 -120.6112 -71.305061 -132.22963 -99.347679 96.013214 -6.3967361 121.22698
632000000 -2.113188 -149.47871 -71.55365 126.58548 -91.392029 127.60745 -5.7231874 53.800446
641500000 -2.1631672 -178.59853 -72.682983 34.664917 -86.138947 123.59835 -6.239532 -15.659903
651000000 -2.2013016 152.14108 -72.359535 -86.333389 -91.941399 149.605 -7.4097967 -84.659996
660500000 -2.222997 122.96065 -72.671524 -173.51295 -92.38578 -121.94807 -7.8539953 -156.88336
670000000 -2.2203999 93.980461 -72.535049 90.769371 -91.111069 175.27165 -7.2256589 126.91544
679500000 -2.2021058 65.34082 -71.559029 -24.010017 -99.086266 27.630392 -6.6325226 54.034634
689000000 -2.1688364 37.124382 -72.412071 -122.50608 -91.589699 56.215321 -6.486002 -10.258475
698500000 -2.1412995 9.1426525 -71.909485 143.77541 -91.398087 40.038189 -6.3811784 -70.926498
708000000 -2.129636 -18.714375 -71.421272 48.229973 -91.194199 160.25958 -6.5238218 -137.17703
717500000 -2.1243579 -46.561382 -70.929802 -57.404392 -92.099335 65.508965 -7.5611329 147.43756
727000000 -2.1452703 -74.683441 -71.835968 -165.81976 -96.839325 -40.359001 -8.6167297 69.764908
736500000 -2.2046461 -103.2668 -71.520706 94.562279 -93.210617 75.183601 -8.1497746 -2.8273113
746000000 -2.2672253 -132.3459 -71.831169 -2.7295101 -95.483604 97.308876 -6.7726884 -70.919525
755500000 -2.3216572 -161.79445 -71.234085 -113.27531 -92.214096 -69.522614 -6.1323247 -138.70331
765000000 -2.3831105 168.52907 -70.724617 154.61079 -96.796066 -147.6604 -6.887311 155.54968
774500000 -2.4322066 138.68663 -72.049622 58.565773 -89.364166 176.01033 -8.0715914 90.217201
784000000 -2.4444807 108.9511 -72.113602 -50.438812 -92.5298 115.12756 -8.5981607 17.333454
793500000 -2.4285424 79.612816 -70.619881 -153.68951 -93.269905 133.80597 -8.1525345 -63.079155
803000000 -2.4024227 50.738605 -70.580002 106.06573 -93.320869 -138.99925 -7.5548377 -137.58919
812500000 -2.3701427 22.265627 -71.094566 4.5133033 -94.796875 -163.35234 -7.0757952 159.22958
822000000 -2.3340497 -5.8251801 -71.719528 -92.553169 -90.453003 144.7209 -6.5602102 99.565163
831500000 -2.3105133 -33.663586 -69.730087 164.1877 -110.73283 21.715889 -6.539391 33.942848
841000000 -2.3129468 -61.4604 -70.323677 59.936878 -105.68804 113.96272 -7.7539635 -39.56023
850500000 -2.3402922 -89.486588 -71.049553 -43.292274 -88.181145 -161.28894 -9.0195684 -115.60864
860000000 -2.3850598 -117.87618 -70.51223 -138.06053 -91.076675 109.25851 -8.5450735 170.82053
869500000 -2.4350333 -146.61774 -70.095528 115.6366 -90.970245 -27.586864 -7.0325489 101.49942
879000000 -2.4861424 -175.61662 -70.993599 16.365486 -95.299759 -110.85084 -6.2472 34.604542
888500000 -2.5274913 155.21898 -70.186485 -87.438072 -96.696869 -108.56013 -6.6817961 -28.672882
898000000 -2.5474544 126.04177 -70.339226 176.96965 -90.227913 64.381035 -7.5928364 -91.523682
907500000 -2.5359385 97.092773 -70.595543 74.069824 -86.047531 0.72253042 -8.3543892 -162.08672
917000000 -2.5045421 68.574875 -70.102806 -30.26226 -94.734642 -88.817261 -8.5431013 118.48023
926500000 -2.459893 40.507896 -70.032486 -131.39717 -104.10803 -173.23318 -8.0289087 43.098614
936000000 -2.4082248 12.899675 -70.444649 137.95502 -90.490242 119.47089 -7.1359777 -21.687811
945500000 -2.3608866 -14.272502 -70.540794 28.991009 -113.07015 -133.08221 -6.2988243 -82.362732
955000000 -2.328557 -41.215515 -69.892456 -68.93927 -95.563332 -91.212318 -6.2164054 -145.96722
964500000 -2.3233588 -68.127167 -69.47023 -171.13475 -93.585793 -178.08232 -7.3666205 146.44347
974000000 -2.3387744 -95.192505 -70.01297 94.097816 -86.518425 74.310547 -8.8164968 75.109154
983500000 -2.3761017 -122.64773 -70.022041 -10.907189 -96.750214 30.543264 -8.9360342 -0.34385642
993000000 -2.4233785 -150.50276 -69.690247 -119.01836 -89.934067 -159.51862 -7.796432 -74.125244
1002500000 -2.4649084 -178.70013 -69.090126 143.72949 -92.284424 119.50085 -6.9503851 -141.31551
1012000000 -2.5086868 152.77136 -69.989586 47.14547 -90.693558 134.75998 -6.8073759 157.94368
1021500000 -2.5372159 124.10242 -69.004333 -54.897953 -100.72466 -122.88467 -7.035347 97.691292
1031000000 -2.5306892 95.481071 -67.900223 -153.73267 -88.508713 -149.24101 -7.7674017 29.800375
1040500000 -2.5087082 67.105217 -69.281609 103.9642 -85.278435 146.57133 -9.0685596 -47.604191
1050000000 -2.4780529 39.086086 -70.122612 1.6772081 -88.376595 57.562786 -9.4957323 -125.31499
1059500000 -2.4320562 11.391648 -69.056076 -97.134857 -94.680687 99.957748 -8.3387766 165.47491
1069000000 -2.391469 -15.92669 -69.289589 170.66173 -91.983841 -164.58852 -6.7529697 100.68458
1078500000 -2.371856 -42.96463 -68.362267 68.233696 -95.286598 135.32996 -6.2467427 34.412315
1088000000 -2.3703589 -70.021103 -67.654968 -39.787102 -98.716705 -17.019325 -7.3382668 -30.862654
1097500000 -2.3995476 -97.321007 -67.974434 -140.79541 -102.53427 -55.322311 -8.8724432 -96.090408
1107000000 -2.4512062 -124.9813 -68.135986 126.93199 -92.177521 -139.11295 -9.5492926 -168.34126
1116500000 -2.5136378 -153.18834 -67.323349 22.513151 -87.292931 134.71832 -8.9136286 113.77255
1126000000 -2.5806112 178.08363 -67.230713 -84.106125 -101.53674 67.249275 -8.0451479 41.283142
1135500000 -2.6427491 148.97807 -66.746597 -179.38977 -96.994278 -109.08397 -7.5642219 -22.158981
1145000000 -2.6875396 119.53794 -67.023659 82.989197 -93.887978 -175.51805 -7.4005346 -83.231331
1154500000 -2.706408 90.046494 -66.251938 -25.570972 -93.172401 138.6636 -7.9692235 -150.08359
1164000000 -2.6947162 60.801327 -66.246254 -126.17365 -83.101265 16.310619 -9.5258322 135.33078
1173500000 -2.6686933 31.850603 -66.203583 136.83015 -97.117744 73.512543 -10.370584 57.190491
1183000000 -2.6372657 3.3136506 -66.021683 35.049133 -84.975235 -150.79466 -9.1292248 -16.573778
1192500000 -2.6008871 -24.752029 -65.894646 -67.30909 -88.958885 124.69691 -7.2482553 -85.125946
1202000000 -2.5791366 -52.474392 -65.530663 -168.85109 -87.082207 95.533928 -6.565423 -151.47037
1211500000 -2.5852554 -80.10527 -65.781738 93.411766 -87.463318 152.35663 -7.3107285 146.52737
1221000000 -2.6170075 -107.87733 -65.832489 -7.786293 -89.604904 155.70364 -8.521534 85.45475
1230500000 -2.6695707 -135.91306 -64.90712 -105.85288 -82.849075 139.136 -9.4930105 16.467541
1240000000 -2.7267127 -164.33302 -64.384628 150.8409 -89.100685 41.860149 -9.6275616 -62.862679
1249500000 -2.7844694 166.79051 -64.280724 48.789856 -85.436958 -94.223846 -8.8490686 -139.75267
1259000000 -2.8459809 137.59024 -63.902382 -57.563175 -84.102882 -170.64647 -7.845273 153.52501
1268500000 -2.8803744 108.20689 -63.330696 -151.72972 -85.510048 81.170837 -7.1500092 91.181717
1278000000 -2.8730021 78.884911 -62.970875 101.00676 -87.356255 -4.4231615 -7.3658595 26.998104
1287500000 -2.8420596 49.949036 -63.404266 -1.7289047 -94.788322 -105.38718 -8.6527882 -40.42738
1297000000 -2.8018146 21.445602 -62.971741 -101.66783 -87.165909 -159.8772 -9.8357029 -112.82377
1306500000 -2.7488241 -6.5589046 -63.224167 156.66147 -85.61911 118.47939 -9.3811646 170.18864
1316000000 -2.6840997 -33.960396 -62.997993 63.856899 -85.086441 -18.836618 -7.8966036 95.90731
1325500000 -2.6424131 -60.936878 -61.859863 -38.83527 -85.947411 -71.309174 -7.064002 29.134066
1335000000 -2.6400754 -87.812492 -61.3792 -143.70984 -90.331108 163.662 -7.0234523 -30.638374
1344500000 -2.6477129 -114.7127 -61.5051 119.12925 -94.128616 90.934952 -7.3580632 -89.497009
1354000000 -2.6655743 -141.73361 -60.664879 14.310599 -89.663368 96.666161 -8.139225 -154.75986
1363500000 -2.7078605 -169.05237 -60.229813 -92.289352 -86.21817 -77.131332 -9.3005686 131.41733
1373000000 -2.763036 163.13847 -59.753914 171.62885 -85.812317 156.50931 -9.5730839 55.564247
1382500000 -2.808605 134.98047 -59.053673 67.16449 -83.75177 83.793457 -8.4350576 -14.38683
1392000000 -2.8317602 106.64294 -58.73246 -49.549271 -87.361183 -54.28196 -7.0994391 -80.553848
1401500000 -2.8365676 78.197418 -61.467308 -144.48941 -92.263725 -118.65919 -6.9277692 -146.76637
1411000000 -2.8257706 49.807137 -60.747616 125.22141 -82.717392 148.96738 -8.1367149 148.71283
1420500000 -2.7940965 21.726974 -59.153461 30.694836 -84.411781 78.937935 -9.5379372 82.630386
1430000000 -2.7401509 -5.9179902 -57.892937 -81.048996 -84.152412 -42.288265 -9.7955847 8.2078018
1439500000 -2.6890385 -33.076115 -58.174812 176.00412 -87.690262 -155.25227 -8.6606226 -70.413887
1449000000 -2.6577868 -59.887283 -58.1017 78.866997 -87.670006 -172.09596 -7.6614623 -141.55783
1458500000 -2.6470258 -86.613556 -56.867092 -20.400055 -85.280396 47.850548 -7.2917352 157.52959
1468000000 -2.655426 -113.39684 -55.266766 -126.81806 -83.72052 -27.700325 -7.2760139 100.2033
1477500000 -2.6794612 -140.28889 -54.242298 124.91081 -82.149261 -148.7778 -7.8555613 38.641846
1487000000 -2.7311072 -167.60818 -54.171928 7.7945728 -79.391853 143.6982 -9.333497 -30.959093
1496500000 -2.7974222 164.55952 -54.333111 -90.974663 -82.589302 50.205746 -10.544688 -108.17011
1506000000 -2.8567502 136.30922 -53.533142 159.43311 -81.310684 -61.648037 -9.7825603 174.40538
1515500000 -2.9100752 107.67636 -54.559132 43.887661 -81.055946 179.29915 -8.1376162 102.87464
1525000000 -2.9514353 78.702934 -54.63203 -52.108353 -84.524864 83.895256 -7.5363259 36.012104
1534500000 -2.964483 49.587002 -54.576042 -162.37172 -81.284546 -7.0413747 -8.143033 -26.125034
1544000000 -2.956516 20.623491 -54.573715 90.898773 -81.48613 -111.10925 -9.1408262 -88.984375
1553500000 -2.9328766 -7.9911318 -55.090412 -20.454342 -80.695847 148.48415 -9.8381977 -160.99915
1563000000 -2.8942151 -36.212013 -56.396473 -129.98804 -84.935455 58.687897 -9.6823072 119.05534
1572500000 -2.8651605 -64.045158 -57.853367 127.66405 -83.983879 -24.519665 -8.8724995 45.624897
1582000000 -2.8687916 -91.677307 -58.4739 26.244984 -87.950249 -134.72751 -7.9835587 -17.221186
1591500000 -2.893827 -119.35316 -59.422207 -75.884163 -81.677719 144.41917 -7.3879776 -77.114021
1601000000 -2.9243505 -147.14731 -60.109665 -177.46637 -87.336212 22.511734 -7.7434859 -140.93629
1610500000 -2.9736934 -175.22395 -60.935627 83.258514 -91.207214 -56.952507 -9.3183928 150.0107
1620000000 -3.0568614 156.22369 -61.769722 -20.044697 -87.917702 -158.62526 -10.656402 75.030884
1629500000 -3.1329668 127.19128 -62.037498 -121.64018 -89.899757 139.79466 -9.9239063 -2.3621101
1639000000 -3.1778216 97.909027 -62.584793 139.58345 -95.701683 -26.653988 -8.1902895 -74.729111
1648500000 -3.2108674 68.454071 -64.194656 32.015285 -95.306068 -28.625416 -7.4117432 -141.01047
1658000000 -3.2389376 38.846279 -65.001343 -65.389893 -82.767761 -145.84567 -7.7521162 157.82669
1667500000 -3.2272391 9.4428577 -65.660362 -163.03899 -101.10184 158.0905 -8.6303968 95.627068
1677000000 -3.1707122 -19.43465 -66.904854 95.699661 -94.85582 15.859634 -9.6687613 24.165808
1686500000 -3.1141098 -47.780743 -67.930038 -6.8556314 -97.489265 -161.06706 -10.021502 -55.791763
1696000000 -3.0909259 -75.746727 -69.306168 -97.938004 -88.409332 173.80067 -9.0800667 -129.79114
1705500000 -3.0731885 -103.41438 -69.551392 173.96143 -90.046516 149.26744 -7.6815405 166.52394
1715000000 -3.0516894 -130.86383 -70.266449 91.78846 -88.916176 145.84676 -6.7373366 105.79868
1724500000 -3.0594466 -158.246 -70.207207 -7.8566957 -104.1272 136.51816 -7.032618 43.464485
1734000000 -3.1025844 174.14285 -69.045776 -103.10108 -94.270561 -101.19666 -8.5630007 -20.553656
1743500000 -3.1574588 146.13799 -69.776436 159.32715 -97.705849 -146.02432 -10.127662 -90.085854
1753000000 -3.1940913 117.92808 -69.354813 70.191132 -97.602692 -22.516033 -10.080444 -167.6508
1762500000 -3.2178349 89.534111 -69.491257 -27.247087 -99.40802 -138.64832 -8.6456432 116.18311
1772000000 -3.2564497 60.847801 -68.311989 -128.47789 -94.544106 -152.847 -7.6926594 48.201302
1781500000 -3.2789397 32.081039 -68.305603 142.61316 -98.251244 93.425613 -7.5981803 -13.317288
1791000000 -3.2484972 3.4996972 -67.916946 42.323769 -91.814285 90.92086 -8.0799246 -75.259857
1800500000 -3.2011638 -24.705633 -67.420166 -55.003681 -86.359108 -3.3558192 -9.0609655 -144.20982
1810000000 -3.1663435 -52.472984 -67.32798 -149.80475 -89.06675 -43.396038 -9.8179159 140.38837
1819500000 -3.1414256 -80.018913 -68.039185 114.29321 -94.852798 173.07796 -9.2416706 68.159538
1829000000 -3.1148231 -107.29379 -68.080841 33.986633 -91.429482 159.821 -7.8152461 3.6675866
1838500000 -3.0884063 -134.2209 -64.222084 -53.423233 -93.280678 80.962021 -6.7563615 -58.318893
1848000000 -3.1002557 -161.13213 -61.872028 -156.02219 -94.819992 -44.146549 -7.0495257 -120.93877
1857500000 -3.1627042 171.69418 -59.44783 100.1975 -86.943054 -157.11316 -8.6513033 175.89023
1867000000 -3.2196395 144.21463 -58.102596 -13.535611 -93.898537 95.940865 -10.465487 106.31837
1876500000 -3.2713921 116.47359 -57.589565 -120.57762 -83.074059 16.930986 -10.693629 25.308054
1886000000 -3.3513069 88.47197 -56.524334 133.76933 -84.73999 -44.219669 -9.1021652 -53.903255
1895500000 -3.4410539 60.036488 -56.287136 24.00938 -83.71611 169.62811 -7.7863302 -121.68031
1905000000 -3.50267 31.254047 -56.304489 -82.643539 -82.805588 74.618744 -7.3038425 178.14661
1914500000 -3.5225718 2.6231973 -56.100639 173.90233 -92.793922 -11.46753 -7.5590124 118.13259
1924000000 -3.5258343 -25.757681 -55.946472 65.40686 -86.767525 -80.914627 -8.6620913 52.633659
1933500000 -3.5281997 -53.995487 -56.29649 -40.607468 -91.028336 155.34558 -10.028919 -19.919415
1943000000 -3.5146418 -81.968224 -56.334156 -146.33136 -84.258263 93.518074 -10.033808 -95.194885
1952500000 -3.4736607 -109.6213 -56.921444 109.10241 -87.882774 -49.760571 -8.6471148 -165.65765
1962000000 -3.4466064 -137.01547 -57.590233 0.020565914 -83.158943 -125.96993 -7.5224032 127.94289
1971500000 -3.4559951 -164.3737 -59.510082 -102.92582 -87.369751 129.62752 -7.6832352 63.634026
1981000000 -3.4832368 168.05363 -60.829945 169.31204 -90.560051 45.240314 -8.8565588 -0.46990395
1990500000 -3.510318 140.23596 -60.786346 82.441544 -87.29258 -35.517643 -10.100702 -70.817825
2000000000 -3.5485334 112.19769 -59.778877 -10.478659 -91.397629 -82.75502 -10.187335 -149.6181
