!Keysight Technologies,N5242B,MY48420967,A.15.65.19
!Date: Saturday, February 04, 2023 06:42:13
!Correction: S11(C  1-Port  ) 
!S21(Off) 
!S12(Off) 
!S22(Off) 
!S2P File: Measurements: S11, S21, S12, S22:
# Hz S  dB   R 50
100000000 -1.3783339 40.304497 -83.408241 144.5694 -88.884933 135.85742 -2.6227682 43.869984
109500000 -1.3062023 10.978085 -85.423752 19.902153 -99.277557 65.309654 -2.5534928 -29.20285
119000000 -1.2328687 -17.898148 -86.155754 -104.86249 -94.568451 63.754238 -2.8610592 -108.75427
128500000 -1.1425365 -46.25782 -81.657585 161.08351 -97.164803 84.67852 -3.3329692 178.67307
138000000 -1.1229659 -74.652161 -85.035774 80.354935 -95.46283 -114.90414 -2.8917534 114.3924
147500000 -1.191061 -103.55405 -81.005585 -25.929731 -89.86496 74.133324 -1.7742555 47.832722
157000000 -1.2539492 -132.81618 -77.387711 -150.30612 -86.155632 105.98212 -1.8425882 -27.902189
166500000 -1.3247534 -162.29599 -80.070595 134.63687 -91.101196 72.983643 -3.7653875 -101.7308
176000000 -1.4502732 167.76468 -80.287949 1.4945413 -91.097939 33.684906 -5.0589552 -170.67484
185500000 -1.5551546 137.47552 -79.978493 -88.587959 -93.016808 8.6815586 -4.4467545 118.78486
195000000 -1.577632 107.48236 -78.308815 179.60999 -92.169044 -161.68613 -3.0637317 43.813568
204500000 -1.5835457 77.913353 -81.484001 51.290527 -98.821457 -132.34633 -2.9148273 -29.563799
214000000 -1.5967824 48.456001 -77.320152 -53.220825 -88.672989 174.52464 -3.5302136 -94.990494
223500000 -1.5557315 19.334759 -77.086433 -140.41962 -94.292839 47.92477 -3.8637359 -159.86693
233000000 -1.4899966 -9.3137846 -78.061012 134.51093 -95.028603 123.99296 -4.1198425 127.16565
242500000 -1.4841398 -37.911575 -80.810402 14.826372 -82.830009 126.90829 -4.7360559 49.817116
252000000 -1.5060486 -66.771523 -78.575676 -62.091866 -85.543282 -157.95155 -4.872756 -21.802374
261500000 -1.518446 -95.798119 -78.214188 -158.92928 -99.522217 -21.417994 -4.0329919 -88.763786
271000000 -1.5793341 -125.03059 -77.760651 81.502701 -86.871681 66.451073 -3.1691055 -158.85738
280500000 -1.6897902 -154.77649 -78.411598 -30.038275 -91.482521 -17.295485 -3.7637086 128.16881
290000000 -1.7748823 175.09946 -77.284477 -136.37282 -84.173584 157.89621 -5.1505594 58.84631
299500000 -1.8303711 145.01154 -75.243423 121.49769 -91.703133 125.91773 -5.6604052 -10.51336
309000000 -1.893165 114.9673 -76.090332 20.751509 -92.946136 -63.309811 -5.0026798 -84.838409
318500000 -1.9301673 85.075523 -76.261002 -101.93052 -101.34347 16.412863 -4.4781289 -160.99359
328000000 -1.901078 55.614178 -75.707054 169.83466 -111.6162 -43.703945 -4.6493096 129.43556
337500000 -1.871456 26.485201 -76.729813 87.106567 -94.797142 6.5472469 -4.7131972 64.400948
347000000 -1.8762299 -2.4912567 -76.25428 -35.976215 -91.452126 -159.66174 -4.5913339 -5.0583067
356500000 -1.8602306 -31.370813 -75.112816 -151.97644 -83.825768 150.02336 -5.0908818 -80.799263
366000000 -1.8418773 -60.341473 -76.769058 135.19891 -88.730461 99.689667 -5.8741608 -153.83153
375500000 -1.8901998 -89.671745 -76.973824 20.129332 -90.351334 158.81476 -5.7356648 138.48611
385000000 -1.9697996 -119.47568 -77.278572 -81.064415 -87.432281 -31.090221 -4.7978716 69.854759
394500000 -2.0269742 -149.4977 -75.202995 171.79126 -110.99835 -163.54041 -4.5374393 -4.4130592
404000000 -2.0785484 -179.62105 -74.232765 68.619781 -87.679329 114.03736 -5.6166077 -77.249336
413500000 -2.152153 150.08276 -76.346329 -33.326164 -89.969345 68.997261 -6.43677 -145.83722
423000000 -2.2029612 119.8805 -76.180878 -126.84393 -93.722603 -64.123901 -6.0122266 144.27644
432500000 -2.1834953 90.238518 -75.281044 143.99919 -93.225716 -161.6734 -5.1301513 70.401756
442000000 -2.1498864 61.027733 -75.317474 32.577457 -92.255157 -124.91278 -5.1014524 -1.6520106
451500000 -2.1472077 32.087673 -74.871384 -67.043793 -102.68128 134.63518 -5.5043898 -67.154976
461000000 -2.1230884 3.4996696 -73.836403 -167.38826 -92.77607 132.85115 -5.5554218 -132.44295
470500000 -2.0764995 -24.799452 -73.445335 107.06226 -88.791176 51.033581 -5.4966555 155.04871
480000000 -2.0698524 -53.119331 -72.815857 -3.4412341 -95.621719 -120.07745 -5.9345441 78.85891
489500000 -2.1108847 -81.77375 -70.544548 -97.98381 -94.272697 85.073532 -6.2206273 8.4482174
499000000 -2.1505892 -110.71777 -68.746063 162.51662 -90.355453 -95.084404 -5.7177019 -57.034725
508500000 -2.1765764 -139.78041 -65.776337 53.246799 -90.464523 -145.66669 -5.0064111 -124.65884
518000000 -2.2229493 -169.07597 -64.601608 -80.622368 -94.54911 -64.445992 -5.3287206 163.90717
527500000 -2.2794869 161.41728 -66.598801 161.19464 -90.021294 60.068764 -6.443275 93.757675
537000000 -2.2983844 132.08836 -68.040108 49.295086 -91.042526 116.44581 -6.8304596 23.81802
546500000 -2.2845588 103.14739 -69.100899 -54.670074 -95.046211 -53.658806 -6.0748949 -49.203793
556000000 -2.2677341 74.616623 -70.483749 -154.68855 -85.481659 135.59271 -5.4238415 -122.85083
565500000 -2.241555 46.45726 -70.300125 102.46899 -96.472687 91.943718 -5.5927463 170.13078
575000000 -2.2016401 18.669086 -72.83371 9.9941273 -90.083633 -113.23611 -5.8310533 108.94022
584500000 -2.170403 -8.8982697 -71.989304 -93.536446 -101.61459 -61.306202 -5.7720575 44.774525
594000000 -2.1596439 -36.456707 -70.929802 171.19269 -91.816765 177.92386 -5.9833279 -28.776888
603500000 -2.165669 -64.180969 -72.031471 60.049084 -86.553566 148.87346 -6.7819972 -104.90924
613000000 -2.1960475 -92.235878 -72.242287 -35.569901 -92.770523 -106.36279 -6.9345641 -174.58141
622500000 -2.2459428 -120.76849 -71.319969 -131.60728 -90.349106 -22.086763 -6.1620889 119.93132
632000000 -2.3059278 -149.68852 -72.817955 124.60362 -86.901405 -179.45642 -5.5092406 52.322346
641500000 -2.349025 -178.72665 -72.660461 25.787466 -92.586731 115.17014 -6.0602412 -17.388554
651000000 -2.3895433 152.06291 -71.212143 -84.189812 -89.609726 -42.335705 -7.2254095 -86.511368
660500000 -2.4245062 122.78449 -71.447838 -172.18503 -92.457016 81.18605 -7.6176562 -158.71149
670000000 -2.4165661 93.780899 -72.51049 79.815857 -106.99701 -26.743641 -6.9565392 125.26605
679500000 -2.3829963 65.257141 -71.643768 -16.100225 -89.354996 73.126289 -6.386766 52.617786
689000000 -2.3589027 37.043629 -72.03476 -118.55449 -102.63428 -4.8065863 -6.2663426 -11.511024
698500000 -2.3438632 8.9382019 -71.840149 147.72371 -91.214478 53.434509 -6.1593614 -72.229988
708000000 -2.3218021 -18.894485 -71.208656 40.569874 -90.699295 102.30404 -6.2854424 -138.81459
717500000 -2.3089645 -46.588505 -71.01815 -66.42482 -88.757713 59.029755 -7.311677 145.47301
727000000 -2.3445015 -74.726532 -70.447464 -173.14354 -93.252632 20.962547 -8.3432055 68.001633
736500000 -2.413548 -103.43988 -72.214294 103.16918 -91.264397 120.73783 -7.8633132 -4.1478691
746000000 -2.4667161 -132.44489 -71.721527 -11.393073 -88.861618 161.13652 -6.4969296 -72.11348
755500000 -2.5197001 -161.76118 -70.439049 -110.682 -93.59922 110.05172 -5.8880658 -140.05627
765000000 -2.5988603 168.48885 -70.345833 159.2433 -93.115967 -24.218689 -6.6709065 154.06873
774500000 -2.6513393 138.56219 -71.3452 53.490761 -88.260834 -159.70927 -7.8352008 88.650002
784000000 -2.6497223 108.91131 -71.292084 -48.742256 -98.462982 89.892807 -8.301774 15.739087
793500000 -2.6344583 79.638191 -69.966347 -158.41957 -93.427261 72.896873 -7.8384457 -64.475632
803000000 -2.6167402 50.692539 -70.403473 102.74429 -95.145233 -166.29845 -7.2891693 -138.69513
812500000 -2.5791793 22.180084 -71.429405 2.8098328 -94.614998 153.03111 -6.8474083 158.31201
822000000 -2.5370717 -5.8280187 -69.82225 -96.92849 -93.222191 20.43021 -6.3339934 98.605171
831500000 -2.5204196 -33.610546 -69.904442 163.44516 -91.690178 -171.03127 -6.3010654 32.677429
841000000 -2.5288284 -61.478081 -70.005684 56.071201 -94.288795 -176.77463 -7.5134006 -41.091225
850500000 -2.5522542 -89.500221 -70.76268 -45.223515 -90.96817 171.99721 -8.7601347 -116.97077
860000000 -2.5955164 -117.80956 -69.929314 -144.60806 -90.138618 164.03917 -8.2803316 169.8335
869500000 -2.65628 -146.53609 -70.557182 114.37867 -95.082947 98.504356 -6.7894516 100.61015
879000000 -2.7104602 -175.58092 -70.464951 14.478455 -89.807968 -133.82394 -6.0396905 33.609249
888500000 -2.7447493 155.27676 -69.660835 -84.23307 -94.076927 -138.92038 -6.4983897 -29.76545
898000000 -2.767463 126.17808 -70.522774 172.09915 -89.147224 133.15237 -7.3963456 -92.732147
907500000 -2.7613969 97.23838 -71.100105 69.240799 -95.249191 20.916002 -8.1130753 -163.39604
917000000 -2.7217944 68.675919 -69.934578 -30.227755 -102.30046 -170.62622 -8.2771387 117.30328
926500000 -2.6697345 40.659592 -71.061661 -139.15385 -91.763481 142.54134 -7.7931628 42.2323
936000000 -2.6244729 13.124942 -71.196999 134.02016 -92.965965 63.630028 -6.9354949 -22.385736
945500000 -2.5823991 -14.080013 -71.19696 27.627554 -101.45061 -101.67149 -6.1124411 -83.125595
955000000 -2.5441535 -41.046638 -69.595612 -68.653069 -96.607109 -107.58459 -6.0366793 -146.9731
964500000 -2.5351889 -67.87352 -69.942207 -174.93697 -95.786942 -108.75434 -7.189271 145.20572
974000000 -2.557843 -94.880585 -70.12088 90.757019 -94.553963 66.582069 -8.6085167 73.808685
983500000 -2.6025152 -122.38976 -69.988579 -6.0874209 -95.59742 -51.376213 -8.6959047 -1.4524512
993000000 -2.6524301 -150.28371 -69.121483 -116.02285 -90.449753 -124.96267 -7.5688324 -75.040573
1002500000 -2.693414 -178.43257 -69.488884 148.04092 -93.88961 160.71825 -6.7599235 -142.18585
1012000000 -2.7429302 153.06386 -70.225693 45.399403 -99.148041 97.731857 -6.6385827 157.0504
1021500000 -2.7786512 124.32841 -70.350258 -48.901459 -95.141144 118.01917 -6.8590617 96.645302
1031000000 -2.7717409 95.658401 -68.307991 -150.59814 -101.87826 -85.755432 -7.5649085 28.462439
1040500000 -2.7379661 67.323105 -68.322273 110.79215 -85.053101 165.17877 -8.8298416 -49.052818
1050000000 -2.7092109 39.297493 -68.951782 2.6320374 -95.368103 80.988953 -9.2354956 -126.37239
1059500000 -2.6750417 11.532455 -69.245819 -94.136009 -97.625305 92.95359 -8.0895233 164.78117
1069000000 -2.6306772 -15.816564 -68.085632 171.81879 -115.5752 176.77127 -6.5177746 99.985138
1078500000 -2.5981247 -42.792301 -67.219727 69.5718 -83.926323 100.5321 -6.0348825 33.491592
1088000000 -2.6020892 -69.803917 -67.563469 -39.944351 -91.283028 44.389111 -7.1487117 -31.938623
1097500000 -2.6481349 -97.167809 -67.282784 -138.69276 -94.896461 -121.87987 -8.6684341 -97.243469
1107000000 -2.6951461 -124.8448 -67.211426 125.91524 -92.545723 -88.940659 -9.3016558 -169.4668
1116500000 -2.7464445 -152.95241 -66.825653 24.166533 -86.446625 157.03679 -8.6544571 112.75658
1126000000 -2.8302653 178.35188 -66.349747 -79.687332 -85.845558 39.348961 -7.8191476 40.354675
1135500000 -2.905952 149.15503 -66.78199 -175.67877 -97.610634 51.316425 -7.3590508 -23.056858
1145000000 -2.9363463 119.75903 -66.010582 83.727661 -89.149269 -168.26361 -7.1824279 -84.23201
1154500000 -2.947963 90.407631 -65.948875 -22.386183 -88.182953 141.94614 -7.7160959 -151.32037
1164000000 -2.9516647 61.137825 -65.907211 -124.60376 -91.749435 34.823509 -9.2240868 134.06075
1173500000 -2.924444 32.090279 -65.643333 138.1877 -89.167847 -88.375549 -10.043946 56.453575
1183000000 -2.8770709 3.656301 -66.095688 34.269051 -89.033066 -167.63107 -8.8437767 -16.850458
1192500000 -2.8426931 -24.300747 -65.382858 -67.204178 -87.877907 159.09125 -7.015727 -85.466164
1202000000 -2.8372972 -52.122513 -64.943466 -166.41472 -87.311081 26.382557 -6.3858657 -152.07941
1211500000 -2.8376193 -79.786804 -65.239807 91.470093 -94.211983 -45.605938 -7.1644735 145.73581
1221000000 -2.8542948 -107.3868 -65.217453 -9.7875166 -106.06949 -102.07085 -8.3646727 84.492981
1230500000 -2.918891 -135.37984 -64.522209 -105.46906 -91.632263 80.295341 -9.2742958 15.344934
1240000000 -2.9937789 -163.9211 -63.948162 154.39357 -86.356407 37.402206 -9.3490648 -63.846268
1249500000 -3.0427992 167.21745 -63.322701 47.68679 -91.302673 -99.840561 -8.5856962 -140.39714
1259000000 -3.0958385 138.17236 -63.445927 -51.837296 -91.482346 -162.44257 -7.6221957 153.03943
1268500000 -3.1458054 108.80268 -62.683712 -152.15965 -87.720993 102.787 -6.9530187 90.654755
1278000000 -3.1454248 79.363083 -62.368881 104.55917 -85.50132 9.2036018 -7.1843719 26.297787
1287500000 -3.0971754 50.45335 -62.56329 -0.49776044 -86.795494 -79.838905 -8.4713402 -41.267326
1297000000 -3.0473528 22.070023 -61.952999 -103.70673 -88.499184 -156.99565 -9.6247549 -113.62247
1306500000 -3.0100622 -5.9780884 -62.756058 155.39999 -83.957352 117.69069 -9.1469879 169.62682
1316000000 -2.954812 -33.49839 -62.663826 61.762657 -87.245659 -2.4326167 -7.6870084 95.443268
1325500000 -2.8958204 -60.459129 -62.168343 -40.552456 -88.723122 -133.43001 -6.9034629 28.632635
1335000000 -2.8812413 -87.241295 -61.260464 -139.94145 -86.949783 157.65369 -6.8913922 -31.17112
1344500000 -2.9096558 -114.15654 -60.884754 122.50333 -85.757057 94.457779 -7.2326527 -90.157784
1354000000 -2.9394064 -141.29596 -59.971493 18.348629 -88.927704 -2.5368381 -8.0031919 -155.64941
1363500000 -2.9629285 -168.61601 -59.20871 -85.111572 -84.314812 -114.85084 -9.1365166 130.35986
1373000000 -3.0146537 163.69614 -58.291672 169.82202 -82.600746 153.16953 -9.3771296 54.674686
1382500000 -3.0870769 135.51323 -58.19664 61.476616 -87.333488 102.98369 -8.2350731 -15.020339
1392000000 -3.1165726 107.06323 -59.011658 -43.639145 -83.68882 -28.963835 -6.9028497 -81.161102
1401500000 -3.0961497 78.653084 -59.293934 -135.85574 -82.592758 -140.22096 -6.7559767 -147.50964
1411000000 -3.0831926 50.352577 -58.312984 126.49275 -87.551407 161.95543 -7.9836597 147.90854
1420500000 -3.0751367 22.198879 -57.307518 25.796341 -83.461357 87.252045 -9.3723192 81.816208
1430000000 -3.0126333 -5.524405 -56.452961 -82.052505 -83.106483 -21.243368 -9.5932474 7.4531879
1439500000 -2.9414141 -32.618172 -55.858204 174.07036 -84.716621 -121.24147 -8.4624577 -71.116302
1449000000 -2.9228907 -59.392895 -55.671745 69.125175 -80.328743 129.16205 -7.5054822 -142.22633
1458500000 -2.9300764 -86.219276 -55.053783 -31.985697 -81.458015 69.436134 -7.1681767 156.884
1468000000 -2.9267261 -113.01875 -53.458271 -136.39931 -82.284927 -24.233833 -7.1666598 99.508797
1477500000 -2.9393315 -139.79456 -52.246136 111.39228 -78.7463 -144.63335 -7.7495527 37.822662
1487000000 -3.0070214 -167.12331 -53.118492 -5.8751335 -80.350899 109.94664 -9.2002468 -31.973875
1496500000 -3.0866406 164.96236 -53.070217 -107.1157 -77.884598 14.048111 -10.365113 -109.09824
1506000000 -3.1291463 136.82243 -53.081646 137.93918 -80.607452 -108.62715 -9.5519676 173.87225
1515500000 -3.1819887 108.32005 -54.909569 25.413412 -81.517929 174.2309 -7.9010363 102.37218
1525000000 -3.2485094 79.280312 -55.510361 -71.090157 -79.697708 92.149437 -7.3338156 35.495319
1534500000 -3.2582409 50.102711 -55.92889 -177.07469 -89.572044 -39.166721 -7.9508653 -26.663038
1544000000 -3.2299404 21.257187 -56.029034 81.120171 -82.264061 -112.87659 -8.9402618 -89.575027
1553500000 -3.2142487 -7.2978454 -56.310841 -28.862072 -81.93911 147.9819 -9.6168013 -161.66243
1563000000 -3.1923707 -35.638767 -57.740936 -138.20129 -83.321579 45.64006 -9.4605913 118.38424
1572500000 -3.1533577 -63.510296 -59.122501 122.5522 -83.083374 -30.622835 -8.6765871 44.999008
1582000000 -3.1423454 -91.001511 -59.680531 21.21401 -90.920273 -169.49777 -7.8038673 -17.828049
1591500000 -3.1785154 -118.63879 -60.47073 -79.64888 -84.5019 141.28088 -7.2062106 -77.80175
1601000000 -3.225214 -146.54327 -61.170132 179.65746 -86.08316 62.429802 -7.5572023 -141.78867
1610500000 -3.2649677 -174.60934 -61.945992 77.881752 -90.775589 -32.181866 -9.1245127 149.06352
1620000000 -3.3391025 156.97958 -62.878201 -25.083954 -95.583534 -151.89511 -10.437375 74.214943
1629500000 -3.4326403 127.99713 -63.715862 -120.16335 -94.298691 149.87187 -9.7001839 -2.9676859
1639000000 -3.4872844 98.649872 -64.486237 137.77524 -90.315384 73.309212 -7.9860415 -75.353294
1648500000 -3.5081983 69.211502 -65.866882 35.717899 -99.210487 -81.928207 -7.2305923 -141.71947
1658000000 -3.5316646 39.695885 -67.175255 -59.701496 -94.456718 -173.18327 -7.5804276 157.10904
1667500000 -3.533541 10.267898 -66.701302 -151.49818 -85.453384 137.84482 -8.4434061 94.938789
1677000000 -3.4786735 -18.701271 -67.004822 103.81611 -91.774147 15.288853 -9.4572954 23.572552
1686500000 -3.4119775 -47.059868 -68.422676 4.6756864 -102.76568 -70.613228 -9.8268938 -56.18359
1696000000 -3.3880193 -74.998505 -69.665794 -87.745026 -90.095291 -146.60979 -8.9291611 -130.12567
1705500000 -3.3706739 -102.67673 -70.008385 -179.50427 -89.166901 133.92462 -7.5530639 166.07127
1715000000 -3.3438272 -130.15175 -70.983032 98.348213 -97.549568 -18.074507 -6.6145616 105.16658
1724500000 -3.3563194 -157.51773 -69.706497 -0.17645508 -105.34388 -75.413727 -6.9121213 42.654293
1734000000 -3.4077361 174.86378 -69.627998 -96.522835 -98.661789 -166.22813 -8.4299793 -21.430363
1743500000 -3.4543381 146.85599 -69.130539 170.68538 -88.888176 133.96507 -9.9591999 -90.870728
1753000000 -3.4887931 118.71622 -68.846245 76.331955 -87.528488 146.51665 -9.8907604 -168.19209
1762500000 -3.5280132 90.358856 -68.851425 -22.392471 -97.268295 18.799181 -8.479805 115.6957
1772000000 -3.5700858 61.600178 -67.82962 -121.87887 -93.191071 171.16847 -7.5525665 47.632694
1781500000 -3.5738111 32.845531 -67.474892 143.82227 -88.33638 168.00597 -7.466784 -13.942366
1791000000 -3.5456393 4.3406863 -68.01416 49.436642 -90.432259 179.09897 -7.9355311 -75.913399
1800500000 -3.5221996 -23.949755 -67.530685 -49.654167 -88.504456 46.988754 -8.8967295 -144.78343
1810000000 -3.4815254 -51.857418 -66.306725 -141.99741 -92.741478 -35.512421 -9.658927 140.06537
1819500000 -3.4301038 -79.342812 -66.930641 117.99642 -99.147911 177.53056 -9.1204815 67.960052
1829000000 -3.4126475 -106.51962 -66.644257 32.380951 -95.259499 97.179634 -7.7207456 3.3487046
1838500000 -3.410315 -133.54109 -63.695724 -59.714985 -90.933792 131.40652 -6.6721859 -58.890129
1848000000 -3.4129055 -160.56898 -61.542965 -159.07349 -89.618576 -23.924492 -6.9661036 -121.77126
1857500000 -3.4546564 172.34869 -58.67844 98.415909 -97.080063 166.15268 -8.5442457 174.88878
1867000000 -3.5245852 145.00307 -57.505367 -18.682711 -85.130913 99.260742 -10.287857 105.36875
1876500000 -3.5983272 117.22635 -57.204506 -124.60466 -85.728012 35.421814 -10.469668 24.836182
1886000000 -3.6788924 89.181824 -56.767353 130.04063 -87.52668 -97.915138 -8.9261894 -54.095093
1895500000 -3.7550328 60.84412 -56.240826 21.078827 -85.410469 179.66527 -7.666326 -121.96222
1905000000 -3.8177361 32.165241 -56.36343 -84.268341 -86.178101 89.051064 -7.2118502 177.69003
1914500000 -3.8522484 3.5456448 -56.08313 171.21167 -87.706657 -62.511326 -7.467618 117.48938
1924000000 -3.8602533 -24.868877 -56.295792 64.088776 -83.583221 -112.74299 -8.5486889 51.861034
1933500000 -3.847522 -53.095924 -56.858295 -40.406895 -85.343239 169.00026 -9.8708477 -20.586365
1943000000 -3.82024 -80.982201 -56.896095 -142.00545 -87.540031 77.740623 -9.8601933 -95.489281
1952500000 -3.7887347 -108.54971 -57.069599 113.33536 -87.32048 -52.560886 -8.4996519 -165.83351
1962000000 -3.7738385 -136.03389 -57.999928 9.1381989 -83.445213 -132.58606 -7.4065862 127.58796
1971500000 -3.7634637 -163.44971 -58.609097 -91.733383 -84.596069 148.03342 -7.5948038 63.011501
1981000000 -3.7680469 169.09686 -59.381466 171.64702 -86.467575 48.483189 -8.7732058 -1.3281047
1990500000 -3.8143597 141.36685 -59.802013 83.096252 -94.947006 -12.988488 -9.9786978 -71.809692
2000000000 -3.8775191 113.23753 -58.647949 -8.3640862 -86.895874 -150.72701 -10.019842 -150.36246
