!Keysight Technologies,N5242B,MY48420967,A.15.65.19
!Date: Sunday, January 22, 2023 23:09:22
!Correction: S11(C  1-Port  ) 
!S21(Off) 
!S12(Off) 
!S22(Off) 
!S2P File: Measurements: S11, S21, S12, S22:
# Hz S  dB   R 50
100000000 -1.3508576 40.470188 -89.139778 141.59586 -83.151581 166.90471 -2.5141439 44.465004
109500000 -1.2650954 11.093411 -83.442635 -3.0405962 -99.5998 -170.71625 -2.4174933 -28.384048
119000000 -1.1707649 -17.583935 -80.601593 -99.672852 -96.254074 103.3297 -2.7398653 -108.01614
128500000 -1.0951328 -45.954178 -84.316803 163.57301 -90.937309 -75.24884 -3.2600515 179.19476
138000000 -1.0865237 -74.502174 -84.007805 80.563446 -101.80312 -139.66382 -2.8460791 114.78789
147500000 -1.134545 -103.36466 -80.427612 -35.881466 -85.383286 63.375931 -1.7200626 48.245293
157000000 -1.1933134 -132.52345 -79.309326 -135.26619 -95.287148 -76.881393 -1.7471783 -27.452917
166500000 -1.2786193 -162.07899 -78.6138 116.81693 -90.455963 145.14943 -3.6439722 -101.23337
176000000 -1.3950837 167.92978 -87.199867 46.554188 -102.36736 -43.990089 -4.9416113 -169.979
185500000 -1.487031 137.73416 -78.738647 -96.948433 -102.82101 131.16982 -4.3513603 119.63074
195000000 -1.5242208 107.74791 -78.204567 161.45142 -92.694687 9.7051497 -2.9771919 44.563114
204500000 -1.5324794 78.105896 -79.298965 62.979385 -104.56122 -136.85728 -2.8332202 -29.048143
214000000 -1.5245235 48.713955 -78.822418 -36.036858 -108.28635 172.97534 -3.4497716 -94.565224
223500000 -1.4867458 19.684065 -77.179016 -130.92172 -91.655518 146.47821 -3.7664945 -159.36078
233000000 -1.439123 -9.0317039 -80.221977 126.48905 -89.674728 -178.05737 -3.9944067 127.81545
242500000 -1.4219751 -37.672218 -78.466225 31.042046 -90.680611 -112.93896 -4.6105409 50.557304
252000000 -1.4239982 -66.423286 -76.045311 -78.458763 -90.58416 -170.39354 -4.7767396 -21.034687
261500000 -1.4524903 -95.41494 -76.208572 -168.23576 -91.805611 79.933205 -3.9578843 -88.019577
271000000 -1.5241973 -124.75867 -80.235268 104.56871 -98.992981 -12.952216 -3.085345 -158.16127
280500000 -1.6121161 -154.51805 -80.348503 -47.375755 -91.932915 -12.389113 -3.6641369 128.74774
290000000 -1.687609 175.4702 -78.01622 -161.79745 -80.683525 176.35927 -5.044148 59.40654
299500000 -1.7660304 145.36659 -76.952927 134.71642 -94.033134 -102.77246 -5.5539198 -9.8220749
309000000 -1.8284671 115.21571 -75.316589 30.580078 -99.414391 -22.676485 -4.8973069 -84.039322
318500000 -1.8442757 85.347702 -76.199867 -93.313339 -93.206779 26.786385 -4.3781233 -160.24973
328000000 -1.8202671 55.976898 -74.430733 170.47849 -92.418053 -51.596382 -4.5615244 130.07878
337500000 -1.8048726 26.836302 -77.642929 91.366776 -101.85926 -29.209599 -4.6289568 65.040131
347000000 -1.796351 -2.1764357 -77.692513 -32.298485 -88.448898 62.663155 -4.4921036 -4.3665404
356500000 -1.7701826 -31.042582 -74.095474 -132.3835 -88.741104 18.485844 -4.9781299 -80.091393
366000000 -1.7654555 -59.996868 -75.932251 115.28683 -89.087349 165.51714 -5.7724705 -153.11058
375500000 -1.8141941 -89.319153 -80.412125 39.514801 -102.98906 -73.68734 -5.6531687 139.24947
385000000 -1.8762192 -119.10386 -75.8526 -87.77169 -91.166183 66.970985 -4.7138352 70.645935
394500000 -1.9382061 -149.14961 -74.21476 178.41631 -92.263092 -118.01895 -4.4365616 -3.6871777
404000000 -2.0019248 -179.29724 -74.311821 81.310356 -85.199081 -40.072777 -5.5090399 -76.611961
413500000 -2.0616722 150.442 -75.235718 -38.720539 -89.091461 -63.082195 -6.3346925 -145.13321
423000000 -2.1035283 120.26612 -73.81839 -111.42348 -98.521629 -161.30811 -5.9145603 145.12007
432500000 -2.1008558 90.551796 -74.874725 139.57184 -91.912315 99.259666 -5.0306964 71.253944
442000000 -2.0709858 61.313618 -74.690109 41.500858 -87.684341 141.02681 -5.0091882 -0.9380855
451500000 -2.0502832 32.458813 -75.400208 -76.297493 -86.047668 136.90347 -5.4239359 -66.53437
461000000 -2.0253327 3.8746874 -73.054855 -158.27661 -88.503647 31.448124 -5.4737306 -131.81972
470500000 -1.9956864 -24.525497 -73.378548 105.01322 -90.631691 -78.683685 -5.3935809 155.70229
480000000 -1.9837509 -52.83374 -72.192894 0.14525299 -93.757492 132.60663 -5.8156624 79.522018
489500000 -2.005779 -81.398346 -70.975517 -101.78479 -91.107704 79.899536 -6.1083636 9.1743231
499000000 -2.0525486 -110.34606 -69.056969 164.1785 -89.11834 -157.03896 -5.615077 -56.225098
508500000 -2.0911348 -139.48016 -65.42263 51.393177 -89.773911 -5.1080642 -4.9029708 -123.81674
518000000 -2.1255682 -168.76518 -64.133041 -78.402863 -94.537376 52.437901 -5.2262502 164.65042
527500000 -2.1696866 161.81943 -66.167915 160.17494 -90.447258 101.57388 -6.3574357 94.408699
537000000 -2.1977136 132.47975 -67.623077 55.722721 -93.37854 -158.71252 -6.7540784 24.448204
546500000 -2.1924539 103.49073 -69.104294 -49.955994 -87.829491 -135.69371 -5.9884729 -48.564491
556000000 -2.1666796 74.992119 -69.300507 -162.25534 -101.28598 -153.81226 -5.3167439 -122.24719
565500000 -2.1352844 46.875389 -70.780807 108.20298 -91.241699 19.294804 -5.4795828 170.70619
575000000 -2.1045825 19.057728 -72.021271 6.7014294 -90.662956 97.735664 -5.7170601 109.58707
584500000 -2.0716271 -8.5175667 -72.192345 -87.54303 -93.797821 26.297302 -5.6536369 45.553085
594000000 -2.0525374 -36.051659 -70.864059 163.90164 -89.614861 -164.98276 -5.8646593 -27.957237
603500000 -2.0629129 -63.787327 -71.922852 67.495277 -96.618362 50.047878 -6.6881938 -104.20001
613000000 -2.0965528 -91.888153 -72.512985 -38.472164 -93.290138 97.159904 -6.8659739 -173.98859
622500000 -2.1375849 -120.38223 -71.251816 -136.05855 -95.830704 21.276173 -6.0934258 120.49179
632000000 -2.1922266 -149.24629 -71.368401 134.6405 -90.570526 135.10976 -5.4159164 52.874733
641500000 -2.2438741 -178.36189 -71.612946 22.320959 -91.608299 -176.35065 -5.9401383 -16.842787
651000000 -2.2832398 152.3779 -73.419342 -90.241837 -91.011795 -124.21629 -7.0933962 -85.873497
660500000 -2.3047166 123.19757 -72.201683 -171.6907 -98.392342 -71.539452 -7.493463 -157.89766
670000000 -2.3027318 94.218796 -72.028992 91.861732 -114.45605 5.2903295 -6.8536692 126.08943
679500000 -2.283752 65.571991 -72.23468 -21.705835 -93.499298 -128.967 -6.3044057 53.259964
689000000 -2.2502961 37.357014 -71.432358 -120.91695 -91.473862 -5.5320072 -6.1950011 -11.004169
698500000 -2.2227204 9.3810377 -71.224663 151.09283 -93.200371 70.344398 -6.0842361 -71.756401
708000000 -2.2114584 -18.474339 -71.450287 43.351372 -87.923737 179.71883 -6.1853461 -138.30209
717500000 -2.2066898 -46.314938 -71.111107 -64.954613 -100.44081 18.496109 -7.1854048 146.04524
727000000 -2.229188 -74.426064 -71.520256 -162.51772 -89.544449 -119.01643 -8.2238235 68.683464
736500000 -2.2902548 -102.99363 -70.489693 100.60415 -97.489876 152.74364 -7.7721372 -3.4195447
746000000 -2.3547325 -132.06512 -71.617188 -7.6153598 -115.12273 154.78654 -6.4135194 -71.42836
755500000 -2.4110541 -161.50673 -70.920052 -111.20906 -95.699303 168.93909 -5.794704 -139.48947
765000000 -2.4736907 168.82339 -70.248802 148.26492 -85.297256 74.092407 -6.5704842 154.53951
774500000 -2.5238118 138.9823 -71.769615 43.793823 -91.974907 116.63712 -7.7246919 89.172852
784000000 -2.5367615 109.2448 -70.796303 -57.439228 -86.044243 98.631966 -8.1816292 16.449892
793500000 -2.5200305 79.906372 -70.263947 -153.90372 -94.70108 139.55684 -7.7252436 -63.695518
803000000 -2.4930136 51.031681 -70.930252 107.94693 -95.265205 -127.2356 -7.1959996 -138.05595
812500000 -2.4603634 22.562725 -71.1082 0.99795222 -94.797684 -172.13136 -6.7690101 158.82802
822000000 -2.4230247 -5.5248494 -70.05687 -96.709633 -94.262398 107.37161 -6.2513127 99.084953
831500000 -2.3998902 -33.345497 -69.650154 163.93031 -93.413086 40.936222 -6.1964355 33.138245
841000000 -2.4021752 -61.132195 -70.279839 55.041359 -92.971977 -135.5723 -7.3832026 -40.635361
850500000 -2.4310312 -89.130997 -70.369049 -42.27536 -90.381844 132.19421 -8.6307259 -116.37887
860000000 -2.4766026 -117.49517 -69.826263 -144.28043 -89.526848 93.50029 -8.1711073 170.5601
869500000 -2.5275664 -146.21461 -70.615059 116.00349 -90.535233 26.558966 -6.6891441 101.32054
879000000 -2.5796039 -175.18666 -70.801636 11.035722 -90.230446 169.45964 -5.9344549 34.193333
888500000 -2.6221097 155.67586 -70.332817 -90.379173 -96.941536 172.06384 -6.3901043 -29.294573
898000000 -2.6422353 126.51807 -70.028595 176.34286 -96.346878 161.8201 -7.2808857 -92.249763
907500000 -2.6307213 97.587181 -70.776299 72.295166 -94.39946 49.227776 -7.9843135 -162.80338
917000000 -2.5979769 69.084152 -70.167229 -35.014069 -92.855247 -70.508995 -8.1498003 117.9863
926500000 -2.5524397 41.032074 -69.595512 -132.61938 -90.697449 157.69322 -7.6878996 42.861229
936000000 -2.4999723 13.436793 -70.45195 130.03772 -90.665085 67.581657 -6.8442979 -21.851545
945500000 -2.4514165 -13.722938 -69.796547 25.650181 -99.077927 110.87038 -6.0159202 -82.640823
955000000 -2.4194169 -40.65287 -69.337479 -73.612305 -95.254829 126.34174 -5.9216633 -146.55557
964500000 -2.4140806 -67.548561 -69.691498 -168.04468 -96.596504 -81.132622 -7.0563302 145.58931
974000000 -2.4309416 -94.603745 -69.74366 88.568863 -97.701843 -58.14542 -8.4670324 74.326981
983500000 -2.4702787 -122.04905 -69.647964 -14.671016 -102.40639 -103.78186 -8.56563 -0.73508233
993000000 -2.5205851 -149.89781 -68.322823 -114.855 -105.49753 164.26489 -7.4551597 -74.325768
1002500000 -2.5644574 -178.09413 -69.040184 143.53178 -97.401207 -62.057796 -6.6541152 -141.61565
1012000000 -2.6113827 153.3726 -69.729019 43.7463 -86.921257 75.695908 -6.533752 157.51418
1021500000 -2.6414542 124.68403 -68.571632 -55.181561 -91.4991 -40.312805 -6.7437544 97.084846
1031000000 -2.635777 96.03775 -67.894936 -156.29968 -90.127113 -164.40326 -7.4244685 28.924175
1040500000 -2.6135321 67.637245 -69.15229 103.90931 -93.927185 -167.28981 -8.6816978 -48.495697
1050000000 -2.5823069 39.595509 -68.818214 4.3503327 -92.666466 61.13871 -9.1175394 -125.71895
1059500000 -2.5361488 11.877357 -69.266174 -100.27239 -90.726105 -18.329187 -8.0009975 165.41437
1069000000 -2.4942133 -15.448268 -68.751625 164.17473 -94.692337 -114.52198 -6.4301786 100.53021
1078500000 -2.4744086 -42.5014 -67.459152 67.362396 -84.536682 131.53432 -5.9322495 33.871529
1088000000 -2.4734323 -69.550888 -67.667389 -40.093723 -89.830727 112.91812 -7.0368533 -31.689571
1097500000 -2.5037146 -96.84256 -67.898445 -142.05595 -88.383942 -97.416847 -8.5404816 -96.944832
1107000000 -2.5568719 -124.48477 -67.404572 125.59563 -96.368675 143.46834 -9.1549072 -168.93526
1116500000 -2.621453 -152.67625 -66.997833 22.504227 -88.887413 -163.57094 -8.5097303 113.493
1126000000 -2.6911011 178.61835 -66.951927 -84.216522 -90.220482 86.601555 -7.6925159 41.048794
1135500000 -2.7538762 149.52188 -67.143517 -178.29526 -95.216469 25.099417 -7.2492485 -22.461462
1145000000 -2.8005762 120.09982 -66.293953 83.344322 -88.430397 -139.88904 -7.0759149 -83.704895
1154500000 -2.8196816 90.626022 -65.965118 -23.458981 -90.82412 149.35573 -7.6054173 -150.86673
1164000000 -2.8076911 61.385487 -65.845573 -126.57283 -92.337746 91.735909 -9.1159325 134.4657
1173500000 -2.7807612 32.445114 -65.755692 134.45758 -85.570267 -131.52022 -9.9457569 56.888817
1183000000 -2.7471583 3.9142077 -65.97287 35.436966 -87.214546 -173.6937 -8.7483492 -16.372919
1192500000 -2.7086122 -24.139286 -65.049332 -67.466988 -86.805412 125.81314 -6.9028244 -85.008743
1202000000 -2.6858606 -51.842777 -64.858887 -168.35332 -89.706848 37.649834 -6.2516398 -151.72577
1211500000 -2.6924915 -79.454216 -65.397369 90.231628 -92.04702 174.30449 -7.0211115 146.02251
1221000000 -2.7245836 -107.19942 -65.534996 -6.6581082 -92.93441 152.93063 -8.2114849 84.86409
1230500000 -2.7778585 -135.21098 -64.464195 -105.25126 -89.449432 119.68849 -9.1154261 15.945751
1240000000 -2.8368094 -163.59308 -63.927635 154.55722 -85.998016 31.98885 -9.2111797 -63.06382
1249500000 -2.8970182 167.55769 -63.763248 50.022717 -94.991196 -131.41435 -8.4835014 -139.70825
1259000000 -2.9599276 138.38391 -63.320591 -53.262302 -91.829102 159.2337 -7.5312724 153.55412
1268500000 -2.9960277 109.00822 -62.790466 -152.29749 -97.242188 84.430687 -6.8499207 91.044678
1278000000 -2.9893632 79.69429 -62.814758 105.24535 -93.780716 88.54805 -7.0572815 26.580414
1287500000 -2.9580913 50.761776 -63.122826 -0.29405949 -93.607613 -103.58851 -8.3234501 -40.999336
1297000000 -2.9166262 22.25523 -62.543201 -100.23164 -84.458916 147.7274 -9.4658976 -113.16644
1306500000 -2.8621798 -5.7544351 -62.660076 159.57985 -96.162659 125.47588 -9.0079899 170.29585
1316000000 -2.7955518 -33.156708 -62.108952 64.165001 -95.312607 -51.544819 -7.5682969 96.06572
1325500000 -2.7533634 -60.134521 -61.330273 -38.311134 -88.769798 -59.785065 -6.7857027 29.091436
1335000000 -2.7503607 -87.001839 -61.246468 -142.40321 -84.04052 165.74648 -6.7712727 -30.842024
1344500000 -2.7581012 -113.89252 -60.748936 119.23807 -93.639275 2.5297165 -7.0944571 -89.854446
1354000000 -2.7771931 -140.89771 -60.170135 16.145449 -88.303192 19.642231 -7.8339853 -155.29329
1363500000 -2.8214836 -168.20132 -59.737804 -90.134911 -82.816978 -113.7355 -8.9543066 130.89854
1373000000 -2.878814 164.0013 -59.116638 172.0153 -86.228668 -178.46202 -9.227438 55.405033
1382500000 -2.9268079 135.84723 -57.88483 65.838234 -84.968674 93.758209 -8.1220026 -14.317722
1392000000 -2.952558 107.50675 -58.450504 -51.002117 -107.07957 35.085922 -6.797895 -80.593918
1401500000 -2.9581451 79.047691 -60.566639 -143.95561 -88.959846 166.93558 -6.6360788 -147.15517
1411000000 -2.948256 50.635033 -60.341354 128.82997 -86.801987 169.20764 -7.8505716 148.13239
1420500000 -2.9163463 22.531525 -58.384514 29.925228 -86.573708 65.289131 -9.2165575 82.112503
1430000000 -2.8614924 -5.1253753 -57.040508 -81.470566 -82.21479 -47.65514 -9.4248381 8.0429754
1439500000 -2.8087096 -32.301147 -57.099274 177.55643 -85.273651 -119.9006 -8.3065796 -70.362587
1449000000 -2.7766466 -59.126202 -57.112885 78.879364 -84.459358 132.37746 -7.3681955 -141.62006
1458500000 -2.7643788 -85.853477 -55.658478 -20.044489 -80.128067 91.868286 -7.0421534 157.33014
1468000000 -2.7745321 -112.62914 -53.930035 -127.61756 -78.337799 -39.723351 -7.0305586 99.853706
1477500000 -2.7992139 -139.50755 -52.744068 121.00983 -80.907455 -136.5585 -7.5836506 38.080738
1487000000 -2.8521922 -166.81175 -53.136997 3.7791827 -80.751572 101.01051 -9.0077372 -31.66029
1496500000 -2.9216943 165.37738 -52.968189 -96.52993 -78.867691 33.479328 -10.172509 -108.50673
1506000000 -2.9826739 137.15208 -52.562325 149.68417 -82.337822 -93.473015 -9.414897 174.64821
1515500000 -3.0385697 108.53445 -54.341156 36.96405 -80.18718 -176.25011 -7.7940931 103.05595
1525000000 -3.0824003 79.578888 -54.094658 -59.183445 -84.581215 86.682426 -7.2284913 35.898808
1534500000 -3.0961499 50.464302 -54.146584 -170.61423 -82.18998 -21.00392 -7.8447499 -26.434624
1544000000 -3.087589 21.506769 -54.551041 82.938393 -85.284889 -90.119743 -8.8085327 -89.344604
1553500000 -3.0628226 -7.1052504 -55.126236 -28.792942 -82.127205 146.76559 -9.440239 -161.24268
1563000000 -3.0231304 -35.329357 -56.825981 -136.6552 -85.535736 36.669392 -9.278512 119.07894
1572500000 -2.9923902 -63.150982 -58.297775 122.8144 -86.535912 -11.223228 -8.5361013 45.754246
1582000000 -2.9955704 -90.766739 -58.844349 23.222218 -83.080643 -138.60463 -7.6916528 -17.148417
1591500000 -3.0199416 -118.41985 -59.870461 -79.412453 -83.501335 132.63712 -7.0958519 -77.235657
1601000000 -3.0512388 -146.18904 -60.562206 -178.9482 -92.107063 21.551094 -7.4272342 -141.37634
1610500000 -3.1025774 -174.23245 -61.260258 79.667816 -100.5321 -128.50528 -8.9662552 149.38852
1620000000 -3.1879208 157.24263 -61.920261 -23.227268 -85.643562 -147.52882 -10.258188 74.76992
1629500000 -3.2676797 128.2359 -62.36557 -121.53458 -86.216568 113.49708 -9.5406799 -2.0810235
1639000000 -3.3144939 98.974121 -62.960182 136.05789 -91.988548 -8.5189371 -7.8522396 -74.442337
1648500000 -3.3495903 69.526581 -64.513359 31.311575 -93.982132 69.213989 -7.1113024 -141.01028
1658000000 -3.3783708 39.913452 -65.29393 -66.787086 -90.436783 -126.96377 -7.4687505 157.6178
1667500000 -3.3672798 10.500839 -66.605476 -156.86182 -88.37291 154.57652 -8.3208599 95.303314
1677000000 -3.3093586 -18.393641 -66.954453 99.694168 -93.501724 -13.572323 -9.3028765 23.892971
1686500000 -3.2503419 -46.754246 -68.494141 -1.1233515 -100.54993 -11.315635 -9.6495342 -55.698788
1696000000 -3.2253115 -74.728729 -69.589844 -91.463356 -90.149826 -121.65002 -8.7711296 -129.47818
1705500000 -3.2053685 -102.39272 -68.77375 178.90016 -95.473785 163.40425 -7.4163957 166.77856
1715000000 -3.1822941 -129.84074 -70.341286 93.260162 -91.662071 119.95788 -6.4786868 105.82583
1724500000 -3.1898558 -157.20813 -69.973618 -4.6361427 -93.147255 28.689152 -6.7697716 43.17942
1734000000 -3.2338774 175.1954 -69.307724 -104.32175 -96.284775 -10.91868 -8.2799635 -21.032475
1743500000 -3.2905855 147.21706 -69.50602 168.46385 -94.875809 -151.80037 -9.7942667 -90.407196
1753000000 -3.3297896 119.01713 -68.015106 79.064613 -89.751213 155.2692 -9.719286 -167.49854
1762500000 -3.3553846 90.640602 -68.411423 -26.816404 -107.75081 24.535566 -8.3216906 116.46964
1772000000 -3.3959637 61.959721 -68.161606 -124.9851 -98.58902 -110.02448 -7.411634 48.302391
1781500000 -3.4197879 33.184185 -67.642433 140.20924 -88.704842 159.77145 -7.337429 -13.385747
1791000000 -3.389462 4.5954781 -67.824165 41.89465 -89.313843 87.251122 -7.8050327 -75.484932
1800500000 -3.342052 -23.624203 -67.265236 -53.027096 -93.612862 18.009413 -8.7520075 -144.48953
1810000000 -3.3061831 -51.409561 -66.895844 -149.82858 -97.358948 144.58208 -9.4986296 140.34001
1819500000 -3.2795634 -78.960983 -66.630608 116.29255 -85.489609 166.23965 -8.9568987 68.363129
1829000000 -3.252444 -106.24468 -67.035606 37.582962 -95.274521 104.40815 -7.5612569 3.8907728
1838500000 -3.2247043 -133.17545 -63.591644 -58.602062 -96.513321 149.32738 -6.5060382 -58.318363
1848000000 -3.2372069 -160.07671 -61.294582 -159.57874 -92.014679 -68.59034 -6.7952151 -121.26545
1857500000 -3.3011189 172.76866 -58.783085 96.319893 -88.186356 -161.507 -8.3772745 175.34328
1867000000 -3.3613901 145.31367 -57.766151 -17.940681 -85.860718 99.51078 -10.124737 105.87545
1876500000 -3.4144716 117.59071 -57.55019 -124.5445 -82.314377 3.3113868 -10.312113 25.41758
1886000000 -3.4983296 89.625397 -56.594612 131.0144 -82.457672 -96.141846 -8.7740927 -53.545498
1895500000 -3.5910923 61.223366 -56.130753 19.820639 -84.465714 157.54442 -7.5159898 -121.49352
1905000000 -3.6556468 32.459347 -56.067371 -87.695709 -82.07476 99.288353 -7.0584793 178.12961
1914500000 -3.6766429 3.8469036 -56.136112 169.50044 -85.509438 -20.656904 -7.3032131 117.90979
1924000000 -3.6787367 -24.518335 -56.268776 62.572041 -85.643051 -124.97913 -8.3761711 52.252033
1933500000 -3.6789601 -52.742508 -56.509109 -44.860825 -86.837875 161.93495 -9.7065983 -20.192596
1943000000 -3.6620533 -80.717026 -56.648647 -148.72717 -85.698463 70.676247 -9.7126455 -95.066238
1952500000 -3.6165037 -108.35706 -57.317329 107.5593 -83.194016 -18.93926 -8.3535175 -165.40149
1962000000 -3.5864515 -135.74757 -57.886776 -2.7973566 -85.215324 -179.88715 -7.2438321 128.0184
1971500000 -3.5929186 -163.09406 -60.402004 -102.41608 -86.438492 154.9968 -7.4110589 63.43375
1981000000 -3.6190391 169.34731 -61.867725 173.09114 -91.94088 55.075783 -8.5687723 -0.79709661
1990500000 -3.6463439 141.54004 -60.920753 86.604164 -92.025528 -77.117287 -9.767312 -71.024567
2000000000 -3.6868489 113.53144 -59.550415 -7.0589538 -89.536911 -144.24939 -9.8410568 -149.43579
