!Keysight Technologies,N5242B,MY48420967,A.15.65.19
!Date: Sunday, January 22, 2023 20:39:14
!Correction: S11(C  1-Port  ) 
!S21(Off) 
!S12(Off) 
!S22(Off) 
!S2P File: Measurements: S11, S21, S12, S22:
# Hz S  dB   R 50
100000000 -1.2882868 40.528927 -89.171143 151.12566 -94.412994 107.59544 -2.5296807 44.79945
109500000 -1.2033362 11.171799 -83.077667 38.294254 -92.858284 1.5909965 -2.4404254 -27.965128
119000000 -1.1095247 -17.503775 -82.572838 -118.70022 -102.56691 -78.934471 -2.7647076 -107.54444
128500000 -1.0348377 -45.879845 -80.714134 163.89502 -85.378952 -44.830021 -3.2901483 179.63098
138000000 -1.0270739 -74.44809 -86.546494 75.329796 -90.419823 80.964836 -2.8851047 115.21486
147500000 -1.0767747 -103.33432 -82.353737 -49.020718 -89.185814 -143.51678 -1.7667419 48.76025
157000000 -1.1370163 -132.53052 -78.381149 -131.24901 -94.538956 82.201653 -1.7856754 -26.793413
166500000 -1.224999 -162.12532 -82.301674 142.21996 -87.41642 -165.96542 -3.6787231 -100.55297
176000000 -1.3441334 167.85062 -83.332809 19.54838 -90.26236 128.2146 -4.9961877 -169.32216
185500000 -1.4383068 137.62062 -80.28479 -101.41171 -92.84494 87.518799 -4.4333906 120.26913
195000000 -1.4780368 107.61845 -77.430237 177.48749 -88.513252 42.824844 -3.0685887 45.250454
204500000 -1.4885992 77.961769 -77.760902 71.313988 -97.65847 5.7877464 -2.9115877 -28.335672
214000000 -1.4827091 48.56712 -81.790703 -67.299103 -86.709259 -7.7327561 -3.5245593 -93.857849
223500000 -1.4460797 19.542982 -80.688805 -136.84558 -94.432777 103.84292 -3.8537605 -158.5867
233000000 -1.3993428 -9.1609869 -79.626831 120.46088 -89.242378 -13.109486 -4.099277 128.72516
242500000 -1.3821094 -37.784843 -80.405533 7.1623406 -95.327171 -139.01277 -4.7251635 51.481377
252000000 -1.3838282 -66.509674 -76.686569 -112.09883 -89.549301 -162.60854 -4.9010673 -20.245068
261500000 -1.4113164 -95.484276 -77.597687 168.94633 -86.774849 64.89679 -4.0923676 -87.264626
271000000 -1.4824861 -124.80463 -77.696152 61.352932 -81.83036 123.39928 -3.2237339 -157.27422
280500000 -1.5673816 -154.53688 -78.970177 -43.591103 -88.628174 -46.023205 -3.7871859 129.77577
290000000 -1.6418481 175.45926 -78.265686 -125.11089 -93.02562 122.37205 -5.1719522 60.42852
299500000 -1.7192011 145.36861 -79.458351 139.7643 -86.999901 -166.69174 -5.7149653 -8.8526592
309000000 -1.7806154 115.21703 -78.334076 34.739647 -90.910744 119.07887 -5.0887785 -83.089264
318500000 -1.7956218 85.35434 -76.372009 -88.212982 -89.937836 -27.696188 -4.5606861 -159.27789
328000000 -1.7718952 55.973782 -79.753525 164.62199 -93.496414 -163.5872 -4.7281208 130.99095
337500000 -1.7549051 26.817108 -75.47261 75.75206 -89.327927 -132.25571 -4.8014116 65.952652
347000000 -1.7460184 -2.2053258 -76.78923 -23.984705 -93.37178 49.913273 -4.6848445 -3.3021438
356500000 -1.7187827 -31.081566 -75.522972 -137.34668 -94.99192 12.192163 -5.1752453 -78.904396
366000000 -1.7126827 -60.052696 -75.387985 128.22316 -86.075836 -167.02672 -5.9712024 -152.04494
375500000 -1.760174 -89.385643 -79.101433 24.569983 -100.22765 -24.279573 -5.8654404 140.15208
385000000 -1.8197294 -119.17577 -76.771194 -78.229752 -89.743881 178.38129 -4.9473443 71.590172
394500000 -1.8803828 -149.22787 -74.352074 -169.27496 -96.317848 102.50505 -4.6652107 -2.5006127
404000000 -1.9426951 -179.37511 -75.829407 89.124954 -87.132813 99.47403 -5.7202711 -75.39093
413500000 -2.0016403 150.36833 -76.801994 -20.015413 -85.766235 22.831659 -6.560246 -144.07239
423000000 -2.0431304 120.19672 -75.534882 -124.39992 -94.7052 71.538048 -6.1688995 146.03708
432500000 -2.0410573 90.487686 -74.581497 141.47285 -90.688599 13.112844 -5.2903914 72.208328
442000000 -2.0112352 61.245705 -76.196144 29.504625 -95.606331 122.29328 -5.240519 0.051891439
451500000 -1.9913011 32.388062 -73.719551 -65.81501 -88.452988 156.32529 -5.6422772 -65.588043
461000000 -1.9657021 3.7950957 -73.836967 -165.77008 -105.31651 36.135647 -5.7120852 -130.8573
470500000 -1.9374897 -24.615723 -73.03373 108.20766 -96.768272 107.46821 -5.6575894 156.80081
480000000 -1.9244105 -52.937386 -72.647461 7.3798676 -88.923706 84.346741 -6.0742521 80.615692
489500000 -1.9453572 -81.517197 -70.694466 -100.6937 -94.341385 -163.60027 -6.3538113 10.059488
499000000 -1.9911628 -110.48099 -68.559975 167.27583 -102.95229 91.267174 -5.8620591 -55.455135
508500000 -2.0290806 -139.63293 -66.622284 53.289234 -93.409119 -53.468037 -5.1597199 -122.92681
518000000 -2.064393 -168.92786 -64.666267 -73.458138 -110.25211 64.519402 -5.4776411 165.75859
527500000 -2.1068428 161.65057 -66.393822 166.85857 -95.342369 129.20123 -6.609736 95.50705
537000000 -2.1334512 132.30789 -67.609886 54.479462 -90.35891 48.267818 -7.0347171 25.356522
546500000 -2.1284859 103.31441 -68.47036 -49.86525 -98.680649 83.58226 -6.2852836 -47.788475
556000000 -2.102572 74.814926 -68.891693 -150.38455 -95.40493 63.669331 -5.5898614 -121.43992
565500000 -2.0708213 46.692848 -70.396339 109.09845 -88.65004 151.33371 -5.7166452 171.50905
575000000 -2.0398817 18.880056 -71.885513 12.982627 -92.042809 32.103958 -5.9511709 110.38209
584500000 -2.0071518 -8.6937199 -71.822357 -90.930832 -99.997841 166.47322 -5.9187346 46.465912
594000000 -1.9863178 -36.231197 -70.630104 174.38541 -90.706055 83.808151 -6.16225 -26.8139
603500000 -1.9953233 -63.96542 -72.495407 63.806229 -96.434303 69.922264 -6.9838204 -103.10348
613000000 -2.0268877 -92.066727 -72.210045 -34.884727 -90.40023 -66.491554 -7.1513033 -173.18446
622500000 -2.0657089 -120.5647 -72.245941 -134.22147 -106.53686 -138.05296 -6.3775802 121.18183
632000000 -2.1182735 -149.43318 -71.994049 130.44135 -92.944901 -154.28029 -5.7044768 53.744404
641500000 -2.1682999 -178.5522 -71.85379 22.808489 -89.946754 111.97483 -6.2208381 -15.73581
651000000 -2.2071736 152.18347 -72.598633 -83.212265 -93.90519 -101.16302 -7.3901815 -84.739601
660500000 -2.2279975 123.00143 -72.866768 -173.62346 -96.836624 83.775864 -7.8320632 -156.94598
670000000 -2.2262855 94.014618 -73.135109 81.329117 -87.358643 109.64962 -7.2021718 126.86232
679500000 -2.2075458 65.371017 -72.541924 -18.743029 -98.942253 10.754969 -6.6118913 53.988934
689000000 -2.1748769 37.148643 -72.218018 -124.5761 -108.02213 -77.218231 -6.4676261 -10.30513
698500000 -2.1476712 9.1631517 -71.890587 140.85399 -86.22197 176.72546 -6.3624349 -70.972496
708000000 -2.135407 -18.696896 -72.026535 47.24588 -95.676407 -171.52994 -6.5025268 -137.23622
717500000 -2.1300731 -46.546318 -70.627678 -67.896835 -92.362396 -178.82181 -7.5373869 147.35828
727000000 -2.1517968 -74.663216 -72.079933 -163.84627 -92.42485 -57.952911 -8.5911446 69.707619
736500000 -2.2110505 -103.24541 -72.600189 98.28933 -95.245575 51.83968 -8.1265879 -2.8589971
746000000 -2.2732749 -132.32253 -72.259506 -2.3007939 -98.904289 -4.285728 -6.7500725 -70.946671
755500000 -2.3284283 -161.76428 -71.359093 -108.55773 -98.113571 -34.700783 -6.1111813 -138.74191
765000000 -2.3899531 168.56082 -71.290794 151.1375 -95.81675 85.91861 -6.8667712 155.49184
774500000 -2.438971 138.72377 -71.505676 50.94067 -96.297821 107.07144 -8.0497532 90.158821
784000000 -2.4521673 108.98837 -71.149437 -51.889111 -92.396812 103.08334 -8.5724592 17.28718
793500000 -2.4357471 79.654182 -69.610786 -153.88521 -94.606209 115.40736 -8.1264648 -63.108326
803000000 -2.4091723 50.777225 -70.363121 106.35358 -89.326248 -58.482178 -7.5324807 -137.61307
812500000 -2.3770056 22.30617 -71.584641 2.7697716 -89.667885 -159.60895 -7.0567513 159.21085
822000000 -2.3403881 -5.7868533 -71.098694 -93.408333 -98.455971 121.44856 -6.5413833 99.544807
831500000 -2.316834 -33.619572 -70.579971 166.20789 -94.10041 10.77142 -6.5182362 33.898369
841000000 -2.3194499 -61.42252 -70.24984 55.245468 -101.64106 155.42636 -7.731442 -39.62466
850500000 -2.3468626 -89.443565 -71.387352 -47.353996 -93.166023 -178.78215 -8.9961538 -115.65274
860000000 -2.3915849 -117.8322 -70.4114 -140.1859 -94.997925 165.36015 -8.5220356 170.8062
869500000 -2.4418232 -146.56805 -70.601471 122.94167 -100.26016 83.241013 -7.0116167 101.48604
879000000 -2.4926617 -175.56438 -70.744957 17.589865 -88.422295 167.69211 -6.2281179 34.579357
888500000 -2.5340285 155.27463 -70.089836 -81.058945 -89.858528 155.64629 -6.663949 -28.708685
898000000 -2.5536652 126.1048 -69.893417 178.41013 -104.72696 -138.48724 -7.5735669 -91.568291
907500000 -2.5427957 97.156883 -70.124916 78.307358 -91.806229 -27.440191 -8.3308878 -162.12971
917000000 -2.5109022 68.640709 -70.086792 -33.88216 -100.61102 -130.12857 -8.5190926 118.45051
926500000 -2.4661975 40.578194 -70.46579 -131.50034 -91.095276 143.54286 -8.0082216 43.085842
936000000 -2.4142449 12.970471 -70.223251 133.88063 -97.501343 99.929436 -7.1187916 -21.691887
945500000 -2.366796 -14.202217 -70.191193 39.826099 -105.66653 169.10225 -6.2808499 -82.376053
955000000 -2.3350921 -41.140438 -69.829872 -73.472359 -93.765427 -55.536304 -6.1981087 -146.00562
964500000 -2.3297036 -68.052002 -69.686302 -167.52589 -101.85477 47.343582 -7.3475409 146.39178
974000000 -2.3450193 -95.123314 -70.205414 88.434685 -91.469353 100.55921 -8.7942762 75.066765
983500000 -2.3821306 -122.57477 -69.926521 -12.558849 -95.978271 15.045712 -8.9140196 -0.36541229
993000000 -2.4301317 -150.43402 -69.052193 -116.8141 -97.141571 -141.10571 -7.7744622 -74.135452
1002500000 -2.4715853 -178.63455 -69.382454 145.2495 -85.695724 138.50313 -6.9326229 -141.33133
1012000000 -2.5153687 152.83604 -69.926437 48.475342 -97.973351 -12.511779 -6.7906651 157.91576
1021500000 -2.5440121 124.16407 -69.473412 -52.451992 -97.812393 55.283104 -7.0173368 97.654236
1031000000 -2.5375977 95.53994 -68.92659 -151.13593 -83.082489 -133.78204 -7.7461224 29.751423
1040500000 -2.5147433 67.163811 -68.696724 104.77522 -98.51664 129.77998 -9.0453653 -47.654396
1050000000 -2.4849472 39.141422 -69.232925 1.4565945 -92.498741 148.6468 -9.4711637 -125.33694
1059500000 -2.4398031 11.443151 -68.664268 -95.938507 -91.577881 -143.53119 -8.317481 165.47441
1069000000 -2.3982081 -15.872897 -68.595825 165.05113 -93.766228 -6.9631495 -6.7330108 100.67696
1078500000 -2.3793709 -42.913578 -68.190231 66.92646 -97.994423 -150.20262 -6.2267928 34.386433
1088000000 -2.3771501 -69.967148 -68.014236 -39.50938 -88.359604 115.23875 -7.3191738 -30.911142
1097500000 -2.4064138 -97.265076 -67.656258 -135.94968 -99.584145 -40.551041 -8.8512745 -96.140282
1107000000 -2.4583709 -124.92602 -68.083199 123.74632 -88.079819 -120.15833 -9.5244265 -168.3692
1116500000 -2.5209413 -153.12825 -67.903709 21.861387 -85.044327 116.91862 -8.8879576 113.76077
1126000000 -2.5893993 178.1429 -67.94091 -83.665611 -106.31828 87.784157 -8.022934 41.27433
1135500000 -2.6499691 149.03035 -67.433113 -179.74216 -97.735497 -110.39425 -7.544518 -22.170326
1145000000 -2.6955073 119.58868 -66.943764 82.789185 -86.168686 -139.19673 -7.3803673 -83.257462
1154500000 -2.7142386 90.099586 -66.120041 -25.484055 -88.131393 115.27245 -7.9473939 -150.12456
1164000000 -2.7031384 60.850887 -66.186195 -124.92946 -86.770988 70.697563 -9.500205 135.28358
1173500000 -2.6765866 31.902605 -66.397217 137.52733 -91.277962 44.738903 -10.344528 57.176891
1183000000 -2.6446099 3.3652656 -66.291618 34.92522 -91.269188 -166.89883 -9.1057663 -16.552065
1192500000 -2.6076896 -24.702864 -65.621437 -68.904198 -87.979607 139.24535 -7.2274866 -85.113441
1202000000 -2.5862474 -52.422203 -65.52829 -168.21132 -92.193756 84.822334 -6.5457458 -151.48268
1211500000 -2.5922413 -80.045326 -65.844818 90.909248 -88.970192 98.814278 -7.2924156 146.50768
1221000000 -2.6238801 -107.81267 -66.076385 -7.5499296 -97.068161 143.02782 -8.5026846 85.422195
1230500000 -2.6763964 -135.84128 -65.22905 -105.51956 -98.963264 17.905882 -9.469595 16.439726
1240000000 -2.7330756 -164.25011 -64.142982 152.75359 -87.709351 18.531504 -9.6021919 -62.869221
1249500000 -2.791235 166.88672 -64.067932 45.948479 -95.021286 -91.404854 -8.8266773 -139.74583
1259000000 -2.8528492 137.6906 -64.115494 -53.766998 -85.317764 -140.63147 -7.8260765 153.52605
1268500000 -2.887233 108.31895 -63.500523 -153.77319 -87.874954 153.2205 -7.131454 91.182449
1278000000 -2.8810246 78.995544 -62.741646 102.43803 -94.771729 108.50683 -7.3470216 26.97575
1287500000 -2.8497362 50.065178 -63.189754 0.14287214 -87.223343 -137.24158 -8.6330442 -40.461674
1297000000 -2.8093126 21.559441 -63.001751 -101.76637 -84.952042 -162.1545 -9.8138685 -112.84158
1306500000 -2.7562668 -6.4483361 -63.03429 158.7921 -96.226891 111.05273 -9.3579311 170.20297
1316000000 -2.6916645 -33.84655 -63.291882 62.462799 -91.143753 -51.358814 -7.8760872 95.925583
1325500000 -2.6502469 -60.830894 -62.182682 -38.781826 -86.319542 -60.779804 -7.0472441 29.134651
1335000000 -2.647501 -87.711685 -61.010265 -142.06073 -84.754677 175.73015 -7.0083718 -30.646063
1344500000 -2.6554899 -114.61702 -61.592091 120.43815 -82.291183 103.04214 -7.3416381 -89.515236
1354000000 -2.6731761 -141.63377 -60.527786 13.686585 -92.146652 -17.775095 -8.1203508 -154.78465
1363500000 -2.7154281 -168.95358 -60.415146 -92.851311 -89.94706 -65.400131 -9.2800426 131.39177
1373000000 -2.7713583 163.23816 -59.866508 170.91208 -84.382706 171.53807 -9.5508566 55.559078
1382500000 -2.8172891 135.07399 -58.851097 65.753525 -82.653305 57.054192 -8.4162054 -14.375768
1392000000 -2.8396854 106.73631 -58.549049 -51.728836 -84.27739 -46.791348 -7.0807648 -80.547318
1401500000 -2.8447015 78.288605 -61.054016 -145.58089 -84.829681 176.28752 -6.9090028 -146.78429
1411000000 -2.834188 49.899693 -60.881226 128.55266 -90.415604 159.69998 -8.1183376 148.68753
1420500000 -2.8026748 21.810596 -59.459972 30.892511 -85.352318 74.874176 -9.5183802 82.606033
1430000000 -2.7485559 -5.8312702 -57.812073 -81.134438 -83.96936 -50.891151 -9.7733088 8.2059851
1439500000 -2.6972482 -32.992531 -58.112263 176.12914 -80.803864 -100.48951 -8.6388407 -70.401276
1449000000 -2.6658015 -59.809353 -58.197334 77.421143 -83.37233 153.47815 -7.6436415 -141.55307
1458500000 -2.6552773 -86.537064 -56.801914 -20.54517 -90.528297 89.08593 -7.2767825 157.52342
1468000000 -2.6639574 -113.31879 -55.189945 -126.07372 -82.635422 -38.947189 -7.2600012 100.18496
1477500000 -2.6882102 -140.21417 -54.07896 123.95181 -77.821632 -138.02448 -7.8392057 38.611305
1487000000 -2.7393131 -167.53737 -54.0951 7.6255493 -80.911682 117.73711 -9.3134212 -30.994938
1496500000 -2.8063939 164.63206 -54.410366 -90.621017 -81.367508 21.311537 -10.522226 -108.18667
1506000000 -2.8655446 136.38467 -53.470779 158.0619 -80.51162 -84.936035 -9.7595863 174.42657
1515500000 -2.9193184 107.7439 -54.581703 44.978016 -81.478546 171.04424 -8.1176472 102.8928
1525000000 -2.9610655 78.772629 -54.618019 -53.069832 -83.188553 106.60754 -7.5172553 36.013737
1534500000 -2.9737048 49.65699 -54.583496 -163.35786 -83.361145 -31.046669 -8.1235361 -26.139902
1544000000 -2.9650764 20.696505 -54.641243 90.036873 -83.345726 -102.95361 -9.1187935 -89.008331
1553500000 -2.9410005 -7.9183674 -55.020103 -21.379248 -81.331505 147.05717 -9.8139715 -160.99957
1563000000 -2.9019752 -36.136688 -56.263283 -131.30571 -84.128319 62.877754 -9.6563206 119.07153
1572500000 -2.8732986 -63.967358 -57.899334 127.11971 -92.473999 1.8489205 -8.8517008 45.638222
1582000000 -2.8769565 -91.58889 -58.806923 25.953257 -83.566628 -138.3311 -7.9661241 -17.203941
1591500000 -2.9008496 -119.25846 -59.517559 -76.79171 -89.007126 174.39949 -7.3689003 -77.111275
1601000000 -2.9315686 -147.04364 -60.003864 -175.87419 -87.823509 60.953518 -7.7230058 -140.95329
1610500000 -2.9812472 -175.11163 -61.327686 81.196724 -89.577087 -72.779274 -9.2955122 149.98575
1620000000 -3.0644376 156.33626 -61.843468 -19.722643 -99.761497 168.49298 -10.630925 75.029533
1629500000 -3.1407425 127.31706 -62.094284 -121.01884 -90.435059 128.91269 -9.9002419 -2.3249705
1639000000 -3.1853869 98.042946 -62.490486 137.57426 -90.549042 31.298588 -8.1699791 -74.697815
1648500000 -3.2189817 68.587906 -64.255127 35.093945 -92.673195 -93.781715 -7.3934703 -140.99576
1658000000 -3.2469342 38.987549 -64.952698 -65.33419 -92.781067 -178.20248 -7.7340202 157.83095
1667500000 -3.2355516 9.579195 -65.382645 -162.09109 -95.385849 168.33174 -8.6113787 95.616615
1677000000 -3.1794059 -19.29789 -66.672173 101.26678 -103.66787 179.56819 -9.6456537 24.169025
1686500000 -3.1225986 -47.646191 -68.573273 2.9087279 -94.56028 23.723915 -9.9999352 -55.764874
1696000000 -3.1001043 -75.607773 -69.130836 -93.864601 -93.304977 -112.10795 -9.0616713 -129.76022
1705500000 -3.0819502 -103.27783 -70.058411 174.30138 -95.671158 -124.65671 -7.6652036 166.5535
1715000000 -3.0600519 -130.72713 -70.454803 83.564934 -86.043991 42.095333 -6.720922 105.81493
1724500000 -3.0679762 -158.10852 -70.389122 -8.4077225 -91.818794 20.802614 -7.0171537 43.461708
1734000000 -3.111527 174.27791 -69.920792 -103.60183 -92.402512 -80.281265 -8.5455503 -20.569901
1743500000 -3.1662183 146.27913 -69.660568 161.1032 -92.84288 164.88202 -10.107822 -90.091263
1753000000 -3.2034941 118.06508 -69.947609 68.75666 -90.69455 146.62843 -10.058064 -167.62
1762500000 -3.2278392 89.672127 -69.0103 -26.925304 -95.01664 91.010323 -8.6270084 116.21314
1772000000 -3.2667043 60.980064 -68.535622 -126.58424 -101.76278 -158.97362 -7.6754251 48.216965
1781500000 -3.2889066 32.212669 -67.945518 137.62325 -88.122894 -175.16986 -7.5823622 -13.31116
1791000000 -3.2590151 3.6236575 -67.925552 40.478672 -91.629204 53.689327 -8.0633869 -75.264709
1800500000 -3.2115343 -24.585489 -68.066734 -55.021225 -107.428 -4.322125 -9.0425882 -144.22073
1810000000 -3.1769781 -52.368004 -67.09642 -148.97493 -91.713501 101.47391 -9.7988338 140.40012
1819500000 -3.1511817 -79.917206 -67.791214 115.11621 -93.404831 -179.44261 -9.2249613 68.176971
1829000000 -3.1250613 -107.19593 -68.279083 38.606743 -88.698868 121.33936 -7.7992921 3.6907027
1838500000 -3.0981231 -134.13431 -64.507553 -54.857384 -88.868362 101.42022 -6.7414265 -58.311295
1848000000 -3.1103694 -161.04277 -62.12846 -156.37285 -87.77018 -76.634148 -7.0338507 -120.95203
1857500000 -3.1723285 171.77808 -59.404789 98.959183 -87.08593 -137.16316 -8.6342096 175.85991
1867000000 -3.2292583 144.30247 -57.985577 -13.478044 -85.9114 133.80986 -10.444356 106.29717
1876500000 -3.2808967 116.55836 -57.579082 -123.11825 -90.070694 -11.142821 -10.670562 25.32226
1886000000 -3.3608165 88.559669 -56.66555 133.68961 -86.176254 -70.446869 -9.0815382 -53.8708
1895500000 -3.4508924 60.129925 -56.300385 23.6415 -83.611252 -176.05898 -7.769464 -121.66365
1905000000 -3.5124116 31.352453 -56.251522 -82.222488 -83.165192 75.131645 -7.2886724 178.14784
1914500000 -3.5321419 2.7283602 -56.157616 172.62375 -87.450211 0.60572696 -7.542552 118.12725
1924000000 -3.5354269 -25.647373 -55.949249 64.899109 -85.658569 -126.2028 -8.6448107 52.618561
1933500000 -3.5375996 -53.878635 -56.245132 -41.078297 -82.955376 164.48036 -10.008414 -19.924271
1943000000 -3.5237327 -81.853378 -56.618923 -146.45137 -86.777016 75.124344 -10.013016 -95.170441
1952500000 -3.4824848 -109.49506 -56.923096 109.00778 -87.93959 -52.538239 -8.6298714 -165.63356
1962000000 -3.4555678 -136.88718 -57.411289 0.18192884 -89.49334 -107.38607 -7.5052185 127.95982
1971500000 -3.463938 -164.24243 -59.839565 -102.02638 -90.46096 140.24088 -7.6661191 63.628963
1981000000 -3.4904277 168.18935 -61.161995 172.01523 -96.19194 67.680557 -8.8383045 -0.4743306
1990500000 -3.5183961 140.38255 -61.008408 83.27169 -98.317741 60.145344 -10.079334 -70.820663
2000000000 -3.5566974 112.34908 -59.754723 -10.331116 -85.668129 -132.3744 -10.166106 -149.59875
