!Keysight Technologies,N5242B,MY48420967,A.15.65.19
!Date: Monday, January 23, 2023 08:56:30
!Correction: S11(C  1-Port  ) 
!S21(Off) 
!S12(Off) 
!S22(Off) 
!S2P File: Measurements: S11, S21, S12, S22:
# Hz S  dB   R 50
100000000 -1.4804757 40.38467 -84.608574 143.27097 -89.42614 -173.20509 -2.6908202 42.958508
109500000 -1.4044207 10.885409 -82.173698 22.381092 -88.812843 155.90689 -2.6192007 -30.329405
119000000 -1.3174541 -17.890678 -79.739891 -95.39949 -98.637466 33.282566 -2.9491227 -110.07402
128500000 -1.2498306 -46.319698 -81.596062 170.03065 -91.132744 167.94843 -3.4234865 177.25034
138000000 -1.2488503 -74.910469 -84.081367 101.34238 -92.755249 -150.39658 -2.9703481 112.83929
147500000 -1.3040886 -103.79276 -81.506439 -43.487843 -91.787834 -38.787739 -1.8618263 46.137497
157000000 -1.3667848 -132.93835 -80.430481 -157.97527 -85.455063 179.55919 -1.9527824 -29.452166
166500000 -1.4571316 -162.46692 -84.203629 120.9934 -88.738098 172.94003 -3.8431065 -102.98965
176000000 -1.5747286 167.5878 -80.98098 11.652463 -95.547974 88.743736 -5.0802674 -171.82484
185500000 -1.6654959 137.4464 -78.549782 -88.638733 -94.087189 92.676247 -4.4321446 117.64516
195000000 -1.6993748 107.52279 -78.679428 169.49287 -103.95721 45.897152 -3.0529206 42.616951
204500000 -1.7037232 77.943153 -79.052025 68.900764 -102.39376 -53.791561 -2.9239683 -30.71339
214000000 -1.6914128 48.614845 -81.334427 -66.926636 -84.702415 176.59468 -3.5342569 -96.079041
223500000 -1.6505225 19.651861 -79.889793 -131.90419 -103.3725 -49.31316 -3.8457015 -161.00546
233000000 -1.6012883 -9.0055666 -78.350555 138.53975 -99.013481 155.29872 -4.0807815 125.93957
242500000 -1.583631 -37.597546 -79.437851 20.654234 -90.535545 -115.35264 -4.685081 48.62875
252000000 -1.5874997 -66.301056 -78.415466 -101.83987 -86.512665 -112.81555 -4.8139133 -22.902176
261500000 -1.6203892 -95.27002 -78.209694 172.87971 -86.54995 -68.514275 -3.9736683 -89.933517
271000000 -1.6978855 -124.59296 -77.169823 71.264183 -84.656288 118.7006 -3.1273725 -160.25482
280500000 -1.7915475 -154.34717 -76.015396 -71.696648 -89.145454 -73.239838 -3.7491243 126.63642
290000000 -1.8753759 175.62466 -76.842484 -153.41573 -88.118645 56.366776 -5.124752 57.249683
299500000 -1.9630831 145.49196 -77.484856 144.12869 -108.49168 145.20116 -5.5904589 -12.218912
309000000 -2.034096 115.28905 -77.193619 1.1260855 -90.303635 -96.744377 -4.9028831 -86.66954
318500000 -2.058404 85.36837 -74.752937 -105.005 -86.120407 -30.501112 -4.3957977 -162.8212
328000000 -2.0428116 55.93391 -76.853676 170.80811 -102.62807 27.050608 -4.5846095 127.71765
337500000 -2.0367556 26.743017 -76.676941 72.347588 -91.043022 89.449203 -4.6447916 62.662323
347000000 -2.0403745 -2.3149865 -76.317787 -48.628902 -91.025589 62.125332 -4.5160904 -6.9904795
356500000 -2.0269539 -31.216785 -74.226349 -158.51253 -98.704521 71.791641 -5.0155821 -82.777718
366000000 -2.0362699 -60.190388 -75.54245 112.94125 -94.23822 159.50856 -5.782546 -155.59764
375500000 -2.1005511 -89.518692 -75.969193 6.8504372 -94.70723 -148.02139 -5.6189437 136.91504
385000000 -2.1788719 -119.29831 -77.153297 -101.74922 -95.296478 37.673809 -4.6663594 68.2575
394500000 -2.2535756 -149.32584 -72.720192 154.97148 -113.63053 -122.86334 -4.4253621 -6.0903468
404000000 -2.3286641 -179.42699 -75.327713 56.111221 -96.496964 -162.65446 -5.5104871 -78.768837
413500000 -2.3983419 150.35405 -76.065659 -59.82172 -91.411194 151.77492 -6.2985053 -147.09454
423000000 -2.4462445 120.22928 -76.305138 -137.91684 -103.03125 -7.3447304 -5.8411975 143.27608
432500000 -2.4482505 90.587151 -74.53476 131.89229 -90.395927 87.986626 -4.9601746 69.531166
442000000 -2.4217606 61.427006 -78.490669 6.7961469 -90.463547 51.824665 -4.961246 -2.4238913
451500000 -2.4049292 32.648888 -75.071404 -74.971016 -111.49964 -55.11087 -5.3796949 -67.827423
461000000 -2.3849146 4.1388721 -74.628822 -175.06091 -94.325256 5.0390754 -5.4226651 -133.08867
470500000 -2.3629322 -24.172913 -73.47998 83.83609 -93.659111 46.15926 -5.3422327 154.39531
480000000 -2.3594954 -52.405396 -73.963531 -19.487551 -91.798668 -142.17409 -5.7702279 78.31739
489500000 -2.3917348 -80.890533 -71.298325 -118.80914 -85.637497 -178.72443 -6.0594907 8.1560249
499000000 -2.4494925 -109.77827 -70.695854 148.32443 -92.042572 155.91158 -5.5621328 -57.165009
508500000 -2.5004337 -138.88863 -68.753723 32.137386 -85.811981 152.69295 -4.8571463 -124.80899
518000000 -2.5478086 -168.14749 -67.616959 -84.124664 -94.589378 109.51899 -5.1988878 163.6176
527500000 -2.6001341 162.48927 -68.025101 160.88326 -86.374924 115.11202 -6.3309126 93.384933
537000000 -2.632055 133.15482 -69.831085 54.707909 -94.663139 -91.871414 -6.7086625 23.42548
546500000 -2.6271827 104.15472 -70.405495 -51.19117 -88.187531 -131.15965 -5.928802 -49.586411
556000000 -2.5996547 75.648735 -70.074944 -153.68347 -84.051926 173.59395 -5.2685251 -123.21566
565500000 -2.5690403 47.527809 -70.497894 107.5733 -98.769188 29.044636 -5.4433055 169.82857
575000000 -2.5396366 19.702518 -72.453156 7.4347029 -100.5641 -124.85247 -5.6798878 108.71973
584500000 -2.5100987 -7.8694067 -72.018684 -88.696861 -97.537888 -156.26112 -5.6098981 44.558483
594000000 -2.4974933 -35.385429 -70.196175 167.2196 -91.834122 161.00337 -5.8207412 -29.100029
603500000 -2.5187211 -63.098347 -71.19709 65.426933 -96.46862 -24.714102 -6.6398978 -105.28957
613000000 -2.5653269 -91.181381 -72.174507 -37.678432 -93.583191 -24.890738 -6.8032894 -174.92966
622500000 -2.6195021 -119.654 -70.973648 -137.76663 -87.41684 -150.54903 -6.0217161 119.6165
632000000 -2.6887779 -148.51198 -71.944199 116.30006 -90.716652 136.60088 -5.3487625 51.955261
641500000 -2.7517753 -177.62694 -71.372307 21.336435 -100.52237 110.83781 -5.8818498 -17.803398
651000000 -2.7990615 153.09729 -72.099831 -82.748505 -112.58279 48.765175 -7.0259748 -86.830284
660500000 -2.8271766 123.89765 -72.100578 -175.22108 -86.836334 91.885498 -7.3992467 -158.80611
670000000 -2.8286602 94.884888 -71.691895 80.432114 -92.684822 0.91736484 -6.746666 125.29612
679500000 -2.8107119 66.218552 -72.135284 -28.595469 -88.995247 40.728146 -6.208621 52.609238
689000000 -2.7796726 38.000931 -72.207619 -129.06772 -97.512421 -12.643323 -6.110002 -11.557161
698500000 -2.7565045 10.030736 -71.69693 150.63257 -98.617348 135.1976 -5.9962316 -72.281113
708000000 -2.7512712 -17.805397 -70.65612 39.601624 -98.079536 139.60233 -6.0842423 -138.88893
717500000 -2.7569778 -45.599602 -71.620651 -74.481911 -112.95886 55.585453 -7.0720615 145.43907
727000000 -2.7944486 -73.635849 -70.904221 -168.21254 -89.165543 -92.596992 -8.0997658 68.275726
736500000 -2.8730965 -102.14453 -71.763115 92.041901 -97.584991 173.4837 -7.6495323 -3.5671997
746000000 -2.9549303 -131.14127 -71.552849 -5.981813 -102.60684 148.70013 -6.2982049 -71.451355
755500000 -3.0260775 -160.50171 -70.291138 -114.14413 -96.072571 176.67793 -5.6830506 -139.50232
765000000 -3.1011233 169.90408 -70.536339 149.15999 -106.16499 48.954308 -6.4596643 154.5555
774500000 -3.1586089 140.13942 -71.323608 42.005009 -94.838799 175.21831 -7.6038671 89.32914
784000000 -3.1736352 110.46495 -70.974167 -59.629108 -87.875381 128.70856 -8.0481472 16.879416
793500000 -3.1553843 81.186867 -69.715721 -155.51137 -90.749634 9.7482615 -7.6012006 -63.047749
803000000 -3.1241164 52.396904 -71.72036 102.02636 -88.306686 -173.65205 -7.0981436 -137.36908
812500000 -3.0868006 24.023653 -71.391342 -3.5060408 -97.533455 -161.73439 -6.6881919 159.5248
822000000 -3.0497475 -3.9630384 -70.455269 -103.82929 -92.144508 66.718506 -6.1701541 99.869576
831500000 -3.0261302 -31.671076 -69.262016 159.26646 -93.624825 -25.524111 -6.0919962 34.097862
841000000 -3.0338771 -59.316704 -69.921654 50.263031 -89.674088 -115.78404 -7.256958 -39.500706
850500000 -3.0731702 -87.173187 -70.248749 -46.793499 -92.428253 169.72098 -8.5292749 -115.0267
860000000 -3.131398 -115.4186 -70.195198 -148.06786 -95.245613 55.89999 -8.1210527 172.01602
869500000 -3.1944263 -144.03473 -70.322891 112.79333 -102.29248 148.48109 -6.6557827 102.76495
879000000 -3.2575274 -172.91701 -70.513649 14.8696 -99.427711 -48.152973 -5.8845434 35.577705
888500000 -3.3080902 157.99207 -69.745186 -92.315689 -90.822311 169.06795 -6.3241854 -27.933523
898000000 -3.3318326 128.84401 -69.51973 171.19841 -89.911835 171.75021 -7.2095799 -90.728943
907500000 -3.3189604 99.900024 -69.812271 74.804802 -97.247337 5.9068661 -7.9212184 -160.93452
917000000 -3.2805281 71.36264 -69.70887 -33.786835 -97.50769 -135.186 -8.1198483 120.01965
926500000 -3.226912 43.277855 -69.758766 -140.62155 -90.496223 151.9187 -7.6901717 44.648159
936000000 -3.1661091 15.666909 -69.94812 136.92799 -90.678055 113.2261 -6.8573518 -20.303425
945500000 -3.1123061 -11.501875 -69.761414 29.884775 -99.328423 63.188698 -6.0198021 -81.130646
955000000 -3.078161 -38.42577 -68.75589 -73.125717 -100.37157 -160.44051 -5.8974047 -144.94246
964500000 -3.076375 -65.290848 -68.816383 -176.94812 -90.660973 169.63458 -7.0084267 147.31038
974000000 -3.1020286 -92.303932 -69.65638 84.111916 -91.704887 54.735783 -8.4381695 76.187233
983500000 -3.1550875 -119.71299 -69.367249 -20.003143 -98.393761 175.23804 -8.5881424 1.1161669
993000000 -3.2197466 -147.54716 -68.070862 -115.47264 -93.786629 -129.22083 -7.4942899 -72.694427
1002500000 -3.2783051 -175.73799 -68.535255 139.43277 -86.387085 174.73529 -6.6762257 -140.2188
1012000000 -3.3375592 155.72104 -69.433594 48.544422 -95.684105 57.735043 -6.5388169 158.78354
1021500000 -3.3767805 126.98688 -68.571129 -55.571175 -93.444962 23.732855 -6.7338791 98.411522
1031000000 -3.3745952 98.275536 -67.812035 -157.47816 -107.89605 -144.43512 -7.3951902 30.446781
1040500000 -3.351331 69.815712 -68.492592 100.75606 -98.107925 78.128296 -8.6536331 -46.845135
1050000000 -3.3160813 41.709427 -68.825508 0.5215438 -90.861084 73.791336 -9.1259308 -124.19968
1059500000 -3.2643876 13.955351 -68.20797 -100.67558 -91.657196 10.245549 -8.0289974 166.73135
1069000000 -3.2184422 -13.390582 -68.114792 170.40614 -87.002419 168.88737 -6.4437075 101.8155
1078500000 -3.1994686 -40.429085 -67.284584 64.859444 -90.635361 -161.5016 -5.9047837 35.176022
1088000000 -3.2034314 -67.437775 -67.856987 -42.780502 -94.954094 -142.38298 -6.9746966 -30.397314
1097500000 -3.2461007 -94.642662 -67.272179 -142.79857 -101.26251 -62.479744 -8.4701796 -95.491631
1107000000 -3.3167422 -122.20624 -67.042252 126.02316 -112.74431 122.34032 -9.1043339 -167.13936
1116500000 -3.4027529 -150.32007 -66.985069 21.252604 -86.633621 168.74974 -8.4845896 115.43182
1126000000 -3.4914255 -178.94308 -66.613632 -85.364326 -87.741035 62.659943 -7.6675596 42.860588
1135500000 -3.5735316 152.04286 -66.190475 177.88417 -94.480003 -103.33083 -7.2114019 -20.718294
1145000000 -3.6339977 122.6649 -65.457954 82.66655 -98.832031 -112.08755 -7.0148349 -81.797333
1154500000 -3.6599548 93.214928 -65.303932 -28.982925 -90.005684 170.41344 -7.4959059 -148.57446
1164000000 -3.6466959 64.004677 -65.540802 -128.49434 -90.882523 26.027092 -8.9867773 137.19872
1173500000 -3.6131036 35.101219 -65.109627 131.3378 -84.833031 -49.159821 -9.9001179 59.902523
1183000000 -3.5719438 6.6239533 -65.03476 31.753069 -87.438416 -148.51779 -8.7894974 -13.495837
1192500000 -3.5238926 -21.348269 -64.55294 -68.938263 -88.742012 97.508652 -6.9400568 -82.237328
1202000000 -3.4956355 -48.937931 -64.290695 -170.70995 -98.152634 -84.526848 -6.2217131 -149.03976
1211500000 -3.5024571 -76.390312 -64.675705 85.462242 -83.443634 -19.253555 -6.9429483 148.64619
1221000000 -3.5396121 -103.95274 -64.422417 -9.7937193 -95.865273 -119.8216 -8.1201324 87.810631
1230500000 -3.6062913 -131.78125 -63.706284 -111.96536 -90.900551 86.244934 -9.0519266 19.644531
1240000000 -3.6804383 -159.99062 -62.874477 147.4585 -83.205215 12.708581 -9.2299728 -58.875137
1249500000 -3.7548563 171.33394 -62.639477 43.807865 -87.849632 -125.89036 -8.5599966 -135.92244
1259000000 -3.8325708 142.29231 -62.482967 -60.260971 -92.610443 161.59254 -7.6102777 156.88367
1268500000 -3.8806427 112.99088 -61.644855 -159.75114 -86.302658 113.08856 -6.8971219 94.335403
1278000000 -3.8766301 83.683311 -61.904518 93.356468 -92.375328 19.385521 -7.0501776 30.09866
1287500000 -3.8395703 54.728775 -62.195766 -8.1155214 -92.03598 -105.63073 -8.2935219 -37.119892
1297000000 -3.7877934 26.18771 -61.471855 -106.5237 -82.328064 -173.20238 -9.5185184 -108.88095
1306500000 -3.7201099 -1.8738323 -61.473969 154.49576 -84.420013 92.009064 -9.1876488 174.4991
1316000000 -3.6391473 -29.311056 -60.80146 53.508926 -91.827278 34.70681 -7.7533956 99.735893
1325500000 -3.5873473 -56.279488 -59.735493 -52.203999 -88.430496 -116.47901 -6.9105492 32.220463
1335000000 -3.5795543 -83.132523 -59.601715 -158.39116 -89.702858 150.43747 -6.8547511 -27.948492
1344500000 -3.5903511 -109.99458 -59.553444 99.874344 -87.462685 90.016495 -7.1584706 -86.789604
1354000000 -3.6173689 -136.95576 -59.040977 -4.559514 -82.932777 -58.634888 -7.8901944 -151.70995
1363500000 -3.675669 -164.23012 -58.643745 -113.59438 -81.169571 -132.50317 -9.0491762 134.91751
1373000000 -3.7513285 167.99477 -59.990093 138.77458 -85.316246 109.0476 -9.4078712 59.206436
1382500000 -3.8164535 139.81946 -61.816517 47.258923 -97.133339 -175.3613 -8.3251257 -11.058808
1392000000 -3.855726 111.41817 -60.653481 -42.865456 -87.021004 -27.265942 -6.9610353 -77.621361
1401500000 -3.8718481 82.851662 -58.296146 -143.01462 -84.239159 -134.46255 -6.7429309 -144.17937
1411000000 -3.8616037 54.313251 -57.550274 102.48103 -89.01075 132.44518 -7.9184995 151.18449
1420500000 -3.8259037 26.072968 -58.310474 -0.81298149 -82.943024 68.185234 -9.3175583 85.423096
1430000000 -3.7616723 -1.728725 -57.523941 -101.50185 -83.798378 -42.717667 -9.6299419 11.489671
1439500000 -3.6975942 -29.008972 -56.55698 150.74872 -80.358665 -156.65225 -8.551528 -67.185684
1449000000 -3.6586208 -55.885029 -57.00539 39.549465 -83.331612 118.48425 -7.5474 -138.87
1458500000 -3.6456518 -82.625793 -57.469212 -69.109688 -81.384224 15.487247 -7.153605 159.85434
1468000000 -3.6606834 -109.40048 -58.536369 -173.38351 -93.891006 -39.337505 -7.0828924 102.45847
1477500000 -3.6971993 -136.23857 -59.137859 86.995132 -82.662704 166.26918 -7.5666604 41.029263
1487000000 -3.7679434 -163.47714 -59.862511 -15.748374 -85.594215 89.339127 -8.9502439 -28.285028
1496500000 -3.8611014 168.76328 -60.069302 -117.78682 -89.700783 20.033241 -10.155866 -104.80437
1506000000 -3.9433942 140.59213 -60.488487 145.92848 -90.218407 -98.666832 -9.4792147 177.89757
1515500000 -4.0214105 112.03106 -59.662342 43.47657 -87.427612 157.51591 -7.8776236 105.90666
1525000000 -4.0840096 83.078934 -59.724628 -66.446297 -85.839798 83.894501 -7.2393374 38.655991
1534500000 -4.106739 53.961834 -60.812706 -169.82346 -91.553833 12.026791 -7.8082786 -23.806282
1544000000 -4.0973983 25.001951 -61.743221 90.693298 -86.684235 -123.07365 -8.7630548 -86.439896
1553500000 -4.0689077 -3.6180267 -61.525028 -12.301483 -91.673492 162.55794 -9.4365368 -157.70659
1563000000 -4.0193825 -31.814058 -62.034767 -116.48639 -90.58477 74.449699 -9.34095 122.81743
1572500000 -3.9795666 -59.555325 -62.868153 145.52553 -90.380638 -40.12648 -8.619339 49.054794
1582000000 -3.9796152 -87.035835 -63.706089 46.812302 -85.74884 -108.90099 -7.7620993 -14.12101
1591500000 -4.0082645 -114.526 -64.355576 -53.472832 -94.802231 164.02913 -7.1258969 -74.00341
1601000000 -4.0477481 -142.10664 -63.815548 -154.29428 -101.83242 108.63847 -7.3833475 -137.61501
1610500000 -4.1141667 -169.91281 -64.817947 104.54694 -88.403915 -50.01123 -8.8762665 153.84152
1620000000 -4.2214365 161.79506 -65.493851 7.3518195 -94.129105 -157.26196 -10.270895 79.921829
1629500000 -4.3208899 132.98837 -65.610748 -90.088051 -87.411285 -169.67169 -9.7238588 3.0180042
1639000000 -4.388906 103.89944 -65.429642 173.57951 -89.790909 62.236767 -8.0455399 -69.763542
1648500000 -4.4404163 74.584 -65.869858 71.83004 -90.855492 -3.7948058 -7.2151685 -136.6183
1658000000 -4.4787536 45.044044 -67.149277 -29.753847 -89.412346 -74.596428 -7.5029898 161.98061
1667500000 -4.4657221 15.630147 -67.049141 -126.31823 -88.613167 139.21901 -8.3334169 100.22916
1677000000 -4.3979959 -13.278093 -67.07164 140.81754 -93.17025 46.74762 -9.3640671 29.811262
1686500000 -4.324255 -41.640816 -67.741844 44.90892 -101.79476 -111.17953 -9.8565874 -49.658367
1696000000 -4.2846098 -69.59594 -68.064255 -48.37867 -86.845581 -118.00668 -9.0554228 -124.49426
1705500000 -4.255599 -97.229675 -67.712555 -147.972 -88.722488 -162.46596 -7.6733723 171.08504
1715000000 -4.2286792 -124.63699 -66.752647 118.90418 -88.09584 74.964798 -6.6566324 110.15724
1724500000 -4.2367229 -151.92715 -66.507271 15.627015 -93.579498 -8.4084234 -6.8404226 47.807995
1734000000 -4.2910013 -179.41295 -66.805138 -79.168808 -97.727211 -68.016365 -8.3002691 -15.96235
1743500000 -4.3643355 152.66287 -66.860558 -177.5845 -100.5821 143.70076 -9.9166164 -84.62188
1753000000 -4.4213905 124.47642 -65.918327 90.909439 -95.878304 89.455231 -10.057052 -161.63589
1762500000 -4.4647269 96.110756 -65.479668 -14.578588 -95.6623 27.863426 -8.7024069 121.55092
1772000000 -4.5233665 67.380135 -65.30442 -113.92013 -92.415619 -166.03468 -7.6989422 52.73317
1781500000 -4.559175 38.468349 -64.672745 152.44292 -100.16357 -69.081985 -7.548595 -9.2204676
1791000000 -4.5302286 9.6883421 -64.624237 47.826637 -93.123688 111.58923 -7.984242 -71.065483
1800500000 -4.4753904 -18.698338 -64.86898 -48.621624 -91.64888 63.19173 -8.9470968 -139.5983
1810000000 -4.4309669 -46.645496 -64.329193 -143.44489 -91.969696 125.00385 -9.781518 145.08131
1819500000 -4.3950558 -74.342979 -63.779331 123.91533 -84.971489 -154.34251 -9.299902 72.214798
1829000000 -4.360642 -101.73945 -62.3857 32.460693 -94.915352 126.78744 -7.8784413 7.1879067
1838500000 -4.3324637 -128.73035 -59.849422 -71.760246 -89.963257 61.813835 -6.7493958 -54.947998
1848000000 -4.3519473 -155.62375 -58.742271 178.55089 -89.049812 -118.99667 -6.9398489 -117.61626
1857500000 -4.4330354 177.27328 -58.916786 75.072334 -86.867691 166.56006 -8.4724026 179.35991
1867000000 -4.5196853 149.89291 -58.322624 -29.617859 -83.640091 76.660957 -10.299703 110.53703
1876500000 -4.6006236 122.28268 -57.566662 -132.40169 -84.672287 20.765556 -10.679258 30.103895
1886000000 -4.7134137 94.48613 -56.884033 123.75773 -88.950188 -75.383629 -9.1596537 -49.757797
1895500000 -4.8354912 66.287743 -56.681427 15.501765 -84.326981 -165.11913 -7.7985106 -118.28088
1905000000 -4.9167695 37.687504 -56.919899 -89.745453 -86.383911 74.594078 -7.2559414 -178.77245
1914500000 -4.9298053 9.2241831 -56.789436 169.19699 -89.48056 -25.623478 -7.4404411 121.31169
1924000000 -4.9033742 -18.960939 -56.626537 60.217163 -85.344009 -138.9541 -8.4765406 56.230385
1933500000 -4.8620172 -47.085922 -57.554047 -46.635654 -82.470505 170.85654 -9.8547125 -15.715036
1943000000 -4.7998457 -75.082123 -58.18877 -146.15544 -86.946182 75.148094 -9.973814 -90.74395
1952500000 -4.7087965 -102.75277 -58.899559 113.04935 -85.278214 -34.695862 -8.6398497 -161.40868
1962000000 -4.6478372 -130.13852 -59.467907 16.610619 -87.091469 -92.598785 -7.4560747 132.06657
1971500000 -4.6361942 -157.44456 -59.679577 -80.261871 -86.693741 150.28026 -7.5212808 67.722313
1981000000 -4.6576834 175.0526 -59.443001 -174.49756 -83.014503 68.485641 -8.6318626 3.9665103
1990500000 -4.6946826 147.37175 -57.948895 90.015984 -86.390137 -4.252727 -9.8940439 -65.398743
2000000000 -4.7532816 119.55167 -56.394913 -17.053347 -83.439888 -94.859184 -10.129473 -143.55283
