!Keysight Technologies,N5242B,MY48420967,A.15.65.19
!Date: Saturday, February 04, 2023 19:18:41
!Correction: S11(C  1-Port  ) 
!S21(Off) 
!S12(Off) 
!S22(Off) 
!S2P File: Measurements: S11, S21, S12, S22:
# Hz S  dB   R 50
100000000 -1.4954622 40.222733 -81.521233 132.50717 -87.917809 133.69902 -2.8023322 42.453964
109500000 -1.4344981 10.767601 -81.428581 -10.189341 -97.889221 -76.04023 -2.7565773 -31.034594
119000000 -1.3671546 -18.203623 -80.99398 -125.59603 -95.400063 87.477821 -3.0711014 -110.68929
128500000 -1.2854356 -46.640251 -83.030449 163.31158 -101.33288 106.68846 -3.499059 176.83206
138000000 -1.2760022 -75.079254 -81.856033 63.577637 -102.826 133.30373 -3.0225689 112.54615
147500000 -1.3502389 -104.01707 -82.707878 -37.005672 -91.900108 -43.688354 -1.9246629 45.856861
157000000 -1.4187632 -133.28297 -80.275467 -155.783 -92.743477 82.189911 -2.0529542 -29.735226
166500000 -1.4945821 -162.73456 -80.194572 95.057129 -97.004311 53.249783 -3.9675827 -103.3149
176000000 -1.6198659 167.36461 -80.888 8.4194698 -91.264305 158.9682 -5.2058115 -172.3436
185500000 -1.7235047 137.13216 -81.21019 -93.026428 -94.732498 118.72684 -4.5429006 116.97519
195000000 -1.7437035 107.20964 -78.627106 166.1281 -92.115601 109.05933 -3.1568944 42.053478
204500000 -1.7446349 77.711998 -78.12915 55.369907 -96.29483 154.40659 -3.0189686 -31.047709
214000000 -1.7529459 48.340984 -81.979401 -50.987946 -92.632645 62.456253 -3.6263297 -96.324181
223500000 -1.7097039 19.291155 -77.224518 -138.89244 -94.27282 97.729271 -3.9583232 -161.30923
233000000 -1.6425543 -9.295742 -77.287621 105.10776 -93.130562 -32.106678 -4.2225671 125.52924
242500000 -1.635455 -37.835274 -78.643883 14.662522 -88.829582 -105.35536 -4.8284078 48.142612
252000000 -1.6583943 -66.636635 -77.09082 -114.38728 -85.665161 174.49635 -4.9311395 -23.441105
261500000 -1.6764151 -95.64077 -76.808044 156.8681 -83.790611 140.89291 -4.0765238 -90.469368
271000000 -1.7408428 -124.86182 -77.553047 48.709309 -93.71769 -55.991653 -3.2389116 -160.70197
280500000 -1.8583097 -154.60364 -74.965813 -43.478695 -84.50946 111.92612 -3.8722486 126.32854
290000000 -1.9514467 175.25743 -74.918457 -149.52975 -88.696777 -124.67975 -5.2530265 56.960487
299500000 -2.015543 145.1293 -75.698212 118.47698 -89.05867 -113.66501 -5.7281165 -12.652478
309000000 -2.0878847 115.03715 -76.795082 6.1946807 -93.667801 -64.458221 -5.046474 -87.20713
318500000 -2.1317196 85.086395 -76.117615 -110.12038 -91.610703 -37.658611 -4.5324054 -163.27861
328000000 -2.1114223 55.563301 -76.802971 155.95892 -100.7815 -130.77869 -4.7055717 127.34443
337500000 -2.0920279 26.401102 -74.872086 54.183006 -91.422142 1.0154293 -4.7650323 62.28524
347000000 -2.107619 -2.6143041 -76.407539 -61.906746 -95.010345 -2.3414106 -4.6539135 -7.3868623
356500000 -2.1039059 -31.541527 -74.205772 -135.96625 -86.601967 55.482067 -5.1668968 -83.152534
366000000 -2.0996928 -60.520908 -74.256721 111.12314 -85.590919 -18.475618 -5.9229255 -156.00548
375500000 -2.1631465 -89.843979 -75.794487 13.004474 -95.267876 -156.56816 -5.7450576 136.42897
385000000 -2.2590992 -119.64563 -74.465523 -105.83441 -86.120026 123.68111 -4.8004613 67.762741
394500000 -2.3294508 -149.65511 -73.790825 165.73289 -89.035454 -157.75519 -4.573915 -6.4592905
404000000 -2.3909118 -179.72894 -75.733849 53.84404 -92.307434 178.49806 -5.6591907 -79.055779
413500000 -2.475775 150.02238 -75.702995 -42.151737 -88.608116 115.49711 -6.4462018 -147.47984
423000000 -2.5321908 119.86253 -74.176872 -135.12999 -92.654663 38.513165 -5.9925399 142.7261
432500000 -2.5163057 90.265282 -75.002228 120.26099 -96.940788 -60.308563 -5.1128693 68.985107
442000000 -2.4871235 61.135117 -76.185555 12.044103 -88.830513 -110.46117 -5.1009173 -2.8319998
451500000 -2.4880939 32.279713 -75.608154 -94.737617 -92.545013 -104.42336 -5.5050721 -68.152847
461000000 -2.4680233 3.7552764 -74.372894 175.52367 -95.73597 26.5429 -5.5540247 -133.41278
470500000 -2.4293771 -24.467505 -75.423637 88.453522 -124.39098 -101.56097 -5.4994397 154.0755
480000000 -2.4302869 -52.704113 -74.397659 -28.804909 -87.212494 161.37582 -5.9402847 77.988503
489500000 -2.4812019 -81.280884 -71.95575 -118.60033 -100.60452 153.01381 -6.2219176 7.7238855
499000000 -2.531183 -110.16413 -71.150948 143.63641 -98.235107 89.788063 -5.7175412 -57.709019
508500000 -2.5694127 -139.1937 -68.65506 30.906725 -92.106674 -116.29951 -5.015099 -125.34852
518000000 -2.6275046 -168.44659 -66.58728 -83.978592 -87.327026 -138.65836 -5.3524008 163.21977
527500000 -2.6924896 162.10393 -68.289917 158.65535 -91.352524 -178.95253 -6.4681349 93.06778
537000000 -2.7152007 132.78185 -69.986511 59.02515 -90.330147 90.634323 -6.8436346 23.087826
546500000 -2.7017238 103.83803 -69.650833 -53.004322 -92.299797 95.172295 -6.0789347 -49.958942
556000000 -2.6833236 75.302635 -69.927933 -154.50612 -87.215996 -147.93089 -5.4322076 -123.54539
565500000 -2.6576221 47.144295 -71.297974 114.03058 -100.3503 137.41118 -5.6046877 169.52541
575000000 -2.6192338 19.352949 -72.23185 5.6207261 -98.27961 145.50999 -5.8424134 108.33949
584500000 -2.5906169 -8.2102909 -71.963951 -95.210098 -89.783211 -173.11453 -5.7851248 44.094093
594000000 -2.5871556 -35.755306 -71.750824 163.75909 -87.596886 -138.08504 -6.0025802 -29.548386
603500000 -2.6036861 -63.462486 -72.773346 59.504547 -91.155785 90.91922 -6.7961183 -105.66871
613000000 -2.6448741 -91.493439 -71.730759 -46.20401 -108.85105 -56.677975 -6.9333444 -175.27725
622500000 -2.7088668 -120.00305 -72.140923 -145.46901 -91.243996 -112.55875 -6.1535816 119.28799
632000000 -2.7825878 -148.92336 -71.802498 122.55191 -88.324326 120.68868 -5.5040741 51.674774
641500000 -2.8365736 -177.97676 -73.602242 14.777368 -95.276505 -30.374115 -6.0612559 -18.017923
651000000 -2.8848984 152.80141 -72.426888 -87.524765 -96.9533 14.916729 -7.2201643 -87.135941
660500000 -2.927676 123.50648 -71.586433 -172.89444 -89.950729 150.35225 -7.5965185 -159.3197
670000000 -2.9223695 94.458679 -71.627373 83.571136 -102.33929 -133.47165 -6.9263072 124.71393
679500000 -2.8898673 65.905045 -71.789627 -26.786648 -88.796631 2.444607 -6.3586993 52.173977
689000000 -2.8686547 37.697674 -72.539948 -125.48878 -92.422363 -169.74255 -6.2392473 -11.85644
698500000 -2.8580589 9.6059103 -73.052612 139.42188 -90.546707 -173.93774 -6.130012 -72.542801
708000000 -2.8414578 -18.222572 -71.79007 33.862144 -90.915207 143.58325 -6.250586 -139.12082
717500000 -2.8390071 -45.871521 -71.339783 -73.042221 -90.535492 72.609261 -7.2686319 145.2188
727000000 -2.8897369 -73.940598 -71.046471 -173.49097 -108.69265 151.30051 -8.2940521 67.887451
736500000 -2.9749622 -102.5845 -71.675934 93.121384 -92.480858 -109.01363 -7.817924 -4.1183324
746000000 -3.0445201 -131.52698 -70.55188 -13.10293 -99.854111 -108.95931 -6.4550996 -71.984612
755500000 -3.1135991 -160.77138 -71.092567 -119.73823 -91.443802 52.492764 -5.8431401 -139.8685
765000000 -3.204093 169.55455 -70.729523 150.69034 -94.011131 -146.83357 -6.6208887 154.32732
774500000 -3.2632892 139.69955 -71.885483 44.486885 -95.025299 -102.30766 -7.7795486 89.060051
784000000 -3.2644024 110.09659 -70.818489 -57.427677 -90.300552 66.549126 -8.24648 16.407232
793500000 -3.2476497 80.881721 -70.31105 -156.94264 -104.89163 -27.485416 -7.7960482 -63.626007
803000000 -3.2254496 52.022541 -70.778404 99.761017 -94.146698 -174.95979 -7.259614 -137.85893
812500000 -3.1835208 23.604513 -71.739395 1.0368332 -96.715546 126.77235 -6.8271055 159.14032
822000000 -3.139291 -4.2999883 -70.865166 -98.860962 -87.514908 122.39569 -6.3120999 99.545212
831500000 -3.123841 -31.967262 -69.998344 156.69443 -94.615128 -45.434006 -6.261169 33.847588
841000000 -3.1376786 -59.690361 -70.974548 52.159439 -87.265541 -139.93211 -7.4541912 -39.675007
850500000 -3.170366 -87.568237 -70.555328 -50.523178 -96.410881 90.368935 -8.7295637 -115.37837
860000000 -3.2249267 -115.73952 -70.086342 -149.90373 -85.661545 124.34417 -8.301116 171.43671
869500000 -3.2985544 -144.35065 -70.214127 119.51897 -96.426437 123.73134 -6.8229895 102.17452
879000000 -3.3643124 -173.31581 -71.196396 8.5333986 -89.92408 121.44049 -6.0489454 35.162811
888500000 -3.4056537 157.58708 -70.432404 -90.539345 -105.05733 -85.266571 -6.4862561 -28.199699
898000000 -3.4316881 128.51158 -70.052132 167.47189 -98.548973 96.383705 -7.3813901 -90.97599
907500000 -3.4257441 99.551521 -71.089088 82.378868 -93.328789 38.924679 -8.1189232 -161.27901
917000000 -3.380682 70.947525 -70.221069 -38.780983 -96.610962 46.360764 -8.3221512 119.54919
926500000 -3.3199751 42.901512 -70.344673 -133.87897 -87.104492 156.17346 -7.8617849 44.178024
936000000 -3.2674243 15.346578 -70.025566 124.24503 -98.799065 57.478821 -7.0043001 -20.712749
945500000 -3.2206075 -11.871589 -70.498962 23.589275 -91.151154 27.88282 -6.1686835 -81.453476
955000000 -3.1806774 -38.842663 -69.354401 -76.177979 -87.90538 -144.73994 -6.0649967 -145.13655
964500000 -3.1732814 -65.645714 -68.622826 -178.02583 -95.822174 123.39825 -7.1952901 147.21339
974000000 -3.2047956 -92.613373 -69.47789 85.431282 -86.007469 67.752724 -8.6427193 75.966858
983500000 -3.2633669 -120.08353 -69.559273 -20.696106 -88.09729 -77.405205 -8.789464 0.63114083
993000000 -3.3260274 -147.96613 -68.666245 -120.72057 -91.533661 -109.44415 -7.6742392 -73.235596
1002500000 -3.3819253 -176.11214 -69.42556 136.89641 -86.539139 -164.48895 -6.8384132 -140.60724
1012000000 -3.4438281 155.37291 -69.821358 48.174389 -98.349167 127.46533 -6.6929708 158.51674
1021500000 -3.4870481 126.58965 -69.3508 -52.99448 -96.396011 73.062073 -6.9021702 98.213867
1031000000 -3.4845331 97.857216 -69.135628 -153.9021 -97.650818 145.89456 -7.5975041 30.306608
1040500000 -3.4501977 69.445511 -68.129639 100.87808 -91.10791 69.642494 -8.8742914 -47.056137
1050000000 -3.415194 41.369591 -69.832245 -1.2380059 -89.495087 4.3320866 -9.3184071 -124.61674
1059500000 -3.3776703 13.57402 -69.362747 -98.266525 -94.888863 -16.234203 -8.1859922 166.24445
1069000000 -3.3296382 -13.798219 -68.159828 164.89668 -109.26572 -71.739883 -6.5951805 101.42343
1078500000 -3.2969773 -40.775826 -67.451019 59.575443 -89.120354 129.56831 -6.0642586 35.023491
1088000000 -3.3067949 -67.730507 -66.947884 -43.270981 -86.224136 83.618111 -7.1391492 -30.364304
1097500000 -3.3642461 -95.01313 -67.230385 -140.39972 -92.72496 -139.75557 -8.6572027 -95.479965
1107000000 -3.4284661 -122.63245 -67.757141 124.30387 -88.657463 -141.93338 -9.3256721 -167.39413
1116500000 -3.5006747 -150.65314 -66.840057 18.746071 -96.494843 74.603127 -8.7081013 114.91376
1126000000 -3.6043227 -179.26218 -66.938255 -81.146652 -85.924202 47.855564 -7.8634744 42.339371
1135500000 -3.6982396 151.60242 -66.809227 177.41246 -90.746483 -19.501245 -7.3829532 -21.146576
1145000000 -3.7410877 122.23484 -66.32798 81.722939 -88.427597 -171.49045 -7.1815562 -82.122513
1154500000 -3.7587299 92.914948 -65.819092 -22.331703 -93.439934 156.45667 -7.6726928 -148.75764
1164000000 -3.7635953 63.66806 -66.098885 -129.73497 -94.75779 127.35284 -9.1701593 137.09135
1173500000 -3.7298503 34.654877 -65.978165 135.83408 -92.427467 -96.763969 -10.078542 59.667309
1183000000 -3.6708946 6.271812 -66.375206 34.582794 -88.351227 -152.13092 -8.9603291 -13.887218
1192500000 -3.6303353 -21.59375 -65.478882 -65.664352 -94.578979 138.08795 -7.1175056 -82.615257
1202000000 -3.6196935 -49.309364 -64.67411 -169.95621 -89.929977 -25.823313 -6.4105473 -149.24672
1211500000 -3.6181781 -76.823502 -65.675385 86.088188 -97.610092 -2.6509099 -7.1334534 148.55359
1221000000 -3.6406767 -104.24371 -64.998962 -10.861993 -95.384964 -165.2394 -8.3227177 87.662048
1230500000 -3.718174 -132.04257 -64.271996 -110.38342 -83.33007 131.71825 -9.275877 19.291998
1240000000 -3.8078842 -160.41121 -63.6577 149.10745 -90.506889 -29.095018 -9.4472017 -59.462208
1249500000 -3.8711107 170.89148 -63.551395 47.683968 -83.988182 -71.53743 -8.7346916 -136.49857
1259000000 -3.9379892 141.97559 -62.918579 -53.395386 -94.770027 -123.33215 -7.7605453 156.45735
1268500000 -3.9994659 112.68927 -62.530018 -154.74969 -96.73941 73.536774 -7.0511527 94.055717
1278000000 -4.0031004 83.256615 -62.726082 100.09997 -93.253738 -57.048649 -7.2245746 29.984356
1287500000 -3.9476478 54.316063 -63.023754 -1.9784964 -89.650063 -86.515915 -8.4909592 -37.177517
1297000000 -3.8869767 25.911022 -61.58366 -99.367111 -83.524315 -178.6521 -9.7353687 -109.13173
1306500000 -3.8370347 -2.1596224 -61.78336 158.50078 -83.223686 114.61327 -9.3924589 173.93857
1316000000 -3.7699015 -29.717665 -61.322151 57.298698 -85.410103 -11.224813 -7.9356132 99.183113
1325500000 -3.699893 -56.69241 -60.756149 -47.931297 -84.646133 -83.609505 -7.07376 31.865025
1335000000 -3.6802118 -83.429039 -60.826199 -150.31467 -85.85125 -132.38846 -7.0121593 -28.168888
1344500000 -3.7116897 -110.29383 -60.743301 111.61105 -84.667213 114.91721 -7.3316417 -86.959587
1354000000 -3.7518771 -137.3998 -59.708237 10.162262 -87.543678 -11.586552 -8.0977173 -151.90089
1363500000 -3.7878184 -164.69527 -58.987766 -100.96699 -89.593979 -105.05727 -9.280632 134.53694
1373000000 -3.8553462 167.65651 -60.244358 151.74135 -81.371201 134.931 -9.6170998 58.550945
1382500000 -3.9450223 139.47058 -61.854427 63.306416 -88.23336 68.131775 -8.4959536 -11.741229
1392000000 -3.9908779 110.93042 -60.131996 -28.26725 -93.726944 -45.652958 -7.1202598 -78.125893
1401500000 -3.9778745 82.409401 -58.080952 -132.79214 -88.767128 -93.51722 -6.9053054 -144.42575
1411000000 -3.9653242 54.003349 -57.590298 118.24677 -80.893257 124.63748 -8.0897131 151.09427
1420500000 -3.9533622 25.701015 -57.674042 16.624308 -84.353836 59.653603 -9.5167189 85.245743
1430000000 -3.8828216 -2.1722765 -56.412815 -83.82592 -85.755768 -39.493103 -9.8527784 10.970597
1439500000 -3.799576 -29.372074 -55.146538 167.05913 -80.923492 -137.50348 -8.7638502 -67.953995
1449000000 -3.7744381 -56.19632 -55.244045 57.46516 -85.434441 106.01013 -7.7342372 -139.52164
1458500000 -3.78056 -83.049744 -55.024727 -52.291306 -82.061546 33.940502 -7.3306165 159.37682
1468000000 -3.781884 -109.86009 -55.610493 -160.23524 -86.708633 -75.560921 -7.2721219 102.15041
1477500000 -3.8062689 -136.60106 -55.851677 97.502831 -79.205177 -171.56946 -7.7960234 40.87825
1487000000 -3.8923085 -163.86659 -56.06509 -11.120524 -81.276123 130.85533 -9.2256861 -28.347778
1496500000 -3.9928904 168.26279 -56.564754 -116.47809 -90.006203 -27.233746 -10.446886 -105.15131
1506000000 -4.0561576 140.15474 -57.245071 142.31688 -84.297707 -96.352119 -9.7211914 177.2252
1515500000 -4.1310973 111.69791 -56.878246 40.859432 -84.153603 169.55815 -8.0807829 105.35291
1525000000 -4.2156124 82.673119 -56.696651 -71.403099 -84.964737 74.096191 -7.4224219 38.433132
1534500000 -4.2339301 53.475166 -58.015919 -177.70749 -84.713814 -51.197674 -7.9831457 -23.781298
1544000000 -4.2031827 24.616932 -58.75565 83.018066 -87.420509 -150.91731 -8.9640427 -86.325188
1553500000 -4.1835914 -3.9132707 -59.106892 -23.294342 -85.150078 148.7856 -9.692318 -157.70673
1563000000 -4.1544585 -32.22699 -59.954704 -126.56394 -87.668083 66.668968 -9.60818 122.49937
1572500000 -4.1047301 -60.029556 -61.22683 132.61037 -89.475647 -48.865177 -8.8378458 48.585583
1582000000 -4.0894518 -87.38063 -61.908306 32.047764 -93.911751 -73.729324 -7.9387212 -14.553127
1591500000 -4.1303768 -114.8371 -62.447132 -66.420197 -87.087753 -173.74484 -7.2942266 -74.306389
1601000000 -4.1869016 -142.55653 -62.535629 -167.96718 -92.569313 93.971893 -7.56675 -137.70314
1610500000 -4.2400975 -170.40848 -63.25539 91.045906 -94.355331 -91.652504 -9.0874443 153.9241
1620000000 -4.3327951 161.43178 -64.791908 -7.4180107 -91.97406 -157.50726 -10.517962 79.794395
1629500000 -4.449244 132.66489 -64.862999 -107.1076 -98.523964 118.04636 -9.9655542 2.4343343
1639000000 -4.5257511 103.46192 -65.113014 156.09476 -91.324921 66.876457 -8.2525826 -70.441841
1648500000 -4.5600967 74.149956 -66.696869 54.036221 -101.10165 -23.341087 -7.3942451 -137.10469
1658000000 -4.5903416 44.726009 -66.716599 -45.618782 -91.01989 172.73495 -7.6650119 161.70392
1667500000 -4.5937943 15.314106 -67.024521 -141.79622 -98.958076 95.381104 -8.5042944 100.13217
1677000000 -4.5304003 -13.683323 -68.086205 123.93515 -96.17215 117.26841 -9.5759792 29.816965
1686500000 -4.4479232 -42.039078 -69.445908 25.096325 -98.581993 48.576653 -10.104567 -49.826859
1696000000 -4.410079 -69.953476 -68.714256 -63.489056 -97.151505 -171.99541 -9.2801819 -124.95029
1705500000 -4.3843064 -97.603004 -68.67524 -153.41711 -96.876709 146.87065 -7.866396 170.52794
1715000000 -4.3529129 -125.03065 -67.788605 110.95238 -85.85733 102.83879 -6.8411674 109.66023
1724500000 -4.3661504 -152.31578 -67.154503 10.785998 -108.78751 -60.728317 -7.0275774 47.496964
1734000000 -4.4276242 -179.84206 -67.013672 -86.752502 -91.84436 -173.5383 -8.4944353 -16.100412
1743500000 -4.490911 152.21277 -67.436546 175.60388 -97.033531 -108.46661 -10.135863 -84.783669
1753000000 -4.5418072 124.08924 -66.853287 87.674438 -94.26796 124.006 -10.297803 -162.09987
1762500000 -4.5998144 95.736061 -66.479309 -19.348141 -86.47644 -1.8082113 -8.9265633 120.92037
1772000000 -4.6592088 66.919823 -65.850937 -116.54345 -94.742096 -168.05177 -7.8950467 52.187183
1781500000 -4.6725874 38.02528 -65.74353 147.6584 -90.707321 -137.08722 -7.7250772 -9.6260929
1791000000 -4.6449294 9.3707266 -65.455666 51.156357 -84.335892 79.270683 -8.1592522 -71.322128
1800500000 -4.6174431 -19.082651 -65.210548 -51.235317 -101.50788 -64.629082 -9.1414042 -139.68434
1810000000 -4.567842 -47.167347 -64.734131 -147.64926 -86.882133 -69.387352 -9.9976177 145.01321
1819500000 -4.5049195 -74.798264 -65.128128 122.47433 -99.02758 -168.64786 -9.5183268 71.94622
1829000000 -4.4795632 -102.05443 -63.41861 30.810837 -99.053238 110.07 -8.0873127 6.7474775
1838500000 -4.4787974 -129.13651 -61.190174 -70.878723 -85.951614 21.406122 -6.9597983 -55.40292
1848000000 -4.4891987 -156.17903 -59.340328 -179.66109 -91.263306 -116.05302 -7.1505222 -117.94916
1857500000 -4.5443463 176.78592 -58.896168 75.721878 -94.28154 175.78264 -8.6776161 179.12274
1867000000 -4.6391292 149.53477 -58.538715 -27.608807 -86.927155 110.61821 -10.51285 110.28379
1876500000 -4.742919 121.85857 -57.972439 -133.03822 -85.146645 -5.9044785 -10.902493 29.694723
1886000000 -4.8540692 93.948967 -57.227348 124.40617 -88.834396 -114.2901 -9.3734026 -50.211269
1895500000 -4.9569864 65.790627 -56.960781 15.498949 -86.495232 169.34283 -7.9964566 -118.65686
1905000000 -5.0336795 37.296082 -57.133022 -88.793312 -85.33905 92.57058 -7.4471426 -179.10321
1914500000 -5.061254 8.8402996 -56.713509 167.97284 -86.649956 -0.40051681 -7.6386371 121.03725
1924000000 -5.0423779 -19.426044 -56.607208 59.970741 -87.370232 -110.10709 -8.6832933 56.049355
1933500000 -4.9878683 -47.584671 -57.466576 -46.834896 -86.39283 153.21613 -10.062227 -15.864371
1943000000 -4.9132085 -75.483429 -58.353977 -145.39882 -90.763367 58.219719 -10.17328 -90.954659
1952500000 -4.8375154 -103.09173 -58.524788 115.05846 -87.51062 -54.458187 -8.8372412 -161.67456
1962000000 -4.7954221 -130.5826 -58.87767 15.529875 -86.006828 -138.01718 -7.6633077 131.81969
1971500000 -4.7691941 -157.99057 -58.738373 -84.518364 -88.964188 129.55414 -7.7418017 67.5103
1981000000 -4.7677703 174.62247 -58.792412 -178.47726 -93.235725 72.232689 -8.8697271 3.7026951
1990500000 -4.8213515 147.05336 -57.88562 83.998138 -86.030792 -24.53484 -10.147957 -65.863281
2000000000 -4.9051385 119.10794 -56.248287 -18.082415 -83.851234 -118.45816 -10.361569 -144.21205
