!Keysight Technologies,N5242B,MY48420967,A.15.65.19
!Date: Saturday, February 04, 2023 08:47:09
!Correction: S11(C  1-Port  ) 
!S21(Off) 
!S12(Off) 
!S22(Off) 
!S2P File: Measurements: S11, S21, S12, S22:
# Hz S  dB   R 50
100000000 -1.4180318 40.358788 -80.61834 145.32065 -91.051552 -150.47353 -2.623579 43.576107
109500000 -1.3446481 11.02777 -86.700516 -3.155983 -96.387024 12.644753 -2.5502923 -29.570068
119000000 -1.270633 -17.85074 -82.891876 -84.114853 -98.892326 0.6108588 -2.8560963 -109.1553
128500000 -1.1797534 -46.210876 -85.078842 -178.26822 -92.390419 101.41786 -3.321784 178.29861
138000000 -1.1597511 -74.605698 -81.811668 76.288918 -97.375954 -141.45871 -2.8716872 114.02708
147500000 -1.2275624 -103.50951 -91.065826 -70.025055 -95.738388 54.527096 -1.7495632 47.41655
157000000 -1.2900643 -132.77336 -78.849998 -157.68959 -97.123909 -149.78072 -1.8244191 -28.401335
166500000 -1.3606665 -162.25624 -82.225288 120.7513 -93.572441 -172.31874 -3.7479918 -102.22717
176000000 -1.4852974 167.80673 -83.094711 -0.97350067 -91.658188 161.12206 -5.024343 -171.1505
185500000 -1.5889558 137.51181 -79.740738 -92.281242 -90.500496 0.96830517 -4.3918624 118.3256
195000000 -1.610272 107.51377 -77.170334 174.25813 -115.51585 -29.693441 -3.0008876 43.332764
204500000 -1.614154 77.944138 -79.602737 65.413742 -105.95519 61.484612 -2.860702 -30.057453
214000000 -1.6254276 48.488621 -82.089584 -52.644775 -90.941055 128.92241 -3.4776902 -95.478638
223500000 -1.5829747 19.358816 -80.248924 -127.90266 -92.426895 -56.224625 -3.8012304 -160.3994
233000000 -1.5157769 -9.2849112 -78.073166 135.94899 -88.795357 80.596771 -4.0448742 126.5397
242500000 -1.5086509 -37.880859 -79.819031 20.34259 -92.794121 174.21242 -4.6544852 49.187256
252000000 -1.528224 -66.732056 -77.355034 -91.230156 -89.972404 69.069817 -4.7841978 -22.348843
261500000 -1.5414996 -95.760223 -78.97599 -176.93375 -86.512207 -167.92026 -3.9365959 -89.288353
271000000 -1.599854 -124.99129 -75.177231 78.060165 -90.241913 -138.45772 -3.0707116 -159.49329
280500000 -1.7098386 -154.73596 -77.30793 -50.257576 -95.142593 -176.36874 -3.6742432 127.4285
290000000 -1.7944696 175.14 -76.482773 -135.00986 -98.204498 -71.709709 -5.0568781 58.095028
299500000 -1.850471 145.0542 -82.601936 126.29473 -89.321213 67.104599 -5.5421448 -11.230232
309000000 -1.9128863 114.99892 -78.552574 13.452762 -109.81076 -71.21627 -4.8624196 -85.562958
318500000 -1.9491566 85.098991 -75.916214 -83.577721 -94.215813 97.657219 -4.344337 -161.73265
328000000 -1.9207184 55.630814 -75.276878 -172.93349 -98.38253 -0.19989744 -4.5272555 128.7291
337500000 -1.8916689 26.497946 -76.382141 55.398788 -94.505402 107.21976 -4.5877571 63.693535
347000000 -1.8970195 -2.4954038 -75.659927 -30.94425 -88.089607 173.86234 -4.4522696 -5.888618
356500000 -1.8823951 -31.386194 -75.836601 -132.20297 -92.143074 84.670273 -4.9489717 -81.710907
366000000 -1.8655632 -60.367802 -75.467834 126.13611 -88.079819 -23.009676 -5.7301211 -154.64706
375500000 -1.9156344 -89.704506 -77.627106 2.5259848 -98.824852 -56.983215 -5.5812583 137.80191
385000000 -1.9956847 -119.51375 -74.775482 -85.798439 -87.420982 92.194778 -4.6287985 69.14547
394500000 -2.0542676 -149.54164 -75.047661 170.16086 -97.270813 139.27448 -4.372498 -5.2802277
404000000 -2.1073718 -179.66199 -75.613503 81.972977 -92.904549 -128.58304 -5.4642515 -78.127327
413500000 -2.1820166 150.03891 -78.586617 -38.536438 -95.466354 -71.964958 -6.2738605 -146.58989
423000000 -2.2335315 119.84123 -74.866623 -134.89496 -89.301468 107.13426 -5.828721 143.64243
432500000 -2.214879 90.194695 -74.857491 135.32108 -89.815605 146.68974 -4.9439759 69.755089
442000000 -2.1812718 60.993748 -76.567062 20.721779 -95.533234 -6.505476 -4.9355354 -2.3242092
451500000 -2.1790485 32.062717 -74.807381 -72.006226 -106.79037 65.84137 -5.3471627 -67.784561
461000000 -2.1556575 3.4756927 -72.800957 -154.97815 -94.865005 66.776695 -5.3848524 -133.08975
470500000 -2.1094527 -24.825546 -72.872581 108.1538 -98.953926 47.464622 -5.3081136 154.31436
480000000 -2.1032765 -53.139263 -72.305916 -7.131444 -99.575195 -137.38933 -5.7494535 78.125107
489500000 -2.1450367 -81.790306 -70.134125 -95.931747 -105.54368 139.65532 -6.046526 7.8618884
499000000 -2.1859021 -110.7355 -68.551064 161.13599 -89.118538 56.514763 -5.5429335 -57.542889
508500000 -2.2121391 -139.79858 -66.245865 41.711468 -93.935822 45.436676 -4.8246636 -125.25627
518000000 -2.2589037 -169.10703 -64.052773 -82.742958 -96.020798 -99.378342 -5.1519418 163.15126
527500000 -2.3166623 161.39067 -66.377533 161.69234 -88.445007 74.285507 -6.2656236 93.008385
537000000 -2.3350184 132.04942 -68.361679 54.631535 -115.95169 -72.850151 -6.6352959 23.183346
546500000 -2.3214393 103.11389 -69.001846 -58.876751 -90.737244 87.518974 -5.8661952 -49.756886
556000000 -2.3042119 74.573563 -69.936897 -151.16426 -95.904198 -50.524563 -5.231348 -123.42841
565500000 -2.2770233 46.411934 -70.587593 104.53094 -91.926643 124.15451 -5.4262085 169.5593
575000000 -2.2372615 18.624998 -72.384537 -0.49087161 -102.83233 135.38058 -5.6653838 108.37741
584500000 -2.2061298 -8.9431076 -71.581017 -92.978111 -91.50621 146.36159 -5.5831313 44.125591
594000000 -2.1956871 -36.504574 -71.029297 170.67223 -96.364532 120.24778 -5.7724667 -29.579306
603500000 -2.2029586 -64.228439 -72.40834 55.284847 -90.662949 137.3376 -6.57342 -105.6707
613000000 -2.2335756 -92.283813 -72.207703 -41.817402 -103.2748 30.128788 -6.7336926 -175.15623
622500000 -2.2848837 -120.81287 -71.388176 -135.93515 -103.20316 -65.36145 -5.9599085 119.44431
632000000 -2.3459992 -149.7269 -72.114876 124.09265 -94.259415 135.67044 -5.3034506 51.702724
641500000 -2.3901799 -178.76939 -72.637634 21.017164 -89.310349 133.40993 -5.8591218 -18.170729
651000000 -2.4310975 152.01228 -71.671417 -86.402397 -100.6498 174.54857 -7.0123401 -87.296623
660500000 -2.466362 122.73817 -71.49086 -174.10703 -105.51994 -161.41093 -7.3769889 -159.35344
670000000 -2.4582937 93.731186 -72.548347 92.378456 -99.560051 47.642151 -6.7093749 124.74374
679500000 -2.4259589 65.203178 -72.017197 -20.185354 -90.322701 -49.526352 -6.1690526 52.124939
689000000 -2.4017732 36.988487 -72.311707 -122.86882 -102.39828 44.100983 -6.072619 -11.98286
698500000 -2.3875616 8.886735 -71.643715 143.38683 -100.04108 139.82143 -5.9612627 -72.757439
708000000 -2.3665767 -18.948 -72.011711 40.636959 -90.313324 99.121941 -6.0588384 -139.53752
717500000 -2.3547499 -46.643456 -71.360985 -69.064865 -95.496902 70.071663 -7.0605741 144.58762
727000000 -2.3914475 -74.78257 -71.124802 -163.07813 -90.635284 -41.611 -8.0830116 67.332321
736500000 -2.4617977 -103.49195 -71.498863 97.720093 -91.098366 -150.46199 -7.6140447 -4.5079265
746000000 -2.5168746 -132.49738 -71.13488 -0.75041062 -91.486839 7.3394475 -6.2594657 -72.423584
755500000 -2.5709229 -161.81006 -69.652359 -109.08945 -92.540398 -171.94417 -5.6642833 -140.54849
765000000 -2.6517162 168.444 -70.274025 149.50937 -101.16521 -29.21312 -6.4599924 153.43146
774500000 -2.704644 138.52246 -71.525208 46.69453 -100.44444 -112.93584 -7.6057291 88.001099
784000000 -2.7033949 108.87283 -70.54615 -54.74638 -96.377609 97.199272 -8.0267916 15.203991
793500000 -2.687813 79.603256 -69.813835 -154.84425 -96.225998 -34.0205 -7.5580716 -64.850029
803000000 -2.6696367 50.662636 -70.670128 101.83978 -98.391678 36.001518 -7.0549064 -138.97534
812500000 -2.6319225 22.157978 -71.206276 7.132699 -89.125221 138.70563 -6.6460958 158.07413
822000000 -2.5897446 -5.8414035 -70.441612 -101.23791 -89.730324 118.36486 -6.1307559 98.315552
831500000 -2.572793 -33.62178 -69.558731 162.16464 -100.59657 -66.53331 -6.0749674 32.180729
841000000 -2.5823865 -61.481026 -69.935135 54.299873 -97.816772 2.1355426 -7.2683501 -41.754227
850500000 -2.6063094 -89.500031 -70.703979 -47.002621 -111.71384 -154.44165 -8.5063248 -117.42869
860000000 -2.6510608 -117.79937 -69.621857 -144.04918 -94.009659 105.95193 -8.0379219 169.6991
869500000 -2.713043 -146.52531 -70.417732 118.89172 -90.421547 -80.534973 -6.5671086 100.53284
879000000 -2.7677734 -175.57291 -70.853966 7.0351424 -92.132668 177.23351 -5.8351932 33.376034
888500000 -2.802381 155.28749 -70.192619 -88.224991 -118.40482 4.4160857 -6.3063097 -30.128763
898000000 -2.8251395 126.19163 -69.506813 172.84532 -90.382629 145.73233 -7.1917214 -93.14888
907500000 -2.8185403 97.247749 -70.314079 75.75679 -94.810936 15.302988 -7.8720193 -163.79845
917000000 -2.7780886 68.684593 -70.181686 -31.337915 -92.472115 -127.86794 -8.0229025 117.04368
926500000 -2.7259407 40.66766 -69.532532 -137.35506 -87.498482 127.77587 -7.5735197 42.125675
936000000 -2.6796546 13.131084 -70.685287 131.8831 -99.92038 98.639297 -6.7465787 -22.45517
945500000 -2.6368551 -14.070013 -70.025299 31.100071 -88.654999 42.003803 -5.9280725 -83.255844
955000000 -2.5993457 -41.032051 -69.426384 -69.657654 -89.870804 -166.13651 -5.8438683 -147.29973
964500000 -2.5908651 -67.860283 -69.735344 -169.82925 -95.388374 93.097321 -6.9850945 144.71019
974000000 -2.6140225 -94.861305 -69.540604 86.571175 -100.27888 142.46571 -8.3818827 73.370499
983500000 -2.6601183 -122.36258 -70.029594 -8.7460909 -90.451279 0.3450239 -8.4565887 -1.6367931
993000000 -2.7106664 -150.25873 -68.881813 -114.44225 -92.018272 -155.51836 -7.3487325 -75.11985
1002500000 -2.75384 -178.40788 -68.945107 145.5397 -93.309898 138.62949 -6.5677719 -142.33432
1012000000 -2.8038683 153.08566 -70.280258 47.824463 -90.762894 116.32244 -6.4597602 156.81607
1021500000 -2.8410032 124.34576 -68.908897 -49.029171 -93.251251 -16.610413 -6.6679134 96.303169
1031000000 -2.833832 95.668892 -68.026054 -154.2213 -106.05735 81.121063 -7.3406267 27.946625
1040500000 -2.8002458 67.326942 -68.216125 104.96603 -92.70047 -169.54115 -8.5789328 -49.569595
1050000000 -2.7711062 39.298008 -69.401787 2.1737278 -106.48833 -124.44545 -8.9930019 -126.58722
1059500000 -2.7370667 11.527191 -68.78125 -94.641266 -92.479042 8.1709499 -7.8731966 164.77771
1069000000 -2.6918068 -15.82012 -67.958511 168.45491 -91.048523 -120.05772 -6.3083115 99.922913
1078500000 -2.6595621 -42.801163 -67.352379 64.722786 -95.979607 -54.449284 -5.8299451 33.176514
1088000000 -2.6644976 -69.810356 -66.86618 -38.319862 -86.628708 65.944206 -6.9510341 -32.441147
1097500000 -2.7108505 -97.172073 -67.471367 -139.15828 -92.444504 -22.98007 -8.4514713 -97.745575
1107000000 -2.7604747 -124.84785 -67.136635 125.79076 -92.276642 -129.25319 -9.0449448 -169.79073
1116500000 -2.8142567 -152.95094 -66.901154 23.892563 -90.513229 142.75542 -8.3922892 112.63104
1126000000 -2.8991346 178.34578 -66.439125 -82.088333 -87.194626 89.093872 -7.5901523 40.24958
1135500000 -2.9771848 149.14995 -66.755035 -177.8602 -87.704308 -51.181736 -7.1530867 -23.202078
1145000000 -3.007844 119.75874 -66.227425 83.220406 -90.609062 161.34729 -6.9701405 -84.478516
1154500000 -3.0203021 90.402237 -65.622826 -24.198351 -97.62767 133.10048 -7.4766769 -151.75597
1164000000 -3.0238385 61.132187 -65.535637 -127.57329 -97.438278 -7.8616066 -8.9578829 133.58203
1173500000 -2.996567 32.097507 -65.353828 134.10738 -102.60772 -17.843225 -9.7714987 56.325363
1183000000 -2.9464016 3.662782 -65.89444 36.471725 -85.711388 163.11688 -8.5992413 -16.671774
1192500000 -2.9122882 -24.293009 -64.907875 -64.566727 -83.912567 135.31853 -6.7926841 -85.347832
1202000000 -2.9063644 -52.099014 -64.823807 -168.43031 -91.82428 84.676514 -6.1810622 -152.19722
1211500000 -2.9067824 -79.753487 -64.782143 90.453423 -119.57747 -57.772007 -6.9740806 145.46042
1221000000 -2.9250226 -107.3469 -64.657829 -7.4177923 -87.432892 174.94472 -8.1599255 84.182777
1230500000 -2.9900599 -135.32668 -64.023689 -105.08411 -95.059418 119.18314 -9.0280466 15.106251
1240000000 -3.0668707 -163.85808 -63.624462 154.36729 -94.473686 129.41144 -9.0826778 -63.875992
1249500000 -3.1173773 167.28186 -63.511761 48.015965 -84.568367 -101.60188 -8.3520374 -140.29573
1259000000 -3.1712744 138.24077 -63.391548 -53.488735 -90.738251 130.31436 -7.4215856 153.11946
1268500000 -3.2218816 108.87757 -62.46875 -151.27753 -84.799728 108.18587 -6.7598085 90.632217
1278000000 -3.2213666 79.433426 -61.941563 103.38586 -85.848701 41.649933 -6.9843006 26.103371
1287500000 -3.1718664 50.5233 -62.520714 -2.0424647 -90.049408 -80.247894 -8.2576981 -41.545143
1297000000 -3.1205876 22.136738 -62.345734 -101.49332 -90.073509 -162.49059 -9.3865147 -113.73925
1306500000 -3.0827909 -5.9072781 -62.525925 157.82294 -83.956917 86.455826 -8.9113884 169.78224
1316000000 -3.0267534 -33.433559 -61.636684 60.494274 -86.442444 36.006485 -7.4789672 95.637085
1325500000 -2.9664829 -60.394119 -61.678921 -41.476097 -90.230392 -99.067657 -6.7235456 28.674139
1335000000 -2.9518445 -87.163902 -61.394196 -143.69302 -86.422791 139.54489 -6.7286186 -31.232874
1344500000 -2.9812956 -114.08314 -60.708611 120.53461 -83.119148 95.969933 -7.0623899 -90.304619
1354000000 -3.0116127 -141.22079 -59.711357 17.87686 -91.898506 30.101467 -7.8054552 -155.88867
1363500000 -3.0371408 -168.54547 -59.435516 -84.94101 -87.18325 -91.075325 -8.9149094 130.1601
1373000000 -3.0906682 163.76587 -58.134586 171.67227 -82.089485 179.71133 -9.159193 54.692612
1382500000 -3.1635952 135.57854 -58.100304 59.737797 -85.635056 92.02832 -8.0384521 -14.86031
1392000000 -3.1941767 107.11458 -59.410454 -43.774044 -83.222298 -16.993876 -6.7112012 -81.094078
1401500000 -3.1748114 78.693687 -59.346817 -134.30386 -86.915154 -121.67055 -6.5697141 -147.66478
1411000000 -3.1620908 50.384323 -58.072086 127.18638 -86.185822 150.49065 -7.8000374 147.63583
1420500000 -3.1527467 22.21965 -56.834339 26.259384 -83.414597 86.068161 -9.1671257 81.600517
1430000000 -3.0897593 -5.5089736 -55.914589 -81.403877 -90.155746 -34.853966 -9.3613195 7.4603534
1439500000 -3.0177314 -32.610802 -55.481831 172.99667 -79.795135 -119.19711 -8.2418766 -70.981339
1449000000 -2.9981449 -59.381905 -55.418026 68.848091 -81.746513 176.55276 -7.3219266 -142.18306
1458500000 -3.0058959 -86.208244 -54.646454 -31.247955 -81.876854 66.46711 -7.0106277 156.84068
1468000000 -3.0033174 -113.00939 -52.945717 -137.1515 -79.399612 -59.663704 -7.0098586 99.382545
1477500000 -3.0178347 -139.78236 -51.708466 108.13517 -79.283478 -160.75964 -7.5702691 37.593914
1487000000 -3.0877428 -167.1167 -53.093651 -7.3966451 -76.706833 113.31818 -8.9816504 -32.297192
1496500000 -3.16888 164.97009 -52.849911 -110.86076 -83.856621 10.95228 -10.116495 -109.16955
1506000000 -3.2133667 136.82796 -52.922321 135.50259 -79.812965 -106.78774 -9.3067074 174.08276
1515500000 -3.2685225 108.33178 -55.141571 25.702101 -80.857903 178.77997 -7.6793466 102.51151
1525000000 -3.3364353 79.291016 -54.995926 -71.152824 -83.436142 83.919754 -7.1338382 35.444389
1534500000 -3.3467915 50.102001 -55.540321 -179.28423 -84.456177 -26.345201 -7.7601991 -26.849085
1544000000 -3.317543 21.253862 -55.887177 77.79393 -84.330887 -123.25372 -8.7295189 -89.78418
1553500000 -3.3014135 -7.2925715 -56.311405 -31.989933 -82.734833 141.92628 -9.3667622 -161.78438
1563000000 -3.2796776 -35.635265 -57.876865 -139.79887 -89.743896 45.616009 -9.2072897 118.44141
1572500000 -3.2398489 -63.501751 -59.534786 121.17008 -86.122643 -24.906841 -8.4655056 45.124603
1582000000 -3.2284942 -90.982109 -60.299816 19.306383 -88.828445 -117.50898 -7.6188335 -17.739408
1591500000 -3.2657955 -118.61074 -60.83168 -81.672546 -84.806534 122.52951 -7.0204849 -77.821854
1601000000 -3.3132825 -146.50443 -61.593899 179.97412 -87.997833 37.208855 -7.3544827 -141.99974
1610500000 -3.354852 -174.56349 -62.092655 77.904228 -85.043343 -98.001923 -8.8980055 148.75687
1620000000 -3.4306116 157.03496 -63.025963 -23.604273 -90.203064 -166.54649 -10.185373 74.147903
1629500000 -3.526165 128.05745 -63.736542 -122.8707 -91.374519 148.72049 -9.4580135 -2.6881104
1639000000 -3.5822198 98.713287 -64.357178 135.5807 -96.255028 -164.8074 -7.7721338 -75.078262
1648500000 -3.6036103 69.276146 -65.824364 38.399334 -91.004852 -86.337196 -7.0401912 -141.62772
1658000000 -3.6272271 39.763645 -66.427811 -60.185223 -89.543785 -134.92583 -7.3985686 157.07455
1667500000 -3.6277373 10.33427 -66.909882 -154.72934 -94.785133 92.111244 -8.2447023 94.853035
1677000000 -3.5715044 -18.634773 -67.610283 105.00826 -93.232277 80.553421 -9.2249308 23.542688
1686500000 -3.5038655 -46.990601 -69.466583 13.796599 -92.040939 -29.210922 -9.593358 -55.975258
1696000000 -3.4785547 -74.91774 -69.400139 -86.606079 -94.42514 -62.005497 -8.7368135 -129.79933
1705500000 -3.460434 -102.59681 -69.939034 -172.67789 -90.695213 100.52183 -7.3879733 166.36198
1715000000 -3.4338863 -130.06122 -70.588089 100.80549 -96.877716 51.993004 -6.4509969 105.31937
1724500000 -3.4466152 -157.42328 -69.78978 3.3151445 -108.17491 -97.130997 -6.7433491 42.622101
1734000000 -3.498795 174.96454 -68.347641 -96.341927 -92.155121 -105.00809 -8.2477732 -21.566473
1743500000 -3.5469708 146.95869 -69.288643 171.47679 -88.643166 -129.8905 -9.7482309 -90.878334
1753000000 -3.5826201 118.81982 -68.900703 78.04686 -94.829346 152.40622 -9.6714067 -167.89909
1762500000 -3.6235845 90.463661 -68.126884 -21.704105 -94.810707 146.03575 -8.2835579 116.05416
1772000000 -3.6664701 61.695816 -67.814384 -119.87068 -87.585236 -115.14275 -7.3811531 47.85569
1781500000 -3.6712832 32.931133 -67.697945 148.29933 -87.95887 -119.4277 -7.3061337 -13.836895
1791000000 -3.6427534 4.4233155 -66.551193 45.781849 -95.647614 159.35858 -7.7650928 -75.889168
1800500000 -3.6192095 -23.873093 -67.342751 -52.951248 -93.328316 84.964409 -8.7064142 -144.78021
1810000000 -3.576797 -51.792099 -66.309166 -143.18611 -88.207893 -75.864655 -9.4652052 140.19502
1819500000 -3.5247686 -79.281937 -65.983772 115.43623 -89.431694 -152.20111 -8.9507608 68.230507
1829000000 -3.5073612 -106.45652 -66.040138 31.981794 -92.417648 116.15731 -7.5688581 3.6057107
1838500000 -3.5051088 -133.47604 -63.396568 -58.356686 -97.314499 22.496977 -6.5190101 -58.773056
1848000000 -3.508136 -160.50435 -61.07563 -159.31358 -110.23737 31.504192 -6.8079348 -121.84792
1857500000 -3.5520363 172.41354 -58.522602 94.729134 -85.733154 -147.90585 -8.3728304 174.69479
1867000000 -3.6241102 145.07295 -57.357784 -20.864689 -87.029091 95.365181 -10.079329 105.2477
1876500000 -3.7014649 117.29644 -57.138027 -126.71415 -88.294533 -2.6097639 -10.241702 25.043528
1886000000 -3.7845814 89.259071 -56.58585 127.54099 -86.803955 -75.918907 -8.7310505 -53.773811
1895500000 -3.8645618 60.92403 -56.21981 19.446039 -83.480103 171.3876 -7.5038977 -121.75726
1905000000 -3.928215 32.25069 -56.388275 -85.601959 -85.171661 72.905556 -7.0617218 177.76982
1914500000 -3.9620974 3.6464241 -56.344437 171.21848 -84.204819 3.1082907 -7.3097291 117.44499
1924000000 -3.969316 -24.758213 -56.354916 62.66605 -81.701569 -107.40601 -8.3719139 51.725323
1933500000 -3.9543202 -52.982059 -56.964706 -40.169521 -83.988853 134.43356 -9.6743708 -20.63924
1943000000 -3.9245601 -80.856628 -56.849072 -142.3448 -82.554825 50.09127 -9.6669226 -95.309402
1952500000 -3.8893218 -108.42487 -57.251255 115.52123 -86.977715 -29.994888 -8.3218088 -165.57513
1962000000 -3.8719244 -135.90622 -58.061836 8.3531199 -86.770988 -111.69922 -7.2352295 127.73025
1971500000 -3.8603532 -163.3273 -58.621216 -88.003349 -85.819641 150.60832 -7.4252191 62.979637
1981000000 -3.865175 169.21848 -59.005764 175.9796 -90.129921 28.233707 -8.5928802 -1.4272444
1990500000 -3.9117181 141.49689 -59.016163 84.271164 -92.575966 1.8911988 -9.7725897 -71.802017
2000000000 -3.9758728 113.36916 -57.993732 -9.9620857 -88.580078 -102.68575 -9.8103991 -150.11894
