!Keysight Technologies,N5242B,MY48420967,A.15.65.19
!Date: Saturday, February 04, 2023 15:36:39
!Correction: S11(C  1-Port  ) 
!S21(Off) 
!S12(Off) 
!S22(Off) 
!S2P File: Measurements: S11, S21, S12, S22:
# Hz S  dB   R 50
100000000 -1.5041589 40.199638 -84.043915 124.71334 -89.287613 160.04924 -2.7569616 42.584671
109500000 -1.4400259 10.785008 -83.623833 -2.1789403 -99.10128 129.6877 -2.7012787 -30.846806
119000000 -1.3719462 -18.154507 -78.842178 -106.72637 -106.9644 93.570168 -3.0114186 -110.49757
128500000 -1.2882286 -46.565655 -80.647713 164.88312 -90.090408 82.332314 -3.4454136 177.0314
138000000 -1.2764884 -74.985229 -82.069504 81.608955 -103.86686 175.51295 -2.9707699 112.75557
147500000 -1.3495537 -103.90518 -82.87207 -24.953506 -91.692513 161.45236 -1.8634977 46.057934
157000000 -1.4173146 -133.16568 -78.319763 -141.44698 -93.53437 -153.36362 -1.9788873 -29.636871
166500000 -1.491245 -162.62242 -78.564453 103.93967 -88.171906 -91.608978 -3.8960643 -103.29395
176000000 -1.617198 167.46881 -83.41906 5.340302 -88.978745 125.80807 -5.1340694 -172.28723
185500000 -1.7204165 137.21468 -81.313492 -82.737679 -89.12207 115.26657 -4.4661021 117.08315
195000000 -1.7391568 107.26472 -78.905807 170.67316 -92.052185 -123.33122 -3.073179 42.120296
204500000 -1.7400757 77.745926 -79.837997 46.699051 -91.427071 177.68443 -2.9394965 -31.077393
214000000 -1.7481251 48.343204 -78.354462 -66.615753 -87.896103 13.527307 -3.549566 -96.399696
223500000 -1.7033501 19.262722 -79.01667 -144.67169 -92.871208 -106.48895 -3.8715937 -161.40497
233000000 -1.6345909 -9.3436632 -79.246513 130.72491 -93.700012 -87.567429 -4.1202602 125.39277
242500000 -1.6264454 -37.903622 -79.275436 19.089731 -96.77253 -11.599249 -4.7222433 48.002342
252000000 -1.6478921 -66.728508 -79.540199 -108.80152 -94.650024 25.764204 -4.8282003 -23.512745
261500000 -1.6632432 -95.739151 -78.887268 177.16878 -86.994438 -6.8469224 -3.9689777 -90.492737
271000000 -1.7261726 -124.95821 -79.637741 72.617134 -99.161423 24.726881 -3.1210353 -160.80328
280500000 -1.8413911 -154.70761 -80.035034 -84.003212 -89.917107 -67.748726 -3.753154 126.13199
290000000 -1.931046 175.15518 -76.083519 -148.49525 -90.057091 -55.365723 -5.1318712 56.763809
299500000 -1.9929248 145.04535 -78.589973 83.571182 -90.51918 127.08064 -5.5929651 -12.739569
309000000 -2.0622098 114.95605 -75.847527 22.14015 -92.471512 146.34076 -4.8978243 -87.230721
318500000 -2.1043077 85.021263 -76.082031 -95.406464 -97.373184 111.68145 -4.3866043 -163.3495
328000000 -2.0810118 55.51833 -75.919151 165.96907 -92.368996 -21.782351 -4.5725169 127.24555
337500000 -2.0594349 26.361166 -78.079475 62.088703 -89.386597 -33.885056 -4.6288071 62.187077
347000000 -2.073391 -2.6560609 -74.906708 -43.500298 -88.818451 83.636856 -4.5005064 -7.5409975
356500000 -2.0663526 -31.576027 -73.383347 -152.91939 -105.35172 -38.811226 -5.0083599 -83.385452
366000000 -2.0598099 -60.562542 -78.184334 101.91265 -88.406548 -37.079067 -5.7700553 -156.19722
375500000 -2.1199231 -89.898605 -75.596222 5.5165691 -98.914375 -102.51325 -5.593091 136.33527
385000000 -2.2129874 -119.71198 -76.579239 -98.828049 -86.658737 137.44228 -4.6355553 67.640945
394500000 -2.2805624 -149.74628 -73.153389 175.68037 -94.515633 102.76724 -4.4043403 -6.7486501
404000000 -2.3415978 -179.85312 -76.239296 63.316372 -88.383553 151.93634 -5.5003753 -79.423347
413500000 -2.4227407 149.8763 -76.063873 -45.302345 -83.415802 -115.03405 -6.2852602 -147.76051
423000000 -2.4782603 119.68593 -75.292725 -148.61082 -87.903351 126.01038 -5.8196931 142.52557
432500000 -2.4614294 90.063377 -74.253021 119.29778 -87.682716 -129.88466 -4.9372354 68.735565
442000000 -2.4304338 60.899872 -74.72039 33.084217 -95.450752 135.65387 -4.939703 -3.1631081
451500000 -2.4300773 32.022774 -74.837578 -86.586143 -95.385399 65.654243 -5.352634 -68.507813
461000000 -2.4092073 3.4746134 -75.786316 -179.53081 -98.619965 -31.335936 -5.3896251 -133.78073
470500000 -2.3678014 -24.781828 -74.633339 85.724648 -117.4014 -122.78136 -5.3168502 153.60944
480000000 -2.3667424 -53.039242 -74.614365 -27.113272 -95.642097 124.54037 -5.7607985 77.492508
489500000 -2.4155896 -81.643127 -72.338356 -111.59872 -94.602104 -9.9007912 -6.0537114 7.315434
499000000 -2.4636817 -110.54991 -69.512833 148.1676 -87.234909 53.571774 -5.5482092 -58.057232
508500000 -2.4972973 -139.59479 -67.598907 37.355415 -91.961304 145.10117 -4.8374553 -125.79104
518000000 -2.5539029 -168.86606 -66.621307 -83.659027 -127.52929 147.46587 -5.1759491 162.61218
527500000 -2.6169219 161.67053 -67.991997 163.66333 -87.118675 128.28162 -6.2919145 92.456047
537000000 -2.6380544 132.34221 -69.20546 55.787079 -87.477913 36.377655 -6.6508389 22.588951
546500000 -2.6238363 103.40199 -69.269341 -51.323029 -90.300674 -159.41376 -5.8758631 -50.381851
556000000 -2.6055841 74.860985 -69.472099 -151.77034 -94.052299 -140.58379 -5.2444777 -124.02301
565500000 -2.5791526 46.69873 -71.042908 102.65758 -90.568565 158.72005 -5.4409876 169.02773
575000000 -2.5400012 18.903397 -73.325294 5.7876701 -89.582779 -118.76471 -5.6794624 107.84383
584500000 -2.5114374 -8.6674862 -70.885147 -94.232544 -89.528496 -158.5379 -5.5987821 43.513382
594000000 -2.506068 -36.228481 -70.533485 164.02646 -92.682594 143.69685 -5.7951269 -30.279209
603500000 -2.5205152 -63.952995 -72.226601 55.596767 -89.118423 164.18327 -6.5923724 -106.36155
613000000 -2.5602252 -92.007011 -72.242691 -45.213631 -98.030968 20.349058 -6.7392902 -175.78554
622500000 -2.6215184 -120.53526 -72.515167 -132.43221 -107.19729 -171.85138 -5.9581785 118.83961
632000000 -2.6927373 -149.47704 -72.360992 118.71838 -91.557243 160.41618 -5.3063073 51.080498
641500000 -2.7439337 -178.53853 -72.083244 21.087261 -89.15625 88.134392 -5.8698764 -18.784231
651000000 -2.7911527 152.23375 -72.411026 -83.935829 -93.594536 -98.707787 -7.0197539 -87.917206
660500000 -2.8309269 122.92633 -71.355972 -178.05011 -100.47325 -6.1310501 -7.3688068 -159.99533
670000000 -2.8253176 93.886505 -72.472061 78.818047 -91.896141 72.115326 -6.692637 124.14525
679500000 -2.792192 65.337746 -71.962135 -27.496078 -90.103035 -18.716516 -6.1545105 51.627598
689000000 -2.7701681 37.124023 -70.874168 -123.16323 -94.953247 72.775597 -6.0589676 -12.404683
698500000 -2.7588928 9.0295458 -71.759315 142.42715 -95.979515 -118.81678 -5.9464993 -73.149544
708000000 -2.7425048 -18.801981 -70.62841 39.952068 -86.532585 138.54591 -6.0435834 -139.95737
717500000 -2.7380066 -46.476559 -70.312553 -72.764297 -105.51678 85.839905 -7.0420933 144.17796
727000000 -2.7863085 -74.565613 -70.999664 -173.31203 -87.560822 15.235475 -8.0557289 67.015015
736500000 -2.8689811 -103.23723 -71.701965 90.56694 -102.36842 -76.450439 -7.5837789 -4.6930451
746000000 -2.9352257 -132.2038 -70.81205 -10.965676 -95.078552 35.176884 -6.2311125 -72.529114
755500000 -3.0012918 -161.47942 -70.717697 -111.25127 -91.414627 73.571068 -5.6384802 -140.60028
765000000 -3.0897593 168.81897 -71.457535 149.71298 -99.914543 160.44577 -6.433918 153.43503
774500000 -3.1475399 138.9379 -71.323853 48.707729 -88.148071 158.38458 -7.576376 88.097778
784000000 -3.147687 109.31907 -70.448433 -54.596016 -100.42986 -18.618202 -7.9966688 15.453127
793500000 -3.1309135 80.094528 -69.623917 -162.20412 -90.88546 -56.959118 -7.5347123 -64.482407
803000000 -3.109616 51.214256 -70.151031 95.050064 -94.241188 -165.55641 -7.0396476 -138.58284
812500000 -3.0684733 22.772465 -72.601364 2.1314168 -92.563255 128.72345 -6.6368785 158.48428
822000000 -3.0247324 -5.1643925 -70.22921 -97.730225 -95.088684 165.47295 -6.1211567 98.804367
831500000 -3.0093691 -32.860935 -69.601418 161.91399 -97.127235 2.3604634 -6.0569763 32.809395
841000000 -3.0230024 -60.632328 -69.32431 59.781246 -95.086891 -151.32837 -7.242238 -40.98299
850500000 -3.053669 -88.55764 -70.683357 -52.927219 -99.848228 126.29454 -8.4964924 -116.56201
860000000 -3.1067472 -116.77431 -70.033478 -144.80302 -92.044472 113.69479 -8.056078 170.57541
869500000 -3.1776645 -145.43228 -71.491524 109.32798 -90.20195 35.622341 -6.5922232 101.39017
879000000 -3.2403972 -174.42815 -70.590012 13.604765 -90.333939 -108.29891 -5.8483157 34.239254
888500000 -3.279285 156.46188 -69.512177 -94.968491 -89.556213 142.59291 -6.3085232 -29.253407
898000000 -3.3036344 127.373 -69.834282 169.39288 -103.27461 129.00563 -7.1948247 -92.16436
907500000 -3.2962503 98.413963 -70.115929 72.359642 -93.511673 36.888531 -7.8892426 -162.6125
917000000 -3.2519336 69.830368 -69.480606 -33.088871 -87.235268 -161.10051 -8.0616684 118.28306
926500000 -3.1926513 41.794907 -69.608192 -139.06833 -107.19463 -117.8233 -7.6236243 43.186455
936000000 -3.1408308 14.252885 -70.254318 128.48964 -97.752327 12.775664 -6.7966976 -21.544985
945500000 -3.0954986 -12.959733 -70.354172 28.715498 -90.801193 -174.75699 -5.9732513 -82.355957
955000000 -3.05654 -39.931816 -69.618141 -74.967239 -94.482445 -173.29236 -5.874804 -146.2982
964500000 -3.0497112 -66.747345 -69.072311 -173.05301 -94.428398 167.36519 -7.0059586 145.79762
974000000 -3.0798967 -93.730423 -69.055115 80.943031 -98.127411 115.85602 -8.4210854 74.50621
983500000 -3.1359563 -121.21954 -69.158272 -13.552581 -93.820358 78.199471 -8.5259552 -0.58287632
993000000 -3.1964633 -149.11807 -68.443359 -120.13606 -93.952278 -99.683968 -7.420826 -74.226791
1002500000 -3.2496614 -177.28319 -69.149025 138.54958 -93.413033 146.03783 -6.6248527 -141.5618
1012000000 -3.3083525 154.19185 -69.060791 43.542339 -94.608521 105.35851 -6.504056 157.52837
1021500000 -3.3504357 125.41074 -69.784676 -53.427525 -95.396584 -42.168678 -6.7079358 97.052574
1031000000 -3.345484 96.681236 -68.182175 -160.52594 -93.61087 160.20029 -7.3784037 28.821272
1040500000 -3.3106294 68.287941 -68.24514 101.05943 -88.668289 120.21873 -8.6221952 -48.652035
1050000000 -3.277535 40.224525 -69.192955 3.5142891 -91.865242 -47.063328 -9.0504436 -125.81359
1059500000 -3.2405384 12.438029 -68.121262 -97.145096 -94.524963 -51.891937 -7.9317651 165.40083
1069000000 -3.1929653 -14.927614 -67.934326 167.02278 -94.551529 -90.22509 -6.3576131 100.55251
1078500000 -3.1617908 -41.906597 -67.321388 64.313919 -94.212357 177.42372 -5.8562417 33.869362
1088000000 -3.1716793 -68.883553 -67.522133 -41.8722 -94.573952 58.350834 -6.9577956 -31.710445
1097500000 -3.2270491 -96.2024 -67.49765 -144.66228 -89.156868 112.00403 -8.4566374 -96.91777
1107000000 -3.2890987 -123.84315 -67.567665 123.48574 -88.253448 176.16667 -9.0655651 -168.81583
1116500000 -3.3580501 -151.90944 -66.69812 19.97156 -90.15358 -157.20229 -8.4267864 113.67107
1126000000 -3.4570203 179.44151 -66.83725 -83.683037 -89.447716 -51.014538 -7.6178632 41.238682
1135500000 -3.5474463 150.27657 -66.71637 178.13481 -94.65284 -110.69715 -7.1701674 -22.226259
1145000000 -3.5861855 120.89958 -65.96711 81.5075 -91.052711 -122.10332 -6.9743071 -83.370789
1154500000 -3.6027021 91.567886 -65.4683 -24.31176 -84.795456 124.38837 -7.4590435 -150.37547
1164000000 -3.6061482 62.316917 -65.189011 -127.32375 -88.262634 104.64621 -8.9346886 135.2355
1173500000 -3.5726285 33.30777 -65.552185 134.8486 -100.71375 -60.054779 -9.7959795 58.09367
1183000000 -3.5168438 4.9204917 -66.086395 33.605446 -86.564682 -143.15604 -8.668992 -15.014952
1192500000 -3.4774396 -22.960434 -64.974976 -66.42952 -89.258835 122.75485 -6.8546867 -83.714394
1202000000 -3.4685533 -50.690788 -64.518707 -170.33411 -88.722267 31.039402 -6.1999483 -150.55515
1211500000 -3.4688067 -78.246071 -65.061249 87.83506 -102.78411 -69.28154 -6.9626579 147.11705
1221000000 -3.4905646 -105.71856 -64.715935 -9.6643839 -95.45977 152.82294 -8.1438904 86.053925
1230500000 -3.5666423 -133.57251 -64.045959 -108.12051 -83.915642 172.54692 -9.0403872 17.436289
1240000000 -3.6537352 -161.99576 -63.080143 148.60876 -84.56881 11.270262 -9.1521206 -61.289822
1249500000 -3.7143466 169.24936 -63.408966 46.969128 -89.622826 -135.23991 -8.4496012 -137.98648
1259000000 -3.7777467 140.28615 -62.966778 -54.336548 -88.781464 143.26332 -7.5136919 155.15875
1268500000 -3.8353517 110.96741 -62.533779 -154.45811 -84.755867 73.360374 -6.8299727 92.667297
1278000000 -3.8357363 81.536797 -62.364983 102.2273 -87.124306 59.46804 -7.0220737 28.320591
1287500000 -3.7808452 52.600769 -62.741302 -2.0378082 -84.369171 -95.291161 -8.2861414 -39.098373
1297000000 -3.7215741 24.2138 -62.257526 -97.94252 -87.474258 -169.38553 -9.4744415 -111.08283
1306500000 -3.6737416 -3.8392181 -61.329552 158.97571 -81.465439 95.466537 -9.0775061 172.31776
1316000000 -3.6088629 -31.381445 -61.230976 58.12254 -85.424828 -4.1650801 -7.6425061 97.818588
1325500000 -3.5416863 -58.342411 -60.751995 -47.878677 -88.678299 -77.255547 -6.8411026 30.558441
1335000000 -3.5239151 -85.092545 -60.693916 -151.85611 -82.598793 158.19456 -6.8174005 -29.487755
1344500000 -3.5569706 -111.97657 -60.898174 113.33648 -86.955315 93.162064 -7.1413021 -88.44561
1354000000 -3.5944507 -139.10223 -59.917839 11.942288 -97.012833 -89.360611 -7.8875051 -153.72481
1363500000 -3.6285386 -166.41089 -58.642944 -94.733009 -91.288818 -150.63892 -9.0286694 132.51353
1373000000 -3.6942351 165.9115 -58.643974 155.96803 -81.356346 132.52721 -9.3294392 56.823273
1382500000 -3.7790112 137.70154 -60.845787 51.544273 -91.382065 53.17038 -8.2131329 -13.069903
1392000000 -3.819788 109.17074 -60.934711 -33.786041 -89.627716 -55.225147 -6.8568196 -79.44976
1401500000 -3.8048246 80.665329 -58.364262 -129.46959 -91.3871 -114.86806 -6.6797972 -145.99542
1411000000 -3.7924719 52.282421 -57.385967 122.23435 -80.380013 144.59225 -7.8899488 149.34993
1420500000 -3.7787828 24.018837 -57.162674 16.744368 -82.651611 71.209946 -9.2793303 83.425941
1430000000 -3.7094402 -3.8124528 -56.289192 -82.416306 -84.503326 -44.682873 -9.5338688 9.2568407
1439500000 -3.6296179 -30.982851 -55.149483 171.10083 -79.468323 -155.86609 -8.4330425 -69.409691
1449000000 -3.6081963 -57.794056 -54.946915 61.99028 -85.420418 118.10337 -7.471117 -140.82484
1458500000 -3.6153865 -84.650391 -54.210365 -44.858917 -83.696083 32.823795 -7.1235065 158.12225
1468000000 -3.6166704 -111.46545 -54.101902 -156.31073 -85.426826 -95.642265 -7.0890231 100.79955
1477500000 -3.6402903 -138.23395 -55.017727 96.391685 -81.348717 173.44746 -7.6091099 39.199875
1487000000 -3.7248094 -165.53877 -54.982727 -10.247108 -81.923172 106.70908 -9.0193691 -30.404158
1496500000 -3.8208826 166.55457 -55.196194 -117.79761 -86.727158 -21.210419 -10.171358 -107.13652
1506000000 -3.8794327 138.42035 -56.152145 137.51234 -84.00634 -96.540794 -9.4007206 175.74916
1515500000 -3.9506555 109.93028 -56.746838 38.592743 -82.993927 169.85909 -7.7860079 103.97478
1525000000 -4.0303712 80.889915 -56.08654 -71.321632 -82.641815 78.700058 -7.1915617 36.962597
1534500000 -4.0454884 51.683945 -57.042549 -178.81145 -82.904533 -17.997864 -7.7871146 -25.339844
1544000000 -4.0142193 22.834608 -58.025539 78.191826 -88.944923 -96.258263 -8.7537746 -88.056549
1553500000 -3.9949851 -5.6931734 -58.513874 -26.18808 -87.010948 172.79956 -9.4207096 -159.6584
1563000000 -3.9671545 -34.003223 -59.50766 -131.43742 -84.779289 63.485638 -9.3011131 120.69205
1572500000 -3.9203684 -61.809681 -60.826237 127.6755 -86.574646 -24.162367 -8.5639305 47.118835
1582000000 -3.9070954 -89.188469 -61.855377 28.62332 -87.966438 -124.49716 -7.7038584 -15.877381
1591500000 -3.9493284 -116.69561 -62.365608 -69.80143 -90.793304 142.17371 -7.0790644 -75.790276
1601000000 -4.0050116 -144.46632 -62.28252 -169.86053 -92.25621 43.161087 -7.3681855 -139.5798
1610500000 -4.0565276 -172.38698 -63.173199 85.718796 -90.524178 -95.898376 -8.887496 151.65652
1620000000 -4.1462779 159.37228 -64.177284 -12.945364 -99.603035 -128.05307 -10.246306 77.479752
1629500000 -4.2574415 130.53432 -64.512436 -115.02004 -102.08132 178.21857 -9.6297951 0.5418272
1639000000 -4.328021 101.28034 -64.935425 148.69795 -95.882858 36.338413 -7.9442925 -72.108849
1648500000 -4.3586125 71.916893 -66.174454 50.446083 -98.627625 -131.92804 -7.1502295 -138.8107
1658000000 -4.3860741 42.468689 -66.997337 -48.320961 -91.703033 -145.78531 -7.4629989 159.90118
1667500000 -4.386425 13.050637 -66.361946 -145.16475 -96.94516 145.99377 -8.2982807 98.05455
1677000000 -4.3226528 -15.934184 -67.605415 119.42452 -102.53107 57.014736 -9.3191547 27.381279
1686500000 -4.2435503 -44.271519 -69.841972 25.921467 -95.657059 -44.161041 -9.7829676 -52.113289
1696000000 -4.2086463 -72.176491 -69.614204 -67.173431 -99.059715 172.85864 -8.9680796 -126.66671
1705500000 -4.1845651 -99.838081 -69.79937 -153.86969 -88.645142 -92.59433 -7.5955591 169.06146
1715000000 -4.1543703 -127.26703 -69.122559 116.92195 -99.522873 70.987411 -6.6087689 108.05309
1724500000 -4.1692648 -154.57451 -67.381889 14.915731 -117.19209 49.102619 -6.8343267 45.580887
1734000000 -4.2291307 177.85713 -67.675583 -93.618774 -96.628273 -31.02508 -8.3132439 -18.320272
1743500000 -4.2888389 149.88249 -67.333298 174.58191 -95.396629 157.77557 -9.8884544 -87.233635
1753000000 -4.335485 121.74372 -67.035233 82.847008 -86.934166 135.1098 -9.9483566 -164.32564
1762500000 -4.3887506 93.373131 -66.208321 -18.863636 -94.073158 117.28353 -8.5787086 119.10023
1772000000 -4.4425521 64.551926 -65.686691 -118.9483 -97.996933 -35.357792 -7.6110754 50.518734
1781500000 -4.451859 35.685863 -65.382492 144.39432 -92.070053 -159.68596 -7.4864273 -11.317689
1791000000 -4.4225965 7.0749989 -65.389748 43.942482 -92.837997 -165.77296 -7.9282069 -73.207748
1800500000 -4.3941302 -21.330038 -64.648209 -49.7999 -98.606659 0.19890742 -8.8863907 -141.83344
1810000000 -4.3466301 -49.362286 -64.636009 -152.83621 -90.12104 -82.641144 -9.6983376 142.99765
1819500000 -4.2859836 -76.93734 -66.135223 116.8638 -108.12692 144.90341 -9.2118549 70.437462
1829000000 -4.2634678 -104.173 -65.424454 34.115963 -94.189369 99.263474 -7.8092785 5.4787927
1838500000 -4.261919 -131.23715 -61.867844 -64.266418 -88.101479 22.7115 -6.7154613 -56.823978
1848000000 -4.2717342 -158.28065 -59.388721 -173.0789 -88.492119 -61.535492 -6.9477677 -119.68569
1857500000 -4.3266416 174.64645 -58.773132 77.853485 -86.331261 -143.69389 -8.4870243 177.09824
1867000000 -4.4165745 147.34264 -58.172943 -27.18449 -82.786156 106.56934 -10.253354 107.98176
1876500000 -4.5149326 119.60905 -57.81562 -132.73521 -85.385376 16.577026 -10.530963 27.668404
1886000000 -4.6226215 91.621742 -56.93504 125.11538 -88.756409 -55.653866 -9.0174637 -51.700302
1895500000 -4.7258062 63.375755 -56.780914 15.696815 -83.88047 158.82848 -7.7183175 -119.96852
1905000000 -4.8038125 34.818584 -57.054279 -89.157593 -84.373451 117.78314 -7.2210169 179.53876
1914500000 -4.8406143 6.3241477 -56.629147 171.03993 -88.978806 -18.973888 -7.4362612 119.44704
1924000000 -4.8348899 -21.936827 -56.564915 61.880516 -85.727188 -125.80418 -8.4804888 54.102879
1933500000 -4.793983 -50.045483 -56.814007 -46.323284 -82.36161 140.31065 -9.8162403 -17.959808
1943000000 -4.7285581 -77.870323 -57.873943 -148.91187 -83.91066 28.927187 -9.8747416 -92.754807
1952500000 -4.6587143 -105.40591 -58.312912 112.67876 -83.769302 -45.782482 -8.541976 -163.21574
1962000000 -4.6176767 -132.88153 -58.793938 13.259789 -84.686432 -81.350723 -7.4074206 130.18707
1971500000 -4.591742 -160.28716 -58.666824 -84.909714 -85.906166 147.91643 -7.5336871 65.649994
1981000000 -4.5898833 172.29932 -59.036369 176.72679 -92.22126 67.173462 -8.6735983 1.5860087
1990500000 -4.639565 144.66019 -58.745953 85.955872 -89.977882 -13.688184 -9.9021482 -68.246483
2000000000 -4.7171826 116.62795 -57.071098 -12.479319 -84.13961 -120.06261 -10.041784 -146.44814
