!Keysight Technologies,N5242B,MY48420967,A.15.65.19
!Date: Saturday, February 04, 2023 12:16:11
!Correction: S11(C  1-Port  ) 
!S21(Off) 
!S12(Off) 
!S22(Off) 
!S2P File: Measurements: S11, S21, S12, S22:
# Hz S  dB   R 50
100000000 -1.5140789 40.251537 -85.793396 111.69348 -89.137207 168.52011 -2.6974621 42.842308
109500000 -1.4467909 10.879436 -81.814575 9.0456305 -91.517502 103.51637 -2.6311543 -30.512604
119000000 -1.3754511 -18.027489 -80.927422 -112.15852 -98.056305 -52.013309 -2.9365535 -110.14561
128500000 -1.2893074 -46.407959 -87.121483 162.39917 -91.985725 146.17815 -3.3806984 177.3709
138000000 -1.2749414 -74.803574 -85.660118 90.561134 -94.488838 124.31909 -2.911618 113.11258
147500000 -1.3453044 -103.70649 -85.280388 -30.287088 -101.08041 80.625984 -1.793182 46.420559
157000000 -1.4108608 -132.95641 -76.648186 -154.19797 -94.51207 178.49695 -1.8919051 -29.383953
166500000 -1.4834259 -162.41747 -81.179253 143.83081 -95.745552 -111.74951 -3.8100994 -103.11345
176000000 -1.60721 167.66653 -81.063408 18.289074 -96.910851 -166.58784 -5.0528598 -172.05074
185500000 -1.709057 137.40279 -79.44912 -101.07288 -91.169937 101.40521 -4.3867288 117.40673
195000000 -1.7271326 107.44334 -78.163979 173.34811 -111.60786 120.67786 -2.9892683 42.425415
204500000 -1.7267839 77.90538 -79.50547 61.664917 -89.84742 163.69177 -2.8557975 -30.876266
214000000 -1.7339276 48.484127 -79.392799 -48.302216 -94.047699 -66.873055 -3.4687703 -96.241264
223500000 -1.6878452 19.393484 -79.631897 -148.38811 -92.755257 79.391388 -3.7827165 -161.24431
233000000 -1.6172071 -9.2230482 -75.86483 113.13843 -92.285088 -24.796614 -4.0165157 125.56143
242500000 -1.6070931 -37.790627 -78.798866 3.4060438 -100.77187 -78.54261 -4.6164126 48.190369
252000000 -1.6269292 -66.613922 -75.26178 -110.05695 -88.321648 115.367 -4.7290964 -23.270775
261500000 -1.6394612 -95.624046 -76.636101 -179.57623 -83.093903 154.78149 -3.8718834 -90.216766
271000000 -1.6990732 -124.84518 -78.381248 73.392235 -85.486504 144.23936 -3.010509 -160.56914
280500000 -1.8106086 -154.57816 -76.495483 -47.757496 -92.141594 -69.553795 -3.6349421 126.24554
290000000 -1.897227 175.29181 -74.404099 -151.96678 -89.074654 -167.53656 -5.0136118 56.8904
299500000 -1.9559076 145.18576 -75.660057 136.13191 -86.729172 152.63161 -5.4678035 -12.501281
309000000 -2.0206046 115.11814 -77.03331 13.711728 -89.702362 133.94307 -4.7659221 -86.90757
318500000 -2.0594211 85.198494 -74.486916 -108.13149 -88.9552 -71.314743 -4.2560625 -163.08121
328000000 -2.0344565 55.699379 -74.592445 163.87547 -90.483498 -105.25848 -4.4506817 127.45968
337500000 -2.0087178 26.545153 -77.718666 79.018303 -92.872513 -83.797661 -4.5046163 62.403614
347000000 -2.0176711 -2.4594944 -74.834908 -33.179344 -99.018967 -115.74753 -4.3612585 -7.3377604
356500000 -2.0075877 -31.381813 -74.674622 -143.87115 -83.420975 148.26622 -4.8597012 -83.237976
366000000 -1.9969871 -60.370583 -75.7976 104.83162 -90.182892 19.023767 -5.6317248 -156.02866
375500000 -2.0521233 -89.717392 -75.720978 12.064614 -98.892609 -134.17293 -5.4600153 136.56996
385000000 -2.1405206 -119.53939 -75.240669 -91.357094 -93.519569 19.877022 -4.4927621 67.876945
394500000 -2.2038119 -149.57927 -73.692993 163.79327 -90.430702 -132.07678 -4.2517838 -6.662992
404000000 -2.2607644 -179.6954 -74.729073 64.054886 -88.659546 88.692238 -5.3545227 -79.421333
413500000 -2.3395486 150.01517 -75.894676 -38.314423 -92.112381 -29.217039 -6.1433382 -147.7193
423000000 -2.3922336 119.81972 -75.804588 -129.3925 -95.795288 113.0324 -5.672379 142.64508
432500000 -2.3733025 90.188278 -74.103592 125.70129 -91.326317 -103.81333 -4.7862487 68.796638
442000000 -2.340893 61.008297 -75.525574 9.1305399 -100.4133 -11.649838 -4.7998667 -3.215379
451500000 -2.339309 32.105133 -73.585266 -81.914253 -94.991119 -121.63516 -5.2185183 -68.589577
461000000 -2.3160992 3.5469875 -74.351707 -176.00635 -95.143394 -12.796142 -5.2434816 -133.88538
470500000 -2.2719083 -24.720049 -75.291344 96.228706 -91.662064 124.63653 -5.153554 153.44467
480000000 -2.2693567 -53.002491 -72.155052 -12.088997 -89.13308 -158.58676 -5.5998325 77.290886
489500000 -2.3139117 -81.620697 -69.944962 -112.57944 -101.27532 -169.19894 -5.9039054 7.1798086
499000000 -2.3581343 -110.54181 -69.874969 146.23447 -95.978424 81.899544 -5.3991904 -58.138603
508500000 -2.3890126 -139.59714 -67.048218 39.663006 -95.260696 -84.14592 -4.6781945 -125.94377
518000000 -2.441097 -168.89278 -66.380325 -83.999069 -93.370193 158.68672 -5.0127635 162.34236
527500000 -2.5016589 161.62398 -67.870811 161.91272 -96.123375 140.67807 -6.1271348 92.19458
537000000 -2.5219223 132.28297 -69.685341 54.999119 -93.417976 26.088648 -6.4778914 22.46105
546500000 -2.5069962 103.33374 -69.882751 -44.897095 -102.6918 167.25169 -5.6967931 -50.423004
556000000 -2.4889097 74.789185 -69.430077 -151.57495 -93.87558 -156.13026 -5.0775394 -124.11337
565500000 -2.4620814 46.617348 -70.290855 101.92931 -87.789177 106.80221 -5.2930865 168.89638
575000000 -2.4221354 18.812637 -71.377266 7.9418101 -87.247444 -38.762383 -5.5336137 107.72079
584500000 -2.3912103 -8.7644825 -71.086838 -95.094376 -93.055855 -148.45424 -5.4321117 43.368256
594000000 -2.3834181 -36.329666 -70.266014 161.04817 -92.546371 150.80061 -5.6064372 -30.504807
603500000 -2.3949184 -64.061546 -70.63208 57.514366 -93.585693 157.00858 -6.4093027 -106.5626
613000000 -2.4307301 -92.121979 -74.172844 -44.228851 -94.728699 118.09363 -6.5691061 -175.85338
622500000 -2.4874585 -120.65562 -71.98893 -137.2155 -91.050903 167.11551 -5.7926168 118.81602
632000000 -2.5547307 -149.58032 -72.743462 127.46875 -96.046829 114.38043 -5.1337056 50.956947
641500000 -2.6025684 -178.63792 -72.144188 23.639252 -93.489006 88.852989 -5.6960826 -19.047157
651000000 -2.6467738 152.1409 -71.892899 -80.329437 -91.143944 115.00647 -6.8383584 -88.180321
660500000 -2.6851871 122.85392 -73.372437 -177.05917 -97.781738 58.716663 -7.1721458 -160.13075
670000000 -2.678299 93.828346 -71.684914 87.371704 -92.260231 136.06152 -6.4959378 124.0951
679500000 -2.6447771 65.29026 -71.041451 -24.917171 -90.216148 82.338928 -5.9808698 51.536877
689000000 -2.6230831 37.083923 -71.490929 -125.27873 -95.515289 46.364082 -5.9045763 -12.524698
698500000 -2.6104085 8.9835672 -70.536934 139.5666 -95.577171 -168.54652 -5.7878985 -73.324753
708000000 -2.5917485 -18.849058 -71.611595 36.524498 -105.27018 -123.75242 -5.8603134 -140.26466
717500000 -2.585007 -46.525635 -70.454842 -69.785759 -87.359436 174.54408 -6.8407688 143.73436
727000000 -2.6291599 -74.640495 -69.936081 -168.25388 -106.2599 -113.80576 -7.8539634 66.694511
736500000 -2.7070811 -103.33288 -71.68602 87.724579 -91.417763 -158.94745 -7.394217 -4.8278694
746000000 -2.7685313 -132.32011 -70.19117 -6.2444692 -89.824905 -151.38043 -6.049437 -72.669418
755500000 -2.8302305 -161.61299 -69.502396 -112.42593 -93.273125 67.430405 -5.4659176 -140.93237
765000000 -2.9156742 168.65907 -70.135002 145.41786 -97.298622 -121.61456 -6.2719364 152.95834
774500000 -2.9719946 138.75282 -71.506531 46.354565 -97.024109 152.9583 -7.3997622 87.56852
784000000 -2.971173 109.12058 -69.018303 -52.207623 -91.144867 87.321487 -7.7864842 14.948215
793500000 -2.9548914 79.870544 -69.860733 -156.93541 -89.780525 -89.622177 -7.3165607 -64.93042
803000000 -2.9345181 50.961353 -70.043251 98.736473 -93.701241 -19.200304 -6.8548942 -138.97591
812500000 -2.8943427 22.491133 -70.515381 -1.0130329 -103.45753 81.990677 -6.47504 158.11078
822000000 -2.851619 -5.4751949 -70.304375 -97.614525 -102.0579 165.39549 -5.9575968 98.345894
831500000 -2.8351431 -33.209297 -69.441826 161.15134 -91.774574 91.170204 -5.8777957 32.114185
841000000 -2.8468034 -61.0149 -69.608093 56.72213 -91.834335 148.92278 -7.0525484 -41.89098
850500000 -2.8755727 -88.978752 -70.700401 -47.800476 -105.7158 -145.04532 -8.2899904 -117.34863
860000000 -2.9248354 -117.23535 -69.544838 -144.45448 -95.055588 15.366804 -7.8463039 170.04654
869500000 -2.9919178 -145.91812 -69.909515 122.02446 -94.851654 52.814144 -6.3931975 100.91341
879000000 -3.0519013 -174.93657 -69.710526 10.617813 -91.795052 -163.54643 -5.6695266 33.628666
888500000 -3.0889678 155.9368 -70.108253 -89.42379 -89.636833 -146.57478 -6.1466408 -29.97575
898000000 -3.1120803 126.84243 -69.824249 169.02551 -90.000641 50.132339 -7.021163 -92.974937
907500000 -3.1053483 97.894928 -70.091179 74.995369 -97.62114 -140.51112 -7.6775331 -163.50455
917000000 -3.0625572 69.313065 -69.42012 -34.168491 -109.90507 -142.31493 -7.8294973 117.49094
926500000 -3.0053058 41.28038 -70.001778 -132.96616 -89.224739 -112.86854 -7.4144907 42.604046
936000000 -2.9560831 13.740872 -69.347092 131.48453 -96.124245 146.24171 -6.6134634 -22.016247
945500000 -2.911818 -13.472897 -70.13607 28.363106 -94.300278 -107.44479 -5.7960606 -82.883408
955000000 -2.8738117 -40.445919 -69.616714 -69.98484 -90.238228 -116.05396 -5.6968851 -147.03447
964500000 -2.8662567 -67.265656 -69.378365 -173.50475 -92.198227 163.28928 -6.8226905 144.88348
974000000 -2.8941798 -94.268486 -68.780403 88.576889 -101.29536 -63.233086 -8.210166 73.621414
983500000 -2.9462297 -121.7724 -69.500183 -11.045335 -87.68988 -94.685387 -8.2909994 -1.2186878
993000000 -3.0024192 -149.67148 -68.425827 -116.58737 -92.878105 -2.7682972 -7.2018838 -74.700943
1002500000 -3.0514517 -177.83226 -69.000587 142.00722 -87.406258 151.17625 -6.4359217 -142.03648
1012000000 -3.1072063 153.64447 -70.064758 40.799793 -84.905998 44.803169 -6.332757 157.01082
1021500000 -3.146143 124.87785 -68.862038 -52.502396 -100.2572 -65.763168 -6.5271716 96.426163
1031000000 -3.1410277 96.178413 -67.697121 -154.88496 -87.507248 -178.0735 -7.1696978 27.999952
1040500000 -3.1070185 67.805473 -68.144913 105.54151 -87.567963 -162.88997 -8.3892994 -49.493652
1050000000 -3.0740061 39.758358 -68.893295 5.1205096 -87.843781 -169.14632 -8.8185301 -126.33162
1059500000 -3.0386813 11.983645 -68.962799 -97.93013 -98.449951 -14.019019 -7.72224 165.12411
1069000000 -2.9925227 -15.3678 -67.956123 162.91747 -85.530022 -111.30851 -6.1581483 100.21736
1078500000 -2.9604626 -42.345535 -67.035316 64.973579 -92.718681 138.12344 -5.6700916 33.291229
1088000000 -2.9694762 -69.335533 -67.562096 -43.169964 -94.829185 -12.017328 -6.7881656 -32.461544
1097500000 -3.0212092 -96.665199 -67.558136 -139.04634 -87.463394 -54.264904 -8.271759 -97.718636
1107000000 -3.0786452 -124.32513 -67.084328 124.39441 -87.81562 149.03676 -8.8408585 -169.53874
1116500000 -3.1411057 -152.40263 -66.512703 20.748583 -92.224762 141.5043 -8.1915293 113.07189
1126000000 -3.2354581 178.92735 -66.505951 -82.18708 -91.120331 67.906326 -7.4123459 40.677181
1135500000 -3.3209333 149.74756 -66.497231 179.19255 -94.351585 -85.173172 -6.9904175 -22.819788
1145000000 -3.3562217 120.3575 -65.81971 81.048767 -87.047333 165.15453 -6.7948732 -84.118736
1154500000 -3.3709025 91.018181 -65.167549 -29.139591 -86.564941 118.80788 -7.2681313 -151.41641
1164000000 -3.3746047 61.759624 -65.598557 -129.46518 -94.741173 -34.962311 -8.7234106 134.01826
1173500000 -3.3436315 32.728592 -65.600075 133.69356 -89.178108 55.408512 -9.5562 57.099789
1183000000 -3.2899761 4.3280053 -65.470131 34.756405 -85.343071 -109.40028 -8.4282618 -15.697216
1192500000 -3.253258 -23.588655 -64.840393 -67.86055 -88.51049 169.11888 -6.6358852 -84.42923
1202000000 -3.2451601 -51.362843 -64.369049 -170.20515 -90.146606 57.075668 -6.0185261 -151.4805
1211500000 -3.2464392 -78.957886 -65.167603 91.525932 -83.244179 -93.795181 -6.8092055 146.0504
1221000000 -3.2663488 -106.48255 -65.200493 -7.0392947 -86.650169 -140.46793 -7.9814553 84.836349
1230500000 -3.3380997 -134.40533 -64.007027 -107.18325 -92.662018 126.93553 -8.8264389 16.047951
1240000000 -3.4213498 -162.88187 -63.19331 149.29895 -86.313797 46.589771 -8.8912544 -62.637939
1249500000 -3.477299 168.32253 -63.261913 46.658012 -94.995827 -9.9594383 -8.2010469 -139.08076
1259000000 -3.5367398 139.3201 -63.230499 -54.838394 -83.534943 -173.8974 -7.2954769 154.19655
1268500000 -3.5908003 109.98066 -62.336437 -153.84657 -87.428429 93.396217 -6.6300259 91.612907
1278000000 -3.5900774 80.538986 -62.301262 100.55369 -97.303253 36.239666 -6.8323331 27.032623
1287500000 -3.5373547 51.620815 -62.699169 -2.6357055 -84.831482 -81.054497 -8.0887566 -40.572594
1297000000 -3.48118 23.234295 -62.37928 -100.70334 -88.802757 125.30799 -9.2279806 -112.52563
1306500000 -3.4369655 -4.8133225 -61.451443 157.60078 -87.799789 151.11496 -8.7908392 171.18953
1316000000 -3.3756182 -32.347332 -61.151936 56.592079 -91.069046 14.768503 -7.3796105 96.898361
1325500000 -3.311821 -59.306412 -60.609234 -47.332291 -86.965706 -104.4108 -6.6276259 29.666344
1335000000 -3.2960653 -86.066284 -60.789539 -149.59575 -83.432487 166.53177 -6.6333609 -30.404322
1344500000 -3.3267279 -112.96637 -61.157688 110.56664 -87.284462 90.818817 -6.9554496 -89.483093
1354000000 -3.3622754 -140.09709 -60.092709 14.738746 -84.375603 -13.917498 -7.675848 -154.98378
1363500000 -3.3935618 -167.41869 -59.157536 -90.059486 -85.665611 -124.63285 -8.7784777 131.19447
1373000000 -3.4535069 164.89073 -58.078274 163.35274 -87.845184 -172.04343 -9.0570745 55.81461
1382500000 -3.5333474 136.6937 -59.418106 51.734215 -85.05809 51.816086 -7.9569421 -13.77747
1392000000 -3.5700583 108.19034 -60.959984 -40.488247 -90.557045 -70.824997 -6.6193628 -80.164169
1401500000 -3.5534618 79.717094 -59.282104 -127.44061 -83.559891 -84.833565 -6.4648695 -146.91705
1411000000 -3.5406947 51.369846 -57.426243 128.87096 -83.975594 155.76021 -7.6861739 148.2977
1420500000 -3.5292795 23.143724 -56.827408 19.210762 -84.34343 54.624336 -9.0469189 82.3908
1430000000 -3.4614897 -4.6419048 -56.319366 -82.257172 -82.120865 -21.894768 -9.2464762 8.4467134
1439500000 -3.3859262 -31.781597 -55.213509 171.83075 -80.960495 -117.94727 -8.1480761 -70.009003
1449000000 -3.3657336 -58.577637 -55.074215 65.230179 -85.271614 131.23792 -7.2397833 -141.40767
1458500000 -3.3726649 -85.417496 -54.465164 -39.19664 -81.450722 35.924858 -6.9335389 157.49283
1468000000 -3.3726718 -112.23 -53.179558 -148.70287 -80.605682 -71.672913 -6.9154902 100.03863
1477500000 -3.3929381 -138.99702 -53.65033 96.885529 -83.191895 170.71831 -7.42693 38.235138
1487000000 -3.4715416 -166.31836 -54.390759 -8.2113705 -80.962776 114.55804 -8.810174 -31.625828
1496500000 -3.5623193 165.76958 -54.454346 -114.97311 -82.080544 5.1546416 -9.9214191 -108.22426
1506000000 -3.6146278 137.63341 -54.892166 134.73314 -80.494225 -96.315285 -9.1406384 175.05449
1515500000 -3.6797473 109.1314 -56.515785 35.085247 -81.660271 160.17119 -7.5433488 103.32484
1525000000 -3.7550831 80.090706 -55.578259 -69.671028 -82.200272 81.212852 -6.9932976 36.122253
1534500000 -3.7678089 50.893551 -56.35635 -178.65604 -85.233177 -2.0465927 -7.6119781 -26.294664
1544000000 -3.7372086 22.043297 -57.019974 76.566734 -86.478271 -139.59769 -8.5635834 -89.150711
1553500000 -3.7190881 -6.4940143 -57.884716 -27.919678 -88.391212 149.74149 -9.1826344 -160.88504
1563000000 -3.6939163 -34.815968 -58.727383 -133.76303 -87.148941 52.312984 -9.0412312 119.55868
1572500000 -3.6505368 -62.654282 -60.59354 124.95541 -87.997444 -16.545761 -8.3343487 46.186081
1582000000 -3.6387727 -90.083511 -60.788986 26.389421 -88.169594 -147.13678 -7.5056024 -16.775654
1591500000 -3.6792202 -117.63843 -61.669537 -76.13932 -87.832138 150.13115 -6.892262 -76.87088
1601000000 -3.7322819 -145.47183 -62.058163 -175.23973 -85.979042 62.168526 -7.1902351 -141.02306
1610500000 -3.7796845 -173.46071 -62.765224 81.694115 -97.11795 -114.04037 -8.7015724 149.8826
1620000000 -3.8641067 158.22691 -63.636787 -15.265506 -100.96548 171.68315 -9.9998999 75.685127
1629500000 -3.9683447 129.32152 -63.837803 -116.15524 -88.435654 160.28406 -9.3356352 -0.90461802
1639000000 -4.0326715 100.01588 -65.085426 145.87793 -83.785339 87.628853 -7.673254 -73.414124
1648500000 -4.0584478 70.619774 -66.063301 49.126472 -87.671921 -73.911697 -6.9302125 -140.18884
1658000000 -4.0842214 41.142563 -66.520172 -52.01548 -95.795151 -149.76363 -7.2748537 158.40147
1667500000 -4.0839477 11.718678 -67.11792 -147.00987 -85.781029 146.45728 -8.1011639 96.317345
1677000000 -4.0220542 -17.250889 -67.638474 115.54163 -93.783974 104.41448 -9.0682325 25.365162
1686500000 -3.9474461 -45.599586 -70.174553 15.280368 -103.75944 -155.0502 -9.4803104 -53.942924
1696000000 -3.9162605 -73.513016 -70.120628 -74.653824 -87.998512 148.42108 -8.6804695 -127.99191
1705500000 -3.8941674 -101.17493 -70.419983 -163.25325 -90.535835 -177.10486 -7.345305 167.92656
1715000000 -3.8661358 -128.623 -69.528175 111.20944 -91.612617 88.63179 -6.3861341 106.77889
1724500000 -3.8798409 -155.94992 -68.304092 13.532604 -97.484436 -104.96736 -6.639895 44.023098
1734000000 -3.9369776 176.46414 -67.207069 -96.452698 -95.730179 -127.80044 -8.1192675 -20.104803
1743500000 -3.991739 148.47781 -69.350334 177.00238 -96.446533 -152.7374 -9.6304312 -89.095055
1753000000 -4.0337019 120.33856 -67.585762 83.884293 -93.153664 118.18438 -9.6109066 -165.87259
1762500000 -4.0816674 91.969536 -66.440826 -14.33958 -100.75472 -100.26633 -8.2539196 117.90621
1772000000 -4.1311493 63.17445 -66.455276 -113.48817 -94.146927 -124.48468 -7.3429632 49.395901
1781500000 -4.1379619 34.358112 -65.875793 146.07158 -112.18615 -170.62843 -7.251843 -12.462913
1791000000 -4.1083021 5.7912483 -66.126221 48.305752 -84.312439 116.18269 -7.6932845 -74.501625
1800500000 -4.082428 -22.560183 -65.546715 -50.322769 -98.123856 24.199179 -8.6226521 -143.26332
1810000000 -4.0367427 -50.542545 -64.987442 -145.76883 -94.377121 62.468304 -9.4059944 141.77478
1819500000 -3.9796877 -78.07814 -65.960464 118.57829 -98.748741 166.47861 -8.9287558 69.638687
1829000000 -3.9595346 -105.28003 -65.579712 32.589058 -84.381294 118.82505 -7.5552649 4.8430452
1838500000 -3.9588683 -132.3237 -62.745037 -61.171967 -98.551407 16.214378 -6.483902 -57.618904
1848000000 -3.9665012 -159.36385 -59.323566 -162.11015 -87.433784 -22.413477 -6.7388339 -120.76232
1857500000 -4.0178876 173.56322 -58.047382 85.991875 -85.324432 -153.00429 -8.2774715 175.79953
1867000000 -4.1014209 146.24991 -57.744484 -24.134977 -87.992378 138.19388 -9.9838667 106.60127
1876500000 -4.1927977 118.49437 -57.254532 -129.88161 -85.822433 16.998636 -10.189789 26.63558
1886000000 -4.2904458 90.483582 -56.791355 126.24396 -84.304413 -87.960533 -8.7072725 -52.360096
1895500000 -4.3840237 62.204712 -56.693142 16.77199 -83.767265 -171.35925 -7.4724898 -120.62051
1905000000 -4.45717 33.59602 -57.130322 -87.942039 -85.6315 83.501694 -7.0136914 178.76697
1914500000 -4.4931698 5.0508699 -56.71777 171.19124 -88.914597 -36.369495 -7.23808 118.44163
1924000000 -4.4942203 -23.266695 -56.90538 65.305122 -89.843964 -122.40514 -8.2729349 52.827625
1933500000 -4.4670548 -51.413193 -57.074852 -40.180309 -86.398659 151.90314 -9.5748034 -19.332497
1943000000 -4.4162207 -79.252548 -57.580105 -142.42078 -84.411003 72.14196 -9.6050606 -93.866722
1952500000 -4.3604903 -106.79063 -57.990376 117.57807 -89.05246 -38.655647 -8.2808895 -164.17952
1962000000 -4.3294535 -134.26707 -59.320995 17.760387 -89.880699 -121.86447 -7.1756506 129.05843
1971500000 -4.3092575 -161.68556 -58.787704 -79.85775 -92.926407 144.09918 -7.3359747 64.262131
1981000000 -4.3085871 170.86406 -58.613476 -174.87965 -91.06514 135.46336 -8.4799366 -0.049014881
1990500000 -4.3574648 143.17522 -58.322243 90.697693 -89.320747 -3.1577368 -9.660285 -70.086594
2000000000 -4.431241 115.08035 -56.530235 -7.0412774 -86.852295 -109.01408 -9.7425804 -148.15039
