!Keysight Technologies,N5242B,MY48420967,A.15.65.19
!Date: Saturday, February 04, 2023 00:57:57
!Correction: S11(C  1-Port  ) 
!S21(Off) 
!S12(Off) 
!S22(Off) 
!S2P File: Measurements: S11, S21, S12, S22:
# Hz S  dB   R 50
100000000 -1.3175173 40.343948 -82.536064 126.32442 -89.940659 143.70343 -2.6403151 44.168686
109500000 -1.2465912 11.027228 -84.864807 43.331902 -102.36251 166.32507 -2.5780182 -28.831701
119000000 -1.1738597 -17.843994 -80.722885 -114.92732 -97.08744 -43.775421 -2.8883724 -108.32449
128500000 -1.0847933 -46.218002 -81.159218 -174.69862 -88.262482 19.754507 -3.3637772 179.07832
138000000 -1.0668346 -74.625076 -85.09697 89.255615 -101.16601 117.01236 -2.9313343 114.79195
147500000 -1.1349477 -103.55606 -79.809669 -15.324633 -89.208946 -94.457634 -1.8219864 48.315094
157000000 -1.1995488 -132.84825 -78.403404 -141.67674 -92.330002 -52.956749 -1.8836564 -27.282402
166500000 -1.2737091 -162.36052 -82.367668 123.78311 -97.588058 146.25621 -3.8024085 -101.08345
176000000 -1.400156 167.6631 -80.249184 28.650503 -93.212646 -131.93288 -5.114058 -170.05278
185500000 -1.5066941 137.35492 -80.930359 -75.7146 -94.727119 137.75201 -4.5277734 119.39098
195000000 -1.5319614 107.35333 -80.375473 -176.53471 -92.749153 21.554331 -3.1539543 44.471519
204500000 -1.5407633 77.764076 -81.099396 70.409576 -94.245216 89.741302 -2.9930079 -28.875711
214000000 -1.5550705 48.307117 -82.356682 -61.986687 -91.789886 55.139919 -3.6048481 -94.309448
223500000 -1.5156374 19.199524 -80.043327 -129.42188 -96.869675 148.23807 -3.9520097 -159.12846
233000000 -1.4513273 -9.438529 -77.706078 121.93613 -97.024773 21.105852 -4.2256927 128.03087
242500000 -1.4466493 -38.028484 -77.364052 1.6370082 -86.209358 99.909271 -4.8512802 50.69141
252000000 -1.4676636 -66.86731 -84.17276 -115.89162 -90.569542 -47.124397 -4.9957881 -21.050861
261500000 -1.481203 -95.893242 -76.168968 160.23085 -88.503326 152.2291 -4.16643 -88.062737
271000000 -1.539382 -125.11149 -81.92411 61.963524 -88.230583 -178.74864 -3.3067307 -158.01953
280500000 -1.6498015 -154.84552 -79.704124 -37.464672 -89.46106 21.7237 -3.8886518 129.14615
290000000 -1.7344741 175.03604 -77.76506 -136.21695 -88.19162 153.30478 -5.2803745 59.815189
299500000 -1.7877667 144.95534 -79.875458 155.27089 -87.06073 -129.90564 -5.8215032 -9.6041555
309000000 -1.8492266 114.91964 -79.241493 28.276796 -93.000198 170.72697 -5.1917615 -83.961403
318500000 -1.8855512 85.033287 -75.836121 -90.033386 -101.22081 113.53094 -4.6599464 -160.08493
328000000 -1.856622 55.562019 -75.392807 178.38966 -85.357086 -98.116867 -4.8149643 130.30148
337500000 -1.8250504 26.433201 -75.274864 86.022217 -95.783463 157.79431 -4.8858809 65.267609
347000000 -1.828335 -2.5370741 -78.085617 -34.855923 -88.849716 -134.40862 -4.7842474 -4.0581679
356500000 -1.8123093 -31.422289 -76.172264 -140.81967 -92.308479 26.756294 -5.2897339 -79.665504
366000000 -1.791975 -60.397881 -77.116608 126.6665 -87.996605 114.7308 -6.0723696 -152.82175
375500000 -1.8380884 -89.736542 -78.268364 15.23235 -93.39579 -84.715767 -5.9470534 139.3398
385000000 -1.9166433 -119.54328 -74.897545 -74.410927 -93.01001 137.33527 -5.0274644 70.751678
394500000 -1.9714528 -149.56958 -74.940636 -172.80988 -92.500954 -154.21654 -4.7628469 -3.2671781
404000000 -2.022356 -179.69205 -75.865631 84.854057 -103.91434 150.51129 -5.8240814 -76.061852
413500000 -2.0965314 149.99915 -74.996696 -33.926273 -88.571556 46.859894 -6.6589465 -144.80588
423000000 -2.1458766 119.79189 -75.907005 -120.29413 -94.995407 110.40878 -6.2629805 145.16321
432500000 -2.1261475 90.14801 -76.065453 136.66315 -96.748489 -130.26682 -5.3860106 71.316772
442000000 -2.09378 60.929043 -76.126953 28.384964 -88.423584 -70.249664 -5.3291268 -0.69765478
451500000 -2.0926616 31.967775 -74.558617 -65.519058 -95.340973 21.217451 -5.7181392 -66.241104
461000000 -2.0667999 3.3667383 -74.904442 -151.79665 -97.517799 -168.09485 -5.789609 -131.50685
470500000 -2.0199311 -24.932878 -73.466286 106.95213 -92.155937 -69.551666 -5.7556591 156.10574
480000000 -2.0137441 -53.273819 -72.729134 -0.927867 -92.146774 -67.554222 -6.1899066 79.91188
489500000 -2.0532966 -81.956535 -71.352745 -98.291893 -88.531548 -165.82782 -6.4642735 9.2974339
499000000 -2.0916705 -110.91143 -68.583954 162.42578 -99.742378 -132.88443 -5.9623256 -56.309872
508500000 -2.116993 -139.97667 -66.245018 55.697636 -108.16755 -177.17801 -5.2591953 -123.81666
518000000 -2.1630111 -169.28098 -64.248238 -74.403069 -94.493202 152.98138 -5.5746818 164.96446
527500000 -2.2183151 161.21552 -65.931839 165.72116 -91.950706 19.440788 -6.6909099 94.812859
537000000 -2.2364123 131.88132 -68.315086 57.031467 -90.174446 34.82196 -7.1053004 24.69206
546500000 -2.2221508 102.94643 -68.240181 -50.390614 -88.724129 -137.81776 -6.3679633 -48.460438
556000000 -2.2048092 74.421127 -69.542076 -153.5714 -93.678154 -139.31105 -5.6940303 -122.07511
565500000 -2.1795623 46.274189 -70.679428 104.91674 -110.45899 -38.179825 -5.8277831 170.90063
575000000 -2.1390917 18.485571 -73.657234 6.1934652 -104.05751 -24.662386 -6.0620394 109.69505
584500000 -2.1062655 -9.0779972 -71.301308 -91.119568 -91.007248 -53.218643 -6.0336308 45.640507
594000000 -2.0942633 -36.628983 -70.571671 169.90544 -89.935463 -117.84295 -6.2760477 -27.691235
603500000 -2.1002109 -64.355125 -71.326797 57.10704 -99.916817 1.1094086 -7.0737085 -103.87856
613000000 -2.1282945 -92.423904 -73.569733 -50.490341 -92.089317 -38.118576 -7.2145629 -173.81947
622500000 -2.1764059 -120.96292 -73.082993 -134.80325 -100.71494 44.976852 -6.4413424 120.59447
632000000 -2.2362244 -149.89157 -74.007553 125.33545 -109.80485 -147.77016 -5.7930579 53.164627
641500000 -2.2767832 -178.93439 -73.104309 22.672482 -101.68379 87.936737 -6.3370094 -16.310156
651000000 -2.3164117 151.83783 -72.386772 -89.381134 -91.954216 -101.90336 -7.5175939 -85.424675
660500000 -2.3517344 122.55581 -72.075829 -175.27628 -92.867279 164.0428 -7.9511271 -157.80159
670000000 -2.3428128 93.548485 -73.107338 85.597084 -98.579483 -119.08048 -7.29842 125.99636
679500000 -2.3093188 65.019974 -72.781219 -23.108273 -95.439514 136.13937 -6.6878786 53.30941
689000000 -2.2867613 36.798103 -71.62384 -118.00465 -110.1009 87.310524 -6.5319896 -10.832749
698500000 -2.271246 8.6742163 -72.475998 139.23395 -100.43845 1.8873141 -6.4314604 -71.47068
708000000 -2.2483473 -19.169596 -71.942215 37.670933 -101.11285 -6.3322401 -6.5958009 -137.78207
717500000 -2.2339749 -46.854427 -70.67086 -64.563316 -102.65263 52.253376 -7.6569967 146.75497
727000000 -2.269392 -75.009178 -71.738251 -167.99123 -90.634636 -21.813841 -8.7037859 68.997421
736500000 -2.3366323 -103.74701 -73.279213 107.94465 -96.313019 -152.85616 -8.2102928 -3.6113007
746000000 -2.3866887 -132.75372 -71.657074 -2.0734854 -95.006027 15.097653 -6.8269358 -71.646286
755500000 -2.4383056 -162.06552 -70.588585 -107.3326 -97.836304 77.315697 -6.1967196 -139.3242
765000000 -2.5167868 168.17516 -71.105286 147.66539 -109.5902 -111.38143 -6.9609566 155.00496
774500000 -2.5675776 138.24979 -72.304955 51.497173 -93.679794 146.35857 -8.1535721 89.612068
784000000 -2.565891 108.6061 -70.237175 -51.101719 -98.498268 128.76102 -8.6845541 16.554651
793500000 -2.5512345 79.336327 -71.203712 -152.08855 -101.58654 113.60885 -8.2317152 -63.910873
803000000 -2.5337393 50.388256 -70.321465 106.0397 -94.982681 68.010712 -7.6190815 -138.2625
812500000 -2.4969997 21.870373 -72.457283 -1.4048883 -88.996193 121.83194 -7.1294551 158.68469
822000000 -2.4556189 -6.1373234 -70.843819 -95.15007 -99.753395 165.09062 -6.6179409 99.060783
831500000 -2.4380255 -33.933277 -70.580086 171.3179 -96.349342 -81.097122 -6.617044 33.425579
841000000 -2.446274 -61.806103 -70.545166 55.270702 -87.897346 -77.694801 -7.8542709 -40.098141
850500000 -2.4697585 -89.848579 -70.676689 -43.942532 -107.2739 72.232422 -9.1191788 -116.2578
860000000 -2.5116022 -118.18081 -70.053169 -142.88841 -96.493431 -31.818533 -8.6251135 170.06937
869500000 -2.570838 -146.92615 -71.14518 119.71408 -101.91241 -9.0097761 -7.1066494 100.76205
879000000 -2.6239736 -175.98587 -71.275772 13.514129 -93.730835 -61.251968 -6.3274069 33.991962
888500000 -2.6574976 154.84988 -70.413666 -91.057655 -91.117294 100.19769 -6.7663383 -29.192898
898000000 -2.679765 125.74266 -70.941917 174.26888 -99.20369 54.804821 -7.6827931 -92.059784
907500000 -2.6744778 96.793495 -70.370857 75.606354 -88.103477 69.081406 -8.4547501 -162.7383
917000000 -2.634974 68.223564 -70.145767 -27.838625 -87.785507 -136.16447 -8.6405907 117.74503
926500000 -2.5840936 40.191479 -69.756592 -136.98497 -87.810173 -175.07004 -8.107419 42.443863
936000000 -2.5397503 12.644361 -70.595222 129.5175 -88.809273 84.70475 -7.2044411 -22.242107
945500000 -2.4994006 -14.573448 -69.806839 25.204506 -96.064919 128.40784 -6.3722963 -82.864822
955000000 -2.4602566 -41.558628 -69.434769 -72.127396 -105.95893 47.66959 -6.3081741 -146.43596
964500000 -2.4512222 -68.395706 -70.229347 -172.66577 -92.730278 -179.66162 -7.4759727 145.9882
974000000 -2.4729707 -95.420464 -70.442963 88.258621 -91.538773 -4.1240392 -8.9313335 74.523331
983500000 -2.5162818 -122.96093 -70.277321 -14.494777 -95.151283 -0.13334243 -9.0384274 -1.108896
993000000 -2.5627384 -150.86922 -68.782372 -112.77972 -90.318054 -124.58664 -7.8831306 -74.875908
1002500000 -2.6013842 -179.01457 -70.114479 144.15883 -86.329994 141.53966 -7.0316482 -141.9245
1012000000 -2.6492343 152.48219 -70.723412 47.820564 -93.223923 -152.1657 -6.8889685 157.43774
1021500000 -2.683727 123.74838 -70.530426 -51.927929 -90.784279 -113.78952 -7.1271596 97.197411
1031000000 -2.6750989 95.102287 -69.035538 -154.5674 -88.093636 37.945911 -7.8794627 29.259615
1040500000 -2.6416569 66.785904 -68.805008 101.55737 -87.768944 165.20137 -9.1868219 -48.241177
1050000000 -2.6125319 38.781143 -70.123383 4.1975837 -90.37368 50.689415 -9.582098 -126.01604
1059500000 -2.5805113 11.036858 -69.470612 -91.51989 -93.971336 82.96698 -8.3979759 164.83072
1069000000 -2.536319 -16.302582 -68.935364 169.63885 -94.226616 151.23822 -6.8127332 100.12302
1078500000 -2.5027416 -43.268288 -67.914658 67.418961 -88.229439 134.07451 -6.3221664 33.987518
1088000000 -2.5067039 -70.277763 -68.36235 -40.386192 -86.325287 154.28513 -7.4248095 -31.178654
1097500000 -2.5524948 -97.651245 -67.834946 -142.95547 -92.860634 19.796621 -8.9722147 -96.455902
1107000000 -2.5982537 -125.34927 -67.776039 126.90911 -96.207092 -126.47941 -9.6647377 -168.91895
1116500000 -2.6460216 -153.46552 -67.224373 21.407005 -89.765976 145.65343 -9.0250969 113.01614
1126000000 -2.7283189 177.82341 -67.479263 -82.379913 -84.047119 51.692204 -8.1405201 40.569733
1135500000 -2.8042233 148.61143 -67.228874 -178.83627 -100.42113 32.958599 -7.6470685 -22.7757
1145000000 -2.8316681 119.18213 -66.521294 82.746223 -86.730804 -138.58272 -7.4778905 -83.798149
1154500000 -2.8431239 89.827148 -66.238724 -22.916952 -88.230698 81.213791 -8.0475874 -150.59927
1164000000 -2.8470821 60.550106 -66.596306 -126.57935 -87.46582 60.160908 -9.595849 134.86674
1173500000 -2.8215537 31.490936 -66.628548 137.26035 -90.408546 136.96083 -10.431144 56.750988
1183000000 -2.7747433 3.0486798 -66.6036 33.337688 -88.825989 134.87007 -9.1911182 -17.001574
1192500000 -2.7411392 -24.919384 -65.669746 -67.076912 -89.922684 123.54495 -7.3324518 -85.550919
1202000000 -2.7359996 -52.759651 -65.277199 -170.35078 -85.52742 49.750065 -6.6727996 -151.81572
1211500000 -2.737211 -80.434464 -65.653412 91.166519 -89.64711 -56.471951 -7.4294567 146.22435
1221000000 -2.7537582 -108.05704 -65.639603 -8.5914326 -93.834496 108.12885 -8.6489544 85.053352
1230500000 -2.8167479 -136.08052 -64.919487 -107.17591 -85.933388 125.66712 -9.6200151 15.832572
1240000000 -2.8896048 -164.64391 -63.97731 152.47391 -88.995659 46.593315 -9.7283649 -63.645985
1249500000 -2.9361811 166.4893 -64.011421 47.171509 -86.196075 -112.44479 -8.9188023 -140.40331
1259000000 -2.988117 137.42276 -63.773331 -51.933769 -95.852585 149.3878 -7.9089847 153.04784
1268500000 -3.0363781 108.04678 -63.104942 -152.56839 -84.144356 104.40601 -7.2275023 90.814224
1278000000 -3.0346096 78.618469 -62.96207 101.4631 -92.069794 68.648621 -7.466763 26.715101
1287500000 -2.9874635 49.723568 -63.627254 -2.8948262 -93.092873 -48.32016 -8.7739382 -40.713097
1297000000 -2.9390316 21.343948 -62.903847 -101.68567 -86.715599 -166.05525 -9.9632149 -113.28407
1306500000 -2.9032037 -6.7003751 -62.613503 161.06841 -92.547478 95.28112 -9.4901495 169.54253
1316000000 -2.8506029 -34.217983 -61.979069 62.59087 -83.980782 16.796602 -7.9902134 95.344566
1325500000 -2.7914124 -61.178818 -61.415524 -44.254017 -90.890808 -113.99831 -7.1572714 28.69034
1335000000 -2.7781835 -87.961105 -61.497559 -147.54218 -81.405724 -143.94955 -7.1236186 -30.969574
1344500000 -2.8069565 -114.89866 -61.748363 115.26174 -85.231667 79.206009 -7.4759016 -89.816101
1354000000 -2.8353555 -142.05569 -61.427551 17.48736 -84.095207 19.474646 -8.2848959 -155.14409
1363500000 -2.8559377 -169.3876 -60.663685 -86.887672 -88.855408 -88.052254 -9.4553251 130.84695
1373000000 -2.9057169 162.91626 -59.204479 173.15005 -88.381378 148.34137 -9.6931467 54.824406
1382500000 -2.977191 134.71803 -59.058086 59.662277 -84.968681 82.03775 -8.5217209 -15.077837
1392000000 -3.0044692 106.25772 -60.407207 -46.98983 -82.244499 -22.27891 -7.1816258 -81.111214
1401500000 -2.9814091 77.864304 -61.288624 -133.97797 -92.567375 -89.302399 -7.0249529 -147.13203
1411000000 -2.9689136 49.575424 -59.662083 134.92615 -83.211769 154.8392 -8.2464933 148.47566
1420500000 -2.962054 21.428194 -57.990055 32.352596 -80.226913 65.839272 -9.6669588 82.310928
1430000000 -2.9010234 -6.2824345 -56.994587 -78.668526 -81.80761 -3.1953917 -9.9338503 7.6189251
1439500000 -2.8305783 -33.369556 -56.657398 176.80075 -79.590073 -140.57097 -8.7859497 -71.13269
1449000000 -2.8136113 -60.138622 -56.318771 72.807777 -82.097099 160.90779 -7.7716475 -142.15193
1458500000 -2.8212488 -86.980728 -55.871258 -28.142635 -83.422539 28.777725 -7.3947706 157.07668
1468000000 -2.8193796 -113.79492 -54.456284 -132.04231 -78.528122 -44.056389 -7.3891611 99.823936
1477500000 -2.8289478 -140.59442 -53.218781 117.8673 -81.112915 -128.17155 -7.9988246 38.323784
1487000000 -2.8954139 -167.94823 -53.929455 0.43373615 -79.391479 104.79533 -9.5009384 -31.330198
1496500000 -2.9732993 164.10518 -53.85495 -98.901093 -79.324699 49.037098 -10.709011 -108.81752
1506000000 -3.0120394 135.94234 -53.306618 149.71265 -80.492836 -92.734177 -9.8933172 173.65952
1515500000 -3.0625522 107.41375 -54.760319 36.342297 -82.715218 178.26045 -8.2164354 102.24199
1525000000 -3.1256361 78.369957 -55.079769 -61.262329 -82.886795 74.864319 -7.6142607 35.607574
1534500000 -3.1336315 49.192329 -55.093666 -170.6725 -84.157799 -0.64549172 -8.225585 -26.351547
1544000000 -3.1057203 20.344437 -55.373344 85.576225 -81.059929 -116.09016 -9.2452135 -89.18647
1553500000 -3.0898409 -8.2017126 -55.731766 -26.024645 -80.334381 151.3506 -9.9806652 -161.36188
1563000000 -3.0686436 -36.533436 -56.705109 -135.60925 -85.175041 57.867397 -9.8267536 118.42519
1572500000 -3.0310204 -64.392052 -58.646252 122.45856 -85.649445 -59.163822 -8.9842186 44.936859
1582000000 -3.0214539 -91.892403 -59.33437 22.605015 -89.713089 -140.11581 -8.0701294 -17.840139
1591500000 -3.0580401 -119.53896 -60.170563 -79.498421 -85.598328 141.03946 -7.4703116 -77.645844
1601000000 -3.1020162 -147.45412 -60.669724 179.85298 -87.954544 56.991543 -7.8422747 -141.33496
1610500000 -3.139895 -175.53186 -61.436401 78.76606 -98.677498 -20.886564 -9.4419994 149.68983
1620000000 -3.213542 156.04349 -62.324413 -23.859236 -88.534241 -154.99374 -10.798038 74.528717
1629500000 -3.3039453 127.04584 -62.842381 -123.84512 -84.646423 111.79658 -10.050415 -3.1515675
1639000000 -3.3557379 97.688553 -63.34119 135.53757 -87.882477 29.972284 -8.2944241 -75.548431
1648500000 -3.3742259 68.258148 -65.317703 32.152073 -91.069923 -116.03484 -7.5028596 -141.66324
1658000000 -3.3965497 38.750584 -66.182388 -65.390739 -97.257301 112.62179 -7.8368201 157.35394
1667500000 -3.4005444 9.3237219 -66.391777 -157.15771 -88.729866 179.03899 -8.722724 95.288597
1677000000 -3.3470552 -19.626083 -67.054382 100.65032 -88.613953 59.14267 -9.7889547 23.899979
1686500000 -3.2813764 -47.972565 -69.009117 -1.9106454 -93.431961 -92.71386 -10.168111 -56.163826
1696000000 -3.2605896 -75.90889 -69.825043 -92.221664 -102.2785 -38.98505 -9.2133045 -130.3425
1705500000 -3.2456059 -103.59509 -71.078133 -176.48672 -95.610123 136.88388 -7.7981677 165.90128
1715000000 -3.2199166 -131.08534 -72.113998 95.048744 -93.299614 120.56292 -6.8509159 105.19156
1724500000 -3.2328427 -158.47514 -70.073029 -1.4843071 -87.770943 -20.719839 -7.1519856 42.969624
1734000000 -3.282547 173.88556 -70.093697 -103.70078 -91.727173 -134.98526 -8.68713 -20.94902
1743500000 -3.3295331 145.85605 -69.943207 168.46272 -92.182556 139.18958 -10.262609 -90.501251
1753000000 -3.3620532 117.68897 -69.562241 71.080116 -89.98111 76.030022 -10.221968 -168.24112
1762500000 -3.3978744 89.311913 -69.040123 -27.385826 -92.464958 -92.710861 -8.7788734 115.50275
1772000000 -3.4373593 60.546021 -69.12468 -124.61629 -90.909828 -110.82158 -7.8103399 47.595997
1781500000 -3.441577 31.794363 -68.657692 144.47098 -88.965042 167.4892 -7.7051172 -13.824775
1791000000 -3.413341 3.2889006 -68.017494 46.61647 -89.812103 100.42795 -8.1857977 -75.669334
1800500000 -3.3914316 -24.997826 -68.321144 -52.627754 -95.300362 30.790859 -9.1775713 -144.47235
1810000000 -3.3499217 -52.896172 -67.095184 -147.89948 -91.352188 -78.278938 -9.9522829 140.19391
1819500000 -3.2997823 -80.371155 -67.776802 112.98387 -90.821495 166.2514 -9.3838444 67.828224
1829000000 -3.2859261 -107.5484 -68.516624 30.842829 -97.729858 9.8577318 -7.9569182 3.1990335
1838500000 -3.2829306 -134.58014 -64.869362 -57.025719 -91.227257 101.86465 -6.9032922 -58.843044
1848000000 -3.2833142 -161.62811 -61.875301 -153.44392 -85.9925 -26.334749 -7.1988497 -121.43205
1857500000 -3.3239441 171.278 -59.232265 103.07527 -86.803192 -142.09805 -8.7924547 175.42096
1867000000 -3.3920434 143.90262 -57.640434 -13.233859 -83.431877 101.97786 -10.594757 105.82204
1876500000 -3.462816 116.08461 -57.269005 -123.51108 -84.999397 25.010611 -10.816514 24.794727
1886000000 -3.5389662 88.014915 -56.678585 131.28725 -89.669319 -90.314156 -9.2273083 -54.351967
1895500000 -3.6100967 59.656075 -56.372398 22.606159 -81.881058 -168.99985 -7.915133 -122.07606
1905000000 -3.6711979 30.954454 -56.491192 -84.247482 -86.542175 70.325287 -7.4377728 177.75175
1914500000 -3.7033527 2.3110175 -56.374519 173.25784 -84.219948 16.340971 -7.7006297 117.73349
1924000000 -3.7107604 -26.114395 -56.245319 66.503975 -86.680054 -122.50675 -8.8077765 52.262505
1933500000 -3.7014472 -54.347725 -56.696705 -39.911201 -83.672241 154.33902 -10.163728 -20.274519
1943000000 -3.6786623 -82.236099 -56.735622 -141.80269 -85.591393 58.309898 -10.153275 -95.52552
1952500000 -3.651212 -109.8069 -56.758289 115.96895 -91.921921 -23.116344 -8.7699223 -165.98407
1962000000 -3.6409781 -137.29625 -57.82597 8.3475256 -83.799446 -133.88586 -7.6624446 127.61078
1971500000 -3.6330497 -164.71227 -57.984287 -88.917854 -89.428093 120.8504 -7.844049 63.265675
1981000000 -3.6378133 167.8367 -58.62521 171.87944 -85.328949 78.360718 -9.0347004 -0.9413324
1990500000 -3.6850853 140.11287 -59.063892 76.767242 -89.400536 -50.995098 -10.282185 -71.525772
2000000000 -3.7463193 111.96856 -58.629971 -18.243162 -94.405975 -101.26224 -10.335331 -150.4259
