!Keysight Technologies,N5242B,MY48420967,A.15.65.19
!Date: Saturday, February 04, 2023 02:45:24
!Correction: S11(C  1-Port  ) 
!S21(Off) 
!S12(Off) 
!S22(Off) 
!S2P File: Measurements: S11, S21, S12, S22:
# Hz S  dB   R 50
100000000 -1.3033913 40.348854 -81.174904 137.92612 -86.5933 174.92361 -2.645112 44.280231
109500000 -1.233009 11.037122 -82.853081 47.339691 -94.56514 86.43148 -2.5849574 -28.695322
119000000 -1.1609473 -17.839247 -81.317566 -85.802116 -90.135071 -142.53964 -2.8964236 -108.17676
128500000 -1.0723786 -46.218449 -82.015221 176.59671 -90.726402 156.60298 -3.3737729 179.21265
138000000 -1.0546632 -74.638641 -86.251488 98.225235 -87.795792 98.599106 -2.9433296 114.92368
147500000 -1.1233085 -103.57917 -82.753876 -13.143173 -92.418983 26.45723 -1.8356985 48.484158
157000000 -1.1890938 -132.87515 -81.223358 -146.38593 -97.139053 -73.167442 -1.8939224 -27.074703
166500000 -1.2631605 -162.40247 -79.391342 121.63985 -90.555099 -148.76144 -3.8124285 -100.86548
176000000 -1.3899211 167.61823 -80.875702 40.509743 -91.889595 -168.06996 -5.1314087 -169.84015
185500000 -1.497005 137.3051 -79.108124 -93.851791 -89.878891 117.81934 -4.5543919 119.59745
195000000 -1.5229797 107.30267 -81.016556 164.27301 -93.819389 -65.603127 -3.1818671 44.689419
204500000 -1.5311117 77.725372 -79.358192 57.374458 -88.298325 27.883257 -3.0161269 -28.649376
214000000 -1.5458757 48.271549 -79.634392 -48.005539 -96.646057 144.08084 -3.6266131 -94.08577
223500000 -1.506366 19.172178 -77.781738 -128.52025 -88.183006 146.29213 -3.977623 -158.87068
233000000 -1.441403 -9.4547243 -80.508957 126.93754 -92.766075 91.315926 -4.256865 128.33455
242500000 -1.436576 -38.03236 -81.19416 4.6142468 -94.824211 38.606827 -4.885623 51.001194
252000000 -1.456977 -66.865746 -81.350212 -127.40092 -95.902245 -149.30713 -5.0330415 -20.787632
261500000 -1.4695803 -95.877983 -82.329369 162.71738 -87.290634 48.344227 -4.2089067 -87.813293
271000000 -1.528193 -125.09359 -75.802979 93.649376 -93.62336 101.20215 -3.3494756 -157.72949
280500000 -1.6373688 -154.8235 -76.206726 -46.390999 -96.349655 40.979305 -3.9255817 129.48555
290000000 -1.7214514 175.05931 -79.524574 -144.36008 -94.668968 -104.35583 -5.317697 60.154774
299500000 -1.7755543 144.97289 -76.826744 124.39835 -94.419334 170.08606 -5.871151 -9.2819843
309000000 -1.8368802 114.9355 -78.37175 28.707251 -95.211456 -129.01303 -5.2515383 -83.644005
318500000 -1.8731495 85.044487 -75.370094 -81.355835 -93.267609 104.74641 -4.7167034 -159.76843
328000000 -1.8440275 55.569763 -76.469101 -173.29391 -86.800667 -73.030655 -4.8661842 130.60344
337500000 -1.8138112 26.433973 -76.804214 88.630135 -110.04195 -122.49342 -4.9394479 65.567719
347000000 -1.8166248 -2.5439348 -76.237167 -16.846615 -89.995049 -136.89595 -4.843575 -3.7163458
356500000 -1.800092 -31.433409 -74.901726 -124.44487 -89.596664 93.754951 -5.3503418 -79.294334
366000000 -1.7802117 -60.411598 -74.184563 133.44418 -94.799416 18.561028 -6.1351924 -152.48088
375500000 -1.8265071 -89.751778 -77.247879 40.908508 -92.571793 -153.63274 -6.0133805 139.627
385000000 -1.904395 -119.55738 -76.233528 -67.700478 -95.687149 155.23006 -5.1001186 71.047752
394500000 -1.9598211 -149.58647 -74.505501 -179.48019 -87.147507 139.07594 -4.8339934 -2.9034486
404000000 -2.0104034 -179.71036 -75.181496 82.045425 -85.891159 124.83636 -5.8905349 -75.692574
413500000 -2.0840456 149.98271 -76.125786 -32.216305 -101.01436 121.44376 -6.7307301 -144.48309
423000000 -2.1335044 119.78054 -77.397942 -125.00227 -104.23598 14.766611 -6.3436785 145.4469
432500000 -2.114084 90.133865 -75.399391 149.88664 -100.12561 -151.1487 -5.4665785 71.605995
442000000 -2.081953 60.916298 -75.478889 43.613754 -95.69577 126.81018 -5.4007745 -0.39590967
451500000 -2.0797386 31.960487 -74.748245 -64.562393 -96.937508 175.31419 -5.7867179 -65.950897
461000000 -2.0540254 3.3585172 -75.047791 -155.26846 -90.614525 -122.68583 -5.8630452 -131.2084
470500000 -2.0075023 -24.943356 -73.281662 100.10394 -92.894531 -146.23907 -5.8374619 156.45641
480000000 -2.0006719 -53.282883 -73.159904 10.676635 -106.56738 72.604164 -6.2704158 80.25753
489500000 -2.0401137 -81.962708 -70.066078 -94.085426 -90.971725 102.15766 -6.5397758 9.5839367
499000000 -2.0778871 -110.92004 -68.930244 165.28743 -95.336571 90.571411 -6.0383472 -56.057373
508500000 -2.1033244 -139.98672 -66.548332 53.421516 -91.537056 106.63267 -5.3383093 -123.52216
518000000 -2.1488917 -169.28946 -64.658379 -72.020416 -93.242538 -142.41417 -5.6520715 165.31807
527500000 -2.2044513 161.20547 -65.924072 169.56567 -90.657898 -174.00671 -6.7698264 95.169441
537000000 -2.2216067 131.87166 -68.401932 57.896454 -98.05304 -45.917725 -7.1917982 24.993305
546500000 -2.2075195 102.93543 -68.230873 -51.239262 -99.396896 164.57686 -6.459281 -48.198376
556000000 -2.1908813 74.40609 -69.255302 -154.31029 -98.30072 -144.02672 -5.7775502 -121.80531
565500000 -2.16488 46.256794 -70.838341 106.12543 -93.089348 40.250931 -5.9007449 171.16956
575000000 -2.1248639 18.461374 -71.244392 9.3980722 -93.327324 42.168671 -6.1343355 109.96271
584500000 -2.0922236 -9.1043072 -71.922249 -96.963333 -94.382607 -164.89078 -6.116137 45.948925
594000000 -2.0801449 -36.665962 -69.89341 167.81102 -92.89753 -164.40169 -6.3681703 -27.314371
603500000 -2.085109 -64.3936 -72.362915 48.89983 -96.599632 60.253853 -7.1660986 -103.51807
613000000 -2.1132069 -92.462959 -74.42733 -42.82449 -99.085121 62.534332 -7.3034596 -173.55663
622500000 -2.1608264 -121.00385 -72.323936 -131.29436 -87.02977 -83.943268 -6.5304437 120.82339
632000000 -2.2192919 -149.93048 -72.696915 134.5957 -105.03638 111.37135 -5.8824887 53.454342
641500000 -2.2604947 -178.97411 -72.413292 23.501165 -98.064819 117.24258 -6.4248776 -15.951422
651000000 -2.299494 151.80391 -72.130577 -85.712021 -91.540764 155.46533 -7.610249 -85.049026
660500000 -2.3345735 122.52566 -73.027679 -178.60208 -92.933144 -107.36962 -8.0571985 -157.49413
670000000 -2.3257639 93.521538 -72.522812 83.849419 -102.16738 11.837395 -7.4082966 126.24154
679500000 -2.2927637 64.995895 -72.703178 -26.852365 -93.271042 -68.908684 -6.7846727 53.533905
689000000 -2.269691 36.77755 -74.082367 -121.34973 -90.332855 -6.1377482 -6.617847 -10.608323
698500000 -2.2547963 8.6617594 -71.665154 143.68672 -88.657875 166.47054 -6.5189424 -71.218575
708000000 -2.2316179 -19.178818 -72.013 43.710953 -94.681389 -34.437984 -6.695219 -137.44215
717500000 -2.2179515 -46.869919 -71.413498 -62.248543 -103.66798 -61.3349 -7.7678685 147.16626
727000000 -2.2522063 -75.024956 -71.809669 -171.22069 -95.304649 158.15369 -8.8205051 69.318939
736500000 -2.3195865 -103.76153 -72.047897 95.822441 -89.77552 -115.85296 -8.3229246 -3.444622
746000000 -2.3700533 -132.7728 -71.3722 -3.5521195 -103.13979 113.20113 -6.9331841 -71.500786
755500000 -2.4205232 -162.09743 -71.348946 -110.64108 -100.58717 124.41257 -6.2957902 -139.10229
765000000 -2.4993141 168.13629 -71.188942 150.29321 -116.57008 39.51067 -7.0541201 155.29573
774500000 -2.5502086 138.20959 -71.201317 44.636745 -89.702744 -89.094315 -8.2552032 89.921967
784000000 -2.5480266 108.558 -70.280647 -53.356163 -88.954491 140.9214 -8.8080606 16.817293
793500000 -2.5335596 79.285149 -70.652489 -160.79443 -99.208694 -6.414525 -8.3578176 -63.735577
803000000 -2.5162282 50.335503 -71.378281 104.40044 -93.318718 -128.1698 -7.7236028 -138.13387
812500000 -2.4795036 21.819452 -71.159348 0.62562525 -100.32381 163.25652 -7.2194915 158.80074
822000000 -2.4376798 -6.1918039 -71.515327 -93.957344 -96.106155 -153.8669 -6.706985 99.209793
831500000 -2.4198201 -33.990753 -70.008888 169.2596 -96.902946 177.13741 -6.7166424 33.667065
841000000 -2.4283133 -61.868748 -70.827034 58.817039 -88.531494 -56.690666 -7.9619536 -39.774158
850500000 -2.4509404 -89.908119 -70.43734 -45.831177 -93.252716 136.7081 -9.2326031 -116.02998
860000000 -2.4927227 -118.24324 -71.181572 -141.1906 -100.15685 15.388203 -8.7344427 170.15338
869500000 -2.5515015 -146.99417 -70.252747 118.76576 -89.658585 40.491978 -7.2064533 100.82098
879000000 -2.6046531 -176.05579 -71.758423 12.559832 -94.188187 142.80252 -6.4181337 34.119831
888500000 -2.6382868 154.77956 -70.504417 -85.711449 -93.896957 -173.86598 -6.8508258 -29.002596
898000000 -2.6601031 125.66723 -70.058853 169.28014 -91.976807 34.185329 -7.7738247 -91.834885
907500000 -2.6549094 96.714607 -70.62867 76.758987 -91.581833 68.051277 -8.5630865 -162.51331
917000000 -2.6162541 68.141594 -70.453667 -31.771193 -106.17798 -89.007095 -8.7553988 117.89953
926500000 -2.56551 40.105713 -71.00193 -132.3371 -91.051659 142.19611 -8.2065897 42.523026
936000000 -2.5214169 12.551746 -71.932999 128.66093 -104.62087 81.276535 -7.2896614 -22.187819
945500000 -2.4800682 -14.666354 -70.951706 24.739931 -95.131256 -78.544685 -6.4547434 -82.771111
955000000 -2.4418473 -41.651798 -70.451332 -70.213722 -102.8131 -34.260929 -6.3932862 -146.25031
964500000 -2.4328368 -68.498436 -69.849533 -174.22751 -100.58723 -149.35748 -7.5668983 146.25389
974000000 -2.4538777 -95.52536 -70.509117 86.763428 -94.534729 48.724628 -9.0336075 74.766357
983500000 -2.4965489 -123.06123 -70.796318 -14.957216 -94.768417 -24.096924 -9.1479445 -0.98687762
993000000 -2.5427907 -150.96637 -69.525826 -111.98748 -90.754402 -157.72679 -7.9832468 -74.806664
1002500000 -2.5804939 -179.10909 -69.394882 146.03787 -89.5728 -179.99364 -7.1186085 -141.82938
1012000000 -2.628597 152.38939 -70.842331 43.303291 -88.975464 100.48743 -6.9691582 157.57349
1021500000 -2.6619601 123.66619 -69.802467 -53.397186 -102.23339 -114.33639 -7.2124829 97.383995
1031000000 -2.654038 95.022758 -68.437881 -152.62268 -100.61171 -47.857521 -7.9804335 29.529537
1040500000 -2.6208775 66.716026 -69.483162 103.7822 -88.729935 -179.72705 -9.3010387 -47.963749
1050000000 -2.591573 38.714222 -69.48098 2.6682208 -95.147858 39.516056 -9.6951485 -125.88826
1059500000 -2.5597332 10.971304 -69.615402 -94.253029 -93.52813 -45.177021 -8.4983578 164.85074
1069000000 -2.5155389 -16.359091 -68.536308 170.79829 -89.919365 -138.72377 -6.9073172 100.17333
1078500000 -2.4826064 -43.327755 -67.636345 67.441612 -91.55542 139.65044 -6.4139462 34.151127
1088000000 -2.4865036 -70.34153 -67.985229 -38.789146 -92.963493 -30.645252 -7.5137858 -30.933022
1097500000 -2.5320284 -97.710907 -68.822189 -137.95029 -96.735764 75.896637 -9.0702143 -96.201988
1107000000 -2.5773208 -125.41615 -67.985481 124.91699 -94.921211 -175.37419 -9.7819214 -168.73943
1116500000 -2.6252005 -153.54091 -67.562653 23.638227 -85.431702 94.046654 -9.1440859 113.10239
1126000000 -2.706636 177.73788 -67.288818 -80.060226 -89.773056 12.806107 -8.2449274 40.635193
1135500000 -2.7816615 148.51797 -67.149368 179.56888 -94.777458 -64.608765 -7.7400122 -22.690704
1145000000 -2.8094747 119.09805 -66.962921 83.032219 -82.613007 175.50182 -7.5726514 -83.656326
1154500000 -2.820271 89.736145 -66.426323 -24.34749 -92.678261 135.47385 -8.1544304 -150.36255
1164000000 -2.8247263 60.457413 -66.699135 -128.49146 -93.396355 149.75511 -9.717494 135.12057
1173500000 -2.7994492 31.401833 -66.013718 134.48027 -94.161713 -51.16177 -10.556726 56.843746
1183000000 -2.7519693 2.9549031 -66.079605 34.585167 -93.405174 -157.77545 -9.3043289 -17.058256
1192500000 -2.7195051 -25.011919 -66.277634 -66.862381 -96.792198 170.26566 -7.4332013 -85.578773
1202000000 -2.7151718 -52.857552 -65.540817 -170.69814 -88.489494 60.116539 -6.7642698 -151.73619
1211500000 -2.7159221 -80.536667 -65.720131 90.845482 -89.903419 -64.128639 -7.5136795 146.37952
1221000000 -2.7324574 -108.16882 -66.222961 -8.6186638 -83.879219 -134.37401 -8.740344 85.236984
1230500000 -2.7956645 -136.19559 -65.138496 -106.99376 -87.966805 100.51611 -9.7322378 15.994539
1240000000 -2.867547 -164.77129 -64.667328 151.8795 -92.224419 27.503134 -9.8508778 -63.587368
1249500000 -2.9140539 166.35046 -64.170853 48.401012 -98.279213 -114.92999 -9.0267544 -140.41631
1259000000 -2.9652197 137.28072 -64.130386 -54.436417 -94.286156 -160.00252 -8.0009995 153.03432
1268500000 -3.0132816 107.89837 -63.240799 -154.20786 -89.957291 92.993134 -7.3144932 90.8601
1278000000 -3.0116568 78.465057 -63.131321 102.46177 -93.125084 34.959118 -7.5557165 26.838118
1287500000 -2.9645226 49.563408 -63.929516 -2.1110978 -89.242882 -117.00856 -8.8707418 -40.537193
1297000000 -2.9163337 21.184122 -63.145576 -98.007164 -85.17672 153.49492 -10.072617 -113.17879
1306500000 -2.8804188 -6.8606467 -62.782375 162.67267 -87.472946 92.319168 -9.6002989 169.51457
1316000000 -2.8278184 -34.377964 -62.194202 60.587418 -83.180885 39.402267 -8.0856066 95.293045
1325500000 -2.7684886 -61.331631 -61.781548 -44.516605 -86.83757 -105.0583 -7.238162 28.704464
1335000000 -2.7559011 -88.12101 -62.039177 -146.22459 -84.589912 146.0959 -7.1973033 -30.906483
1344500000 -2.7846634 -115.05462 -62.106422 116.19009 -84.942039 74.244453 -7.5532784 -89.701767
1354000000 -2.8118417 -142.20975 -61.528214 15.45289 -91.169518 -10.46845 -8.3733454 -154.97467
1363500000 -2.8324757 -169.53967 -60.800976 -88.99691 -84.641098 -122.2774 -9.5579948 131.00981
1373000000 -2.8823612 162.7614 -59.725941 170.80096 -81.402191 169.82922 -9.7948933 54.870422
1382500000 -2.9519317 134.56384 -59.420361 60.051582 -91.358223 69.641518 -8.6150265 -15.100204
1392000000 -2.9793596 106.11859 -61.205189 -47.78672 -107.58791 -163.37735 -7.268497 -81.093704
1401500000 -2.9565837 77.725449 -61.677704 -132.91843 -83.261642 -159.63467 -7.1085658 -147.01674
1411000000 -2.9439623 49.440979 -60.186352 134.01695 -85.10936 -178.88948 -8.3295069 148.65303
1420500000 -2.9374073 21.300129 -58.353828 31.406157 -92.658928 75.886314 -9.7615509 82.478432
1430000000 -2.8762453 -6.4035916 -57.429764 -75.315498 -80.997192 -6.5863748 -10.04313 7.6813197
1439500000 -2.8066452 -33.477985 -56.75256 179.43288 -86.144936 -129.1852 -8.8892384 -71.149582
1449000000 -2.790041 -60.253551 -56.596798 74.803627 -83.439896 153.26436 -7.8568907 -142.13408
1458500000 -2.7969592 -87.089996 -56.094116 -27.892111 -85.594902 84.92054 -7.4674959 157.13985
1468000000 -2.7938704 -113.90289 -54.704887 -131.8907 -79.569756 -33.720016 -7.459713 99.940804
1477500000 -2.804522 -140.70013 -53.733616 119.37929 -78.910881 -138.53777 -8.0763636 38.49255
1487000000 -2.8706331 -168.06592 -53.991501 4.0027966 -82.628044 119.55337 -9.5962639 -31.114941
1496500000 -2.9479849 163.99333 -54.098888 -98.072304 -79.89978 21.578112 -10.819168 -108.70809
1506000000 -2.9869139 135.82523 -53.626884 150.91824 -79.003464 -81.419846 -10.001679 173.58095
1515500000 -3.0367999 107.29648 -54.857056 37.713448 -81.824165 158.13289 -8.3175278 102.18855
1525000000 -3.099093 78.249329 -55.267921 -58.633999 -81.806961 86.722641 -7.7043796 35.643566
1534500000 -3.1073837 49.066116 -55.516884 -167.54486 -82.091881 -5.6452456 -8.3132401 -26.251047
1544000000 -3.0795834 20.219614 -55.387428 89.31675 -82.693451 -99.201317 -9.3437214 -89.06218
1553500000 -3.0641835 -8.3321953 -55.831936 -22.13125 -82.44619 158.54759 -10.099013 -161.27565
1563000000 -3.0431349 -36.667183 -56.850052 -130.65498 -87.301064 53.115959 -9.9480782 118.42345
1572500000 -3.0058851 -64.532143 -58.290619 127.35575 -88.62677 -42.27729 -9.0847034 44.898956
1582000000 -2.9966505 -92.037025 -59.048023 25.858021 -85.614609 -137.69739 -8.1566792 -17.861355
1591500000 -3.0325031 -119.69079 -59.799496 -78.952316 -87.209801 135.62846 -7.5567646 -77.605347
1601000000 -3.0770242 -147.61728 -60.457073 -178.43919 -87.886108 46.147491 -7.9357629 -141.19734
1610500000 -3.1151063 -175.70563 -61.382755 78.125076 -96.914345 -34.998844 -9.5460844 149.88014
1620000000 -3.1879048 155.85635 -62.236462 -25.021103 -89.232491 -148.37415 -10.917871 74.603149
1629500000 -3.2771003 126.84966 -62.60413 -126.06033 -99.004463 30.140778 -10.165052 -3.2482085
1639000000 -3.3285015 97.485786 -63.806919 136.20807 -91.75605 55.636318 -8.3935432 -75.640244
1648500000 -3.346523 68.045784 -65.453796 32.373707 -94.898766 -133.43813 -7.590292 -141.67096
1658000000 -3.3695714 38.5378 -66.006638 -61.48468 -89.310081 -148.05795 -7.9196591 157.41261
1667500000 -3.3718305 9.1150103 -66.340797 -158.80814 -87.777069 138.51089 -8.8138618 95.384232
1677000000 -3.3180737 -19.835392 -67.405724 101.86837 -105.79599 78.639114 -9.8978653 23.976484
1686500000 -3.2547116 -48.179443 -69.224457 -2.9154222 -93.083374 -117.86225 -10.278344 -56.205666
1696000000 -3.2332594 -76.113846 -69.590149 -91.557411 -90.39212 -138.72743 -9.3042049 -130.45088
1705500000 -3.2177527 -103.79085 -69.739899 175.79202 -97.343491 104.4009 -7.8744831 165.81705
1715000000 -3.1925981 -131.27806 -71.540611 90.309349 -86.712112 49.998734 -6.9258003 105.1843
1724500000 -3.2061377 -158.66373 -70.318253 -0.36453918 -93.672348 -20.563744 -7.2291374 43.05241
1734000000 -3.2552922 173.68767 -69.486862 -102.22752 -90.292496 142.86008 -8.7693377 -20.804245
1743500000 -3.3010409 145.66446 -69.215416 162.13464 -93.327225 -147.25125 -10.361072 -90.409737
1753000000 -3.334053 117.49738 -69.271362 70.46051 -92.484711 88.04821 -10.32814 -168.29752
1762500000 -3.3697696 89.122032 -69.404724 -31.037954 -100.07087 152.87714 -8.8724413 115.4108
1772000000 -3.4088655 60.354454 -68.557281 -126.33943 -87.908829 -116.51573 -7.8910394 47.559685
1781500000 -3.4127274 31.60763 -68.575752 142.49147 -88.981018 -168.28816 -7.78127 -13.807479
1791000000 -3.3845482 3.1068923 -68.854332 41.737003 -93.827087 112.12048 -8.2664165 -75.600929
1800500000 -3.3615022 -25.171585 -68.366966 -50.576286 -88.390953 104.74111 -9.267724 -144.38441
1810000000 -3.3212578 -53.058659 -67.310585 -145.7645 -96.814354 46.399044 -10.04588 140.20586
1819500000 -3.2710831 -80.537827 -68.087158 117.04208 -102.06055 171.66953 -9.4660282 67.77047
1829000000 -3.25631 -107.7081 -67.405624 35.480919 -91.136002 156.74457 -8.0308142 3.1369357
1838500000 -3.2543094 -134.73152 -64.465096 -51.329655 -102.16685 29.169338 -6.9757533 -58.840054
1848000000 -3.2547967 -161.77512 -62.324989 -153.08156 -91.305756 -66.777519 -7.2719254 -121.32516
1857500000 -3.2961595 171.12318 -58.995888 102.70281 -87.874329 -178.97997 -8.8717976 175.59555
1867000000 -3.3627381 143.75368 -57.863884 -11.844149 -86.973709 136.50398 -10.695712 105.96187
1876500000 -3.4330416 115.93326 -57.317928 -121.63179 -83.239151 2.9466486 -10.928903 24.775909
1886000000 -3.5087714 87.859535 -56.670734 134.29523 -85.122513 -116.97614 -9.3231001 -54.446712
1895500000 -3.57967 59.490025 -56.431141 24.499943 -82.811134 -162.91539 -7.9941373 -122.1264
1905000000 -3.6401763 30.779869 -56.631496 -82.240456 -87.054588 118.60854 -7.5094309 177.76463
1914500000 -3.6730351 2.1355333 -56.265598 175.24068 -86.104019 -27.05699 -7.7745605 117.81179
1924000000 -3.68101 -26.291588 -56.138493 66.294632 -86.030426 -87.030617 -8.8911171 52.396595
1933500000 -3.6717536 -54.540974 -56.667774 -38.333321 -81.728531 143.41699 -10.25914 -20.177107
1943000000 -3.6505029 -82.434937 -56.64724 -139.38417 -82.996155 77.983261 -10.248945 -95.552483
1952500000 -3.6236105 -110.01653 -56.67358 116.73151 -84.6763 -17.079826 -8.8573046 -166.05219
1962000000 -3.6134872 -137.51027 -57.633671 7.4344025 -85.269142 -107.98769 -7.7444191 127.59843
1971500000 -3.6069658 -164.92693 -58.167107 -88.646729 -88.132339 146.66322 -7.9236546 63.33461
1981000000 -3.6122458 167.61298 -58.389507 172.39536 -86.879837 50.996895 -9.1196041 -0.83496273
1990500000 -3.6584589 139.87956 -59.013577 74.910011 -91.166458 -39.837257 -10.381783 -71.454933
2000000000 -3.7197547 111.73065 -58.664543 -18.18689 -87.808464 -152.10536 -10.439774 -150.4904
