!CSV A.01.01
!Keysight Technologies,N5242B,MY48420967,A.15.65.19
!Date: Friday, February 03, 2023 14:22:02
!Source: Standard

BEGIN CH1_DATA
Freq(Hz),DUTNPDI(DB),DUTNPDI(DEG)
100000000,-174.49384,79.43396
109500000,-174.11044,78.667252
119000000,-173.81909,77.951561
128500000,-173.6292,77.44487
138000000,-173.39119,76.787743
147500000,-171.48862,70.163399
157000000,-173.80855,78.081924
166500000,-173.14604,76.211792
176000000,-173.00995,75.829086
185500000,-173.09781,76.071274
195000000,-172.90919,75.54052
204500000,-172.9234,75.7061
214000000,-173.0912,76.380775
223500000,-173.17415,76.793297
233000000,-173.25601,77.218933
242500000,-172.9171,76.341293
252000000,-172.74165,75.846619
261500000,-172.94093,76.487633
271000000,-172.8092,76.048637
280500000,-172.78447,75.917877
290000000,-172.75468,75.795876
299500000,-172.73308,75.785591
309000000,-172.81808,76.064949
318500000,-172.55348,75.171501
328000000,-172.21997,74.014885
337500000,-172.46442,74.964775
347000000,-171.79057,72.726311
356500000,-171.59299,71.760101
366000000,-171.79552,72.529091
375500000,-172.47292,74.925957
385000000,-172.9523,76.544266
394500000,-172.81206,76.225189
404000000,-172.57219,75.629623
413500000,-172.72112,76.300156
423000000,-172.68611,76.394257
432500000,-172.24149,75.099388
442000000,-172.18805,75.003471
451500000,-171.97026,74.334663
461000000,-171.54378,72.776558
470500000,-171.83154,73.790031
480000000,-171.67934,73.194099
489500000,-171.70226,73.212265
499000000,-171.67104,73.031754
508500000,-171.96469,74.108315
518000000,-171.88496,73.865036
527500000,-171.62657,72.977631
537000000,-171.81242,73.717766
546500000,-171.68343,73.320999
556000000,-171.53418,72.977203
565500000,-171.66849,73.737595
575000000,-171.58818,73.716843
584500000,-171.35405,73.158226
594000000,-171.24823,73.055168
603500000,-171.27989,73.325172
613000000,-171.18581,72.919479
622500000,-171.39763,73.628944
632000000,-171.16885,72.780273
641500000,-171.1617,72.756592
651000000,-171.468,73.861015
660500000,-171.34944,73.34845
670000000,-171.3812,73.372612
679500000,-171.20068,72.588951
689000000,-171.45728,73.390549
698500000,-171.32338,72.752586
708000000,-171.25482,72.369743
717500000,-170.93732,70.995277
727000000,-171.07553,71.452126
736500000,-170.72025,70.006714
746000000,-170.84749,70.554375
755500000,-170.99823,71.300095
765000000,-170.80995,70.653168
774500000,-170.71118,70.363411
784000000,-170.83514,70.992447
793500000,-170.83917,71.136772
803000000,-170.54953,70.123192
812500000,-170.54204,70.275002
822000000,-170.62968,70.816879
831500000,-170.63333,71.006004
841000000,-170.67079,71.257721
850500000,-170.75215,71.663147
860000000,-170.83282,72.05793
869500000,-170.69968,71.61734
879000000,-170.65723,71.493095
888500000,-170.96487,72.674362
898000000,-170.74846,71.839432
907500000,-170.87273,72.313072
917000000,-170.73581,71.777695
926500000,-170.71762,71.718674
936000000,-170.57529,71.164749
945500000,-170.51004,70.913071
955000000,-170.5199,70.966011
964500000,-170.35211,70.379738
974000000,-170.43314,70.868149
983500000,-170.31372,70.528816
993000000,-170.55688,71.660049
1002500000,-170.58818,71.939255
1012000000,-170.56921,72.059082
1021500000,-170.67279,72.641724
1031000000,-170.63957,72.699974
1040500000,-170.66603,72.977707
1050000000,-170.7139,73.071175
1059500000,-170.6089,72.558899
1069000000,-170.56355,72.261864
1078500000,-170.63553,72.410286
1088000000,-170.35941,71.204514
1097500000,-170.49704,71.629013
1107000000,-170.46608,71.381844
1116500000,-170.31294,70.632072
1126000000,-170.53496,71.412903
1135500000,-170.34669,70.605759
1145000000,-170.26225,70.209633
1154500000,-170.35143,70.537445
1164000000,-170.31082,70.324013
1173500000,-170.42062,71.019394
1183000000,-170.39598,71.261841
1192500000,-170.54585,72.177078
1202000000,-170.52884,72.423668
1211500000,-170.3882,72.175125
1221000000,-170.66391,73.445778
1230500000,-170.68361,73.747101
1240000000,-170.53203,73.432755
1249500000,-170.28407,72.752892
1259000000,-170.50577,73.536377
1268500000,-170.54503,73.635437
1278000000,-170.51137,73.473373
1287500000,-170.32932,72.763458
1297000000,-170.24023,72.323494
1306500000,-170.1898,71.97509
1316000000,-170.19664,71.844093
1325500000,-170.41866,72.539963
1335000000,-170.47757,72.654663
1344500000,-170.40401,72.495392
1354000000,-170.22974,71.946152
1363500000,-170.33357,72.463272
1373000000,-170.54416,73.357025
1382500000,-170.90813,74.927788
1392000000,-170.94955,75.398804
1401500000,-170.97122,75.787003
1411000000,-170.96248,76.065292
1420500000,-170.87759,76.014313
1430000000,-171.04266,76.59639
1439500000,-171.2525,77.282982
1449000000,-170.89221,76.303833
1458500000,-170.92007,76.4617
1468000000,-170.71478,75.577919
1477500000,-170.59335,74.916855
1487000000,-170.44275,74.12204
1496500000,-170.71526,74.760109
1506000000,-170.55484,73.722542
1515500000,-170.52711,73.582756
1525000000,-170.55882,73.654755
1534500000,-170.45934,73.254761
1544000000,-170.7012,74.074547
1553500000,-170.67215,73.932304
1563000000,-170.77812,74.26017
1572500000,-170.8679,74.727386
1582000000,-171.285,76.42421
1591500000,-171.62238,77.720406
1601000000,-171.44403,77.533615
1610500000,-171.21373,77.18898
1620000000,-171.27946,77.668289
1629500000,-171.36496,78.176582
1639000000,-170.88019,76.994705
1648500000,-171.0027,77.189751
1658000000,-170.9429,76.857491
1667500000,-171.04153,76.981468
1677000000,-170.84821,76.238358
1686500000,-170.8299,76.005486
1696000000,-170.8837,75.991653
1705500000,-170.98306,76.141861
1715000000,-170.89781,75.953423
1724500000,-170.92915,76.124565
1734000000,-170.85162,75.959045
1743500000,-170.95461,76.347717
1753000000,-170.70901,75.66082
1762500000,-170.93755,76.438713
1772000000,-171.00311,76.703896
1781500000,-171.17903,77.428909
1791000000,-171.42493,78.30925
1800500000,-171.47348,78.635147
1810000000,-171.26106,78.283073
1819500000,-171.34741,78.699028
1829000000,-170.90715,77.732666
1838500000,-171.07123,78.364685
1848000000,-171.07558,78.243568
1857500000,-170.81403,77.272331
1867000000,-170.41495,75.794708
1876500000,-170.61037,76.097061
1886000000,-170.65714,75.931152
1895500000,-170.5152,75.150749
1905000000,-170.97041,76.255074
1914500000,-171.0334,76.385315
1924000000,-171.18919,76.980431
1933500000,-171.58301,78.194824
1943000000,-171.50912,78.117058
1952500000,-171.62909,78.545731
1962000000,-171.40286,78.067734
1971500000,-171.26613,77.81572
1981000000,-170.96838,77.117004
1990500000,-171.04529,77.489067
2000000000,-171.09598,77.777885
END

