!Keysight Technologies,N5242B,MY48420967,A.15.65.19
!Date: Thursday, February 02, 2023 15:29:36
!Correction: S11(C  1-Port  ) 
!S21(Off) 
!S12(Off) 
!S22(Off) 
!S2P File: Measurements: S11, S21, S12, S22:
# Hz S  dB   R 50
100000000 -18.951841 -10.210578 28.036257 11.754048 -34.34832 -85.945663 -22.547445 47.296062
109500000 -17.217346 -12.58427 27.287659 -90.048317 -33.537334 -178.63783 -24.918648 -1.3102536
119000000 -14.077872 -46.658596 26.433598 167.32759 -32.969921 87.780174 -22.863649 -126.84608
128500000 -14.681106 -89.621986 25.531895 66.461555 -32.546837 -4.1959391 -19.802481 144.20734
138000000 -19.36095 -112.69832 24.901838 -34.113686 -31.95561 -95.861046 -18.344965 96.927246
147500000 -17.964432 -99.509071 24.399755 -135.4155 -31.302336 171.61087 -16.87751 49.563869
157000000 -13.757486 -138.82607 23.872459 122.36076 -30.760513 78.174545 -17.658506 -0.24132907
166500000 -13.39652 166.35017 23.204266 20.310532 -30.432961 -15.098591 -20.565411 -53.294807
176000000 -16.430592 114.38335 22.545446 -80.430588 -30.142538 -107.16392 -28.553852 -125.32882
185500000 -21.945168 97.107834 22.092968 179.06764 -29.713148 161.041 -28.957907 83.415741
195000000 -17.980955 100.13625 21.713785 77.746635 -29.24217 68.418579 -21.867281 23.621456
204500000 -14.631222 58.196831 21.250196 -24.128252 -28.900663 -24.855759 -18.104916 -26.68214
214000000 -14.859683 14.989571 20.697475 -125.13539 -28.689646 -117.17717 -17.748474 -81.055244
223500000 -16.569063 -8.8125095 20.312855 134.55623 -28.344801 151.1403 -20.223846 -124.92107
233000000 -15.271074 -22.39563 20.033268 33.532375 -27.91917 58.820011 -22.595186 -168.29842
242500000 -13.735524 -56.529636 19.68574 -68.112488 -27.60359 -34.142128 -28.602505 111.79503
252000000 -14.983397 -95.669426 19.273832 -169.20755 -27.375608 -126.72922 -27.729481 -23.611176
261500000 -17.999668 -113.70931 18.952389 90.079597 -27.059942 141.22704 -22.466944 -92.225021
271000000 -16.13714 -121.02943 18.718033 -11.017725 -26.71743 48.735046 -20.861509 -138.79181
280500000 -13.699183 -161.11716 18.480867 -112.92328 -26.37817 -44.526535 -19.479555 176.45905
290000000 -13.956985 149.35638 18.054956 145.16092 -26.257818 -137.82669 -21.582331 115.71547
299500000 -16.586874 111.0802 17.699701 44.612495 -26.079865 130.27438 -30.596584 71.267502
309000000 -17.690269 100.12447 17.478798 -56.440292 -25.803932 37.936291 -47.029758 -18.723877
318500000 -14.679161 74.665108 17.230337 -158.19542 -25.56398 -55.182083 -26.727999 -169.21049
328000000 -13.453513 33.724991 16.887936 100.38651 -25.42207 -147.91028 -22.623495 129.87202
337500000 -14.658078 0.25313571 16.59503 -0.60451388 -25.25746 119.85981 -22.154089 76.940292
347000000 -15.067787 -14.655877 16.372589 -101.70817 -25.018995 27.462664 -25.14996 19.807192
356500000 -12.770747 -40.325336 16.168682 156.98085 -24.794704 -65.258789 -31.544151 -22.096836
366000000 -12.037201 -81.249176 15.92684 55.16394 -24.608643 -158.42041 -32.862495 -121.29483
375500000 -14.036764 -120.08548 15.598089 -45.910519 -24.525425 109.06098 -25.792591 123.83091
385000000 -16.504423 -134.9917 15.410363 -146.7404 -24.314079 16.818691 -23.987228 49.140244
394500000 -13.77615 -150.6105 15.234445 111.76133 -24.109354 -76.168137 -25.648605 -0.1734305
404000000 -11.529055 167.93904 14.956049 9.8527498 -24.004669 -169.60033 -25.704145 -59.197113
413500000 -11.727217 122.73178 14.581386 -90.691277 -24.023895 98.35981 -26.198559 -168.50047
423000000 -13.414521 89.898102 14.468453 168.94971 -23.788656 6.5180759 -23.735273 90.512505
432500000 -13.215787 74.175163 14.322221 67.076157 -23.610815 -86.809105 -21.201704 34.10041
442000000 -11.137022 46.351429 13.960198 -34.472649 -23.635128 -179.80104 -18.603146 -24.5518
451500000 -10.623674 9.4598598 13.704797 -134.63919 -23.56621 88.67662 -19.297268 -86.068008
461000000 -11.657234 -20.492403 13.563287 124.30866 -23.395481 -3.685451 -20.555536 -146.9993
470500000 -11.765991 -37.647316 13.351073 22.992252 -23.294979 -96.272812 -21.787823 122.86169
480000000 -10.246613 -63.550526 13.168943 -78.016281 -23.163343 171.4444 -22.509638 30.90332
489500000 -9.8737087 -100.20237 12.933067 -179.67514 -23.094477 78.553711 -20.064276 -25.436106
499000000 -11.083891 -134.03038 12.671322 80.005852 -23.051897 -13.032943 -17.279799 -90.447159
508500000 -12.05335 -154.64748 12.653725 -21.233896 -22.770746 -105.51804 -18.40592 -154.80801
518000000 -10.802496 -177.94086 12.442855 -123.65546 -22.694399 160.82527 -20.3008 148.23813
527500000 -9.8949299 146.33231 12.065804 135.41844 -22.781162 68.631699 -22.024084 64.139626
537000000 -10.368671 111.0042 11.948995 34.926422 -22.610531 -23.131401 -21.212729 -30.705217
546500000 -11.04523 86.878502 11.811377 -66.83287 -22.452822 -116.15926 -17.639708 -102.64851
556000000 -10.016083 64.850731 11.524497 -168.22151 -22.438026 151.21669 -15.858749 -167.50383
565500000 -8.9823999 32.566494 11.263491 90.903015 -22.394842 59.051186 -16.156055 138.99765
575000000 -9.3892422 -1.3741809 11.009588 -9.253849 -22.348167 -32.465794 -16.569763 82.270485
584500000 -10.699808 -24.917425 10.992806 -109.3753 -22.058889 -124.14955 -19.583652 7.4528437
594000000 -10.249722 -41.153625 10.891552 148.91426 -21.866369 142.40727 -23.264938 -81.915161
603500000 -9.0209227 -70.357422 10.545379 48.335468 -22.018209 49.938824 -20.397512 -170.24026
613000000 -9.2154446 -105.85992 10.517402 -50.812172 -21.890448 -41.142246 -18.459175 119.72896
622500000 -10.633518 -135.33342 10.51969 -152.21451 -21.762474 -134.48228 -17.511583 70.611771
632000000 -11.076604 -155.48625 10.322742 107.12012 -21.840158 132.95514 -17.378506 4.436862
641500000 -10.067426 177.06677 10.271391 6.7380295 -21.75083 40.870712 -22.17577 -68.024284
651000000 -9.8118086 142.41658 10.120255 -94.86747 -21.767763 -52.211964 -24.128609 -149.27904
660500000 -10.477704 111.55521 9.9526844 164.67686 -21.797285 -144.03273 -19.198931 115.99996
670000000 -10.418736 87.836426 9.9110928 63.411949 -21.69726 123.44258 -16.536726 45.331284
679500000 -9.380702 59.698315 9.7160158 -37.995792 -21.748331 30.806759 -15.758956 -8.3071413
689000000 -9.1491461 26.154375 9.5488081 -138.31413 -21.762949 -60.726631 -15.962234 -61.520855
698500000 -10.131318 -3.3350887 9.5764809 120.82859 -21.587095 -152.83984 -18.055868 -121.86842
708000000 -10.586852 -21.783321 9.4931402 18.822565 -21.518234 113.93609 -22.114204 154.79091
717500000 -9.3813467 -44.519184 9.2351103 -82.336067 -21.631491 21.476145 -21.291416 43.281681
727000000 -8.8062096 -77.588837 9.1246614 177.64061 -21.589216 -69.850243 -17.311674 -31.334425
736500000 -9.6037531 -111.24084 9.1893692 76.597618 -21.371693 -162.21103 -15.210073 -87.437836
746000000 -10.626908 -136.14671 9.116004 -25.69957 -21.295443 104.12455 -14.461843 -140.89661
755500000 -10.089998 -159.94315 8.827692 -127.29846 -21.442732 11.160092 -15.473241 160.10043
765000000 -9.4077539 166.6434 8.6403913 132.53531 -21.489601 -80.350311 -18.524744 91.527985
774500000 -9.7600174 131.16757 8.6389866 31.624384 -21.356848 -172.57748 -20.497303 2.9934735
784000000 -10.467185 103.75151 8.5258236 -70.406204 -21.343275 94.10218 -17.117311 -82.056862
793500000 -9.750432 80.477051 8.2209663 -171.73904 -21.525129 1.51285 -14.031885 -150.13623
803000000 -8.5876484 49.268448 8.0205402 88.290672 -21.605568 -89.701889 -13.195706 152.84502
812500000 -8.4655437 14.840212 7.9576273 -11.944281 -21.548763 178.83594 -13.149715 101.24784
822000000 -9.3429203 -13.62644 8.0277987 -112.76384 -21.361891 86.826149 -14.009368 39.538799
831500000 -9.4542646 -33.040764 7.9825974 144.72539 -21.291344 -6.894834 -16.934387 -37.217995
841000000 -8.3857632 -58.224247 7.6023984 43.136589 -21.554575 -99.697624 -17.719017 -127.16316
850500000 -7.992547 -90.670509 7.4112334 -55.676891 -21.62887 170.2865 -14.776108 152.43478
860000000 -8.6129751 -122.36086 7.6673141 -156.57851 -21.250397 78.198517 -12.874171 88.860855
869500000 -9.2402172 -147.90979 7.513731 100.18848 -21.286684 -16.247679 -11.772117 33.903049
879000000 -8.8613329 -173.99101 7.1194906 -0.27260044 -21.567947 -107.89243 -12.112917 -27.918852
888500000 -8.4986372 154.17081 7.1454558 -100.09126 -21.423138 161.08644 -14.798885 -92.264496
898000000 -8.7919121 122.32403 7.0795822 158.03128 -21.371128 68.037956 -16.720516 -165.8035
907500000 -9.0470791 95.791733 6.8921399 57.023033 -21.44759 -24.102436 -15.206158 102.28048
917000000 -8.4186506 69.888229 6.7646456 -44.004749 -21.45944 -116.24143 -13.213978 26.50849
926500000 -7.7714796 39.645077 6.5250182 -144.64508 -21.584751 152.0388 -11.825449 -30.987658
936000000 -7.8485236 9.0108042 6.4987044 115.96578 -21.489262 61.560993 -11.151434 -87.90419
945500000 -8.3031588 -16.714125 6.6296492 14.280455 -21.256727 -31.229565 -12.051172 -148.45885
955000000 -8.1106768 -39.14212 6.3820395 -87.576324 -21.40271 -124.28218 -14.227324 141.01537
964500000 -7.6132464 -65.405701 6.2101712 172.77583 -21.469362 144.78847 -16.358768 52.6063
974000000 -7.6657495 -94.31176 6.2249727 72.227287 -21.375229 52.845966 -14.950249 -30.798532
983500000 -8.1160793 -121.55501 6.1501622 -28.392454 -21.390299 -39.230648 -12.235142 -98.895149
993000000 -8.2061749 -147.21764 6.1319618 -129.19174 -21.372566 -131.55315 -11.374301 -160.88222
1002500000 -8.0748339 -175.90401 5.9608965 130.03964 -21.526289 136.20473 -11.796942 142.74059
1012000000 -8.4179621 153.50563 5.9626055 31.009941 -21.50246 45.758659 -13.203766 78.531769
1021500000 -8.9858389 126.54282 6.2404556 -70.720978 -21.216274 -47.376434 -16.087893 -0.1089655
1031000000 -8.6627502 102.18468 5.9727511 -173.78729 -21.482353 -141.73106 -16.122614 -88.989861
1040500000 -7.886476 72.81353 5.5880585 87.247665 -21.847067 128.08237 -13.282755 -167.09026
1050000000 -7.7546086 40.476147 5.8499088 -11.548807 -21.567783 38.10281 -11.515362 129.57883
1059500000 -8.3683834 11.854599 6.1030345 -114.06391 -21.293224 -55.582542 -10.694723 72.380913
1069000000 -8.512414 -9.5298615 5.909421 142.92421 -21.447319 -149.72392 -11.105882 9.5691986
1078500000 -7.6882343 -33.861439 5.553298 42.421635 -21.765095 118.62826 -13.46828 -59.804302
1088000000 -7.3117824 -63.677204 5.493762 -56.93383 -21.788076 28.123489 -15.631762 -138.8904
1097500000 -7.8140898 -93.283699 5.6228819 -157.33075 -21.6276 -63.392223 -14.31635 137.043
1107000000 -8.4624701 -117.97964 5.7165494 100.83007 -21.507978 -156.32407 -11.955597 62.643913
1116500000 -8.315815 -142.51598 5.5786448 -1.2432334 -21.622643 110.55797 -11.176616 -0.73549068
1126000000 -8.1753225 -172.2446 5.3425779 -101.71153 -21.852556 19.04924 -11.232108 -58.621689
1135500000 -8.6265373 157.00136 5.4477897 158.74463 -21.737717 -71.473877 -12.169132 -123.63329
1145000000 -9.0091467 130.22417 5.6491709 56.069633 -21.529366 -165.09244 -14.262973 160.27426
1154500000 -8.5281954 103.1818 5.2845869 -46.743294 -21.888239 101.16042 -14.444097 77.69651
1164000000 -8.0124788 71.17749 4.9897318 -145.2758 -22.171392 11.772134 -12.242344 1.7559235
1173500000 -8.1284599 38.375763 5.3718452 115.01099 -21.768009 -78.848801 -10.443127 -62.52985
1183000000 -8.5809669 11.158484 5.5383849 11.175585 -21.576883 -173.56912 -9.4992647 -121.44941
1192500000 -8.2381544 -12.193844 5.1480379 -91.84082 -21.933584 92.518974 -9.9091206 177.16162
1202000000 -7.526226 -40.353951 4.7433434 168.41241 -22.308752 1.8345506 -11.847156 113.72125
1211500000 -7.410068 -71.22052 4.7481437 69.785675 -22.280361 -87.753204 -13.89349 40.7472
1221000000 -7.9532752 -99.580177 5.0689316 -31.173038 -21.92705 -179.61702 -13.875884 -45.495049
1230500000 -8.3488274 -123.67476 5.0589561 -134.61684 -21.91391 86.034508 -11.912044 -123.59391
1240000000 -8.0979557 -149.94046 4.7054634 123.92357 -22.259621 -6.2748075 -10.403608 170.86581
1249500000 -7.9683323 179.95566 4.6114259 24.281925 -22.34461 -96.713921 -9.9655666 111.34997
1259000000 -8.2516298 150.08284 4.7286725 -76.5839 -22.231787 171.67964 -10.416061 50.741085
1268500000 -8.4015884 122.01264 4.7347074 -178.75691 -22.22567 78.869301 -11.908383 -17.45977
1278000000 -8.0933084 92.513092 4.5207629 79.637192 -22.431177 -13.375238 -13.28355 -95.250534
1287500000 -7.8768487 61.377884 4.4322414 -20.040972 -22.507647 -103.68224 -12.36711 -176.22395
1297000000 -8.0157089 32.051994 4.716229 -121.42611 -22.1999 164.27019 -10.539947 111.98753
1306500000 -7.9619989 6.1384735 4.593802 134.41306 -22.297798 69.43177 -9.3945408 49.444832
1316000000 -7.4224753 -20.481174 4.0202093 33.624924 -22.839912 -22.152798 -9.3148546 -11.171827
1325500000 -7.0680904 -49.187469 3.9464741 -64.396622 -22.875317 -111.07645 -10.555243 -72.474342
1335000000 -7.2287011 -77.145439 4.1871057 -164.95544 -22.608805 157.42259 -12.360077 -140.15799
1344500000 -7.4993892 -102.12702 4.2148118 93.101067 -22.564939 64.471649 -13.36726 136.03026
1354000000 -7.3599033 -127.14047 4.0609269 -8.2895308 -22.714159 -27.961668 -12.379125 51.793789
1363500000 -7.2369528 -154.97464 3.9206493 -108.23341 -22.876663 -118.95167 -10.624662 -16.94228
1373000000 -7.5254712 176.93782 4.1067657 151.81038 -22.720703 150.04964 -9.4464731 -79.692802
1382500000 -7.8174949 151.28188 4.2365561 48.917355 -22.633278 56.18745 -9.5898991 -143.18855
1392000000 -7.5223184 124.6091 3.8352621 -53.072727 -23.082579 -36.73214 -10.998211 149.64299
1401500000 -7.1577024 94.154724 3.6167426 -151.72466 -23.347864 -126.28204 -12.564693 75.481926
1411000000 -7.2471042 63.034622 3.8327439 108.74994 -23.180262 143.36798 -12.073277 -2.8954823
1420500000 -7.639679 35.306519 4.0781841 6.7780457 -22.974363 50.586536 -10.055588 -77.427582
1430000000 -7.4406753 10.561267 3.9633913 -96.742706 -23.117874 -43.750153 -9.1441746 -144.68188
1439500000 -6.8315182 -16.660709 3.4416101 161.89253 -23.681736 -135.97836 -9.39258 156.1456
1449000000 -6.6237717 -45.504333 3.1991971 64.260551 -23.962315 135.54697 -10.248915 96.413033
1458500000 -6.876575 -72.907059 3.593591 -34.958908 -23.620604 45.517002 -11.88797 26.602465
1468000000 -7.0396981 -97.445801 3.7860465 -138.05679 -23.489355 -48.361671 -13.195173 -58.459858
1477500000 -6.837368 -122.49825 3.5004399 119.94763 -23.831833 -141.12305 -11.990171 -142.94321
1487000000 -6.7898283 -149.8568 3.3709824 20.515608 -24.025389 128.74863 -9.9039621 147.43155
1496500000 -7.0212183 -177.19304 3.5987449 -80.121948 -23.864239 37.499733 -8.6405153 84.523369
1506000000 -7.0760002 156.50134 3.5902245 176.84624 -23.938135 -56.079903 -8.7556086 22.762791
1515500000 -6.902144 128.24353 3.2187603 75.837166 -24.35968 -147.55014 -10.002596 -40.288452
1525000000 -6.9240603 97.533592 3.1880283 -22.842791 -24.439451 123.33381 -11.475144 -109.62975
1534500000 -7.2214985 67.32943 3.4982221 -123.54016 -24.173246 32.182961 -11.552105 172.02983
1544000000 -7.3928556 40.030247 3.616096 133.46927 -24.083473 -61.224613 -10.258415 94.116173
1553500000 -7.0951309 12.596383 3.3722348 30.68136 -24.351511 -154.52853 -9.4658928 26.773327
1563000000 -6.7924252 -16.991512 2.9682562 -69.540161 -24.78318 114.71883 -9.2220592 -32.488487
1572500000 -6.8117185 -46.076324 3.0541232 -167.70975 -24.726185 26.047245 -9.5956936 -93.871346
1582000000 -6.9718046 -72.424438 3.4635255 90.152504 -24.350094 -66.686256 -11.042048 -163.3116
1591500000 -6.8348026 -98.162239 3.2021601 -13.474024 -24.654419 -160.85852 -12.359202 117.10549
1601000000 -6.6401029 -126.13697 2.8619766 -112.68887 -25.059908 109.39231 -11.634068 36.113609
1610500000 -6.7626185 -154.85439 3.1108794 147.83476 -24.873264 19.468157 -9.7997007 -33.147335
1620000000 -7.0977945 177.8997 3.2949541 45.363152 -24.746212 -73.411583 -8.400507 -96.553574
1629500000 -7.1442103 151.09923 3.1674082 -57.114899 -24.930309 -166.22614 -8.5369511 -159.61903
1639000000 -6.9948773 121.82581 2.9371386 -158.33055 -25.207127 102.30647 -9.9824476 138.30626
1648500000 -7.049943 91.047668 2.8172674 102.01044 -25.366989 12.377744 -11.508747 69.615028
1658000000 -7.2874961 61.065041 3.059622 1.4905775 -25.137466 -78.422173 -11.86094 -11.102134
1667500000 -7.312315 32.476898 3.1062613 -101.87589 -25.096817 -172.07126 -10.688262 -88.942535
1677000000 -7.0571465 3.2870181 2.714 156.25598 -25.490475 95.730339 -9.4353409 -154.70833
1686500000 -6.8913293 -26.465918 2.529897 57.14299 -25.665764 6.2101665 -8.8680286 145.72897
1696000000 -6.9251246 -54.838993 2.7528744 -43.239613 -25.435019 -84.626152 -9.3121614 84.956009
1705500000 -6.8521256 -81.37883 2.7711864 -146.41948 -25.416174 -178.30826 -11.048783 17.82509
1715000000 -6.5920534 -108.50896 2.3647854 112.08801 -25.852598 89.731003 -12.986805 -61.106651
1724500000 -6.4996209 -136.73578 2.2981825 13.409248 -25.955462 0.57738763 -12.446074 -145.84451
1734000000 -6.671824 -164.43028 2.5814424 -88.091652 -25.71353 -91.360886 -10.195137 141.60602
1743500000 -6.7977848 169.17377 2.4151609 168.85048 -25.935173 175.16902 -8.6271811 76.57933
1753000000 -6.6556654 142.05481 2.1273036 68.232018 -26.277441 84.227829 -8.7810764 14.562305
1762500000 -6.5469918 113.05526 1.9846075 -32.420673 -26.459597 -6.8015809 -10.01954 -45.222942
1772000000 -6.6406646 83.323166 1.7749655 -131.77483 -26.704149 -96.551025 -11.337707 -112.57281
1781500000 -6.7490025 54.391155 2.0222077 128.56802 -26.483965 173.356 -12.069238 167.76202
1791000000 -6.6711097 25.936037 2.0144806 25.436882 -26.519415 79.71891 -11.319627 91.189049
1800500000 -6.5610828 -3.1546459 1.5870242 -74.399773 -26.961668 -10.690198 -10.002882 24.763735
1810000000 -6.5376692 -31.921545 1.8051958 -173.36798 -26.767359 -100.38051 -9.4936199 -37.0345
1819500000 -6.4788704 -58.998821 1.8645239 83.326279 -26.741375 165.60303 -10.095531 -99.762245
1829000000 -6.266789 -85.390381 1.4090341 -17.726753 -27.248987 73.847794 -11.918859 -170.67773
1838500000 -6.0545616 -112.85672 1.2849182 -116.96677 -27.441662 -16.088863 -13.452251 108.12068
1848000000 -6.0011349 -140.80341 1.1733695 143.02299 -27.628893 -106.67179 -11.924996 28.55278
1857500000 -6.0956159 -167.68767 1.3007787 43.762848 -27.587093 163.51561 -9.4807491 -40.898045
1867000000 -6.137176 166.25359 1.4680243 -58.993786 -27.518206 70.361229 -8.4491692 -103.2458
1876500000 -6.0868053 138.88046 0.95243949 -160.72438 -28.122461 -21.722752 -8.7286339 -161.07979
1886000000 -6.1084294 110.35831 0.79791272 101.91136 -28.355623 -109.35941 -10.045204 139.75208
1895500000 -6.2389073 81.919518 1.1035016 1.4781611 -28.10376 159.97552 -12.035079 72.093575
1905000000 -6.361239 53.707012 1.0202872 -100.05444 -28.235798 68.255302 -13.137596 -11.237188
1914500000 -6.362824 25.104006 1.0594407 159.62291 -28.240797 -22.249084 -12.000193 -93.528191
1924000000 -6.3237224 -3.8228471 1.0443186 57.512283 -28.271749 -114.6161 -10.285982 -160.42053
1933500000 -6.3045197 -32.226566 0.85473168 -43.040653 -28.494638 154.63509 -9.2728062 137.61118
1943000000 -6.208611 -59.805996 0.93977797 -144.26041 -28.432779 63.265297 -9.7947283 74.308052
1952500000 -6.0133376 -87.531364 0.61833167 113.01585 -28.792791 -29.634747 -11.422957 8.0987644
1962000000 -5.8854914 -115.77892 0.16986926 14.460498 -29.270882 -118.31949 -12.595836 -66.884277
1971500000 -5.8792849 -143.72551 0.39663795 -84.000717 -29.072165 153.14621 -11.820565 -145.23434
1981000000 -5.9276118 -170.79184 0.57490742 173.9191 -28.917543 61.061558 -10.176709 144.4447
1990500000 -5.9627118 162.24031 0.40555677 72.247795 -29.110399 -30.692316 -9.4007101 81.331848
2000000000 -6.0068688 134.45247 0.25250402 -28.197329 -29.262238 -121.13844 -9.8020592 21.799944
