!CSV A.01.01
!Keysight Technologies,N5242B,MY48420967,A.15.65.19
!Date: Saturday, February 04, 2023 18:23:14
!Source: Standard

BEGIN CH1_DATA
Freq(Hz),SYSNPD(DB),SYSNPD(DEG)
100000000,-166.51537,0.018174935
109500000,-166.35992,0.013192696
119000000,-166.31146,0.012232149
128500000,-166.25798,0.01336955
138000000,-166.2341,0.016602278
147500000,-165.80533,0.013405547
157000000,-166.26601,0.016651196
166500000,-166.15959,0.016020594
176000000,-166.14671,0.016039798
185500000,-166.14423,0.015783988
195000000,-166.13995,0.015313993
204500000,-166.07413,0.014376943
214000000,-166.08037,0.013486321
223500000,-166.03526,0.012570912
233000000,-165.98238,0.011914069
242500000,-165.9377,0.011404589
252000000,-165.91682,0.011020646
261500000,-165.90491,0.010659469
271000000,-165.92038,0.010408976
280500000,-165.94019,0.010249965
290000000,-165.94991,0.010192078
299500000,-165.94167,0.010285042
309000000,-165.95569,0.010802813
318500000,-165.94377,0.011433637
328000000,-165.87256,0.011676197
337500000,-165.90112,0.011506198
347000000,-165.74475,0.0088329753
356500000,-165.74928,0.0098850401
366000000,-165.78502,0.0097914143
375500000,-165.92938,0.0099366698
385000000,-165.99216,0.0098107923
394500000,-165.95476,0.009458431
404000000,-165.89786,0.009281355
413500000,-165.87267,0.0094626863
423000000,-165.77682,0.0094857318
432500000,-165.70554,0.0096925367
442000000,-165.66183,0.009988727
451500000,-165.64011,0.010273268
461000000,-165.57846,0.010159654
470500000,-165.6075,0.010259137
480000000,-165.63907,0.010200453
489500000,-165.65811,0.0099618686
499000000,-165.69344,0.0097575234
508500000,-165.71227,0.0094848117
518000000,-165.70094,0.0091425199
527500000,-165.67735,0.0088294651
537000000,-165.67992,0.0087179849
546500000,-165.63792,0.0085183438
556000000,-165.60097,0.0084017888
565500000,-165.55072,0.0083018495
575000000,-165.47707,0.0081591085
584500000,-165.40416,0.0080292476
594000000,-165.34773,0.0079314774
603500000,-165.30048,0.0078594135
613000000,-165.30103,0.0078874696
622500000,-165.32831,0.0079643335
632000000,-165.33107,0.007888156
641500000,-165.33714,0.0077791763
651000000,-165.34782,0.0076839621
660500000,-165.3837,0.0076849777
670000000,-165.40274,0.0076556522
679500000,-165.44017,0.0077421269
689000000,-165.49597,0.0079569202
698500000,-165.51453,0.0081061507
708000000,-165.53764,0.0083541665
717500000,-165.55052,0.0086011561
727000000,-165.5455,0.008765744
736500000,-165.48488,0.0086408835
746000000,-165.49387,0.0086556207
755500000,-165.50313,0.010270461
765000000,-165.45258,0.010611068
774500000,-165.41843,0.010983749
784000000,-165.41043,0.011418736
793500000,-165.41,0.011778409
803000000,-165.31549,0.011492281
812500000,-165.25821,0.011309855
822000000,-165.24539,0.011244554
831500000,-165.25891,0.011247776
841000000,-165.25656,0.011124512
850500000,-165.24724,0.01096383
860000000,-165.23686,0.010800729
869500000,-165.21689,0.0106153
879000000,-165.20871,0.010534715
888500000,-165.22891,0.010627142
898000000,-165.2354,0.010686378
907500000,-165.23212,0.010721435
917000000,-165.21745,0.010729203
926500000,-165.1991,0.01074931
936000000,-165.19121,0.010794862
945500000,-165.18558,0.010846026
955000000,-165.1859,0.01091204
964500000,-165.14986,0.010745058
974000000,-165.09396,0.010456312
983500000,-165.06674,0.010240598
993000000,-165.05048,0.010052484
1002500000,-165.04088,0.0098680845
1012000000,-165.01501,0.0096133854
1021500000,-164.98155,0.0093448618
1031000000,-164.93466,0.0090519553
1040500000,-164.86986,0.008728222
1050000000,-164.91019,0.0088521736
1059500000,-164.94283,0.0089945914
1069000000,-164.96646,0.0091199176
1078500000,-164.97594,0.0092160618
1088000000,-164.98639,0.0093390364
1097500000,-165.00385,0.0095027247
1107000000,-165.01756,0.0096592614
1116500000,-165.05209,0.0098638516
1126000000,-165.08638,0.010043534
1135500000,-165.0401,0.0098116798
1145000000,-165.02745,0.0096582249
1154500000,-165.05084,0.0095847053
1164000000,-165.10579,0.0095794424
1173500000,-165.08372,0.0091937128
1183000000,-165.04362,0.0086935731
1192500000,-164.98193,0.0081612496
1202000000,-164.88843,0.007586367
1211500000,-164.80794,0.0071161049
1221000000,-164.78587,0.006874891
1230500000,-164.7356,0.0065930421
1240000000,-164.65988,0.0062797824
1249500000,-164.55127,0.0059304633
1259000000,-164.58405,0.005997513
1268500000,-164.61009,0.0060678651
1278000000,-164.6235,0.0061209947
1287500000,-164.6196,0.0061499705
1297000000,-164.62671,0.0061973557
1306500000,-164.63928,0.0062549836
1316000000,-164.65857,0.006322722
1325500000,-164.70906,0.006437147
1335000000,-164.76448,0.0065189255
1344500000,-164.72176,0.0062605296
1354000000,-164.69525,0.0060288818
1363500000,-164.6814,0.0058167712
1373000000,-164.66811,0.0056066425
1382500000,-164.64886,0.0054294318
1392000000,-164.60257,0.0052314023
1401500000,-164.52631,0.0050021834
1411000000,-164.40919,0.0047347648
1420500000,-164.32684,0.0045915297
1430000000,-164.32419,0.0046489923
1439500000,-164.30396,0.0046874662
1449000000,-164.25987,0.0046996363
1458500000,-164.202,0.0046984018
1468000000,-164.25645,0.0049522924
1477500000,-164.31134,0.0052123484
1487000000,-164.38554,0.0055026636
1496500000,-164.48117,0.005830118
1506000000,-164.55115,0.010242113
1515500000,-164.55046,0.010091085
1525000000,-164.56728,0.0099802809
1534500000,-164.58546,0.0098715182
1544000000,-164.62282,0.0098049296
1553500000,-164.65427,0.0097231874
1563000000,-164.66446,0.0095925583
1572500000,-164.63646,0.0093668606
1582000000,-164.58443,0.0090797823
1591500000,-164.515,0.0087630264
1601000000,-164.41911,0.0084027052
1610500000,-164.30165,0.0080139972
1620000000,-164.18245,0.0076369918
1629500000,-164.06918,0.0072844909
1639000000,-163.98636,0.0070703258
1648500000,-164.02934,0.0072644632
1658000000,-164.07408,0.007464814
1667500000,-164.12128,0.0076728365
1677000000,-164.16687,0.0078814682
1686500000,-164.21509,0.0080986554
1696000000,-164.26445,0.0083219707
1705500000,-164.31532,0.008538696
1715000000,-164.2951,0.0084960097
1724500000,-164.27617,0.0084562507
1734000000,-164.26509,0.0084316963
1743500000,-164.24806,0.0083959112
1753000000,-164.23045,0.0083589572
1762500000,-164.1987,0.0082952389
1772000000,-164.16399,0.008226254
1781500000,-164.13074,0.0081817452
1791000000,-164.0733,0.008093969
1800500000,-164.00533,0.0079876995
1810000000,-163.92978,0.0078689605
1819500000,-163.85577,0.0077547552
1829000000,-163.77429,0.0076290178
1838500000,-163.71487,0.0075435196
1848000000,-163.7231,0.0076734414
1857500000,-163.7657,0.0078993319
1867000000,-163.81384,0.0081391688
1876500000,-163.8896,0.0084368298
1886000000,-163.99449,0.0088015497
1895500000,-164.10811,0.0091972146
1905000000,-164.22961,0.0096254321
1914500000,-164.28603,0.0097367093
1924000000,-164.28123,0.0095730787
1933500000,-164.2664,0.0093877325
1943000000,-164.23082,0.0091599831
1952500000,-164.18489,0.008913802
1962000000,-164.13132,0.0086564803
1971500000,-164.05969,0.0083695585
1981000000,-163.98761,0.0081124296
1990500000,-163.93221,0.0079284068
2000000000,-163.8868,0.007765586
END

