!CSV A.01.01
!Keysight Technologies,N5242B,MY48420967,A.15.65.19
!Date: Saturday, February 04, 2023 07:51:44
!Source: Standard

BEGIN CH1_DATA
Freq(Hz),A_1(DB),A_1(DEG)
100000000,-104.14314,8.0851116
109500000,-102.83399,-127.60381
119000000,-103.86659,-52.996918
128500000,-104.46658,15.69134
138000000,-105.13994,61.933144
147500000,-102.24508,138.76796
157000000,-102.58303,-48.413589
166500000,-102.87227,-151.37621
176000000,-103.32827,105.93777
185500000,-103.62038,63.742645
195000000,-104.28781,133.47026
204500000,-104.81573,56.059429
214000000,-102.72546,-46.598473
223500000,-102.95219,-132.98962
233000000,-103.23555,9.9824514
242500000,-103.64402,-141.48833
252000000,-98.814392,-38.86554
261500000,-99.128426,99.280716
271000000,-99.157272,142.51779
280500000,-99.642456,116.0895
290000000,-100.1802,92.569405
299500000,-100.00185,116.31804
309000000,-100.35114,109.55308
318500000,-100.87133,-138.36446
328000000,-100.61657,28.645584
337500000,-101.06197,131.89662
347000000,-101.01775,160.10033
356500000,-101.64522,13.884418
366000000,-101.74487,167.02516
375500000,-101.81992,-85.807587
385000000,-102.2438,-83.755806
394500000,-102.40894,-16.356592
404000000,-101.74211,24.379442
413500000,-101.69556,-178.06284
423000000,-101.65636,-157.82112
432500000,-102.1368,-105.30977
442000000,-102.35466,164.74347
451500000,-102.40102,18.747425
461000000,-102.50097,-81.244637
470500000,-102.45649,-59.964703
480000000,-102.73611,-114.97478
489500000,-103.14635,-125.71162
499000000,-103.21775,59.446701
508500000,-103.22573,-105.94373
518000000,-103.34456,-143.61604
527500000,-103.56467,-47.548084
537000000,-103.78347,12.783365
546500000,-103.7113,-127.45625
556000000,-103.80613,28.004158
565500000,-104.04078,125.91138
575000000,-103.99764,-103.0276
584500000,-104.56027,-137.16069
594000000,-104.19712,-4.3156404
603500000,-104.47968,156.46771
613000000,-104.74517,-156.61678
622500000,-104.79549,14.633615
632000000,-103.67122,-115.68074
641500000,-103.96419,36.891705
651000000,-103.86282,139.56848
660500000,-103.79646,-173.63321
670000000,-104.08765,176.41536
679500000,-104.06842,149.72949
689000000,-104.14904,-124.16202
698500000,-103.9593,-52.364216
708000000,-104.36488,-95.053329
717500000,-104.37368,136.73923
727000000,-104.41603,-167.93283
736500000,-104.5826,-24.961632
746000000,-104.54803,-177.94897
755500000,-104.89136,-86.315727
765000000,-104.81297,165.41887
774500000,-104.6636,-91.013359
784000000,-104.80852,-9.9309025
793500000,-104.85985,97.006912
803000000,-104.88668,115.54926
812500000,-104.76214,80.521011
822000000,-105.12485,81.997009
831500000,-104.94574,112.18282
841000000,-105.01318,51.087624
850500000,-104.85582,-175.8468
860000000,-105.27048,-7.2359877
869500000,-105.04118,18.658087
879000000,-105.24413,-20.322176
888500000,-105.22697,-48.093071
898000000,-105.3138,-67.13723
907500000,-105.24911,32.688633
917000000,-105.24363,65.775284
926500000,-105.61707,72.335396
936000000,-105.26543,132.86328
945500000,-105.51583,43.548847
955000000,-105.85787,-27.323315
964500000,-105.35404,-91.916168
974000000,-105.47841,-151.15549
983500000,-105.7413,36.002823
993000000,-105.7098,22.25672
1002500000,-102.78529,78.468506
1012000000,-102.98825,-138.76166
1021500000,-102.97611,22.019787
1031000000,-102.61617,-36.004627
1040500000,-102.70464,57.084293
1050000000,-102.80394,-102.30693
1059500000,-102.96593,97.477989
1069000000,-103.10854,-101.28931
1078500000,-102.9767,-134.41406
1088000000,-103.02618,-62.63142
1097500000,-103.21474,18.77083
1107000000,-103.21197,-155.09792
1116500000,-102.91789,3.1181762
1126000000,-102.90894,79.576714
1135500000,-103.31975,-6.7966204
1145000000,-102.97791,-102.13468
1154500000,-102.87338,129.72202
1164000000,-102.95927,-126.57044
1173500000,-103.07243,-66.24955
1183000000,-103.09263,144.53464
1192500000,-103.2169,134.00183
1202000000,-102.83262,153.99257
1211500000,-103.21259,45.381851
1221000000,-103.01794,48.273655
1230500000,-103.1387,58.056873
1240000000,-103.29182,-142.15593
1249500000,-103.27393,62.024326
1259000000,-103.03663,-163.22345
1268500000,-103.06384,-134.02225
1278000000,-103.22611,55.161758
1287500000,-103.00831,90.159416
1297000000,-103.17013,2.9043949
1306500000,-103.16176,-137.6927
1316000000,-102.97051,103.28261
1325500000,-102.97935,-52.945213
1335000000,-103.18985,-134.26822
1344500000,-103.0313,-69.433846
1354000000,-103.14703,144.8343
1363500000,-102.92408,-148.93015
1373000000,-102.74879,177.0356
1382500000,-102.8824,-87.278374
1392000000,-103.20712,148.63069
1401500000,-102.84063,93.404793
1411000000,-103.09449,-30.405735
1420500000,-103.01548,-66.153931
1430000000,-102.95255,-17.904181
1439500000,-102.85619,-62.957741
1449000000,-103.17763,91.640755
1458500000,-102.99343,99.358994
1468000000,-102.86454,104.4455
1477500000,-102.5864,-169.47437
1487000000,-102.60593,-96.411461
1496500000,-102.57663,-49.167034
1506000000,-105.49718,-131.29921
1515500000,-105.70926,177.50566
1525000000,-105.67883,24.874043
1534500000,-105.33142,61.520668
1544000000,-105.45327,-160.30269
1553500000,-105.52426,-0.65732533
1563000000,-105.30702,-31.12442
1572500000,-105.61087,65.979431
1582000000,-105.42243,-134.85728
1591500000,-105.69526,-109.0993
1601000000,-105.26016,-125.96761
1610500000,-105.16441,98.501747
1620000000,-105.28599,-153.28253
1629500000,-105.50983,-29.859299
1639000000,-105.32106,13.265414
1648500000,-105.18805,-24.825384
1658000000,-105.08963,77.933136
1667500000,-105.24106,-91.297447
1677000000,-105.42076,159.94255
1686500000,-105.38171,-149.13477
1696000000,-105.06956,-27.911684
1705500000,-104.95822,-27.743006
1715000000,-105.14317,150.13054
1724500000,-105.20908,-167.41576
1734000000,-105.01609,-101.25264
1743500000,-104.97068,-96.857269
1753000000,-104.81696,-144.00377
1762500000,-104.73776,-70.812889
1772000000,-104.95644,44.353008
1781500000,-104.45393,23.261335
1791000000,-104.79022,-111.90175
1800500000,-104.99136,18.448267
1810000000,-104.7504,-149.76103
1819500000,-104.68301,155.62088
1829000000,-104.83576,3.3948162
1838500000,-104.62658,44.913242
1848000000,-104.79446,-54.569084
1857500000,-104.85217,117.69746
1867000000,-104.69757,151.74258
1876500000,-104.45145,58.892151
1886000000,-104.76006,170.42888
1895500000,-104.41566,-35.737595
1905000000,-104.5805,40.668644
1914500000,-104.6337,32.678864
1924000000,-104.34402,124.73798
1933500000,-104.21438,158.01808
1943000000,-104.60217,-32.127815
1952500000,-104.45826,-79.489967
1962000000,-104.4403,-52.773552
1971500000,-104.63673,22.164764
1981000000,-104.51937,-16.41333
1990500000,-104.20787,-130.65401
2000000000,-104.42059,-110.23012
END

