!CSV A.01.01
!Keysight Technologies,N5242B,MY48420967,A.15.65.19
!Date: Saturday, February 04, 2023 07:51:44
!Source: Standard

BEGIN CH1_DATA
Freq(Hz),B_1(DB),B_1(DEG)
100000000,-104.04115,151.24783
109500000,-102.86018,68.05159
119000000,-103.50191,2.4073088
128500000,-104.08226,11.717152
138000000,-105.06884,26.308813
147500000,-101.95177,132.73369
157000000,-102.76215,-149.73817
166500000,-103.12422,58.184135
176000000,-103.53488,56.615383
185500000,-103.91536,21.909439
195000000,-104.66993,27.539415
204500000,-105.18197,-18.928581
214000000,-102.41943,-50.559071
223500000,-102.59502,170.63097
233000000,-103.0306,-97.936539
242500000,-103.11685,16.639952
252000000,-98.362701,-62.341465
261500000,-98.411255,30.513641
271000000,-98.910133,76.500519
280500000,-99.30159,-69.710861
290000000,-99.563393,69.786606
299500000,-99.932983,122.78677
309000000,-99.825241,143.32838
318500000,-100.32863,76.65966
328000000,-100.29667,-72.02861
337500000,-100.75573,-179.02245
347000000,-101.18364,159.75641
356500000,-101.05898,39.073467
366000000,-101.38113,-178.32097
375500000,-101.66492,70.994431
385000000,-101.94735,-54.245087
394500000,-101.81989,-58.507393
404000000,-102.16022,12.88516
413500000,-102.22346,161.67476
423000000,-102.47848,16.88331
432500000,-102.4361,177.58537
442000000,-102.57442,106.89042
451500000,-102.89104,70.171028
461000000,-103.23605,41.157875
470500000,-103.1242,-69.728027
480000000,-103.38132,153.83522
489500000,-103.38487,144.62662
499000000,-103.70087,35.094021
508500000,-102.9828,-107.10232
518000000,-102.99553,162.98599
527500000,-103.42857,79.960899
537000000,-103.3271,94.201393
546500000,-103.21233,-178.64847
556000000,-103.41313,-133.11104
565500000,-103.52662,-56.668587
575000000,-103.4873,26.943785
584500000,-103.53751,62.006035
594000000,-104.10309,-92.957542
603500000,-104.31651,98.756538
613000000,-103.87131,41.974144
622500000,-103.76981,103.09546
632000000,-103.2468,-143.42236
641500000,-103.10738,20.221382
651000000,-103.33231,155.24225
660500000,-103.44385,-75.809746
670000000,-103.72411,62.257401
679500000,-103.52061,129.43228
689000000,-103.99229,-87.609337
698500000,-103.9843,-162.76651
708000000,-104.02346,129.2005
717500000,-103.99265,149.80687
727000000,-104.15504,85.927383
736500000,-104.11657,-120.65758
746000000,-104.14101,80.805038
755500000,-104.28207,-74.230553
765000000,-104.36739,147.61209
774500000,-104.32935,20.335194
784000000,-104.43978,174.79936
793500000,-104.20136,-104.86037
803000000,-104.29948,43.003853
812500000,-104.46157,95.259567
822000000,-104.48067,-47.402603
831500000,-104.68414,9.488143
841000000,-104.80524,-47.51395
850500000,-104.44659,-133.96725
860000000,-104.66132,-115.0326
869500000,-104.749,82.699516
879000000,-104.82842,76.48011
888500000,-104.83136,-98.345894
898000000,-104.84174,-118.95463
907500000,-105.0902,-151.3019
917000000,-105.14394,1.1539097
926500000,-104.93567,11.311591
936000000,-105.33858,-132.53287
945500000,-105.17409,-72.301788
955000000,-105.14436,168.36253
964500000,-105.27757,76.226227
974000000,-105.1507,84.310623
983500000,-105.16631,-97.487732
993000000,-105.31263,-172.70235
1002500000,-105.22294,12.571892
1012000000,-105.30792,-94.478317
1021500000,-105.39809,38.411617
1031000000,-105.15472,-81.713646
1040500000,-105.28699,-83.258209
1050000000,-105.55074,31.68615
1059500000,-105.29743,-86.083351
1069000000,-105.52404,-83.963692
1078500000,-105.2352,140.02704
1088000000,-105.21682,146.65581
1097500000,-105.50735,-169.06151
1107000000,-105.19698,-50.306126
1116500000,-105.28548,-89.154594
1126000000,-105.35116,107.6956
1135500000,-105.28872,148.18224
1145000000,-105.35562,150.85307
1154500000,-105.41293,-102.53825
1164000000,-105.45632,-9.295701
1173500000,-105.39196,165.00877
1183000000,-105.43817,-32.625599
1192500000,-105.6009,162.59491
1202000000,-105.6386,-32.764721
1211500000,-105.35622,-36.094826
1221000000,-105.5274,-137.8956
1230500000,-105.29328,-60.763103
1240000000,-105.40741,-126.80966
1249500000,-105.52335,100.86647
1259000000,-105.56606,107.05555
1268500000,-105.44531,-28.838356
1278000000,-105.41476,-106.96208
1287500000,-105.5458,133.54475
1297000000,-105.31888,109.31712
1306500000,-105.5535,-123.41769
1316000000,-105.55803,124.28519
1325500000,-105.33792,105.4001
1335000000,-105.23195,159.21039
1344500000,-105.60981,-37.661633
1354000000,-105.46652,100.03213
1363500000,-105.44913,-1.0945106
1373000000,-105.24471,95.083389
1382500000,-105.41361,119.41364
1392000000,-105.50774,143.76222
1401500000,-105.18088,-57.235847
1411000000,-105.08098,43.528511
1420500000,-105.52605,-105.5649
1430000000,-105.2069,-151.27357
1439500000,-105.18896,83.694107
1449000000,-105.01276,-107.30386
1458500000,-105.26583,-63.435471
1468000000,-105.30669,167.93401
1477500000,-105.13284,148.00113
1487000000,-105.25276,140.84471
1496500000,-104.92292,-154.08406
1506000000,-104.82893,93.284912
1515500000,-104.98329,90.200684
1525000000,-105.16679,91.924568
1534500000,-105.18141,-98.783791
1544000000,-104.99932,14.272219
1553500000,-105.00649,-51.617378
1563000000,-104.71539,10.303132
1572500000,-104.76855,59.399254
1582000000,-104.73171,-5.0198746
1591500000,-104.85175,-178.39674
1601000000,-104.8502,71.30484
1610500000,-104.64893,-134.31427
1620000000,-104.49854,119.81134
1629500000,-104.55812,35.26128
1639000000,-104.63447,-4.9456539
1648500000,-104.76131,-143.72729
1658000000,-104.42318,-173.39359
1667500000,-104.86513,-103.29107
1677000000,-104.59417,136.34348
1686500000,-104.6153,86.728058
1696000000,-104.36823,-124.84037
1705500000,-104.62475,56.444832
1715000000,-104.47231,-13.075665
1724500000,-104.34488,52.566307
1734000000,-104.61424,-25.340609
1743500000,-104.57333,154.55826
1753000000,-104.39988,150.73869
1762500000,-104.30441,-170.97433
1772000000,-104.37007,81.915947
1781500000,-104.50652,79.001617
1791000000,-104.07034,164.89488
1800500000,-104.49429,-89.970375
1810000000,-104.06178,56.054241
1819500000,-104.10831,32.206848
1829000000,-104.39263,-62.615597
1838500000,-104.33693,-19.548616
1848000000,-104.03915,34.477974
1857500000,-104.34695,-127.49253
1867000000,-104.1826,114.11138
1876500000,-104.02777,86.56691
1886000000,-103.94814,116.04463
1895500000,-104.16856,-43.236202
1905000000,-103.71734,-128.491
1914500000,-104.01186,-157.46175
1924000000,-104.08684,-152.91208
1933500000,-103.74006,90.052773
1943000000,-104.10075,148.77711
1952500000,-103.81153,25.909515
1962000000,-103.93859,-134.80939
1971500000,-103.84263,-44.59705
1981000000,-103.63713,-130.00166
1990500000,-104.09715,-11.148683
2000000000,-104.05707,37.941071
END

