!CSV A.01.01
!Keysight Technologies,N5242B,MY48420967,A.15.65.19
!Date: Saturday, February 04, 2023 14:41:14
!Source: Standard

BEGIN CH1_DATA
Freq(Hz),B_1(DB),B_1(DEG)
100000000,-103.84026,179.89658
109500000,-102.71852,27.67915
119000000,-103.54301,157.16939
128500000,-104.36121,157.62085
138000000,-104.83486,-106.71727
147500000,-102.18552,86.892761
157000000,-102.92445,92.376724
166500000,-103.39848,-160.88594
176000000,-104.05353,-102.70771
185500000,-104.15064,-69.939888
195000000,-104.43665,174.25713
204500000,-105.25609,-127.92185
214000000,-102.22231,-169.67873
223500000,-102.67214,94.065353
233000000,-103.03051,-174.15489
242500000,-103.47923,-150.70001
252000000,-98.360924,39.132511
261500000,-98.702286,-94.953247
271000000,-99.084152,-90.208649
280500000,-99.043343,82.780724
290000000,-99.673645,36.506096
299500000,-99.852531,-120.51716
309000000,-100.01802,-92.132683
318500000,-100.38313,161.38066
328000000,-100.59805,-110.57814
337500000,-100.82017,-93.351273
347000000,-100.94608,94.657776
356500000,-101.29076,144.36813
366000000,-101.10892,51.022888
375500000,-101.4529,14.482825
385000000,-101.85348,170.74513
394500000,-101.72029,85.990547
404000000,-101.97277,19.583965
413500000,-102.08516,-178.25
423000000,-102.45483,171.90569
432500000,-102.61176,12.743501
442000000,-102.62762,65.750748
451500000,-102.95142,-70.840996
461000000,-103.04305,95.339218
470500000,-102.97385,11.10428
480000000,-103.5028,72.982346
489500000,-103.43793,11.268081
499000000,-103.61591,97.320862
508500000,-102.73347,23.499926
518000000,-103.08046,86.689468
527500000,-102.96925,-15.675585
537000000,-103.41423,177.01892
546500000,-103.02593,-159.02835
556000000,-103.55145,-83.128227
565500000,-103.62243,179.8127
575000000,-103.63171,-152.10583
584500000,-103.63354,-23.679317
594000000,-103.46175,124.50637
603500000,-104.12999,124.70197
613000000,-104.0599,-141.78021
622500000,-104.12567,116.33152
632000000,-103.19781,60.350842
641500000,-103.29199,-35.830353
651000000,-103.36678,-76.897835
660500000,-103.56429,165.21077
670000000,-103.38657,158.40154
679500000,-103.469,-87.760941
689000000,-103.82149,113.39854
698500000,-103.82611,-100.36411
708000000,-103.97437,95.951004
717500000,-104.22935,88.213768
727000000,-104.11279,120.14848
736500000,-103.992,-157.87589
746000000,-104.37508,-132.3174
755500000,-104.36142,-179.77354
765000000,-104.38604,-103.42377
774500000,-104.00894,-16.488045
784000000,-104.3776,-4.1365027
793500000,-104.44011,-140.53343
803000000,-104.53124,-87.985268
812500000,-104.47549,-72.926666
822000000,-104.39582,-137.1906
831500000,-104.37759,173.57199
841000000,-104.74027,-153.90421
850500000,-104.8905,76.302139
860000000,-104.97279,-124.94839
869500000,-104.87287,-78.976593
879000000,-104.85526,27.282553
888500000,-104.97157,-116.13181
898000000,-104.94106,-30.728252
907500000,-104.91845,-42.647556
917000000,-105.28967,-41.438568
926500000,-105.16295,156.20552
936000000,-105.02126,20.083336
945500000,-105.52908,45.276649
955000000,-104.98901,-50.287132
964500000,-105.31848,-10.053967
974000000,-105.05713,-26.098896
983500000,-105.09998,75.094215
993000000,-105.23489,-75.02034
1002500000,-105.15584,54.404339
1012000000,-104.97473,61.816368
1021500000,-105.32494,179.94876
1031000000,-105.03373,17.605549
1040500000,-105.36052,112.67525
1050000000,-105.36704,33.224247
1059500000,-105.19622,-24.656616
1069000000,-105.35804,79.221718
1078500000,-105.24814,-80.063904
1088000000,-105.51695,149.27312
1097500000,-105.31542,-73.194687
1107000000,-105.29512,125.59304
1116500000,-105.54434,105.3052
1126000000,-105.56133,33.958454
1135500000,-105.60292,151.00769
1145000000,-105.46172,-98.352623
1154500000,-105.48957,-142.46431
1164000000,-105.37161,-175.34573
1173500000,-105.59869,163.32626
1183000000,-105.40554,78.562294
1192500000,-105.39149,-17.374104
1202000000,-105.4632,-61.341396
1211500000,-105.37498,-138.84558
1221000000,-105.50933,-69.36956
1230500000,-105.41369,-81.820145
1240000000,-105.58794,90.378334
1249500000,-105.65903,85.41848
1259000000,-105.52448,67.351074
1268500000,-105.62668,-166.29834
1278000000,-105.54305,110.88623
1287500000,-105.44247,162.35915
1297000000,-105.49064,65.733177
1306500000,-105.40816,-31.638157
1316000000,-105.36774,-65.823502
1325500000,-105.56036,53.40163
1335000000,-105.27726,146.5266
1344500000,-105.25683,66.924065
1354000000,-105.53979,-29.164505
1363500000,-105.31575,50.344097
1373000000,-105.38609,124.44363
1382500000,-105.1311,89.619308
1392000000,-105.4037,155.01291
1401500000,-105.40295,-172.22404
1411000000,-105.41451,-31.487934
1420500000,-105.23373,63.826939
1430000000,-105.40923,-114.01979
1439500000,-105.16563,151.46869
1449000000,-105.36376,79.61232
1458500000,-105.24549,40.760807
1468000000,-105.14871,-152.69498
1477500000,-105.13505,145.76059
1487000000,-104.95889,65.150482
1496500000,-105.06707,103.47636
1506000000,-104.87999,65.255302
1515500000,-105.01847,-15.155985
1525000000,-104.96284,116.42421
1534500000,-105.18896,134.35739
1544000000,-104.95508,-165.02484
1553500000,-105.02052,56.85408
1563000000,-104.95264,174.30316
1572500000,-104.99303,-155.3481
1582000000,-104.88985,-170.67406
1591500000,-104.80836,-131.38101
1601000000,-104.84128,-6.4272747
1610500000,-104.79671,155.70055
1620000000,-104.6148,23.066561
1629500000,-104.66223,170.74309
1639000000,-104.74377,67.404259
1648500000,-104.44921,151.41655
1658000000,-104.49021,-19.864824
1667500000,-104.62346,144.66115
1677000000,-104.54581,40.698284
1686500000,-104.56712,-141.03131
1696000000,-104.60351,-53.213871
1705500000,-104.7941,-31.144764
1715000000,-104.53833,179.60291
1724500000,-104.57789,149.24744
1734000000,-104.51462,-78.641373
1743500000,-104.45937,-3.5699
1753000000,-104.41595,71.55542
1762500000,-104.41357,-7.9431601
1772000000,-104.50204,119.60302
1781500000,-104.27665,-13.80779
1791000000,-104.20683,130.7475
1800500000,-104.09877,-133.72823
1810000000,-103.97211,93.446915
1819500000,-104.2226,-54.122234
1829000000,-104.47717,-99.247025
1838500000,-104.1769,-101.47556
1848000000,-103.89824,-116.40384
1857500000,-104.06988,-174.74422
1867000000,-104.28832,-121.21738
1876500000,-104.04284,-40.232979
1886000000,-103.91818,-46.781483
1895500000,-104.02991,-143.048
1905000000,-104.05501,145.62497
1914500000,-104.20304,-101.99126
1924000000,-103.74346,115.75456
1933500000,-103.84924,71.118462
1943000000,-103.82732,104.01723
1952500000,-103.67356,170.82599
1962000000,-103.95771,37.563293
1971500000,-103.80276,164.11462
1981000000,-103.89938,164.38699
1990500000,-103.80431,-134.60915
2000000000,-103.81124,86.391365
END

