!CSV A.01.01
!Keysight Technologies,N5242B,MY48420967,A.15.65.19
!Date: Saturday, February 04, 2023 07:51:44
!Source: Standard

BEGIN CH1_DATA
Freq(Hz),SYSNPDI(DB),SYSNPDI(DEG)
100000000,-166.52699,0.018223649
109500000,-166.37006,0.013223518
119000000,-166.32101,0.012259078
128500000,-166.26355,0.013386697
138000000,-166.23546,0.016607516
147500000,-165.80824,0.013414555
157000000,-166.26608,0.016651489
166500000,-166.15819,0.016015453
176000000,-166.15024,0.016052837
185500000,-166.15091,0.015808264
195000000,-166.14853,0.015344252
204500000,-166.08374,0.014408791
214000000,-166.08337,0.01349567
223500000,-166.04553,0.0126007
233000000,-165.99011,0.011935311
242500000,-165.94519,0.011424282
252000000,-165.9245,0.011040105
261500000,-165.90839,0.01066799
271000000,-165.92267,0.010414433
280500000,-165.94518,0.010261775
290000000,-165.9592,0.010213899
299500000,-165.9473,0.010298358
309000000,-165.96754,0.010832356
318500000,-165.95088,0.011452351
328000000,-165.87733,0.011689072
337500000,-165.90541,0.011517555
347000000,-165.75674,0.0088574067
356500000,-165.75294,0.0098933754
366000000,-165.7894,0.009801304
375500000,-165.93489,0.0099492678
385000000,-166.00117,0.0098311687
394500000,-165.95959,0.0094689764
404000000,-165.90222,0.0092907101
413500000,-165.88007,0.0094788438
423000000,-165.78543,0.0095045548
432500000,-165.71278,0.0097087286
442000000,-165.67007,0.010007703
451500000,-165.65063,0.0102982
461000000,-165.58112,0.010165866
470500000,-165.6151,0.010277092
480000000,-165.64697,0.010219021
489500000,-165.6642,0.0099758422
499000000,-165.70517,0.0097839097
508500000,-165.72136,0.0095047075
518000000,-165.71144,0.0091646491
527500000,-165.68144,0.0088377958
537000000,-165.68692,0.0087320618
546500000,-165.64709,0.0085363388
556000000,-165.60663,0.0084127337
565500000,-165.55884,0.0083173942
575000000,-165.48061,0.0081657656
584500000,-165.41399,0.0080474494
594000000,-165.35403,0.0079429923
603500000,-165.30664,0.0078705996
613000000,-165.30241,0.0078899721
622500000,-165.33705,0.0079803746
632000000,-165.33907,0.0079027126
641500000,-165.34421,0.0077918395
651000000,-165.35484,0.0076964009
660500000,-165.39006,0.0076962342
670000000,-165.41246,0.0076727988
679500000,-165.4496,0.0077589573
689000000,-165.50432,0.0079722134
698500000,-165.5183,0.0081131691
708000000,-165.54388,0.0083661843
717500000,-165.56044,0.0086208256
727000000,-165.5571,0.0087891938
736500000,-165.49701,0.0086650383
746000000,-165.5024,0.0086726397
755500000,-165.51686,0.010302969
765000000,-165.46237,0.010635014
774500000,-165.42708,0.01100567
784000000,-165.41986,0.011443576
793500000,-165.4261,0.011822148
803000000,-165.32475,0.011516814
812500000,-165.26726,0.011333444
822000000,-165.25093,0.011258926
831500000,-165.26903,0.011273975
841000000,-165.26746,0.011152469
850500000,-165.2598,0.010995582
860000000,-165.24709,0.010826203
869500000,-165.22285,0.010629904
879000000,-165.21808,0.010557447
888500000,-165.2426,0.010660715
898000000,-165.24275,0.010704514
907500000,-165.24179,0.01074533
917000000,-165.22601,0.010750363
926500000,-165.21338,0.010784724
936000000,-165.2011,0.010819471
945500000,-165.19589,0.01087181
955000000,-165.19754,0.010941327
964500000,-165.16023,0.010770743
974000000,-165.11134,0.010498232
983500000,-165.07837,0.010268074
993000000,-165.06201,0.010079227
1002500000,-165.05106,0.0098912586
1012000000,-165.01935,0.0096229939
1021500000,-164.98978,0.0093625896
1031000000,-164.94096,0.0090651158
1040500000,-164.88028,0.0087491879
1050000000,-164.92047,0.0088731805
1059500000,-164.95816,0.0090264026
1069000000,-164.97479,0.0091374293
1078500000,-164.98477,0.0092348354
1088000000,-164.99525,0.0093581183
1097500000,-165.01375,0.0095243976
1107000000,-165.02936,0.0096855164
1116500000,-165.0632,0.009889124
1126000000,-165.09596,0.010065717
1135500000,-165.05038,0.009834921
1145000000,-165.0396,0.0096852779
1154500000,-165.06339,0.0096124457
1164000000,-165.11594,0.0096018435
1173500000,-165.09395,0.009215368
1183000000,-165.04755,0.0087014297
1192500000,-164.99281,0.0081817117
1202000000,-164.89728,0.0076018488
1211500000,-164.81401,0.0071260449
1221000000,-164.79298,0.0068861465
1230500000,-164.74806,0.0066119838
1240000000,-164.67001,0.0062944554
1249500000,-164.56139,0.0059442827
1259000000,-164.59303,0.0060099312
1268500000,-164.62309,0.0060860557
1278000000,-164.625,0.0061231065
1287500000,-164.62877,0.0061629657
1297000000,-164.63277,0.0062060086
1306500000,-164.64726,0.0062665069
1316000000,-164.67311,0.0063439431
1325500000,-164.71817,0.0064506582
1335000000,-164.77547,0.0065354216
1344500000,-164.73665,0.0062820194
1354000000,-164.70723,0.0060455296
1363500000,-164.69345,0.0058329562
1373000000,-164.67807,0.0056195036
1382500000,-164.65845,0.0054414328
1392000000,-164.60907,0.0052392217
1401500000,-164.52908,0.0050053834
1411000000,-164.42027,0.0047468692
1420500000,-164.33809,0.0046034358
1430000000,-164.3299,0.0046551074
1439500000,-164.31274,0.0046969703
1449000000,-164.27037,0.0047110198
1458500000,-164.21429,0.0047117365
1468000000,-164.26497,0.0049620196
1477500000,-164.31969,0.0052223844
1487000000,-164.40013,0.0055211647
1496500000,-164.49051,0.0058426708
1506000000,-164.55504,0.010251289
1515500000,-164.55843,0.010109622
1525000000,-164.57562,0.009999495
1534500000,-164.59706,0.0098979371
1544000000,-164.627,0.0098143406
1553500000,-164.66222,0.0097409934
1563000000,-164.67085,0.0096066957
1572500000,-164.64142,0.0093775559
1582000000,-164.59314,0.0090980278
1591500000,-164.52409,0.0087813996
1601000000,-164.42752,0.0084189959
1610500000,-164.3098,0.0080290353
1620000000,-164.19606,0.0076609771
1629500000,-164.07289,0.0072907149
1639000000,-163.99034,0.0070768208
1648500000,-164.03317,0.0072708647
1658000000,-164.07973,0.0074745174
1667500000,-164.13332,0.0076941354
1677000000,-164.17734,0.007900483
1686500000,-164.21831,0.0081046605
1696000000,-164.27322,0.0083387922
1705500000,-164.3204,0.0085486993
1715000000,-164.3028,0.0085110785
1724500000,-164.28329,0.0084701292
1734000000,-164.27422,0.0084494213
1743500000,-164.26213,0.0084231682
1753000000,-164.23402,0.0083658276
1762500000,-164.20273,0.0083029205
1772000000,-164.16977,0.0082372045
1781500000,-164.13802,0.0081954813
1791000000,-164.08325,0.0081125302
1800500000,-164.00993,0.0079961773
1810000000,-163.93506,0.007878528
1819500000,-163.86522,0.0077716457
1829000000,-163.78525,0.0076482971
1838500000,-163.72464,0.0075604967
1848000000,-163.72742,0.0076810741
1857500000,-163.77112,0.0079092029
1867000000,-163.82132,0.0081532095
1876500000,-163.89867,0.0084544588
1886000000,-163.99854,0.0088097407
1895500000,-164.1149,0.009211611
1905000000,-164.23697,0.0096417377
1914500000,-164.28844,0.0097421398
1924000000,-164.29086,0.0095943082
1933500000,-164.27168,0.0093991514
1943000000,-164.23711,0.0091732591
1952500000,-164.1954,0.0089353956
1962000000,-164.14337,0.0086805448
1971500000,-164.06908,0.0083876783
1981000000,-163.99316,0.0081228102
1990500000,-163.94482,0.0079514673
2000000000,-163.89476,0.0077798408
END

