!CSV A.01.01
!Keysight Technologies,N5242B,MY48420967,A.15.65.19
!Date: Saturday, February 04, 2023 01:49:53
!Source: Standard

BEGIN CH1_DATA
Freq(Hz),A_1(DB),A_1(DEG)
100000000,-104.18604,-16.453588
109500000,-103.01476,179.56738
119000000,-103.89933,111.40517
128500000,-104.38261,163.45923
138000000,-104.88271,102.23905
147500000,-101.6769,9.1251612
157000000,-102.42699,25.124174
166500000,-103.38212,146.24602
176000000,-103.50835,43.160904
185500000,-103.95815,118.35909
195000000,-104.29241,-130.09023
204500000,-104.71901,-30.225134
214000000,-102.52054,18.810287
223500000,-102.86314,-167.73802
233000000,-103.26716,-115.99264
242500000,-103.92708,-135.12973
252000000,-99.140648,-46.305408
261500000,-99.168381,68.693146
271000000,-99.293556,-6.999032
280500000,-99.858597,-58.84103
290000000,-99.973663,87.980705
299500000,-99.874413,38.394577
309000000,-100.28864,57.864338
318500000,-100.3141,98.889633
328000000,-100.9296,126.59225
337500000,-101.25437,-90.370941
347000000,-101.23343,-141.50069
356500000,-101.46904,-51.096603
366000000,-101.97066,-166.71075
375500000,-101.99738,18.06275
385000000,-102.01314,-78.12825
394500000,-102.08762,-71.83564
404000000,-101.70259,139.84854
413500000,-101.94568,-0.019365879
423000000,-102.03127,-173.08832
432500000,-102.49246,41.98251
442000000,-102.6502,-3.8957691
451500000,-102.63281,83.090172
461000000,-102.51381,93.349983
470500000,-102.73093,-134.65811
480000000,-102.81966,-124.82511
489500000,-102.7916,172.25087
499000000,-103.22756,-127.84132
508500000,-103.52253,-16.450651
518000000,-103.59541,177.29019
527500000,-103.49995,25.771845
537000000,-103.77213,-165.80135
546500000,-103.8904,-90.161636
556000000,-104.07247,107.44112
565500000,-103.93221,37.039944
575000000,-104.06257,16.418703
584500000,-104.21703,-5.1390386
594000000,-104.27814,-89.019302
603500000,-104.53458,6.8373909
613000000,-104.54883,128.74873
622500000,-104.67147,16.901022
632000000,-103.62356,-116.1302
641500000,-103.90587,125.53427
651000000,-103.75429,37.106232
660500000,-103.91718,-72.403404
670000000,-103.97999,-116.08942
679500000,-103.87085,8.4552259
689000000,-104.07595,-164.8353
698500000,-104.19493,-120.45644
708000000,-104.38313,13.530402
717500000,-104.24906,100.78314
727000000,-104.26151,-106.10947
736500000,-104.44985,-152.24168
746000000,-104.60715,4.3340635
755500000,-104.57121,-147.65669
765000000,-104.70906,-162.10637
774500000,-104.79495,-30.256584
784000000,-104.82856,116.31847
793500000,-104.82289,-85.597221
803000000,-104.97876,-75.613495
812500000,-105.07323,-46.754307
822000000,-105.08212,44.93853
831500000,-104.76928,-53.183983
841000000,-105.05392,86.370499
850500000,-104.9592,-132.27122
860000000,-105.20909,-163.50467
869500000,-105.29207,-55.172314
879000000,-105.3009,-132.39029
888500000,-105.27365,-149.05919
898000000,-105.4761,65.619949
907500000,-105.14803,-88.711342
917000000,-105.28284,-160.62071
926500000,-105.7352,118.23627
936000000,-105.18637,71.351875
945500000,-105.35471,-97.771576
955000000,-105.73486,101.26339
964500000,-105.56982,-117.30234
974000000,-105.58515,-109.84149
983500000,-105.56435,-138.77292
993000000,-105.34084,126.15186
1002500000,-102.83324,38.03458
1012000000,-102.75466,41.716064
1021500000,-102.76342,-65.77243
1031000000,-102.99876,-23.892544
1040500000,-102.97378,25.088198
1050000000,-102.96068,-9.1218624
1059500000,-102.97771,19.226957
1069000000,-103.05546,-55.376972
1078500000,-102.8516,-105.97597
1088000000,-102.93068,-9.4226885
1097500000,-103.11457,121.63165
1107000000,-102.98515,-138.36446
1116500000,-102.95094,43.778214
1126000000,-103.03872,97.372932
1135500000,-103.01157,-153.83463
1145000000,-103.11794,-83.380013
1154500000,-103.3182,81.772842
1164000000,-103.08862,-53.690285
1173500000,-103.09408,-154.48665
1183000000,-102.97982,24.582365
1192500000,-103.13302,-127.12923
1202000000,-103.04668,48.875957
1211500000,-103.28358,-84.323242
1221000000,-103.12286,-104.37254
1230500000,-103.21779,100.18008
1240000000,-103.27526,171.56436
1249500000,-102.99693,52.110214
1259000000,-102.96131,21.724171
1268500000,-103.04461,-36.649662
1278000000,-103.32863,-139.36574
1287500000,-102.97259,-139.55287
1297000000,-103.16195,0.52977234
1306500000,-102.88724,167.35468
1316000000,-102.9699,25.252934
1325500000,-102.82855,-83.385338
1335000000,-102.83939,14.570894
1344500000,-102.95765,-16.768595
1354000000,-102.99805,-89.835648
1363500000,-103.0028,-146.02609
1373000000,-102.86292,-118.09415
1382500000,-103.39559,14.155207
1392000000,-103.12607,136.63489
1401500000,-103.08502,120.18497
1411000000,-103.18364,130.60538
1420500000,-102.79225,51.289585
1430000000,-102.8047,20.977558
1439500000,-102.74136,146.81291
1449000000,-102.89891,48.57811
1458500000,-102.87861,45.723408
1468000000,-102.82055,101.86945
1477500000,-102.7855,-64.769333
1487000000,-102.77875,112.06174
1496500000,-102.47463,8.5454769
1506000000,-105.45732,-170.24379
1515500000,-105.80376,124.62881
1525000000,-105.8026,10.378027
1534500000,-105.38594,62.068329
1544000000,-105.57323,-80.285919
1553500000,-105.49231,-11.143231
1563000000,-105.62802,-9.6740675
1572500000,-105.46307,-164.57718
1582000000,-105.48261,-146.91743
1591500000,-105.40151,-148.91327
1601000000,-105.51836,30.791599
1610500000,-105.40881,-148.49716
1620000000,-105.40269,122.41161
1629500000,-105.20714,-164.57687
1639000000,-105.17594,-152.39507
1648500000,-105.26215,109.76611
1658000000,-105.26566,15.903203
1667500000,-104.90623,7.3866773
1677000000,-105.00818,-9.8640471
1686500000,-105.27919,-120.77698
1696000000,-105.22426,-105.31799
1705500000,-105.12395,158.65273
1715000000,-105.11391,170.96638
1724500000,-104.96442,174.76508
1734000000,-104.95692,-96.773094
1743500000,-105.04931,64.434296
1753000000,-104.86769,123.61481
1762500000,-105.06979,-137.51302
1772000000,-104.85377,-91.962021
1781500000,-105.11175,-23.834736
1791000000,-104.75372,156.6494
1800500000,-104.87005,-178.05408
1810000000,-104.93157,116.68427
1819500000,-105.07278,-40.923306
1829000000,-104.86545,-154.60548
1838500000,-104.82386,17.791842
1848000000,-104.58298,-110.74073
1857500000,-104.40303,-16.264368
1867000000,-104.81676,1.368314
1876500000,-104.6424,-97.513252
1886000000,-104.70454,116.54718
1895500000,-104.61231,-83.762726
1905000000,-104.5815,-71.138908
1914500000,-104.34215,-149.86705
1924000000,-104.39824,-65.815193
1933500000,-104.32348,-179.76007
1943000000,-104.41121,-71.514687
1952500000,-104.38328,-26.773775
1962000000,-104.52689,-64.865562
1971500000,-104.59725,-98.967979
1981000000,-104.14151,57.845715
1990500000,-104.40616,51.764473
2000000000,-104.42608,-19.140375
END

