!CSV A.01.01
!Keysight Technologies,N5242B,MY48420967,A.15.65.19
!Date: Saturday, February 04, 2023 00:02:27
!Source: Standard

BEGIN CH1_DATA
Freq(Hz),A_2(DB),A_2(DEG)
100000000,-103.94678,164.9595
109500000,-103.09463,1.3948526
119000000,-103.7808,94.016197
128500000,-104.25337,123.97884
138000000,-105.06141,156.1819
147500000,-101.90092,25.625385
157000000,-102.84231,-120.89834
166500000,-102.94508,-114.15212
176000000,-103.60123,104.46474
185500000,-104.04115,-30.360018
195000000,-104.29802,20.194063
204500000,-104.86809,-108.15627
214000000,-102.48445,60.352802
223500000,-103.24748,-12.499598
233000000,-103.17027,82.144089
242500000,-103.4186,141.15129
252000000,-98.94619,-153.06189
261500000,-99.321144,-83.093536
271000000,-99.596558,-81.964119
280500000,-99.738289,72.805313
290000000,-99.669731,71.031448
299500000,-100.13898,-23.102127
309000000,-100.30717,-117.29404
318500000,-100.7683,-60.029865
328000000,-101.09433,72.397133
337500000,-101.09216,1.7142563
347000000,-101.26946,97.966568
356500000,-101.65182,145.90141
366000000,-101.8206,103.48643
375500000,-102.00541,44.258324
385000000,-102.16074,-147.95538
394500000,-102.31326,-136.36853
404000000,-101.59624,-31.638882
413500000,-102.26172,-153.67993
423000000,-102.14571,-61.973701
432500000,-102.40067,-133.16982
442000000,-102.22971,-53.319027
451500000,-102.31145,-63.104145
461000000,-102.48576,-171.95624
470500000,-102.80907,-103.16407
480000000,-102.7985,-111.93484
489500000,-102.92913,-19.627939
499000000,-103.23989,-114.00447
508500000,-103.31434,26.478397
518000000,-103.22875,173.84065
527500000,-103.4119,-158.21957
537000000,-103.65829,-146.97603
546500000,-103.81604,13.334811
556000000,-103.70383,-25.517515
565500000,-103.87602,22.97431
575000000,-104.02248,94.474167
584500000,-104.24842,116.17846
594000000,-104.00659,87.837982
603500000,-104.27828,-56.697765
613000000,-104.83131,-77.147423
622500000,-104.35776,159.33624
632000000,-103.59079,69.599556
641500000,-103.52492,33.574421
651000000,-103.96688,165.15598
660500000,-104.15712,-117.96809
670000000,-104.02827,170.07622
679500000,-104.05692,155.68082
689000000,-103.92419,-60.214211
698500000,-104.08383,-146.3049
708000000,-103.9799,87.717331
717500000,-104.37191,-41.737782
727000000,-104.25259,161.44098
736500000,-104.48806,86.89196
746000000,-104.52947,-103.52788
755500000,-104.63498,-87.053268
765000000,-104.89098,162.58775
774500000,-104.74238,-113.5368
784000000,-104.79015,173.81818
793500000,-104.98883,-130.63614
803000000,-104.95788,10.015139
812500000,-104.63233,54.757034
822000000,-104.835,150.39554
831500000,-105.15302,-170.07822
841000000,-104.86359,75.709686
850500000,-105.11123,-172.68727
860000000,-105.42158,112.96175
869500000,-105.06496,72.378967
879000000,-105.13284,132.92807
888500000,-105.08186,74.185341
898000000,-105.48137,-155.54863
907500000,-105.33756,-3.9157829
917000000,-105.55708,-12.001651
926500000,-105.18384,45.353222
936000000,-105.23183,89.80925
945500000,-105.65713,-21.391932
955000000,-105.38436,5.3431978
964500000,-105.6121,61.435699
974000000,-105.63175,-43.881882
983500000,-105.65874,149.96341
993000000,-105.29767,143.41969
1002500000,-102.81289,131.71701
1012000000,-102.78863,63.50309
1021500000,-103.06226,-155.62729
1031000000,-102.8139,-38.816433
1040500000,-103.0501,53.303608
1050000000,-102.92767,-118.14729
1059500000,-102.97513,37.656792
1069000000,-102.94419,165.96295
1078500000,-102.98329,50.366997
1088000000,-102.94874,-34.302979
1097500000,-103.02187,-123.16664
1107000000,-103.08417,-115.66631
1116500000,-103.16226,-174.55302
1126000000,-103.0968,-127.66038
1135500000,-103.14793,113.93488
1145000000,-103.14194,-72.099342
1154500000,-103.21564,-141.3392
1164000000,-103.18414,119.06326
1173500000,-103.12605,-31.432991
1183000000,-102.98591,-169.34642
1192500000,-102.86318,165.1714
1202000000,-103.03307,90.886887
1211500000,-103.18269,-14.929093
1221000000,-103.05933,128.05797
1230500000,-103.25902,-4.844028
1240000000,-103.20435,9.0614672
1249500000,-103.42348,76.687813
1259000000,-103.46741,-102.43922
1268500000,-103.19908,-165.30705
1278000000,-103.20141,-48.675476
1287500000,-103.054,-148.06902
1297000000,-103.14017,36.534618
1306500000,-103.05261,88.1754
1316000000,-103.20734,-47.152046
1325500000,-102.96181,-17.227066
1335000000,-103.04845,-37.187889
1344500000,-103.01804,173.50061
1354000000,-102.99888,-89.473175
1363500000,-103.1049,-152.31554
1373000000,-103.03375,-44.366528
1382500000,-102.74207,47.486557
1392000000,-103.12774,-36.035725
1401500000,-103.11135,77.382027
1411000000,-102.78564,-132.98625
1420500000,-103.06264,-179.3286
1430000000,-102.94466,-128.55272
1439500000,-102.80247,17.561054
1449000000,-102.74198,139.403
1458500000,-102.84558,-166.66222
1468000000,-102.93389,168.65424
1477500000,-102.66418,159.28986
1487000000,-102.92435,41.573574
1496500000,-102.92382,-38.119488
1506000000,-105.59711,86.06543
1515500000,-105.50346,15.485705
1525000000,-105.51246,30.642008
1534500000,-105.41098,89.202232
1544000000,-105.36503,73.686722
1553500000,-105.36973,117.83643
1563000000,-105.47691,155.01979
1572500000,-105.40458,-137.66393
1582000000,-105.43305,161.14142
1591500000,-105.54211,-42.605274
1601000000,-105.36089,-71.798485
1610500000,-105.40422,-120.09518
1620000000,-105.28146,-10.500601
1629500000,-105.38577,108.04237
1639000000,-105.20927,-115.31432
1648500000,-105.09398,-120.42058
1658000000,-105.06992,106.16632
1667500000,-104.9488,-48.292988
1677000000,-105.00887,62.328228
1686500000,-105.21642,12.149437
1696000000,-105.04536,-154.47052
1705500000,-104.87286,-102.78459
1715000000,-105.05382,27.617025
1724500000,-104.96889,81.806778
1734000000,-104.76792,-77.605904
1743500000,-104.88203,144.20531
1753000000,-104.93748,-90.573158
1762500000,-104.93356,-53.493736
1772000000,-105.44741,167.22353
1781500000,-105.17203,39.993763
1791000000,-104.84554,-171.49663
1800500000,-104.61778,-17.847637
1810000000,-104.92472,-20.716328
1819500000,-104.85922,38.984547
1829000000,-104.65929,-56.763229
1838500000,-104.69906,147.55704
1848000000,-104.47821,-157.80981
1857500000,-104.50906,-56.34116
1867000000,-104.67379,-26.163242
1876500000,-104.72721,98.241539
1886000000,-104.70679,-27.665504
1895500000,-104.80648,147.95003
1905000000,-104.57076,-19.630939
1914500000,-104.32648,-67.550438
1924000000,-104.548,101.59285
1933500000,-104.38786,-147.7614
1943000000,-104.53792,-144.68059
1952500000,-104.62016,98.367943
1962000000,-104.63768,-172.06566
1971500000,-104.60522,-154.94789
1981000000,-104.12662,35.232918
1990500000,-104.46133,-56.743988
2000000000,-104.6016,-142.58131
END

