!CSV A.01.01
!Keysight Technologies,N5242B,MY48420967,A.15.65.19
!Date: Saturday, February 04, 2023 18:23:14
!Source: Standard

BEGIN CH1_DATA
Freq(Hz),B_1(DB),B_1(DEG)
100000000,-103.90463,-14.880295
109500000,-102.75555,-9.4399767
119000000,-103.22844,115.97427
128500000,-104.27688,-150.95193
138000000,-105.11903,-161.95781
147500000,-102.01558,42.257355
157000000,-102.61756,134.88812
166500000,-103.13049,54.077309
176000000,-103.44043,-65.720421
185500000,-104.13411,117.923
195000000,-104.54741,-93.362389
204500000,-104.93456,-129.83817
214000000,-102.12775,89.089417
223500000,-102.52641,-114.07182
233000000,-102.91571,132.59177
242500000,-102.98506,-10.457572
252000000,-98.143555,-15.158957
261500000,-98.874954,-146.61687
271000000,-99.05439,146.67278
280500000,-99.296272,34.075096
290000000,-99.567307,-112.48335
299500000,-99.633209,5.9103708
309000000,-100.09696,4.6155477
318500000,-100.45206,46.383076
328000000,-100.48267,89.946632
337500000,-101.02113,115.3111
347000000,-101.0098,72.708984
356500000,-101.02522,-11.754179
366000000,-101.48859,-170.35323
375500000,-101.64216,-28.265471
385000000,-101.78199,94.104431
394500000,-101.99874,14.056937
404000000,-102.40221,-48.431183
413500000,-102.07542,33.514732
423000000,-102.3856,-24.149969
432500000,-102.48641,-115.11382
442000000,-102.91726,-86.382706
451500000,-102.71352,-46.920486
461000000,-103.19878,-76.191887
470500000,-103.11384,-138.05074
480000000,-103.44981,-148.14957
489500000,-103.71068,77.858444
499000000,-103.75943,29.496159
508500000,-102.86518,-97.963371
518000000,-103.1714,-51.610359
527500000,-103.1209,-30.510725
537000000,-103.1162,-16.961811
546500000,-103.51817,-152.73174
556000000,-103.47778,116.19324
565500000,-103.90085,-161.68913
575000000,-103.60264,-55.290672
584500000,-103.8779,135.136
594000000,-104.06313,20.229378
603500000,-104.0312,-160.51213
613000000,-103.85431,7.1066132
622500000,-104.11363,-132.6924
632000000,-103.05807,-98.709908
641500000,-103.64429,176.85992
651000000,-103.26399,163.42075
660500000,-103.72271,90.766914
670000000,-103.63942,-49.378838
679500000,-103.69817,98.224152
689000000,-103.9065,11.738635
698500000,-103.73531,-101.55307
708000000,-103.77831,-72.02533
717500000,-103.72327,-149.47452
727000000,-104.10001,71.259033
736500000,-104.08165,55.040157
746000000,-104.23366,-4.0131631
755500000,-104.17571,173.26775
765000000,-104.25705,69.954765
774500000,-104.26925,40.884174
784000000,-104.40614,44.485672
793500000,-104.41646,126.78409
803000000,-104.53376,-120.42641
812500000,-104.42591,96.332504
822000000,-104.63104,-111.95528
831500000,-104.66411,-132.67348
841000000,-104.85146,48.701725
850500000,-104.44716,-137.99678
860000000,-104.94073,-144.55565
869500000,-104.51554,-2.7022099
879000000,-104.83421,-82.660896
888500000,-105.01716,149.95575
898000000,-105.34841,-29.567749
907500000,-105.20912,15.863898
917000000,-104.77506,150.95053
926500000,-105.10989,-59.424244
936000000,-104.93066,56.942104
945500000,-105.11697,37.745567
955000000,-105.17607,-25.556553
964500000,-105.22735,-103.16035
974000000,-104.99863,121.36021
983500000,-105.28799,96.957893
993000000,-105.16734,-74.94313
1002500000,-105.29496,98.484978
1012000000,-105.72875,-145.09317
1021500000,-105.05396,53.685261
1031000000,-105.17886,-131.61829
1040500000,-105.39484,-86.026169
1050000000,-105.17083,-175.75787
1059500000,-105.4473,-132.70505
1069000000,-105.35387,85.411896
1078500000,-105.29385,-169.48169
1088000000,-105.41238,-106.45706
1097500000,-105.44168,92.062218
1107000000,-105.38148,-173.47011
1116500000,-105.50156,106.50542
1126000000,-105.47868,136.44708
1135500000,-105.65894,-121.38798
1145000000,-105.54917,100.28355
1154500000,-105.51189,-153.76944
1164000000,-105.66019,-142.15027
1173500000,-105.42564,-38.042896
1183000000,-105.52649,85.189629
1192500000,-105.54159,-120.74606
1202000000,-105.32137,-82.561539
1211500000,-105.48095,-60.193249
1221000000,-105.40671,74.952408
1230500000,-105.62285,-158.72203
1240000000,-105.31245,-66.34108
1249500000,-105.31724,168.62706
1259000000,-105.82511,78.241348
1268500000,-105.5126,12.070041
1278000000,-105.54809,-67.464119
1287500000,-105.54102,30.794031
1297000000,-105.3934,-81.313919
1306500000,-105.49748,147.16595
1316000000,-105.16079,145.80092
1325500000,-105.3074,-65.38517
1335000000,-105.34451,16.829012
1344500000,-105.47276,86.292099
1354000000,-105.42005,-24.027435
1363500000,-105.54531,-118.18588
1373000000,-105.21018,41.797684
1382500000,-105.39431,-161.7599
1392000000,-105.33398,-43.085892
1401500000,-105.45908,-55.106724
1411000000,-105.03641,-122.80018
1420500000,-104.83875,114.14926
1430000000,-105.28481,18.631502
1439500000,-105.36612,-131.86125
1449000000,-105.21825,-65.882957
1458500000,-105.27578,85.263573
1468000000,-105.29394,-108.86629
1477500000,-105.26122,91.04464
1487000000,-105.30517,-51.306171
1496500000,-105.27274,-23.221954
1506000000,-105.2085,-153.87195
1515500000,-105.09212,-94.187889
1525000000,-105.15513,172.83749
1534500000,-104.909,137.26651
1544000000,-104.95508,85.034134
1553500000,-104.68691,-22.672169
1563000000,-104.78501,105.90786
1572500000,-104.85402,-15.967944
1582000000,-104.86869,-103.72596
1591500000,-104.83143,-121.42407
1601000000,-105.03185,-64.599846
1610500000,-104.71798,-97.360054
1620000000,-104.77559,-63.215137
1629500000,-105.04304,48.72739
1639000000,-104.68221,71.582253
1648500000,-104.804,127.06362
1658000000,-104.8593,-82.92762
1667500000,-104.57799,-71.712547
1677000000,-104.63708,115.97622
1686500000,-104.62787,96.910774
1696000000,-104.77624,77.468887
1705500000,-104.59401,-156.25841
1715000000,-104.48213,85.462486
1724500000,-104.6073,-54.72982
1734000000,-104.31622,127.39875
1743500000,-104.68013,8.0381422
1753000000,-104.35107,-90.940834
1762500000,-104.51036,40.245399
1772000000,-104.08533,-26.8806
1781500000,-104.11003,-51.008869
1791000000,-104.42146,-158.96974
1800500000,-104.24722,92.738449
1810000000,-104.28313,41.824661
1819500000,-103.94648,95.442909
1829000000,-104.25632,175.61406
1838500000,-104.30351,-176.56723
1848000000,-103.87051,-107.42341
1857500000,-104.0563,-53.25771
1867000000,-104.25362,-100.5832
1876500000,-103.93346,69.179047
1886000000,-103.65895,4.5775557
1895500000,-103.87266,-55.906349
1905000000,-103.9878,3.7883854
1914500000,-104.17931,89.927528
1924000000,-104.15081,15.41585
1933500000,-103.79687,-18.690145
1943000000,-103.80989,114.77461
1952500000,-103.91998,-13.395039
1962000000,-103.92938,133.02403
1971500000,-103.82198,158.38106
1981000000,-103.62253,83.456345
1990500000,-104.14758,29.059572
2000000000,-103.71124,-152.38168
END

