!CSV A.01.01
!Keysight Technologies,N5242B,MY48420967,A.15.65.19
!Date: Saturday, February 04, 2023 11:20:42
!Source: Standard

BEGIN CH1_DATA
Freq(Hz),A_1(DB),A_1(DEG)
100000000,-104.00303,95.20153
109500000,-103.00894,-91.593285
119000000,-103.85777,-2.6042275
128500000,-104.41043,-100.89252
138000000,-105.15205,178.22269
147500000,-101.74861,-41.802742
157000000,-102.3846,141.96239
166500000,-103.06644,-33.224651
176000000,-103.56492,32.591633
185500000,-104.01601,-161.22624
195000000,-104.48824,172.224
204500000,-104.82068,-142.06924
214000000,-102.34335,-100.90188
223500000,-102.88078,99.279953
233000000,-103.11516,-56.650848
242500000,-103.39636,-72.598625
252000000,-98.725243,112.34153
261500000,-99.000908,-160.25874
271000000,-99.402992,155.73674
280500000,-99.43,-88.704002
290000000,-100.16724,176.83708
299500000,-99.839561,75.804512
309000000,-100.34975,-76.86512
318500000,-100.6042,-152.1188
328000000,-100.85519,-172.75117
337500000,-101.04549,-72.92205
347000000,-101.36892,-67.316345
356500000,-101.76244,-98.653366
366000000,-101.80476,-23.104549
375500000,-101.98714,-117.0529
385000000,-102.38078,-113.79559
394500000,-102.31449,-143.95399
404000000,-101.47433,126.91246
413500000,-101.73663,43.872383
423000000,-102.08118,131.75194
432500000,-102.30602,29.110987
442000000,-102.28629,1.8852309
451500000,-102.44238,120.25095
461000000,-102.47427,19.54812
470500000,-102.9993,-20.330772
480000000,-102.79339,39.917576
489500000,-102.93129,5.4579167
499000000,-103.12296,-11.129315
508500000,-103.15263,-78.530983
518000000,-103.64767,90.854088
527500000,-103.76106,50.020416
537000000,-103.62273,111.52663
546500000,-103.91232,-175.07156
556000000,-103.83932,157.55487
565500000,-103.76003,28.523937
575000000,-104.20249,170.74893
584500000,-104.49142,58.128941
594000000,-104.47223,-147.70857
603500000,-104.31317,39.523773
613000000,-104.65449,107.29158
622500000,-104.51257,174.12479
632000000,-103.65646,178.90269
641500000,-103.7193,43.011364
651000000,-103.66605,75.528168
660500000,-103.94875,-125.67505
670000000,-103.78735,116.31574
679500000,-103.9712,175.25938
689000000,-103.98215,-117.57594
698500000,-104.07427,93.728394
708000000,-104.58051,-59.153114
717500000,-104.30051,55.469635
727000000,-104.41687,-65.42939
736500000,-104.53283,7.187912
746000000,-104.34045,-159.06494
755500000,-104.49019,-164.25317
765000000,-104.75439,64.059486
774500000,-104.74915,-176.66328
784000000,-104.84203,-175.24478
793500000,-104.9232,155.00044
803000000,-104.92639,-146.58783
812500000,-104.83511,-164.72252
822000000,-105.35832,-18.931931
831500000,-105.15038,122.10133
841000000,-105.01572,19.02733
850500000,-105.32551,-179.69174
860000000,-105.2555,71.85704
869500000,-105.08251,171.9597
879000000,-105.17063,-56.844391
888500000,-105.55413,56.960384
898000000,-105.21308,6.2389946
907500000,-105.48351,-4.9587102
917000000,-105.30342,-34.121624
926500000,-105.34194,-83.330788
936000000,-105.24217,109.74497
945500000,-105.4641,-89.184685
955000000,-105.37061,-5.6152558
964500000,-105.56244,-143.66335
974000000,-105.57627,131.09459
983500000,-105.53367,74.743454
993000000,-105.67065,-144.97588
1002500000,-102.72944,72.252785
1012000000,-102.74584,-121.87071
1021500000,-102.81525,134.36514
1031000000,-102.85647,-134.5829
1040500000,-103.05182,-123.77197
1050000000,-102.97593,172.24899
1059500000,-102.91384,178.90784
1069000000,-102.97933,30.147352
1078500000,-102.81967,-111.04284
1088000000,-103.094,-35.695789
1097500000,-102.7635,-44.091801
1107000000,-102.9625,49.555393
1116500000,-103.16633,-128.27852
1126000000,-103.15364,-146.30029
1135500000,-102.94547,-69.95842
1145000000,-103.09127,-105.79296
1154500000,-103.21941,84.358856
1164000000,-102.93292,17.648048
1173500000,-103.09593,-30.9498
1183000000,-102.83374,-23.680054
1192500000,-103.30059,166.58344
1202000000,-103.10635,-69.352654
1211500000,-103.14491,85.670425
1221000000,-103.23042,-79.622871
1230500000,-103.03906,-105.8847
1240000000,-103.17983,34.939255
1249500000,-103.04596,-40.1759
1259000000,-103.27188,-32.549152
1268500000,-102.77466,-113.0843
1278000000,-102.95901,-16.845097
1287500000,-103.13959,19.004948
1297000000,-103.19263,-83.344879
1306500000,-103.04538,100.96231
1316000000,-102.78074,-147.53204
1325500000,-103.02753,-28.540892
1335000000,-103.14028,18.107471
1344500000,-103.05859,176.20923
1354000000,-103.19886,142.28261
1363500000,-103.22916,121.61036
1373000000,-103.23332,176.03951
1382500000,-103.0006,-73.257362
1392000000,-102.89397,-11.360124
1401500000,-102.86913,106.17686
1411000000,-102.88142,-107.9045
1420500000,-102.93947,133.17078
1430000000,-103.13707,141.8851
1439500000,-102.9156,174.83925
1449000000,-102.80473,61.600998
1458500000,-102.84582,-168.67636
1468000000,-102.62199,116.55558
1477500000,-102.70802,3.8139174
1487000000,-102.77192,-31.595161
1496500000,-102.83693,-78.975105
1506000000,-105.69611,-91.368568
1515500000,-105.49252,-75.568581
1525000000,-105.57648,88.730247
1534500000,-105.31281,144.56688
1544000000,-105.34318,165.20216
1553500000,-105.33528,-153.6071
1563000000,-105.43366,95.66449
1572500000,-105.34071,1.3720177
1582000000,-105.24539,-126.82461
1591500000,-105.58018,-47.061123
1601000000,-105.51752,38.57827
1610500000,-105.46644,-112.47284
1620000000,-105.33742,160.56183
1629500000,-105.51173,47.897404
1639000000,-104.97913,-112.23524
1648500000,-105.23054,-139.44304
1658000000,-105.26662,112.14949
1667500000,-104.90577,-115.52504
1677000000,-105.11647,166.11513
1686500000,-104.87679,-135.54349
1696000000,-105.19332,164.88599
1705500000,-104.92091,-116.89634
1715000000,-105.11982,146.55956
1724500000,-104.88853,160.9248
1734000000,-104.90006,168.8501
1743500000,-105.05105,120.52689
1753000000,-104.96202,-71.401413
1762500000,-104.59,175.17883
1772000000,-104.995,-72.127136
1781500000,-104.82994,-140.3154
1791000000,-104.69756,11.447311
1800500000,-104.60592,57.281033
1810000000,-104.77275,142.33829
1819500000,-104.65763,35.005081
1829000000,-104.86023,4.2243171
1838500000,-104.6699,-101.47112
1848000000,-104.58696,168.46001
1857500000,-104.95826,83.992928
1867000000,-104.85275,-59.63715
1876500000,-104.4531,-124.1749
1886000000,-104.73527,-151.42563
1895500000,-104.79012,8.5086145
1905000000,-104.6543,85.456306
1914500000,-104.20291,140.2854
1924000000,-104.45743,91.366554
1933500000,-104.61999,5.0860438
1943000000,-104.69018,16.35256
1952500000,-104.30107,-62.602467
1962000000,-104.47572,-161.65498
1971500000,-104.15198,-150.07961
1981000000,-104.31602,-41.856022
1990500000,-104.30606,8.9739513
2000000000,-104.22059,53.645466
END

