!Keysight Technologies,N5242B,MY48420967,A.15.65.19
!Date: Monday, January 23, 2023 02:42:44
!Correction: S11(C  1-Port  ) 
!S21(Off) 
!S12(Off) 
!S22(Off) 
!S2P File: Measurements: S11, S21, S12, S22:
# Hz S  dB   R 50
100000000 -19.180769 -20.581503 28.298241 12.2634 -34.11063 -85.472229 -23.987963 38.539246
109500000 -17.912504 -17.941412 27.539135 -89.640877 -33.293613 -178.26332 -27.448593 -3.2685742
119000000 -14.345884 -49.692032 26.681438 167.85657 -32.724274 88.262314 -23.540737 -136.87227
128500000 -14.88623 -94.207191 25.804569 67.03978 -32.290092 -3.5995533 -19.933689 136.53979
138000000 -20.259338 -121.84605 25.187893 -33.67205 -31.674164 -95.508423 -18.885355 91.494766
147500000 -19.143002 -98.810165 24.672668 -135.04971 -31.029535 172.04887 -17.5837 46.702744
157000000 -14.169838 -138.98952 24.134109 122.82076 -30.516542 78.666649 -18.560997 -0.71384495
166500000 -13.590384 163.84201 23.480579 20.884651 -30.164164 -14.589851 -21.72328 -51.149944
176000000 -16.508282 107.83335 22.845285 -79.88356 -29.855938 -106.60787 -31.965233 -120.94258
185500000 -23.03298 84.520416 22.398907 179.4776 -29.407305 161.44659 -29.249731 61.998093
195000000 -19.040865 98.531677 22.004868 78.116615 -28.962679 68.78968 -22.386669 14.50847
204500000 -15.068331 55.770081 21.538202 -23.657925 -28.628698 -24.351742 -18.695841 -31.244175
214000000 -15.163743 10.619848 21.001028 -124.61577 -28.395414 -116.69085 -18.416315 -84.694038
223500000 -17.217121 -14.063916 20.628212 134.99306 -28.040514 151.5867 -21.454426 -126.81551
233000000 -15.938803 -24.803938 20.340147 33.924564 -27.637608 59.19141 -24.169533 -164.70088
242500000 -14.086013 -59.256489 19.992426 -67.651718 -27.309933 -33.771004 -32.06538 114.98949
252000000 -15.29468 -100.25893 19.595263 -168.72752 -27.064564 -126.27169 -28.689096 -40.543831
261500000 -18.985371 -119.11176 19.282648 90.477203 -26.756628 141.56406 -23.081951 -101.35991
271000000 -17.002176 -121.67969 19.038136 -10.689086 -26.40225 49.044041 -21.92889 -144.28688
280500000 -14.043858 -162.81287 18.791815 -112.5077 -26.087734 -44.14389 -20.569265 175.61412
290000000 -14.097984 146.04434 18.379004 145.67326 -25.952782 -137.32693 -22.974577 115.01772
299500000 -16.947327 105.05136 18.045675 45.077297 -25.750477 130.7395 -35.252499 87.553802
309000000 -18.560951 95.668983 17.821297 -56.093811 -25.483679 38.235722 -40.990261 154.89833
318500000 -15.052826 72.668808 17.563108 -157.81119 -25.240749 -54.76511 -26.841438 175.46196
328000000 -13.622989 31.311493 17.228151 100.84466 -25.095303 -147.45116 -22.970058 120.39697
337500000 -14.970694 -3.4794307 16.950518 -0.16538119 -24.913944 120.24706 -22.926579 68.917175
347000000 -15.584426 -17.025875 16.730564 -101.34737 -24.682972 27.792812 -26.7861 9.5677834
356500000 -12.984317 -41.459381 16.518587 157.34995 -24.459024 -64.87809 -37.342926 -27.607456
366000000 -12.102248 -83.328247 16.282711 55.609497 -24.265099 -157.9944 -36.381512 -149.33736
375500000 -14.173409 -124.15604 15.972884 -45.458241 -24.161037 109.53577 -25.597416 110.7252
385000000 -17.150572 -138.25186 15.794389 -146.42177 -23.939777 17.092682 -23.729282 38.066013
394500000 -14.095816 -150.75528 15.602143 112.0317 -23.755157 -75.924164 -26.147354 -12.747018
404000000 -11.544744 166.88956 15.319013 10.234543 -23.658657 -169.27168 -26.41007 -70.651833
413500000 -11.626483 120.48712 14.964592 -90.227722 -23.652716 98.751717 -25.468279 179.23996
423000000 -13.478528 86.783844 14.87164 169.29861 -23.402676 6.8316226 -22.59099 83.41375
432500000 -13.424378 72.469368 14.715748 67.329384 -23.228786 -86.621681 -20.534803 28.035526
442000000 -11.114898 45.165936 14.346199 -34.159588 -23.26124 -179.54033 -18.137352 -29.875551
451500000 -10.501571 7.8321514 14.106853 -134.25804 -23.176222 89.028885 -18.947601 -92.503151
461000000 -11.659374 -22.713852 13.980286 124.60663 -22.988689 -3.4043863 -20.231985 -154.21736
470500000 -11.872349 -39.108883 13.765558 23.191982 -22.890627 -96.089134 -20.846449 115.23651
480000000 -10.168939 -64.588089 13.572792 -77.784554 -22.770954 171.66423 -21.255352 24.639851
489500000 -9.6953211 -101.6609 13.345863 -179.37923 -22.695366 78.812073 -19.308407 -30.262053
499000000 -10.99075 -136.27415 13.102839 80.296036 -22.632164 -12.743463 -16.616623 -94.260689
508500000 -12.114174 -156.52263 13.091369 -21.089262 -22.346205 -105.38885 -17.765274 -160.17844
518000000 -10.722045 -179.00703 12.865749 -123.53983 -22.281151 160.89349 -19.770113 141.41422
527500000 -9.68748 145.0587 12.489027 135.62814 -22.368168 68.810219 -21.055449 57.302132
537000000 -10.189846 109.18012 12.390976 35.138008 -22.180609 -22.950586 -20.028473 -34.250328
546500000 -10.995304 85.113663 12.259326 -66.72094 -22.014624 -116.07716 -16.738165 -104.92015
556000000 -9.8981667 63.77121 11.962467 -168.14195 -22.012436 151.24089 -15.12911 -170.28609
565500000 -8.7567844 31.348131 11.701523 91.058632 -21.972141 59.158566 -15.578813 135.356
575000000 -9.1905136 -3.2126513 11.464156 -9.0351925 -21.904875 -32.316483 -15.968143 77.842239
584500000 -10.674 -26.969049 11.472289 -109.27433 -21.58993 -124.09917 -18.653532 0.76937902
594000000 -10.203189 -42.106155 11.359056 148.86443 -21.411825 142.28078 -21.721577 -88.194878
603500000 -8.8322687 -71.316467 10.998371 48.359402 -21.579811 49.921745 -19.103132 -172.21773
613000000 -9.0029116 -107.48576 10.990145 -50.703735 -21.432547 -41.045597 -17.446705 117.79839
622500000 -10.519269 -137.44695 11.007608 -152.19121 -21.29217 -134.53214 -16.690113 67.591583
632000000 -11.015228 -156.69438 10.813727 107.02732 -21.36405 132.85106 -16.517691 0.10330608
641500000 -9.905798 176.13797 10.752353 6.6195621 -21.284863 40.721989 -20.952908 -74.906334
651000000 -9.6036005 140.97787 10.601818 -94.939613 -21.304161 -52.330879 -22.400038 -153.87512
660500000 -10.314868 110.01415 10.451035 164.59265 -21.314079 -144.12746 -17.942478 115.75428
670000000 -10.29438 86.979515 10.409261 63.209602 -21.21447 123.20298 -15.616222 44.560452
679500000 -9.1861601 58.83754 10.203197 -38.178497 -21.271807 30.589563 -14.994266 -10.218512
689000000 -8.9107666 24.726101 10.046824 -138.40256 -21.277491 -60.869835 -15.23167 -64.698181
698500000 -9.9955072 -4.9334145 10.100283 120.67481 -21.078386 -153.03053 -17.197571 -127.05376
708000000 -10.568539 -22.337084 10.0183 18.475159 -21.009832 113.55009 -20.604147 148.61304
717500000 -9.2201195 -44.882023 9.7383423 -82.723396 -21.141996 21.067032 -19.767397 43.968124
727000000 -8.5441799 -78.504486 9.6265802 177.38126 -21.098724 -70.144203 -16.346922 -30.51432
736500000 -9.3843231 -112.52695 9.7167606 76.344673 -20.853651 -162.52876 -14.443274 -88.044502
746000000 -10.52699 -137.16217 9.6523418 -26.115204 -20.772144 103.66386 -13.774637 -142.72583
755500000 -9.9010725 -160.54816 9.3467216 -127.78306 -20.932758 10.632413 -14.740732 156.92807
765000000 -9.1172886 165.73956 9.1579885 132.15479 -20.987003 -80.765091 -17.528776 87.109596
774500000 -9.5004091 129.84583 9.1776581 31.235777 -20.830809 -173.03419 -19.092907 1.0317959
784000000 -10.306185 102.65247 9.0734701 -70.945122 -20.807583 93.501656 -16.058512 -81.478767
793500000 -9.5123816 80.029709 8.7509823 -172.3813 -21.011374 0.81031013 -13.268722 -150.20377
803000000 -8.2566481 48.53323 8.539979 87.733932 -21.102524 -90.317253 -12.567697 151.95329
812500000 -8.1340055 13.508533 8.4906855 -12.416655 -21.029018 178.3103 -12.525321 99.538055
822000000 -9.1034689 -15.189268 8.588315 -113.31251 -20.816982 86.206039 -13.255302 36.627972
831500000 -9.2346992 -33.891983 8.5361872 143.93877 -20.751863 -7.7479258 -15.86488 -40.833321
841000000 -8.0561552 -59.104366 8.1255312 42.332584 -21.047688 -100.54242 -16.473299 -127.83664
850500000 -7.6143332 -92.065933 7.9345493 -56.291794 -21.119261 169.64584 -13.86177 153.20029
860000000 -8.2595892 -124.14217 8.2200794 -157.22101 -20.711191 77.503036 -12.146182 89.124214
869500000 -8.9201994 -149.49509 8.0649157 99.378654 -20.749395 -17.089911 -11.083019 33.25246
879000000 -8.4800367 -175.38712 7.6512341 -1.079383 -21.047001 -108.78399 -11.402599 -29.746834
888500000 -8.0742188 152.51535 7.6841488 -100.82006 -20.894882 160.31412 -13.94402 -95.007339
898000000 -8.3801928 120.40286 7.6278028 157.2704 -20.834017 67.230583 -15.512497 -167.7713
907500000 -8.6625013 94.122894 7.4473715 56.194416 -20.899603 -24.984196 -14.033524 102.91377
917000000 -8.0035534 68.535362 7.3055706 -44.914013 -20.931751 -117.21293 -12.350051 27.472849
926500000 -7.3306136 38.079205 7.0490432 -145.45804 -21.070959 151.1613 -11.0912 -30.635677
936000000 -7.4082923 7.1362014 7.0420809 115.30804 -20.955706 60.847759 -10.426128 -88.437881
945500000 -7.9125748 -18.48033 7.1976109 13.506162 -20.700729 -32.061932 -11.239687 -150.06281
955000000 -7.7349372 -40.576111 6.9376693 -88.464615 -20.858706 -125.2356 -13.187498 138.57727
964500000 -7.2016835 -67.069038 6.7590055 171.97578 -20.936371 143.8887 -15.057636 52.077301
974000000 -7.233418 -96.307373 6.7838798 71.484497 -20.830868 51.998135 -13.869433 -29.011864
983500000 -7.7071881 -123.49765 6.7258172 -29.130234 -20.831612 -40.090542 -11.366541 -97.658386
993000000 -7.8077769 -148.96138 6.7155313 -130.03546 -20.803371 -132.49707 -10.612045 -160.70168
1002500000 -7.6471124 -177.83176 6.5337391 129.20119 -20.964056 135.26291 -11.023858 142.04965
1012000000 -7.9852381 151.35773 6.5566053 30.289577 -20.927845 44.934563 -12.281407 76.948326
1021500000 -8.6025915 124.65552 6.8648734 -71.640266 -20.610229 -48.371765 -14.856587 -1.4384589
1031000000 -8.2589779 100.77577 6.5742764 -174.92448 -20.891449 -142.93988 -14.88819 -87.65506
1040500000 -7.429821 71.278862 6.1617689 86.252205 -21.28927 126.99707 -12.403262 -165.46301
1050000000 -7.3035488 38.6064 6.4489908 -12.366476 -20.982336 37.207333 -10.791904 130.51222
1059500000 -7.9918242 9.9087925 6.7376189 -114.98551 -20.67314 -56.581238 -9.9649439 72.417587
1069000000 -8.1708555 -10.77359 6.5432806 141.73352 -20.82778 -151.01921 -10.318531 8.3104982
1078500000 -7.2848396 -35.026363 6.154582 41.218128 -21.177361 117.34711 -12.565892 -61.838505
1088000000 -6.8787646 -65.332794 6.0951786 -57.960999 -21.201069 27.018671 -14.502874 -139.7585
1097500000 -7.4052038 -95.268265 6.2548876 -158.29353 -21.012648 -64.461517 -13.260572 138.11345
1107000000 -8.1137857 -119.61688 6.3725381 99.675041 -20.864046 -157.55612 -11.099415 63.399033
1116500000 -7.9420543 -143.93527 6.2192574 -2.5605583 -20.9988 109.14257 -10.441236 -0.785339
1126000000 -7.7459741 -174.00589 5.9695711 -102.95865 -21.242088 17.743753 -10.497029 -59.378067
1135500000 -8.1959257 155.17148 6.0995483 157.55185 -21.098783 -72.751862 -11.329258 -125.1451
1145000000 -8.6107883 128.78297 6.3142233 54.640434 -20.877777 -166.60477 -13.239513 158.89319
1154500000 -8.0674515 101.72792 5.914669 -48.298996 -21.271179 99.560287 -13.387065 78.09021
1164000000 -7.4916611 69.371399 5.6034536 -146.593 -21.573528 10.353639 -11.405206 2.7784579
1173500000 -7.6404705 36.387157 6.0255713 113.78952 -21.135574 -80.127357 -9.7356472 -61.856182
1183000000 -8.1825781 9.2329769 6.215086 9.7189693 -20.91193 -175.11156 -8.7939501 -121.49052
1192500000 -7.7964163 -13.875948 5.7975512 -93.497093 -21.300907 90.786377 -9.1765604 176.08405
1202000000 -7.010201 -42.171894 5.3644323 166.89833 -21.703108 0.22675374 -11.032594 112.0439
1211500000 -6.9147105 -73.431641 5.386559 68.482674 -21.648006 -89.151596 -12.846943 39.713398
1221000000 -7.5266948 -102.26868 5.7469997 -32.52195 -21.263571 178.94644 -12.763348 -44.349777
1230500000 -7.9231501 -126.19802 5.743382 -136.20529 -21.243855 84.354614 -11.001659 -122.01334
1240000000 -7.6031356 -152.26567 5.3675303 122.27184 -21.608019 -8.0321007 -9.6437941 171.73094
1249500000 -7.4651804 177.33562 5.2693725 22.718693 -21.706566 -98.386055 -9.2475815 111.64821
1259000000 -7.7599173 147.08127 5.4017692 -78.119934 -21.568129 170.03697 -9.6224852 50.516731
1268500000 -7.8800406 119.03468 5.4156694 179.58978 -21.550888 77.102547 -10.963476 -17.924942
1278000000 -7.5312252 89.65432 5.1832576 77.947998 -21.787237 -15.187819 -12.205565 -94.566994
1287500000 -7.3275251 58.329468 5.0969405 -21.557625 -21.8549 -105.33381 -11.416724 -174.11784
1297000000 -7.504571 28.820444 5.4151568 -122.97055 -21.511007 162.60785 -9.7562828 114.06716
1306500000 -7.4537325 3.1655762 5.2907205 132.65263 -21.609533 67.529839 -8.6417894 50.726799
1316000000 -6.8773017 -23.214262 4.690032 31.89749 -22.179417 -24.01881 -8.5670805 -10.917882
1325500000 -6.5379858 -52.058491 4.6230588 -65.952072 -22.214157 -112.74833 -9.7505093 -72.741592
1335000000 -6.747983 -80.311966 4.8880749 -166.45731 -21.919743 155.75656 -11.335325 -140.32222
1344500000 -7.0384679 -105.23213 4.9437284 91.507118 -21.849789 62.737236 -12.173316 137.16968
1354000000 -6.8635383 -129.93272 4.7887821 -10.044033 -22.002113 -29.854576 -11.397152 54.006752
1363500000 -6.7448759 -157.77689 4.6395445 -109.93493 -22.168373 -120.81329 -9.8239641 -15.102777
1373000000 -7.0760698 173.89122 4.8555207 150.16905 -21.986315 148.23531 -8.681468 -78.674004
1382500000 -7.3568735 148.43558 5.0070629 47.029545 -21.879181 54.134315 -8.7845726 -143.10001
1392000000 -6.9800019 122.14355 4.5789227 -55.116695 -22.356586 -38.934635 -10.120185 149.0928
1401500000 -6.6019068 91.608353 4.3442988 -153.63275 -22.640413 -128.33282 -11.594999 75.581245
1411000000 -6.73458 60.150028 4.5815363 107.0088 -22.449614 141.4937 -11.118641 -1.4891385
1420500000 -7.1641173 32.615208 4.8775167 4.939579 -22.194586 48.591671 -9.2072115 -76.255447
1430000000 -6.93962 8.5868025 4.7624998 -98.962875 -22.335869 -46.121571 -8.4073639 -144.48531
1439500000 -6.3040752 -18.606165 4.1941395 159.62334 -22.948458 -138.40486 -8.6940889 155.55675
1449000000 -6.1079459 -47.74781 3.9488561 62.287937 -23.234671 133.45082 -9.4815178 95.039864
1458500000 -6.3954029 -75.139954 4.3974719 -36.895359 -22.833887 43.462425 -10.912049 24.613102
1468000000 -6.5778332 -99.232758 4.6097784 -140.31631 -22.680351 -50.769035 -11.998857 -59.493893
1477500000 -6.3462195 -124.18911 4.2952027 117.54069 -23.060387 -143.63809 -10.943011 -142.4883
1487000000 -6.2882767 -151.69101 4.1592245 18.23835 -23.25614 126.35856 -9.056819 147.75742
1496500000 -6.5231357 -178.95407 4.4166169 -82.43634 -23.068027 35.078079 -7.8846593 84.072968
1506000000 -6.554409 154.84062 4.4022141 174.2878 -23.14513 -58.734581 -8.0332441 21.469896
1515500000 -6.3334813 126.36088 3.9965186 73.330055 -23.60461 -150.18512 -9.2432098 -42.198353
1525000000 -6.3441849 95.416313 3.9785755 -25.11364 -23.671789 120.94591 -10.571042 -111.45191
1534500000 -6.6849031 65.161797 4.3332977 -125.82538 -23.352112 29.789795 -10.524485 171.231
1544000000 -6.8724308 38.116364 4.4702053 130.90353 -23.244383 -63.921131 -9.3203802 93.746857
1553500000 -6.520431 10.756511 4.2001796 27.93096 -23.541199 -157.37448 -8.6789274 26.162447
1563000000 -6.2043567 -18.984823 3.7700624 -72.144119 -23.996847 112.03842 -8.4759159 -33.500664
1572500000 -6.268661 -48.220913 3.8914094 -170.10497 -23.906166 23.532795 -8.7890205 -95.610817
1582000000 -6.4576325 -74.512657 4.34306 87.49099 -23.490459 -69.459099 -10.081831 -165.61261
1591500000 -6.2822819 -100.20915 4.0503211 -16.381893 -23.830305 -163.89192 -11.214192 115.6056
1601000000 -6.06461 -128.41624 3.6912162 -115.39273 -24.241579 106.58078 -10.587195 36.257248
1610500000 -6.2114282 -157.41713 3.9771771 145.23605 -24.024691 16.772295 -8.9268284 -32.592136
1620000000 -6.5740747 175.25536 4.1931882 42.582417 -23.8652 -76.302505 -7.5912695 -96.625031
1629500000 -6.5797572 148.46622 4.0604692 -60.130337 -24.056534 -169.33086 -7.7743936 -160.64841
1639000000 -6.3781085 118.90752 3.8093481 -161.37546 -24.35589 99.138535 -9.1965752 136.82835
1648500000 -6.4341974 87.798561 3.6920087 99.117546 -24.510466 9.3730669 -10.552175 68.278938
1658000000 -6.7016191 57.70219 3.977318 -1.4260228 -24.238043 -81.404289 -10.787124 -11.250663
1667500000 -6.7147923 29.211868 4.0345907 -105.09791 -24.187328 -175.3932 -9.7434692 -88.310768
1677000000 -6.4202852 -0.00047023263 3.6129975 152.94887 -24.612421 92.316437 -8.6244669 -154.37866
1686500000 -6.2623253 -29.78389 3.4324038 54.008892 -24.782724 2.975204 -8.1027737 145.37033
1696000000 -6.336947 -58.062435 3.7003214 -46.436291 -24.504614 -87.953354 -8.5058365 83.690285
1705500000 -6.2677946 -84.47818 3.7223835 -149.96701 -24.482874 178.00757 -10.098186 15.689609
1715000000 -5.9761291 -111.65977 3.2774658 108.51388 -24.962622 86.018402 -11.79607 -62.799347
1724500000 -5.8773265 -140.00258 3.227905 10.033659 -25.048609 -2.9061863 -11.300633 -145.48164
1734000000 -6.0817027 -167.67174 3.5505309 -91.627922 -24.760805 -95.011925 -9.241827 142.38797
1743500000 -6.2128439 166.15691 3.3828785 165.05287 -24.986036 171.28812 -7.7736487 76.309883
1753000000 -6.0175552 138.98697 3.0797973 64.340126 -25.34066 80.198051 -8.0371647 13.200642
1762500000 -5.867938 109.77507 2.9226708 -36.367722 -25.547104 -10.858526 -9.270545 -47.20052
1772000000 -5.9627295 80.073631 2.7153988 -135.56262 -25.789204 -100.442 -10.427801 -115.19725
1781500000 -6.0982599 51.278698 3.0066907 124.66188 -25.528496 169.34106 -11.00732 165.4276
1791000000 -6.003685 22.842321 2.9820762 21.228558 -25.575726 75.405205 -10.29036 89.741257
1800500000 -5.8519311 -6.1132045 2.5399857 -78.445816 -26.032654 -14.888968 -9.0663033 23.122883
1810000000 -5.8511982 -34.471336 2.8109474 -177.50098 -25.786558 -104.6302 -8.609993 -39.467278
1819500000 -5.8432107 -61.219948 2.8625984 78.726303 -25.766264 160.89137 -9.174017 -103.47932
1829000000 -5.5921836 -87.701698 2.3534818 -22.382095 -26.329468 69.091934 -10.872616 -175.67371
1838500000 -5.321064 -115.21263 2.2208047 -121.48623 -26.529875 -20.71578 -12.178742 104.24377
1848000000 -5.2898684 -142.9424 2.1112492 138.58775 -26.71673 -111.24899 -10.69838 26.841919
1857500000 -5.4443698 -169.74864 2.2707827 39.30275 -26.646166 158.98593 -8.4588652 -42.622974
1867000000 -5.4572225 164.01566 2.4321496 -63.766518 -26.579353 65.549843 -7.6057277 -105.74863
1876500000 -5.3343883 136.58209 1.866057 -165.39603 -27.237232 -26.424971 -7.9744782 -164.46097
1886000000 -5.3550019 108.08508 1.7406363 97.578842 -27.43811 -113.76518 -9.2695055 135.27466
1895500000 -5.5333304 79.490265 2.0951073 -3.0156572 -27.131447 155.43269 -11.011417 66.532219
1905000000 -5.6535439 51.127846 2.0135224 -104.68787 -27.264992 63.592915 -11.735544 -16.042257
1914500000 -5.6177912 22.55574 2.0750055 154.91512 -27.238371 -27.065205 -10.683746 -96.149178
1924000000 -5.5884662 -6.2571611 2.0646741 52.552135 -27.279112 -119.64873 -9.1603441 -162.47719
1933500000 -5.6188378 -34.540131 1.8715217 -48.107777 -27.494438 149.49792 -8.2358027 134.75941
1943000000 -5.5347433 -62.107628 1.9548922 -149.56435 -27.440874 57.916603 -8.8061924 70.364609
1952500000 -5.3112068 -89.980904 1.5816774 107.59517 -27.850674 -35.117683 -10.337235 3.5659215
1962000000 -5.1778588 -118.26187 1.1165433 9.3932028 -28.339235 -123.48362 -11.292095 -70.677162
1971500000 -5.2211766 -146.13927 1.3957154 -88.962631 -28.097893 148.11246 -10.503039 -147.26729
1981000000 -5.3141694 -173.32751 1.5961105 168.71536 -27.924389 55.765385 -9.0174189 142.69284
1990500000 -5.3135233 159.46245 1.4190557 66.949623 -28.118013 -36.007523 -8.3883791 78.848579
2000000000 -5.3168263 131.59731 1.2742282 -33.490143 -28.268631 -126.48971 -8.8400593 18.403543
