!Keysight Technologies,N5242B,MY48420967,A.15.65.19
!Date: Sunday, January 22, 2023 22:33:56
!Correction: S11(C  1-Port  ) 
!S21(Off) 
!S12(Off) 
!S22(Off) 
!S2P File: Measurements: S11, S21, S12, S22:
# Hz S  dB   R 50
100000000 -18.047813 -14.018923 28.252304 12.83221 -34.164074 -84.853645 -22.163269 44.199989
109500000 -16.737803 -15.87546 27.520418 -89.031273 -33.296185 -177.66582 -24.67701 -1.557827
119000000 -13.565537 -47.592472 26.675217 168.2998 -32.726971 88.731552 -22.768642 -124.11356
128500000 -14.132195 -90.562195 25.781807 67.409622 -32.302753 -3.1754887 -19.923752 145.82423
138000000 -18.852175 -116.39703 25.158478 -33.206867 -31.702106 -95.025139 -18.486967 98.912163
147500000 -17.885189 -101.47547 24.66017 -134.49637 -31.058939 172.53673 -16.927271 51.907131
157000000 -13.39447 -139.33983 24.14847 123.29619 -30.51454 79.123848 -17.582497 2.8685615
166500000 -12.8596 165.59906 23.496223 21.153463 -30.138355 -14.312316 -20.263588 -49.273243
176000000 -15.680837 112.51094 22.83659 -79.679863 -29.862694 -106.40415 -28.088163 -115.8204
185500000 -21.189236 91.359444 22.380325 179.79614 -29.42738 161.74948 -30.70385 85.4123
195000000 -17.73954 96.871536 22.002525 78.495865 -28.957834 69.158798 -22.586676 24.793242
204500000 -14.190533 55.888699 21.547258 -23.383373 -28.61673 -24.05983 -18.462074 -25.102915
214000000 -14.281549 12.047114 20.997459 -124.41949 -28.402626 -116.41984 -17.994585 -79.669838
223500000 -16.091885 -13.227451 20.616125 135.25461 -28.054939 151.87306 -20.512606 -122.43519
233000000 -14.996552 -26.230127 20.338247 34.222382 -27.636286 59.54464 -22.674845 -163.48146
242500000 -13.302015 -60.048073 19.996181 -67.423698 -27.305477 -33.516926 -28.826332 121.18418
252000000 -14.37497 -100.16944 19.589468 -168.55252 -27.073862 -126.12833 -29.063566 -22.050875
261500000 -17.648291 -120.94588 19.265791 90.708336 -26.756569 141.77916 -23.226574 -91.666542
271000000 -16.159286 -126.13741 19.029549 -10.360263 -26.417833 49.413071 -21.530018 -136.24658
280500000 -13.356548 -165.08549 18.800577 -112.22885 -26.071779 -43.881298 -19.775244 -179.23282
290000000 -13.318323 145.46509 18.381472 145.83389 -25.944691 -137.17201 -21.795059 120.74226
299500000 -15.86974 105.49956 18.031713 45.26989 -25.76981 130.88385 -30.34984 87.172554
309000000 -17.342266 93.340698 17.808542 -55.80801 -25.478298 38.522011 -40.302795 61.045444
318500000 -14.270628 70.653008 17.561306 -157.50627 -25.23987 -54.463848 -28.777061 -168.91618
328000000 -12.901254 30.631107 17.230843 101.09301 -25.092096 -147.17067 -23.880987 131.42445
337500000 -14.123205 -3.7364268 16.942623 0.060786411 -24.921993 120.52592 -23.325283 81.268753
347000000 -14.734564 -18.79661 16.718111 -101.0108 -24.688547 28.083794 -26.754923 29.604601
356500000 -12.36798 -42.923962 16.527798 157.75212 -24.44079 -64.447639 -32.09026 10.742526
366000000 -11.488847 -83.741165 16.306679 55.871063 -24.241957 -157.73842 -36.130661 -81.569443
375500000 -13.391468 -123.77943 15.976961 -45.305298 -24.161076 109.66769 -28.561071 122.48531
385000000 -16.109993 -139.67615 15.779937 -146.13322 -23.956358 17.40801 -26.275984 45.887833
394500000 -13.442502 -152.92082 15.607116 112.47874 -23.743902 -75.507652 -28.677269 5.7550917
404000000 -10.987709 166.12497 15.352685 10.595109 -23.627321 -168.89317 -28.216196 -48.642666
413500000 -11.027608 120.65718 14.993109 -90.037445 -23.625671 98.976715 -29.078384 -175.98958
423000000 -12.745378 87.183594 14.881154 169.49031 -23.391247 6.9945893 -24.914274 77.424065
432500000 -12.711956 71.577309 14.723985 67.618507 -23.221006 -86.340523 -22.466862 27.09893
442000000 -10.55302 44.391045 14.368271 -33.845669 -23.241259 -179.19977 -19.496836 -28.403051
451500000 -9.9397717 7.4919405 14.136552 -134.04016 -23.149611 89.254349 -20.370214 -89.984543
461000000 -11.004869 -23.120289 13.992558 124.75784 -22.977644 -3.2661736 -21.815998 -149.69022
470500000 -11.225789 -40.538364 13.767645 23.491838 -22.884712 -95.795387 -22.69059 115.64393
480000000 -9.6290016 -65.950325 13.60184 -77.421455 -22.741102 172.02274 -22.963175 20.125708
489500000 -9.1301327 -102.55962 13.382992 -179.19945 -22.652615 78.96949 -20.717106 -31.213112
499000000 -10.312806 -137.02847 13.115162 80.437149 -22.616928 -12.605651 -17.626993 -94.320908
508500000 -11.371533 -158.17604 13.09789 -20.820316 -22.340004 -105.11952 -18.932039 -159.54895
518000000 -10.111053 179.17445 12.884573 -123.22234 -22.264071 161.23386 -21.164145 144.46983
527500000 -9.1000099 143.89363 12.516691 135.90677 -22.343201 69.091568 -22.727108 57.694283
537000000 -9.5459576 108.38027 12.413778 35.341511 -22.155344 -22.727488 -21.385296 -38.066559
546500000 -10.308552 83.864426 12.265613 -66.462013 -22.005768 -115.8106 -17.669846 -107.46889
556000000 -9.3209791 62.252037 11.979796 -167.74211 -21.99622 151.66429 -15.902669 -171.82065
565500000 -8.2253799 30.279308 11.739857 91.384369 -21.932652 59.483688 -16.418531 135.08743
575000000 -8.6109161 -4.023766 11.489043 -8.8195133 -21.879648 -32.120819 -16.857214 78.635437
584500000 -10.014244 -28.347939 11.481257 -108.95813 -21.57933 -123.79341 -19.952394 0.66148603
594000000 -9.6533346 -44.243282 11.377174 149.30827 -21.395483 142.74199 -23.502573 -92.959442
603500000 -8.3452139 -73.012772 11.036575 48.83601 -21.537857 50.386322 -20.153965 -177.60921
613000000 -8.4579048 -108.86852 11.045627 -50.346535 -21.376377 -40.692287 -18.276184 112.90907
622500000 -9.8776979 -139.13171 11.040547 -151.96062 -21.256933 -134.27199 -17.69581 65.030922
632000000 -10.407078 -159.14651 10.833166 107.45736 -21.343765 133.23753 -17.516859 -1.9855654
641500000 -9.3759794 173.96921 10.801249 7.111445 -21.237438 41.224831 -22.558031 -80.190475
651000000 -9.0464287 139.22411 10.655248 -94.580742 -21.249781 -51.953907 -24.094046 -162.68576
660500000 -9.7099419 108.17657 10.491936 164.96492 -21.268711 -143.76448 -18.57136 108.8584
670000000 -9.73283 84.821404 10.453342 63.670517 -21.17083 123.66284 -16.076344 39.246056
679500000 -8.6874466 56.968281 10.262666 -37.695808 -21.215647 31.098688 -15.592048 -14.261163
689000000 -8.3893929 23.171377 10.116186 -138.00717 -21.206097 -60.46513 -15.976488 -67.86834
698500000 -9.4136429 -6.7604518 10.157309 120.99344 -21.019249 -152.68936 -18.24349 -130.56659
708000000 -10.038059 -24.977486 10.059623 18.902197 -20.966156 113.98062 -21.91297 140.67262
717500000 -8.7995586 -47.281601 9.7956161 -82.135551 -21.084776 21.655422 -20.041363 34.414394
727000000 -8.0990152 -80.516953 9.7134848 177.93484 -21.009825 -69.603966 -16.415804 -36.96357
736500000 -8.8622808 -114.66063 9.8077831 76.724854 -20.765648 -162.1353 -14.668483 -93.321671
746000000 -9.9906235 -139.88913 9.7222843 -25.751905 -20.703547 104.02811 -14.200374 -147.09178
755500000 -9.4435329 -163.28061 9.4180584 -127.27094 -20.863924 11.149487 -15.312757 152.81429
765000000 -8.648591 163.45303 9.2548809 132.67831 -20.886278 -80.253265 -18.247892 81.183868
774500000 -8.9678421 127.65115 9.2805767 31.601046 -20.730936 -172.66428 -19.560804 -7.5608549
784000000 -9.7608395 100.08247 9.154892 -70.602348 -20.726595 93.885597 -16.209585 -87.687004
793500000 -9.0581656 77.468361 8.8330288 -171.87756 -20.930279 1.3207122 -13.390594 -154.40614
803000000 -7.8237653 46.463314 8.649292 88.255119 -20.993488 -89.793846 -12.760847 148.3735
812500000 -7.6571269 11.595968 8.6076097 -12.048691 -20.910833 178.69922 -12.840217 96.385773
822000000 -8.5913782 -17.466505 8.690239 -113.0028 -20.711382 86.531303 -13.660426 33.310863
831500000 -8.7917175 -36.630527 8.6276503 144.32314 -20.659225 -7.3570871 -16.327444 -45.594048
841000000 -7.6667562 -61.531658 8.2239313 42.829994 -20.949316 -100.03111 -16.674187 -133.10086
850500000 -7.1854987 -94.296692 8.0573273 -55.776447 -20.995562 170.14983 -13.853966 149.38333
860000000 -7.7770267 -126.5631 8.3526621 -156.88591 -20.578417 77.840904 -12.18149 85.824867
869500000 -8.4372501 -152.28999 8.1704674 99.684143 -20.643328 -16.786438 -11.224977 30.631756
879000000 -8.0290241 -178.12022 7.7607193 -0.59595269 -20.936672 -108.27134 -11.56214 -32.188683
888500000 -7.5999231 150.00916 7.8196478 -100.38725 -20.758467 160.71844 -14.163504 -98.217667
898000000 -7.867599 117.87564 7.7516732 157.58514 -20.70989 67.547234 -15.714578 -171.54343
907500000 -8.1635475 91.401169 7.5627289 56.600063 -20.785168 -24.589281 -14.009335 99.713684
917000000 -7.5523405 65.951859 7.4315691 -44.46999 -20.805727 -116.76131 -12.289448 24.994154
926500000 -6.8790083 35.76347 7.1779928 -145.01822 -20.9433 151.59576 -11.082019 -32.598709
936000000 -6.9315991 4.8082609 7.1781635 115.75864 -20.819965 61.297668 -10.440509 -90.245087
945500000 -7.4408474 -21.113132 7.3322015 13.91235 -20.565313 -31.657671 -11.292484 -152.0609
955000000 -7.3162346 -43.344925 7.0664029 -87.973488 -20.728785 -124.74234 -13.2261 136.19487
964500000 -6.7984138 -69.700706 6.9050283 172.53357 -20.79023 144.4733 -14.946441 49.317909
974000000 -6.8053803 -98.98513 6.937974 71.984291 -20.672729 52.49799 -13.694602 -31.119848
983500000 -7.2705173 -126.42642 6.8817306 -28.599882 -20.676451 -39.570473 -11.218869 -99.198959
993000000 -7.3896885 -151.9857 6.8813081 -129.5135 -20.637369 -131.98734 -10.501478 -162.23862
1002500000 -7.2193356 179.2305 6.6987658 129.73068 -20.804153 135.81367 -10.951126 140.44345
1012000000 -7.5258265 148.31273 6.7383385 30.875692 -20.745375 45.523693 -12.184005 74.944183
1021500000 -8.1575375 121.36046 7.0584431 -71.187836 -20.414873 -47.909168 -14.682487 -4.2282667
1031000000 -7.8741155 97.666138 6.749063 -174.47878 -20.718534 -142.50705 -14.625639 -89.82061
1040500000 -7.0460019 68.59642 6.3448529 86.857979 -21.107714 127.62032 -12.145775 -166.74522
1050000000 -6.8840046 36.010563 6.6611209 -11.786196 -20.773195 37.803497 -10.567344 129.24538
1059500000 -7.5755324 7.0169654 6.9526091 -114.53342 -20.456949 -56.113903 -9.7856445 70.924965
1069000000 -7.8410115 -13.736567 6.7503481 142.18433 -20.621725 -150.54597 -10.150572 6.4880214
1078500000 -6.9858546 -37.590702 6.3652091 41.74403 -20.966049 117.86979 -12.353929 -64.179314
1088000000 -6.5509048 -67.800934 6.3217702 -57.401264 -20.972027 27.588972 -14.155109 -142.22531
1097500000 -7.0579772 -98.035797 6.4980907 -157.76645 -20.766037 -63.914875 -12.845296 136.47693
1107000000 -7.8096223 -122.67964 6.6259828 100.10712 -20.613827 -157.14456 -10.732165 62.088688
1116500000 -7.6641092 -146.838 6.4674501 -2.189765 -20.748661 109.50613 -10.139922 -2.2320647
1126000000 -7.441731 -176.84576 6.2173023 -102.52754 -20.988585 18.156086 -10.216814 -60.989738
1135500000 -7.8746066 152.1055 6.3705397 157.98906 -20.82756 -72.313118 -10.992038 -127.16366
1145000000 -8.3220406 125.65018 6.5904069 54.897369 -20.600229 -166.36215 -12.80141 156.52702
1154500000 -7.7846012 98.930183 6.1689239 -48.042362 -21.016201 99.824852 -12.903315 76.614037
1164000000 -7.1704221 66.75399 5.8655243 -146.1783 -21.309731 10.817947 -10.974518 2.1220257
1173500000 -7.2936244 33.60239 6.3179593 114.16241 -20.836803 -79.731171 -9.3582058 -62.537601
1183000000 -7.8759713 6.2256932 6.5100427 9.9362001 -20.619696 -174.86961 -8.4527502 -122.467
1192500000 -7.5369844 -16.606285 6.0792069 -93.314331 -21.01869 90.963036 -8.8429251 174.71667
1202000000 -6.7328205 -44.711369 5.6416078 167.17458 -21.423985 0.5090909 -10.652845 110.38245
1211500000 -6.606329 -76.133041 5.6818748 68.854866 -21.353668 -88.751869 -12.319674 38.201378
1221000000 -7.2280192 -105.35038 6.070281 -32.223598 -20.939245 179.2265 -12.148056 -44.866665
1230500000 -7.6757007 -129.38387 6.0683489 -136.06915 -20.919001 84.472809 -10.477946 -122.02235
1240000000 -7.3525853 -155.30351 5.6813765 122.38869 -21.296837 -7.8981876 -9.2064209 171.61658
1249500000 -7.1821771 174.22266 5.5872498 22.887613 -21.387686 -98.208618 -8.832736 111.31532
1259000000 -7.4667716 143.76521 5.7336392 -77.961304 -21.236954 170.21347 -9.1684971 49.900105
1268500000 -7.5943918 115.73154 5.7533817 179.65492 -21.214296 77.171089 -10.422955 -18.712009
1278000000 -7.2275095 86.510887 5.510983 77.998566 -21.455618 -15.117041 -11.57853 -94.777779
1287500000 -7.0006943 55.200035 5.4328151 -21.403137 -21.517504 -105.15577 -10.825122 -173.39394
1297000000 -7.1872201 25.582417 5.7764788 -122.88112 -21.146568 162.70422 -9.2421436 114.89117
1306500000 -7.1727419 0.080805637 5.6463509 132.59737 -21.256292 67.487602 -8.1604166 51.157631
1316000000 -6.5966363 -26.037601 5.0322218 31.893736 -21.838497 -24.01844 -8.0855379 -10.963282
1325500000 -6.2425094 -54.87957 4.9758139 -65.848587 -21.858679 -112.68095 -9.2119827 -73.071732
1335000000 -6.4600849 -83.312233 5.2617521 -166.32843 -21.54459 155.89558 -10.643771 -140.57347
1344500000 -6.7889819 -108.26649 5.3403854 91.55584 -21.451859 62.773983 -11.355011 137.82256
1354000000 -6.6246772 -132.7935 5.1849456 -10.129578 -21.606836 -29.950356 -10.693804 55.504307
1363500000 -6.488553 -160.64452 5.0307989 -109.97243 -21.776247 -120.84489 -9.2407227 -13.683508
1373000000 -6.8240056 170.88361 5.2737246 150.17398 -21.563816 148.24873 -8.1130533 -77.701393
1382500000 -7.1355271 145.56862 5.445519 46.828182 -21.438654 53.940876 -8.1739798 -142.71278
1392000000 -6.7339287 119.59464 4.998168 -55.462135 -21.931448 -39.297997 -9.4478045 149.1499
1401500000 -6.3168898 89.098083 4.7499013 -153.88522 -22.233984 -128.6087 -10.85745 76.235947
1411000000 -6.4403257 57.523048 5.0039573 106.90208 -22.026365 141.39859 -10.40485 0.1842954
1420500000 -6.916708 30.012894 5.3453851 4.7691512 -21.724564 48.433483 -8.5631971 -74.659462
1430000000 -6.7107525 6.452765 5.2351899 -99.464874 -21.866308 -46.645374 -7.8237014 -143.63898
1439500000 -6.044332 -20.545469 4.6303568 159.06555 -22.507235 -138.92906 -8.1287088 155.86299
1449000000 -5.8414931 -49.772427 4.3841863 61.9603 -22.796654 133.16093 -8.8467665 95.010681
1458500000 -6.1596112 -77.244019 4.8779988 -37.183819 -22.354097 43.19532 -10.10177 24.598389
1468000000 -6.3723779 -101.1071 5.1138339 -140.8727 -22.177317 -51.312904 -11.06971 -58.497818
1477500000 -6.1220307 -125.88977 4.7816672 116.8254 -22.570696 -144.39095 -10.178606 -140.67149
1487000000 -6.0494337 -153.43832 4.6417198 17.575396 -22.774036 125.70547 -8.4416342 149.27333
1496500000 -6.2907538 179.31602 4.9211888 -83.152672 -22.561693 34.359695 -7.3079243 84.958328
1506000000 -6.3080997 153.28067 4.9057145 173.35526 -22.641712 -59.664516 -7.4468412 21.692255
1515500000 -6.050302 124.7985 4.4736276 72.369301 -23.125542 -151.12848 -8.6121578 -42.340912
1525000000 -6.0461636 93.71611 4.4555759 -25.92145 -23.192099 120.15595 -9.8454676 -111.25204
1534500000 -6.4048367 63.423122 4.8420086 -126.59499 -22.844946 29.048796 -9.7469883 172.31567
1544000000 -6.6104841 36.64325 5.0034704 129.91144 -22.713005 -64.884781 -8.6170826 94.952362
1553500000 -6.2257733 9.4504423 4.7140336 26.728693 -23.02932 -158.56902 -8.0674353 26.983538
1563000000 -5.8976278 -20.379532 4.2575278 -73.267273 -23.509182 110.93327 -7.8791656 -33.038967
1572500000 -5.9814987 -49.703518 4.4018126 -171.05656 -23.39443 22.580086 -8.1237173 -95.476357
1582000000 -6.1934071 -75.872704 4.8902502 86.353157 -22.943718 -70.59288 -9.2814398 -165.55981
1591500000 -5.9952278 -101.45103 4.5799046 -17.766476 -23.296106 -165.25104 -10.32738 116.41778
1601000000 -5.75771 -129.80795 4.1980796 -116.70302 -23.73942 105.2834 -9.8325758 38.002247
1610500000 -5.9121914 -158.98462 4.5004516 144.03107 -23.499794 15.545381 -8.2966881 -30.764286
1620000000 -6.2894521 173.71416 4.7450485 41.291874 -23.318148 -77.565216 -6.9709654 -95.36937
1629500000 -6.2668171 147.03264 4.614501 -61.652779 -23.499088 -170.8363 -7.1484556 -160.10645
1639000000 -6.0320039 117.31892 4.339149 -162.9812 -23.825848 97.562256 -8.5211706 137.16333
1648500000 -6.0828738 86.018555 4.2142754 97.649094 -23.984058 7.9629292 -9.7559271 69.111641
1658000000 -6.363317 55.91748 4.5320287 -2.8590078 -23.682495 -82.843147 -9.9611359 -9.2623091
1667500000 -6.3707938 27.575365 4.603919 -106.76598 -23.615967 -177.05487 -9.0333138 -85.976189
1677000000 -6.0586219 -1.6454694 4.1587992 151.17255 -24.059681 90.549858 -8.0017414 -152.52579
1686500000 -5.9092708 -31.514854 3.9739137 52.357338 -24.237999 1.3230885 -7.4873471 146.72768
1696000000 -6.0046344 -59.760693 4.2746792 -48.079441 -23.933079 -89.56134 -7.808073 84.641083
1705500000 -5.9305458 -86.041771 4.3109665 -151.86848 -23.891769 176.14218 -9.2448254 16.484278
1715000000 -5.619698 -113.2721 3.8396044 106.49261 -24.396027 84.01033 -10.838729 -61.026581
1724500000 -5.5223937 -141.75934 3.7861063 8.127079 -24.483196 -4.8207679 -10.51566 -142.29883
1734000000 -5.7413621 -169.46216 4.1346717 -93.540161 -24.175333 -96.909081 -8.60322 145.45644
1743500000 -5.8622961 164.51518 3.9846334 162.951 -24.381777 169.1888 -7.1571741 78.363663
1753000000 -5.6253233 137.33852 3.6728969 62.0341 -24.74526 77.916901 -7.4420333 14.435545
1762500000 -5.4563284 107.96389 3.4901645 -38.764702 -24.978786 -13.244799 -8.6210842 -46.132042
1772000000 -5.552402 78.198921 3.2730293 -137.79671 -25.227564 -102.65422 -9.6650124 -113.86243
1781500000 -5.6838984 49.517231 3.5998878 122.4093 -24.926907 167.07309 -10.233173 167.6642
1791000000 -5.5771933 21.186327 3.5720885 18.717308 -24.981693 72.886597 -9.6118202 92.331352
1800500000 -5.4229646 -7.7507329 3.1095765 -80.900276 -25.465666 -17.365377 -8.4602976 25.143291
1810000000 -5.4331803 -36.013458 3.4094138 -179.91983 -25.185751 -107.06664 -8.0027218 -37.953831
1819500000 -5.4242029 -62.54707 3.4764764 76.045181 -25.153137 158.18695 -8.4639149 -102.48284
1829000000 -5.1464653 -88.949684 2.9466314 -25.250732 -25.734505 66.200996 -10.074721 -174.87247
1838500000 -4.867146 -116.56226 2.7955577 -124.41378 -25.954735 -23.627737 -11.397882 106.2871
1848000000 -4.846169 -144.32829 2.6668069 135.71899 -26.162916 -114.08451 -10.077264 29.488556
1857500000 -5.0012689 -171.04985 2.8480632 36.506119 -26.06974 156.19612 -7.9473147 -40.653111
1867000000 -4.9866781 162.7937 3.0198796 -66.825455 -25.989273 62.463905 -7.1292233 -104.50362
1876500000 -4.8380184 135.2625 2.4104071 -168.55229 -26.696051 -29.607542 -7.4849353 -163.83885
1886000000 -4.8507566 106.65819 2.2765334 94.630165 -26.903318 -116.69507 -8.7251415 135.65973
1895500000 -5.0200353 78.04834 2.6495459 -5.9460483 -26.575365 152.49747 -10.319757 67.29747
1905000000 -5.124474 49.727348 2.5738199 -107.63305 -26.70101 60.640537 -10.98724 -14.247541
1914500000 -5.0755568 21.13081 2.6540434 151.92667 -26.664528 -30.026489 -10.091615 -93.847321
1924000000 -5.0491891 -7.7357726 2.6433921 49.411247 -26.697712 -122.77924 -8.6392479 -160.46306
1933500000 -5.0853333 -36.000065 2.4543171 -51.225128 -26.913002 146.36594 -7.7036262 136.10069
1943000000 -4.9965277 -63.539776 2.5610425 -152.87651 -26.843973 54.566849 -8.2401152 71.248314
1952500000 -4.775219 -91.51004 2.1578753 103.99605 -27.27791 -38.670959 -9.6952906 4.4634361
1962000000 -4.6595101 -119.89755 1.6578377 5.9291711 -27.810783 -126.92053 -10.627683 -69.10463
1971500000 -4.7215586 -147.81421 1.9541918 -92.319466 -27.536814 144.79916 -9.9300041 -145.02193
1981000000 -4.8180881 -174.97018 2.1673391 165.25388 -27.349239 52.283283 -8.508008 144.71919
1990500000 -4.8072948 157.78914 1.9858471 63.391289 -27.550161 -39.540661 -7.8966761 80.298454
2000000000 -4.8038616 129.82826 1.8328936 -37.070366 -27.717106 -130.02197 -8.3181753 19.489132
