!Keysight Technologies,N5242B,MY48420967,A.15.65.19
!Date: Saturday, February 04, 2023 01:33:04
!Correction: S11(C  1-Port  ) 
!S21(Off) 
!S12(Off) 
!S22(Off) 
!S2P File: Measurements: S11, S21, S12, S22:
# Hz S  dB   R 50
100000000 -17.557657 -11.539901 28.159481 12.553281 -34.230183 -85.207687 -22.288273 46.185204
109500000 -16.436237 -15.961282 27.42741 -89.314247 -33.405746 -178.01036 -24.642509 -1.89134
119000000 -13.481736 -48.269711 26.575169 168.00082 -32.824032 88.463745 -22.549337 -124.67342
128500000 -14.016356 -90.142715 25.678482 67.132019 -32.404888 -3.4756196 -19.769453 147.0282
138000000 -18.606232 -113.81373 25.054173 -33.47036 -31.804918 -95.260094 -18.298191 100.59669
147500000 -17.557568 -101.51321 24.558338 -134.75453 -31.150543 172.27277 -16.724283 53.283958
157000000 -13.241569 -139.85825 24.048897 123.0126 -30.591105 78.763016 -17.399206 4.0500374
166500000 -12.726906 166.04243 23.395618 20.826864 -30.24774 -14.623409 -20.060375 -47.98418
176000000 -15.621401 113.9612 22.728153 -80.03656 -29.967979 -106.77703 -27.691988 -114.22737
185500000 -20.822195 92.743706 22.265863 179.46474 -29.54158 161.37247 -30.702919 89.157356
195000000 -17.472311 95.996414 21.889601 78.184074 -29.066668 68.815544 -22.501417 26.875776
204500000 -14.121678 56.021744 21.435949 -23.719337 -28.723125 -24.397543 -18.328539 -23.565651
214000000 -14.282299 12.434248 20.881948 -124.7821 -28.514128 -116.82034 -17.857136 -78.104164
223500000 -15.918495 -13.011869 20.496132 134.90523 -28.16712 151.55299 -20.277031 -120.73071
233000000 -14.785304 -26.496248 20.21933 33.881458 -27.750412 59.152054 -22.34584 -162.37102
242500000 -13.245562 -60.07626 19.876484 -67.786659 -27.419538 -33.871117 -28.406437 122.86236
252000000 -14.336892 -100.30943 19.46517 -168.92183 -27.183607 -126.37484 -29.079226 -19.978165
261500000 -17.362478 -121.24579 19.138779 90.353088 -26.891132 141.51385 -23.217831 -90.197189
271000000 -15.929456 -127.03825 18.903833 -10.700946 -26.53051 49.028801 -21.360086 -134.81451
280500000 -13.329634 -165.57451 18.675924 -112.59274 -26.194979 -44.24004 -19.590675 -178.6245
290000000 -13.288702 145.0062 18.253975 145.45761 -26.063118 -137.5457 -21.605911 122.09004
299500000 -15.663865 105.81756 17.90062 44.887367 -25.894224 130.56802 -29.474941 88.717995
309000000 -17.07505 93.332092 17.675623 -56.176952 -25.605587 38.230598 -38.425209 53.78706
318500000 -14.222507 69.974197 17.42828 -157.87068 -25.381247 -54.847923 -29.190689 -166.08992
328000000 -12.863624 30.031605 17.098419 100.71741 -25.220716 -147.57106 -24.096155 133.74039
337500000 -13.998928 -3.6562788 16.806915 -0.33354077 -25.049126 120.12341 -23.387562 84.149147
347000000 -14.588995 -19.079466 16.578199 -101.38704 -24.825998 27.756783 -26.62269 34.198143
356500000 -12.324847 -43.673798 16.389975 157.39632 -24.575241 -64.801765 -31.116966 14.84667
366000000 -11.447625 -84.114975 16.171906 55.490124 -24.36861 -158.06084 -35.169395 -70.972565
375500000 -13.316403 -123.44949 15.836284 -45.72625 -24.292843 109.32944 -29.288687 125.75842
385000000 -15.896117 -139.86359 15.631295 -146.51903 -24.094378 17.030434 -26.854197 48.453381
394500000 -13.333202 -154.05043 15.46182 112.14385 -23.885418 -75.793335 -29.133532 11.651355
404000000 -10.952559 165.64937 15.214927 10.237649 -23.753805 -169.28513 -28.495525 -41.428371
413500000 -11.028605 120.65627 14.851592 -90.454346 -23.757103 98.581741 -30.487339 -173.61295
423000000 -12.660194 87.3311 14.730715 169.09047 -23.536131 6.621727 -25.649391 74.775215
432500000 -12.564494 71.210663 14.57366 67.263031 -23.364641 -86.684647 -23.077839 25.977949
442000000 -10.520229 44.015781 14.224134 -34.202415 -23.378679 -179.50629 -19.969173 -27.966442
451500000 -9.9650831 7.2391906 13.990063 -134.44614 -23.285875 88.85006 -20.794552 -88.507675
461000000 -10.966079 -23.212612 13.838928 124.36636 -23.122997 -3.6033666 -22.342508 -147.63594
470500000 -11.133907 -40.752434 13.614277 23.149239 -23.0424 -96.150261 -23.635391 116.31622
480000000 -9.6197834 -66.304443 13.456779 -77.777794 -22.878706 171.67625 -23.889898 18.373091
489500000 -9.1541014 -102.93932 13.234842 -179.60385 -22.801067 78.593201 -21.339527 -32.019371
499000000 -10.268106 -137.254 12.961064 80.028725 -22.767118 -12.98982 -18.09029 -95.066818
508500000 -11.269336 -158.55482 12.940955 -21.195623 -22.490337 -105.47822 -19.42001 -159.64261
518000000 -10.100512 178.4902 12.73089 -123.5868 -22.410995 160.89639 -21.642525 145.66629
527500000 -9.1372118 143.22858 12.36473 135.51979 -22.492504 68.722702 -23.339411 58.670227
537000000 -9.5398731 108.00142 12.257833 34.933041 -22.309462 -23.123497 -22.014322 -38.875862
546500000 -10.252666 83.550201 12.104399 -66.853035 -22.162865 -116.17362 -18.185963 -108.26595
556000000 -9.3018112 61.620049 11.821004 -168.10284 -22.145786 151.31364 -16.356932 -172.24559
565500000 -8.2361641 29.654892 11.583703 91.005325 -22.080656 59.108074 -16.848076 134.93443
575000000 -8.595664 -4.4067168 11.330571 -9.2304449 -22.032389 -32.469685 -17.321222 78.614258
584500000 -9.9475784 -28.784494 11.314051 -109.36 -21.738394 -124.14046 -20.54962 0.47249162
594000000 -9.6239624 -45.225132 11.209486 148.96161 -21.553858 142.42406 -24.126165 -94.626083
603500000 -8.3654442 -73.861534 10.876514 48.507271 -21.69273 50.088806 -20.553534 -179.16953
613000000 -8.4809847 -109.33739 10.887832 -50.737858 -21.528334 -41.063286 -18.669954 111.98715
622500000 -9.8699923 -139.47169 10.87256 -152.37329 -21.417976 -134.67049 -18.145338 64.895332
632000000 -10.361971 -159.92503 10.658849 107.11375 -21.51157 132.94662 -18.043068 -1.973074
641500000 -9.3451843 173.17905 10.635514 6.8016396 -21.395176 40.928402 -23.405428 -81.404945
651000000 -9.0405836 138.68724 10.492424 -94.927933 -21.403902 -52.282619 -24.925135 -166.6996
660500000 -9.6939487 107.46018 10.323107 164.60971 -21.434595 -144.10358 -18.90473 106.18681
670000000 -9.6978722 83.750618 10.284128 63.363537 -21.332891 123.40456 -16.315943 37.693192
679500000 -8.6846533 56.159058 10.10197 -37.993343 -21.364965 30.801285 -15.874813 -15.221507
689000000 -8.4316406 22.643679 9.958271 -138.3754 -21.358828 -60.815807 -16.346697 -68.145103
698500000 -9.4291086 -7.3654952 9.9866915 120.59406 -21.184732 -153.07925 -18.765261 -130.35521
708000000 -9.9836435 -25.887278 9.8819427 18.584902 -21.143906 113.64309 -22.711908 138.97978
717500000 -8.7901516 -48.074825 9.6286011 -82.389519 -21.246035 21.425644 -20.400364 30.667976
727000000 -8.1457605 -81.147476 9.5568371 177.61485 -21.162638 -69.87532 -16.642441 -39.435089
736500000 -8.8867426 -115.38171 9.6414242 76.3442 -20.922724 -162.49358 -14.900097 -94.913597
746000000 -9.9395123 -140.68867 9.5474577 -26.07753 -20.868156 103.76572 -14.474745 -148.25543
755500000 -9.4330606 -164.03964 9.2510347 -127.54045 -21.023991 10.916335 -15.689509 151.93391
765000000 -8.7011509 162.74908 9.0956335 132.35466 -21.041887 -80.552803 -18.763716 80.012215
774500000 -8.9932041 126.98416 9.1134567 31.235855 -20.88699 -172.99632 -20.008175 -10.405649
784000000 -9.7203426 99.481659 8.9796486 -70.922806 -20.896542 93.567108 -16.462044 -90.232109
793500000 -9.0571842 76.711983 8.6641741 -172.13016 -21.087263 1.1100805 -13.609856 -156.04829
803000000 -7.8773842 45.680332 8.4910946 87.969437 -21.142469 -90.029274 -12.983462 147.27768
812500000 -7.7030897 10.957058 8.4477329 -12.403217 -21.065075 178.37111 -13.107759 95.607567
822000000 -8.6012611 -17.897484 8.5201244 -113.3732 -20.879204 86.197166 -14.018988 32.673019
831500000 -8.8089027 -37.275047 8.454567 144.02802 -20.828491 -7.6331925 -16.815548 -46.724064
841000000 -7.7287517 -62.359512 8.0598736 42.572411 -21.102915 -100.29733 -17.07881 -135.30533
850500000 -7.2442579 -95.020012 7.9004016 -56.089455 -21.144136 169.86578 -14.096255 147.47308
860000000 -7.810379 -127.11066 8.187995 -157.25569 -20.737591 77.488411 -12.393455 84.348305
869500000 -8.4637432 -153.00923 7.9970345 99.359299 -20.809765 -17.091103 -11.467154 29.58367
879000000 -8.0747366 -179.10878 7.5953836 -0.86882979 -21.096941 -108.51816 -11.83486 -32.832668
888500000 -7.6432695 149.10577 7.6590304 -100.71696 -20.91188 160.43108 -14.492338 -98.838089
898000000 -7.9026918 117.15875 7.5836434 157.24197 -20.872948 67.223251 -16.097921 -172.74377
907500000 -8.1944885 90.558723 7.3916464 56.288036 -20.952114 -24.878811 -14.30524 98.12896
917000000 -7.5887394 64.935814 7.2658644 -44.765892 -20.962824 -117.02802 -12.508782 23.778107
926500000 -6.9188542 34.914604 7.0156407 -145.33566 -21.098644 151.31715 -11.285225 -33.469383
936000000 -6.9801974 4.1389008 7.0139341 115.39972 -20.977093 60.983555 -10.664639 -90.865501
945500000 -7.4825315 -21.919724 7.1589966 13.561278 -20.732973 -31.961817 -11.566988 -152.47057
955000000 -7.3516102 -44.344921 6.8942838 -88.264832 -20.897442 -124.9948 -13.571575 135.73363
964500000 -6.8438187 -70.560646 6.7401776 172.23676 -20.946224 144.21431 -15.292143 48.054985
974000000 -6.8624973 -99.704193 6.7722206 71.650093 -20.835356 52.21608 -13.930924 -32.668995
983500000 -7.3206854 -127.27061 6.7112427 -28.937746 -20.838573 -39.837036 -11.42017 -100.33029
993000000 -7.4287615 -153.0045 6.7091093 -129.82402 -20.803234 -132.2374 -10.693421 -162.96019
1002500000 -7.260601 178.30377 6.529861 129.44629 -20.964142 135.56873 -11.160952 139.91739
1012000000 -7.5696993 147.49883 6.5732312 30.561583 -20.902988 45.275074 -12.450265 74.482338
1021500000 -8.1915169 120.40191 6.8854122 -71.51651 -20.583105 -48.206509 -15.008555 -4.9903679
1031000000 -7.9159813 96.538414 6.5742989 -174.72655 -20.890032 -142.70911 -14.885553 -91.165565
1040500000 -7.0991955 67.663719 6.1854329 86.627571 -21.256643 127.4436 -12.324406 -167.8945
1050000000 -6.9428844 35.312954 6.5045209 -12.121093 -20.922888 37.509407 -10.729503 128.39412
1059500000 -7.6295242 6.3266649 6.7805295 -114.88721 -20.625582 -56.416206 -9.9686842 70.325645
1069000000 -7.8803968 -14.694625 6.5740523 141.9362 -20.788944 -150.75714 -10.373111 6.1070704
1078500000 -7.0393806 -38.465191 6.2045078 41.536518 -21.117519 117.70956 -12.63062 -64.603203
1088000000 -6.6270833 -68.405022 6.1689301 -57.689327 -21.121996 27.337761 -14.461909 -143.28397
1097500000 -7.144577 -98.639992 6.3364363 -158.11464 -20.919859 -64.211197 -13.076947 134.99211
1107000000 -7.8601217 -123.48772 6.4542856 99.810211 -20.776161 -157.39909 -10.906857 60.867893
1116500000 -7.7063546 -147.66605 6.301928 -2.4169765 -20.907598 109.31999 -10.296489 -3.1524179
1126000000 -7.5212135 -177.57904 6.0615807 -102.76809 -21.139658 17.959263 -10.381857 -61.660271
1135500000 -7.9702301 151.20909 6.215179 157.70328 -20.980019 -72.565147 -11.175798 -127.68252
1145000000 -8.3893776 124.63746 6.4312577 54.624729 -20.75267 -166.57457 -13.010575 155.92387
1154500000 -7.8608146 98.138931 6.0172782 -48.285007 -21.159365 99.617767 -13.116068 75.730316
1164000000 -7.2847342 66.087517 5.7235203 -146.50314 -21.439732 10.508816 -11.163568 1.2284244
1173500000 -7.3936911 32.871735 6.1625099 113.74705 -20.987225 -80.132439 -9.5396137 -63.330456
1183000000 -7.9208269 5.5768523 6.3379445 9.5874643 -20.785622 -175.1745 -8.6531677 -123.17332
1192500000 -7.6004729 -17.293161 5.9133687 -93.543793 -21.177902 90.78521 -9.067564 174.1821
1202000000 -6.8456736 -45.544346 5.4911332 166.93178 -21.571728 0.30535713 -10.886451 109.85847
1211500000 -6.7103748 -77.013069 5.534112 68.554962 -21.493082 -89.007698 -12.542006 37.311253
1221000000 -7.3025112 -106.05008 5.9196482 -32.55024 -21.080708 178.95982 -12.317784 -46.037113
1230500000 -7.7675972 -130.08522 5.9154401 -136.39281 -21.059851 84.232719 -10.620833 -122.8883
1240000000 -7.4733009 -156.2439 5.5301056 122.06738 -21.438719 -8.185401 -9.3446531 171.12747
1249500000 -7.2830648 173.24205 5.4356666 22.554268 -21.534306 -98.504219 -8.9813471 110.98742
1259000000 -7.5441566 142.97179 5.580864 -78.29303 -21.385933 169.92232 -9.3540306 49.625694
1268500000 -7.6926913 114.91526 5.6012506 179.33601 -21.360991 76.88829 -10.652218 -19.012136
1278000000 -7.3418121 85.51535 5.3622484 77.68557 -21.600077 -15.413532 -11.811064 -95.388405
1287500000 -7.0891128 54.279263 5.2882276 -21.743612 -21.657427 -105.44782 -11.007365 -174.26534
1297000000 -7.25985 24.909592 5.6283164 -123.2627 -21.291996 162.37695 -9.3939152 114.11963
1306500000 -7.267539 -0.62299228 5.4918785 132.2404 -21.401756 67.187241 -8.3125877 50.644794
1316000000 -6.714921 -26.951895 4.8822079 31.58202 -21.977083 -24.291426 -8.2425175 -11.250024
1325500000 -6.3397803 -55.772491 4.8330541 -66.178612 -21.993607 -112.91402 -9.3856611 -73.317734
1335000000 -6.5431132 -84.020683 5.1196313 -166.70071 -21.683945 155.61165 -10.858246 -140.96716
1344500000 -6.8989468 -108.99083 5.194469 91.168785 -21.589094 62.49205 -11.571284 137.15622
1354000000 -6.7536254 -133.75081 5.0388494 -10.499486 -21.741884 -30.27149 -10.847015 54.79781
1363500000 -6.589148 -161.63649 4.8890162 -110.34713 -21.910627 -121.16183 -9.3621016 -14.22987
1373000000 -6.9094353 170.11856 5.1318464 149.75177 -21.704691 147.90442 -8.2440586 -78.042114
1382500000 -7.246676 144.77547 5.2957573 46.414505 -21.581675 53.597725 -8.3272247 -142.82687
1392000000 -6.859827 118.56323 4.851717 -55.822769 -22.074217 -39.547165 -9.6242762 149.09221
1401500000 -6.4105177 88.155617 4.6144013 -154.26573 -22.356941 -128.8756 -11.058321 75.907089
1411000000 -6.5267916 56.872227 4.8690333 106.43257 -22.153593 140.98439 -10.592627 -0.50105762
1420500000 -7.0244036 29.370258 5.1965642 4.2714853 -21.860765 47.993244 -8.7185268 -75.322289
1430000000 -6.8086772 5.5880508 5.080606 -99.882675 -22.016462 -46.989075 -7.9575849 -144.08333
1439500000 -6.1276526 -21.28738 4.4865799 158.69598 -22.6409 -139.23895 -8.2581148 155.57349
1449000000 -5.9451232 -50.327545 4.249835 61.52618 -22.92697 132.79881 -8.9927073 94.82402
1458500000 -6.2857766 -77.881668 4.7351294 -37.679836 -22.488863 42.743328 -10.279673 24.395187
1468000000 -6.4783468 -101.87 4.9634976 -141.31705 -22.318945 -51.701241 -11.258745 -58.963024
1477500000 -6.2150106 -126.53118 4.6408119 116.4212 -22.702318 -144.71526 -10.327807 -141.28592
1487000000 -6.1633716 -154.02983 4.5068903 17.098177 -22.897831 125.32948 -8.5642967 148.83267
1496500000 -6.4138083 178.57758 4.7757559 -83.664986 -22.701124 33.916031 -7.4278579 84.733673
1506000000 -6.4030542 152.53114 4.7572684 172.91652 -22.781828 -60.033852 -7.5775447 21.628584
1515500000 -6.143868 124.20903 4.3382959 71.936684 -23.251274 -151.50517 -8.772893 -42.314632
1525000000 -6.1695552 93.1203 4.3218102 -26.443998 -23.315113 119.68564 -10.041979 -111.35675
1534500000 -6.5204511 62.718273 4.6968341 -127.13622 -22.982462 28.577286 -9.9489374 171.84229
1544000000 -6.6900663 36.005638 4.8552771 129.42661 -22.853451 -65.322136 -8.7855883 94.372177
1553500000 -6.319838 8.9215078 4.572907 26.261021 -23.161247 -158.97115 -8.2004652 26.573185
1563000000 -6.0229096 -21.001518 4.1210198 -73.769508 -23.6364 110.48409 -7.9934082 -33.264679
1572500000 -6.0951571 -50.399731 4.2618828 -171.60072 -23.5284 22.101107 -8.250206 -95.53746
1582000000 -6.2819629 -76.451759 4.7441506 85.834717 -23.078928 -71.021034 -9.4427471 -165.48
1591500000 -6.1001673 -101.98592 4.4405603 -18.253506 -23.425137 -165.69336 -10.527828 116.38529
1601000000 -5.8867478 -130.49071 4.0640569 -117.25054 -23.862692 104.80299 -10.018149 37.686108
1610500000 -6.0267158 -159.73859 4.3576331 143.4474 -23.631113 15.028992 -8.4458656 -31.160799
1620000000 -6.3769526 173.0797 4.5966711 40.748104 -23.452324 -78.067963 -7.107513 -95.638908
1629500000 -6.3689213 146.40073 4.4713926 -62.160397 -23.63582 -171.31073 -7.2786078 -160.11029
1639000000 -6.1544371 116.55784 4.200716 -163.50259 -23.950926 97.095337 -8.6507177 137.36665
1648500000 -6.1893187 85.263443 4.0788856 97.107979 -24.111145 7.4459624 -9.9244537 69.345924
1658000000 -6.4546456 55.32708 4.3953042 -3.4408298 -23.808006 -83.365601 -10.177261 -9.2710304
1667500000 -6.4760609 27.01446 4.4638309 -107.3448 -23.746798 -177.59634 -9.2331715 -86.22393
1677000000 -6.172184 -2.3062365 4.0210614 150.60045 -24.193447 90.025574 -8.1620436 -152.84138
1686500000 -6.0120873 -32.157276 3.8377311 51.750042 -24.366636 0.76831853 -7.6261463 146.46671
1696000000 -6.1027837 -60.337578 4.1314831 -48.706131 -24.065472 -90.148102 -7.9426274 84.558968
1705500000 -6.0328751 -86.655022 4.1652818 -152.44296 -24.030949 175.6324 -9.3894329 16.647215
1715000000 -5.7231097 -113.93539 3.7043748 105.92865 -24.524902 83.538963 -11.01957 -60.772121
1724500000 -5.6320953 -142.39107 3.6533737 7.4862256 -24.613924 -5.3925138 -10.716718 -142.30969
1734000000 -5.8561187 -170.08514 3.9915919 -94.196983 -24.308516 -97.498184 -8.7853575 145.24702
1743500000 -5.9615569 163.82352 3.8407331 162.34561 -24.51597 168.63777 -7.3238635 78.200096
1753000000 -5.717629 136.67346 3.5362132 61.427887 -24.876511 77.360512 -7.5927463 14.443637
1762500000 -5.5645843 107.35725 3.3540936 -39.399746 -25.104546 -13.831151 -8.7656107 -45.993073
1772000000 -5.665688 77.533409 3.1388264 -138.44449 -25.357771 -103.27332 -9.8406048 -113.67004
1781500000 -5.7726688 48.862728 3.4648762 121.73244 -25.049852 166.4687 -10.455115 167.7637
1791000000 -5.6617284 20.673147 3.4369802 18.031517 -25.107782 72.241615 -9.8296738 92.183044
1800500000 -5.5376868 -8.262948 2.9758873 -81.632362 -25.586624 -18.022696 -8.6525955 24.84944
1810000000 -5.5446939 -36.682255 3.2649362 179.30679 -25.316927 -107.77697 -8.1792421 -38.229294
1819500000 -5.497324 -63.194435 3.324826 75.338127 -25.295807 157.54529 -8.6343889 -102.61518
1829000000 -5.2279687 -89.470856 2.8044276 -25.921068 -25.871325 65.590691 -10.24441 -174.76628
1838500000 -4.986516 -117.14706 2.6572809 -125.13705 -26.085405 -24.278135 -11.582574 106.47023
1848000000 -4.9602966 -145.09055 2.5265398 134.9743 -26.292955 -114.7728 -10.276842 29.4576
1857500000 -5.0829468 -171.76112 2.7045195 35.737072 -26.201406 155.44238 -8.1513262 -40.786217
1867000000 -5.0676446 162.20435 2.8724022 -67.580048 -26.13316 61.775982 -7.3240504 -104.56398
1876500000 -4.9447889 134.59984 2.2668386 -169.29637 -26.831392 -30.287218 -7.6681695 -163.85689
1886000000 -4.9565864 105.87038 2.1343906 93.837662 -27.030581 -117.44464 -8.9088488 135.67406
1895500000 -5.103992 77.301712 2.5004568 -6.7450209 -26.710817 151.76036 -10.519883 67.338066
1905000000 -5.1982594 49.069252 2.4285305 -108.41592 -26.835388 59.871334 -11.208411 -14.258485
1914500000 -5.1620755 20.46529 2.5104086 151.08121 -26.794258 -30.855684 -10.305736 -93.932167
1924000000 -5.1437573 -8.4525261 2.4901731 48.534504 -26.841593 -123.58183 -8.837822 -160.60924
1933500000 -5.1621089 -36.747349 2.2950969 -52.096359 -27.066545 145.59869 -7.9111233 135.96834
1943000000 -5.0554862 -64.245651 2.3954546 -153.7269 -26.993786 53.754578 -8.4554129 71.240509
1952500000 -4.8495741 -92.151184 1.9905795 103.19746 -27.43339 -39.485088 -9.9051008 4.514533
1962000000 -4.7613106 -120.63297 1.4956055 5.1359701 -27.957722 -127.66385 -10.830491 -69.082741
1971500000 -4.813848 -148.66985 1.7893893 -93.118309 -27.68679 144.02406 -10.123859 -144.96632
1981000000 -4.8820858 -175.7269 2.0054512 164.48738 -27.498459 51.586445 -8.6943111 144.88979
1990500000 -4.8856163 157.16377 1.8306804 62.590401 -27.695877 -40.346333 -8.0828705 80.597321
2000000000 -4.9127197 129.10486 1.673122 -37.931816 -27.85997 -130.90115 -8.5172462 19.837431
