!Keysight Technologies,N5242B,MY48420967,A.15.65.19
!Date: Sunday, January 22, 2023 18:51:07
!Correction: S11(C  1-Port  ) 
!S21(Off) 
!S12(Off) 
!S22(Off) 
!S2P File: Measurements: S11, S21, S12, S22:
# Hz S  dB   R 50
100000000 -17.925348 -13.572351 28.251404 12.870091 -34.140762 -84.830498 -22.124014 44.482319
109500000 -16.620634 -15.761127 27.521116 -88.989494 -33.309658 -177.55946 -24.603792 -1.2083002
119000000 -13.483543 -47.410225 26.676825 168.33345 -32.733276 88.808495 -22.77157 -123.5412
128500000 -14.057655 -90.209885 25.782755 67.439491 -32.293705 -3.2077377 -19.959843 146.26404
138000000 -18.732891 -115.83533 25.159004 -33.173759 -31.701508 -94.933418 -18.500612 99.378708
147500000 -17.766148 -101.49424 24.6611 -134.45547 -31.056768 172.52818 -16.911007 52.351212
157000000 -13.329393 -139.21527 24.151621 123.33865 -30.505909 79.223892 -17.534094 3.2915463
166500000 -12.811358 165.86305 23.500633 21.181265 -30.149347 -14.34414 -20.166824 -48.877529
176000000 -15.64929 112.91267 22.839458 -79.663002 -29.858824 -106.41651 -27.848284 -114.95953
185500000 -21.123531 91.94577 22.381767 179.81914 -29.428156 161.70064 -30.872948 87.593918
195000000 -17.686432 97.002464 22.005102 78.527031 -28.953037 69.150337 -22.631161 25.685715
204500000 -14.159095 55.965649 21.551035 -23.359457 -28.610104 -24.049616 -18.450775 -24.563057
214000000 -14.251495 12.105757 21.00045 -124.40327 -28.398071 -116.42708 -17.962156 -79.265053
223500000 -16.052238 -13.264746 20.618267 135.27328 -28.053246 151.89136 -20.450888 -122.10783
233000000 -14.963561 -26.372185 20.340813 34.24255 -27.634659 59.554585 -22.583652 -163.38893
242500000 -13.270652 -60.200474 19.998835 -67.40741 -27.29822 -33.542862 -28.685062 121.42944
252000000 -14.327323 -100.35732 19.591366 -168.53845 -27.070807 -126.02404 -29.055346 -21.19121
261500000 -17.58106 -121.27589 19.267117 90.726295 -26.765692 141.93555 -23.231571 -91.250557
271000000 -16.128237 -126.56904 19.031296 -10.338929 -26.409977 49.34853 -21.52198 -135.99731
280500000 -13.321996 -165.38823 18.802752 -112.2081 -26.072245 -43.88644 -19.758509 -179.04147
290000000 -13.268174 145.2672 18.38306 145.85309 -25.936316 -137.13646 -21.774502 120.94805
299500000 -15.794453 105.27122 18.033167 45.29097 -25.761562 130.94528 -30.254587 87.595634
309000000 -17.267534 92.904594 17.810171 -55.785656 -25.48053 38.569794 -39.917057 60.808006
318500000 -14.22094 70.323456 17.562874 -157.48215 -25.242001 -54.47089 -28.903864 -168.56317
328000000 -12.850611 30.40901 17.232559 101.11683 -25.09392 -147.19717 -23.948025 131.73341
337500000 -14.057436 -3.9675357 16.944077 0.083817251 -24.914669 120.5098 -23.365015 81.710739
347000000 -14.672691 -19.150068 16.719248 -100.98245 -24.690187 28.149504 -26.78614 30.565472
356500000 -12.322381 -43.190865 16.529787 157.78485 -24.439665 -64.449059 -31.91464 12.001942
366000000 -11.43449 -83.912628 16.309507 55.897556 -24.236025 -157.69704 -35.973938 -78.513725
375500000 -13.316987 -123.90752 15.978643 -45.284279 -24.150826 109.69769 -28.762842 123.07967
385000000 -16.013538 -139.96002 15.780256 -146.10429 -23.955643 17.457937 -26.454996 46.208759
394500000 -13.385044 -153.21658 15.608476 112.52079 -23.744099 -75.444496 -28.861404 7.0658998
404000000 -10.933891 166.02254 15.355955 10.635016 -23.615789 -168.8389 -28.363272 -46.953037
413500000 -10.969387 120.66147 14.996363 -90.007179 -23.617689 99.021111 -29.410677 -175.961
423000000 -12.680277 87.237808 14.883535 169.52159 -23.384552 7.0563993 -25.095337 76.582863
432500000 -12.650946 71.566589 14.726131 67.656891 -23.212542 -86.311325 -22.641588 26.761923
442000000 -10.506837 44.394062 14.371786 -33.8027 -23.239222 -179.13742 -19.628664 -28.392469
451500000 -9.8994102 7.5423322 14.141212 -134.00418 -23.145254 89.280098 -20.519466 -89.847061
461000000 -10.960439 -23.108948 13.9962 124.78481 -22.969908 -3.2254338 -21.995993 -149.34955
470500000 -11.187169 -40.566841 13.77025 23.53046 -22.885454 -95.760643 -22.897287 115.49839
480000000 -9.5962267 -65.992065 13.606678 -77.377396 -22.736673 172.05952 -23.141867 19.391754
489500000 -9.0974808 -102.60088 13.389169 -179.17197 -22.649469 79.025841 -20.876099 -31.477705
499000000 -10.275523 -137.08852 13.119436 80.455177 -22.614033 -12.586389 -17.732931 -94.438606
508500000 -11.332121 -158.31795 13.100922 -20.794323 -22.337357 -105.09837 -19.057453 -159.61678
518000000 -10.079276 179.0134 12.888193 -123.19142 -22.258987 161.24965 -21.312513 144.68567
527500000 -9.0660543 143.75099 12.52108 135.93262 -22.338564 69.131866 -22.885962 57.608536
537000000 -9.5047865 108.23493 12.417398 35.359852 -22.154455 -22.713902 -21.491068 -38.576
546500000 -10.265631 83.666992 12.267193 -66.440094 -22.003727 -115.79591 -17.735897 -107.78983
556000000 -9.2827606 62.047981 11.981563 -167.70831 -21.990801 151.69023 -15.953793 -172.03281
565500000 -8.1865778 30.115551 11.742573 91.416245 -21.926332 59.510983 -16.473217 134.9491
575000000 -8.564949 -4.1859155 11.490692 -8.7895746 -21.881739 -32.089413 -16.912773 78.561005
584500000 -9.9620867 -28.552505 11.482058 -108.92086 -21.577248 -123.74363 -20.03182 0.41222021
594000000 -9.612009 -44.494652 11.37813 149.35364 -21.390881 142.77386 -23.586012 -93.603745
603500000 -8.3080349 -73.212318 11.038417 48.890987 -21.535872 50.433876 -20.183767 -178.14694
613000000 -8.4120512 -109.03586 11.049766 -50.29388 -21.37138 -40.617718 -18.295094 112.45809
622500000 -9.8234844 -139.32054 11.043456 -151.91817 -21.256496 -134.2343 -17.740091 64.668625
632000000 -10.357563 -159.40381 10.835166 107.51442 -21.343412 133.29463 -17.568007 -2.3105652
641500000 -9.3335791 173.73946 10.805486 7.1715117 -21.231445 41.280849 -22.63723 -80.880554
651000000 -9.0026827 139.03563 10.659677 -94.528915 -21.243822 -51.888187 -24.171391 -163.6291
660500000 -9.6605711 107.95476 10.495958 165.01849 -21.267502 -143.69859 -18.587494 108.31393
670000000 -9.6894436 84.567589 10.457859 63.727436 -21.163445 123.74788 -16.087255 38.849041
679500000 -8.6478806 56.747398 10.268004 -37.637024 -21.206623 31.138714 -15.619735 -14.600481
689000000 -8.3456926 22.972082 10.122112 -137.95259 -21.202244 -60.411098 -16.018064 -68.154503
698500000 -9.3650122 -6.9962025 10.16244 121.04086 -21.010775 -152.65758 -18.304708 -130.88124
708000000 -9.9943867 -25.279509 10.063706 18.956833 -20.962891 114.03089 -21.980909 140.02669
717500000 -8.7650642 -47.549072 9.8002167 -82.069595 -21.077969 21.733521 -20.039318 33.82756
727000000 -8.0600376 -80.740067 9.7201099 177.99892 -21.006926 -69.494087 -16.410219 -37.383537
736500000 -8.8146782 -114.86655 9.814537 76.779388 -20.755941 -162.06294 -14.6721 -93.693695
746000000 -9.9411716 -140.14322 9.7274075 -25.698481 -20.695194 104.08915 -14.222998 -147.43663
755500000 -9.4034443 -163.51213 9.4229698 -127.20491 -20.858196 11.194481 -15.346403 152.44748
765000000 -8.6069088 163.29268 9.2617311 132.74995 -20.879049 -80.194962 -18.286619 80.638916
774500000 -8.9216766 127.52068 9.2884798 31.661999 -20.719854 -172.59123 -19.57341 -8.318553
784000000 -9.7159185 99.933258 9.1611071 -70.543365 -20.719652 93.919991 -16.204048 -88.224045
793500000 -9.0244284 77.32486 8.8390226 -171.80412 -20.921017 1.3919164 -13.390472 -154.78835
803000000 -7.7914996 46.364513 8.6578999 88.334633 -20.98245 -89.705208 -12.767731 148.01353
812500000 -7.6237721 11.504541 8.6176929 -11.981562 -20.899542 178.75557 -12.863839 96.047493
822000000 -8.5583582 -17.605051 8.6992979 -112.94468 -20.70013 86.583061 -13.693069 32.943539
831500000 -8.7660141 -36.79879 8.6354723 144.38625 -20.651268 -7.3039083 -16.361565 -46.133518
841000000 -7.6457767 -61.695038 8.2324114 42.903767 -20.93767 -99.950081 -16.682375 -133.6433
850500000 -7.1617703 -94.449478 8.068264 -55.70174 -20.982574 170.22495 -13.845433 149.00826
860000000 -7.7481098 -126.75925 8.3642998 -156.83049 -20.564962 77.913147 -12.17856 85.494499
869500000 -8.4091682 -152.53104 8.1795712 99.736893 -20.635353 -16.737745 -11.234887 30.355038
879000000 -8.0026674 -178.36546 7.7699671 -0.52907687 -20.927904 -108.21886 -11.574466 -32.436222
888500000 -7.5716577 149.77345 7.8306971 -100.3258 -20.743914 160.81065 -14.178631 -98.543411
898000000 -7.8337369 117.61673 7.7616234 157.63759 -20.702448 67.595085 -15.725299 -171.91765
907500000 -8.1310091 91.130814 7.5719776 56.658707 -20.773279 -24.529682 -14.000811 99.424477
917000000 -7.5234928 65.695953 7.4410143 -44.407486 -20.796301 -116.6981 -12.276573 24.769947
926500000 -6.8476319 35.532623 7.187067 -144.95209 -20.934958 151.66144 -11.074883 -32.786022
936000000 -6.8964915 4.5792165 7.1882358 115.82793 -20.810091 61.361034 -10.435602 -90.42334
945500000 -7.4067645 -21.382261 7.3419414 13.977267 -20.554033 -31.581083 -11.289242 -152.26608
955000000 -7.2859244 -43.612427 7.0756536 -87.900162 -20.71839 -124.66829 -13.218759 135.95592
964500000 -6.7701674 -69.944168 6.915452 172.61447 -20.778225 144.53961 -14.923013 49.055576
974000000 -6.7745414 -99.23333 6.9488697 72.063919 -20.664223 52.585827 -13.666396 -31.291754
983500000 -7.2383523 -126.69794 6.8931851 -28.516401 -20.665894 -39.477932 -11.196345 -99.324944
993000000 -7.3584108 -152.26344 6.893682 -129.43221 -20.628071 -131.90128 -10.482877 -162.37769
1002500000 -7.1867085 178.96674 6.7108607 129.81506 -20.789898 135.87656 -10.934915 140.28825
1012000000 -7.4881134 148.03618 6.7522078 30.96719 -20.731651 45.606434 -12.163334 74.753036
1021500000 -8.1217861 121.04777 7.0733976 -71.112862 -20.398279 -47.84407 -14.647359 -4.4675031
1031000000 -7.843504 97.381371 6.7620368 -174.40407 -20.70573 -142.42558 -14.586332 -89.978569
1040500000 -7.0137506 68.36528 6.3580923 86.947021 -21.091639 127.71265 -12.11341 -166.82637
1050000000 -6.8491926 35.793884 6.6767216 -11.694127 -20.756046 37.894966 -10.539728 129.15657
1059500000 -7.5409074 6.7774549 6.9687414 -114.45123 -20.443523 -56.028652 -9.7609577 70.802544
1069000000 -7.8143859 -13.980672 6.7656865 142.26442 -20.607342 -150.46709 -10.127936 6.333128
1078500000 -6.9614115 -37.782295 6.3805518 41.832481 -20.948727 117.9734 -12.325391 -64.372665
1088000000 -6.5247712 -67.962662 6.3384104 -57.30772 -20.960051 27.696301 -14.114894 -142.42041
1097500000 -7.0310712 -98.210304 6.5167542 -157.67278 -20.745916 -63.796551 -12.803589 136.35793
1107000000 -7.7859764 -122.88392 6.6456056 100.19144 -20.591784 -157.06036 -10.695416 61.986816
1116500000 -7.6456552 -147.01926 6.4867048 -2.1089666 -20.726885 109.60809 -10.109265 -2.3679264
1126000000 -7.4216471 -177.00813 6.236783 -102.44112 -20.971079 18.230766 -10.189585 -61.130882
1135500000 -7.854497 151.92155 6.3922191 158.07268 -20.810595 -72.234886 -10.960279 -127.34664
1145000000 -8.3075762 125.45204 6.6122136 54.965176 -20.578901 -166.27016 -12.763422 156.30537
1154500000 -7.7703819 98.755768 6.189311 -47.973083 -20.993378 99.909302 -12.860789 76.465324
1164000000 -7.1555076 66.584572 5.8867726 -146.09976 -21.286308 10.907159 -10.93757 2.0490088
1173500000 -7.2758145 33.404125 6.3411827 114.23689 -20.815277 -79.680794 -9.3260956 -62.60783
1183000000 -7.8635931 5.9964557 6.5333595 9.9963799 -20.592569 -174.81073 -8.4244795 -122.56684
1192500000 -7.5279999 -16.822731 6.1010146 -93.25872 -20.995886 91.034607 -8.8157034 174.59985
1202000000 -6.7209525 -44.904587 5.6627908 167.23947 -21.401793 0.58417606 -10.62204 110.23987
1211500000 -6.590467 -76.345871 5.7046423 68.925713 -21.328606 -88.665184 -12.27619 38.066303
1221000000 -7.2129774 -105.61121 6.0947208 -32.158104 -20.910686 179.30125 -12.096888 -44.922531
1230500000 -7.6648164 -129.65482 6.0924406 -136.01689 -20.893435 84.557724 -10.434407 -122.04207
1240000000 -7.3401403 -155.55009 5.7044287 122.44219 -21.272062 -7.842485 -9.1695547 171.59938
1249500000 -7.1678286 173.98431 5.6102834 22.946039 -21.361658 -98.147346 -8.7970858 111.27249
1259000000 -7.4519196 143.50694 5.7578115 -77.900833 -21.214025 170.29303 -9.1299915 49.829563
1268500000 -7.5792804 115.47656 5.7779503 179.70888 -21.193655 77.228233 -10.3784 -18.814274
1278000000 -7.2125273 86.28199 5.5345483 78.055634 -21.430138 -15.073488 -11.525705 -94.839645
1287500000 -6.9830084 54.980331 5.4572296 -21.338316 -21.491804 -105.07762 -10.773832 -173.38022
1297000000 -7.1711731 25.35107 5.8031735 -122.82009 -21.120775 162.79416 -9.1981497 114.91901
1306500000 -7.1602926 -0.13541324 5.6726804 132.64847 -21.226416 67.540863 -8.1202602 51.143902
1316000000 -6.5838232 -26.234755 5.0576267 31.950539 -21.811434 -23.939531 -8.0462294 -11.00388
1325500000 -6.2291346 -55.076153 5.0021873 -65.783829 -21.834351 -112.59644 -9.168519 -73.137482
1335000000 -6.4466796 -83.524612 5.2895927 -166.26291 -21.513317 155.99608 -10.589619 -140.65164
1344500000 -6.7794552 -108.49535 5.3705692 91.611725 -21.4186 62.849003 -11.28931 137.81763
1354000000 -6.6147857 -133.00552 5.2147074 -10.083798 -21.573992 -29.886044 -10.633267 55.578461
1363500000 -6.4755554 -160.85942 5.0599308 -109.92199 -21.745235 -120.80433 -9.1906376 -13.614125
1373000000 -6.8122954 170.65424 5.3052039 150.22556 -21.538788 148.32675 -8.0652313 -77.662323
1382500000 -7.1278143 145.34793 5.4781604 46.860897 -21.409246 53.97578 -8.1224833 -142.72374
1392000000 -6.7235231 119.41176 5.0286107 -55.439472 -21.909286 -39.248028 -9.3918314 149.106
1401500000 -6.299705 88.926811 4.779263 -153.85292 -22.205967 -128.54254 -10.796342 76.246262
1411000000 -6.4227705 57.338081 5.0343752 106.94889 -22.001162 141.43307 -10.343774 0.27638546
1420500000 -6.9031992 29.830206 5.3796916 4.8106785 -21.687328 48.488457 -8.5061951 -74.560738
1430000000 -6.6973829 6.3161283 5.2691708 -99.451324 -21.833946 -46.605125 -7.7721901 -143.59964
1439500000 -6.0296741 -20.657553 4.6609354 159.08032 -22.478455 -138.92709 -8.0791397 155.85872
1449000000 -5.8242459 -49.880993 4.4155169 61.994785 -22.767179 133.16971 -8.7936144 94.987587
1458500000 -6.1451616 -77.364906 4.9126887 -37.145473 -22.320023 43.202431 -10.033305 24.578382
1468000000 -6.3611593 -101.19506 5.1503358 -140.85292 -22.139492 -51.306236 -10.992966 -58.44199
1477500000 -6.1100745 -125.96126 4.8171 116.83238 -22.533833 -144.36632 -10.114166 -140.5401
1487000000 -6.0384998 -153.51263 4.6768141 17.5874 -22.736523 125.73958 -8.3899298 149.39655
1496500000 -6.2798152 179.24907 4.9581304 -83.143738 -22.522493 34.402336 -7.2596312 85.027267
1506000000 -6.2984953 153.22758 4.9428515 173.34613 -22.601946 -59.660542 -7.3996243 21.711973
1515500000 -6.0382891 124.73487 4.508616 72.357307 -23.092922 -151.13715 -8.5619478 -42.33889
1525000000 -6.0341635 93.634621 4.490531 -25.921871 -23.158501 120.15327 -9.789423 -111.21986
1534500000 -6.3951526 63.320854 4.879838 -126.59232 -22.805779 29.052111 -9.6891613 172.41855
1544000000 -6.6034336 36.548611 5.0433373 129.89494 -22.672909 -64.886421 -8.5650759 95.065453
1553500000 -6.2161045 9.3707247 4.7519894 26.693054 -22.986132 -158.59286 -8.0233402 27.064405
1563000000 -5.8856292 -20.474997 4.2937317 -73.298477 -23.475454 110.8894 -7.8364468 -32.980831
1572500000 -5.9715672 -49.815399 4.4395752 -171.07883 -23.354227 22.563488 -8.0752573 -95.439911
1582000000 -6.1853333 -75.978355 4.9302893 86.316765 -22.902569 -70.630783 -9.2228804 -165.53262
1591500000 -5.9847379 -101.54601 4.6183481 -17.823408 -23.259338 -165.3315 -10.264333 116.48466
1601000000 -5.7458882 -129.90805 4.2343011 -116.75729 -23.704782 105.22818 -9.7797499 38.135357
1610500000 -5.9007387 -159.104 4.5375485 143.98557 -23.461185 15.526258 -8.2515974 -30.640409
1620000000 -6.2782273 173.60602 4.7840152 41.237171 -23.2743 -77.620209 -6.9271665 -95.292213
1629500000 -6.253593 146.93359 4.652801 -61.725002 -23.45949 -170.91559 -7.1037302 -160.0865
1639000000 -6.0158305 117.21054 4.3752904 -163.05788 -23.782589 97.481384 -8.4729004 137.16333
1648500000 -6.06635 85.90509 4.2493958 97.583626 -23.949574 7.8573346 -9.7006845 69.131271
1658000000 -6.3480558 55.801941 4.5686016 -2.9239397 -23.64327 -82.908455 -9.9013338 -9.1808338
1667500000 -6.3549232 27.472305 4.6409926 -106.84566 -23.577036 -177.13361 -8.9808826 -85.862244
1677000000 -6.0395684 -1.7466235 4.1937256 151.08755 -24.023283 90.468315 -7.9559422 -152.44193
1686500000 -5.890049 -31.603642 4.0079374 52.283882 -24.200287 1.2604002 -7.4431925 146.77017
1696000000 -5.9860611 -59.845379 4.3109031 -48.150185 -23.892982 -89.637314 -7.7579598 84.645515
1705500000 -5.9123726 -86.109581 4.3471794 -151.95779 -23.853531 176.06488 -9.1855488 16.463871
1715000000 -5.5996966 -113.33691 3.8734927 106.40102 -24.35903 83.907433 -10.770409 -60.995876
1724500000 -5.501986 -141.825 3.8198583 8.0475149 -24.448019 -4.882308 -10.453366 -142.1554
1734000000 -5.7217174 -169.52118 4.1701355 -93.616783 -24.13369 -96.965912 -8.5518541 145.60481
1743500000 -5.8419261 164.48357 4.0209966 162.86021 -24.342363 169.08835 -7.1097951 78.448082
1753000000 -5.6013799 137.31827 3.7077448 61.935925 -24.71055 77.825493 -7.3967171 14.463341
1762500000 -5.4327197 107.93921 3.5236742 -38.857727 -24.941858 -13.341665 -8.572628 -46.119232
1772000000 -5.5284872 78.171364 3.3064713 -137.87564 -25.194366 -102.75433 -9.6081152 -113.83279
1781500000 -5.6616635 49.493828 3.6360257 122.33163 -24.894279 166.99698 -10.173276 167.76044
1791000000 -5.5543804 21.173328 3.6081293 18.625078 -24.942778 72.761391 -9.5596638 92.470146
1800500000 -5.3998265 -7.7532964 3.145066 -80.985542 -25.431824 -17.452347 -8.4151325 25.258474
1810000000 -5.4113979 -36.025146 3.4473445 179.99884 -25.145376 -107.14486 -7.9578681 -37.855885
1819500000 -5.4031653 -62.553143 3.516315 75.945602 -25.112829 158.12476 -8.411684 -102.42342
1829000000 -5.1240263 -88.955811 2.9851928 -25.365423 -25.698372 66.121109 -10.014865 -174.8089
1838500000 -4.843883 -116.5895 2.8329504 -124.53333 -25.922846 -23.74641 -11.341472 106.44978
1848000000 -4.8242764 -144.37032 2.7034965 135.60588 -26.122839 -114.16903 -10.033123 29.695908
1857500000 -4.978888 -171.1019 2.8869178 36.394848 -26.038034 156.11626 -7.9105983 -40.485733
1867000000 -4.9634638 162.7392 3.0601139 -66.961105 -25.951639 62.370209 -7.0951219 -104.38404
1876500000 -4.8135362 135.19009 2.4478271 -168.70197 -26.660223 -29.743958 -7.4495668 -163.76373
1886000000 -4.8250046 106.56187 2.3133504 94.489029 -26.865421 -116.87026 -8.6865206 135.72266
1895500000 -4.9941092 77.939056 2.6864624 -6.0913424 -26.544451 152.34171 -10.27189 67.402206
1905000000 -5.0963483 49.619171 2.6104712 -107.78127 -26.659103 60.50663 -10.937837 -14.062346
1914500000 -5.046876 21.013702 2.6915197 151.7722 -26.628363 -30.176388 -10.054708 -93.652718
1924000000 -5.0208526 -7.8624887 2.6795242 49.243351 -26.666101 -122.88864 -8.6070881 -160.29721
1933500000 -5.055284 -36.120441 2.4898212 -51.388817 -26.877132 146.28641 -7.6697102 136.22066
1943000000 -4.9652634 -63.652077 2.5977812 -153.0527 -26.803038 54.404705 -8.2064066 71.335068
1952500000 -4.744442 -91.626648 2.1916842 103.80252 -27.241131 -38.907696 -9.6565304 4.5550022
1962000000 -4.6289015 -120.01842 1.6891592 5.745491 -27.773563 -127.09782 -10.589313 -68.974403
1971500000 -4.6910682 -147.93492 1.9858291 -92.49617 -27.505156 144.59906 -9.8995523 -144.86484
1981000000 -4.7877855 -175.08139 2.1989849 165.07437 -27.313017 52.146652 -8.4805622 144.85501
1990500000 -4.7763491 157.68243 2.016675 63.20858 -27.519241 -39.736538 -7.8702669 80.3983
2000000000 -4.7718782 129.72231 1.8630067 -37.253029 -27.679062 -130.2076 -8.2907257 19.56188
