!Keysight Technologies,N5242B,MY48420967,A.15.65.19
!Date: Sunday, January 22, 2023 21:05:07
!Correction: S11(C  1-Port  ) 
!S21(Off) 
!S12(Off) 
!S22(Off) 
!S2P File: Measurements: S11, S21, S12, S22:
# Hz S  dB   R 50
100000000 -17.682219 -11.759624 28.209406 12.929305 -34.188671 -84.774307 -21.673006 45.926334
109500000 -16.353992 -15.140817 27.485123 -88.913773 -33.358799 -177.50369 -23.976004 -1.0410788
119000000 -13.32108 -46.875072 26.643047 168.36653 -32.760086 88.825638 -22.483921 -120.63641
128500000 -13.90514 -89.257652 25.743114 67.455284 -32.347198 -3.1001415 -19.875317 148.79456
138000000 -18.410498 -114.45389 25.116457 -33.123222 -31.744177 -94.88382 -18.315588 101.15323
147500000 -17.474226 -102.15301 24.623329 -134.37787 -31.09568 172.67384 -16.688353 53.367462
157000000 -13.170732 -139.36914 24.12005 123.39146 -30.530993 79.248299 -17.251823 3.7662773
166500000 -12.673693 166.3186 23.467085 21.18395 -30.183369 -14.26335 -19.790867 -49.007355
176000000 -15.486732 114.19476 22.79845 -79.661949 -29.906513 -106.36075 -27.002787 -115.42493
185500000 -20.699183 93.74559 22.338816 179.86404 -29.47246 161.7979 -30.683775 95.722427
195000000 -17.3757 96.789696 21.967495 78.590134 -28.992958 69.234459 -22.525421 28.731209
204500000 -13.969402 56.196049 21.516453 -23.323668 -28.649364 -24.018312 -18.314045 -22.940758
214000000 -14.072569 12.795855 20.962402 -124.38641 -28.434345 -116.43715 -17.789251 -77.930885
223500000 -15.806373 -12.526601 20.577818 135.31505 -28.094145 151.89201 -20.135365 -121.14331
233000000 -14.740462 -26.223721 20.30397 34.299744 -27.669891 59.581593 -22.14493 -163.39159
242500000 -13.100598 -59.895432 19.964504 -67.370155 -27.340666 -33.469975 -27.808929 122.19558
252000000 -14.145679 -99.653313 19.55451 -168.5182 -27.10235 -126.01713 -28.912401 -15.040879
261500000 -17.278397 -120.67277 19.227173 90.764328 -26.812342 141.82004 -23.193466 -87.981506
271000000 -15.891356 -126.89243 18.9942 -10.270406 -26.448061 49.503815 -21.327545 -133.56015
280500000 -13.172457 -165.34698 18.771814 -112.1557 -26.100798 -43.799091 -19.494652 -177.70642
290000000 -13.130888 145.72612 18.351351 145.86293 -25.971233 -137.14148 -21.396849 122.39408
299500000 -15.611478 106.17072 17.995804 45.301697 -25.803408 130.89612 -29.143549 86.92115
309000000 -17.013382 93.291611 17.772976 -55.745899 -25.530157 38.541935 -37.512505 47.236408
318500000 -14.058426 70.396141 17.52989 -157.44307 -25.269159 -54.458813 -29.270567 -162.07739
328000000 -12.72402 30.709795 17.200226 101.12896 -25.129505 -147.14339 -24.073526 135.59904
337500000 -13.903299 -3.5128965 16.907885 0.085350856 -24.950686 120.44978 -23.313959 85.332535
347000000 -14.491034 -19.061367 16.681292 -100.95477 -24.732555 28.155371 -26.445 35.528427
356500000 -12.197071 -43.222759 16.49671 157.82137 -24.474258 -64.381721 -30.561972 14.567018
366000000 -11.33037 -83.706833 16.278431 55.895874 -24.265236 -157.71678 -34.20499 -70.259727
375500000 -13.180192 -123.39882 15.941201 -45.310238 -24.195198 109.68569 -29.44787 128.84706
385000000 -15.782539 -139.7377 15.737722 -146.08926 -23.996605 17.428053 -27.073019 50.286095
394500000 -13.235945 -153.46571 15.571022 112.57162 -23.781746 -75.369858 -29.118767 14.235916
404000000 -10.833572 166.04344 15.324258 10.658446 -23.646809 -168.81636 -28.347073 -40.132004
413500000 -10.87192 120.97238 14.961524 -90.023712 -23.657511 98.995972 -30.532305 -171.75488
423000000 -12.547001 87.701782 14.842558 169.51794 -23.42775 7.027307 -25.864519 75.713234
432500000 -12.501797 71.674271 14.686133 67.686119 -23.256889 -86.235023 -23.204964 27.438938
442000000 -10.40478 44.446312 14.335635 -33.77253 -23.273378 -179.12386 -19.995361 -27.254002
451500000 -9.8065157 7.7504926 14.105332 -133.99971 -23.176914 89.279099 -20.892431 -88.230751
461000000 -10.845994 -22.818981 13.95554 124.78542 -23.010485 -3.242563 -22.388681 -146.91052
470500000 -11.060194 -40.534462 13.728067 23.571095 -22.926043 -95.717583 -23.499065 116.86798
480000000 -9.5027056 -66.011833 13.571632 -77.324493 -22.770248 172.09714 -23.755642 18.892044
489500000 -9.0138273 -102.46885 13.356021 -179.16451 -22.683136 79.025856 -21.337534 -30.988768
499000000 -10.17149 -136.84547 13.079172 80.448799 -22.654423 -12.616784 -18.068037 -93.844406
508500000 -11.202735 -158.22289 13.058661 -20.756529 -22.382004 -105.06598 -19.431576 -158.5824
518000000 -9.9785709 178.96443 12.851382 -123.13869 -22.292475 161.32339 -21.73358 146.71164
527500000 -8.9852057 143.81256 12.486856 135.95903 -22.373888 69.143478 -23.491407 58.838337
537000000 -9.41681 108.40953 12.379929 35.362446 -22.191753 -22.693642 -22.03224 -39.249748
546500000 -10.159845 83.761948 12.225637 -66.414612 -22.046072 -115.76154 -18.093586 -108.16927
556000000 -9.1977243 61.995949 11.94387 -167.65182 -22.02879 151.73515 -16.244762 -172.09584
565500000 -8.1175709 30.135592 11.70984 91.441299 -21.959137 59.556225 -16.763451 135.39783
575000000 -8.4890766 -4.0620403 11.453016 -8.8018942 -21.915369 -32.076103 -17.211445 79.418671
584500000 -9.8559313 -28.501585 11.437526 -108.90147 -21.622602 -123.74795 -20.492962 1.4033228
594000000 -9.5157385 -44.700127 11.337011 149.41881 -21.433355 142.83528 -24.289595 -94.141998
603500000 -8.2349739 -73.356598 11.003444 48.947643 -21.571476 50.500034 -20.611763 -179.3333
613000000 -8.3340464 -109.06481 11.015049 -50.276447 -21.407087 -40.631809 -18.62672 111.45467
622500000 -9.7173882 -139.32986 11.002082 -151.91638 -21.297056 -134.23885 -18.09133 64.466118
632000000 -10.244357 -159.61264 10.790467 107.56937 -21.388479 133.36122 -17.919882 -2.2643888
641500000 -9.2430191 173.53235 10.76803 7.2428565 -21.26972 41.367863 -23.218428 -81.43689
651000000 -8.9122839 138.9404 10.623205 -94.491951 -21.282484 -51.873093 -24.807531 -165.71739
660500000 -9.5557261 107.91254 10.454605 165.05789 -21.310282 -143.66768 -18.860613 106.58892
670000000 -9.5863266 84.409706 10.417006 63.800148 -21.204594 123.81152 -16.293884 37.637726
679500000 -8.566494 56.61554 10.231729 -37.563946 -21.24502 31.226294 -15.845238 -15.368943
689000000 -8.2660475 22.956034 10.086882 -137.90746 -21.238554 -60.355042 -16.278631 -68.571182
698500000 -9.2650499 -6.9808359 10.121757 121.07579 -21.053724 -152.60059 -18.665512 -131.1945
708000000 -9.8883476 -25.491766 10.019923 19.035357 -21.006245 114.11304 -22.494431 138.45049
717500000 -8.6917677 -47.816067 9.7623158 -81.955635 -21.116285 21.850538 -20.233284 31.353365
727000000 -7.9950976 -80.884415 9.6886005 178.0909 -21.035812 -69.428955 -16.517952 -39.010365
736500000 -8.7366924 -114.97134 9.7814131 76.832985 -20.789999 -162.0387 -14.806595 -94.912544
746000000 -9.8472538 -140.36029 9.6889534 -25.633352 -20.735991 104.14549 -14.402078 -148.30141
755500000 -9.3266163 -163.82483 9.3866301 -127.10394 -20.893822 11.325795 -15.567794 151.78645
765000000 -8.5409117 163.05853 9.2311134 132.84113 -20.912228 -80.072357 -18.573689 79.602066
774500000 -8.8460312 127.34974 9.2567549 31.71805 -20.752024 -172.55356 -19.819344 -10.265467
784000000 -9.626112 99.691452 9.1238222 -70.478584 -20.755531 93.992569 -16.34359 -89.698708
793500000 -8.9520693 76.985695 8.8036718 -171.69815 -20.954424 1.508454 -13.49965 -155.72438
803000000 -7.7337012 46.107727 8.6292019 88.432144 -21.009165 -89.615829 -12.884537 147.32683
812500000 -7.5606899 11.334605 8.5889187 -11.927728 -20.93207 178.80206 -13.007954 95.536179
822000000 -8.4786777 -17.789268 8.6638651 -112.894 -20.740469 86.630104 -13.874603 32.526546
831500000 -8.6912012 -37.145763 8.5988674 144.48007 -20.690039 -7.1918178 -16.58865 -46.824017
841000000 -7.5904264 -62.01667 8.2007771 43.01947 -20.969818 -99.885841 -16.860308 -134.76552
850500000 -7.1076016 -94.692719 8.041379 -55.60733 -21.008686 170.32646 -13.948501 148.09518
860000000 -7.6827168 -126.979 8.3361301 -156.76993 -20.593405 77.954002 -12.27194 84.772469
869500000 -8.3390102 -152.82718 8.1461496 99.807755 -20.666273 -16.656775 -11.350768 29.87915
879000000 -7.9428639 -178.69125 7.7392478 -0.42404112 -20.957714 -108.10267 -11.697923 -32.756817
888500000 -7.5146022 149.5047 7.8046837 -100.24132 -20.772833 160.89049 -14.335971 -98.939407
898000000 -7.7708311 117.37113 7.7324076 157.69925 -20.729525 67.649399 -15.912786 -172.54913
907500000 -8.0660114 90.821938 7.5399294 56.744888 -20.808601 -24.441912 -14.129697 98.647598
917000000 -7.4691768 65.365463 7.4127517 -44.308697 -20.824533 -116.60448 -12.367111 24.152157
926500000 -6.7975616 35.258648 7.1611929 -144.87132 -20.957279 151.74858 -11.16401 -33.225452
936000000 -6.8420315 4.3289337 7.1607208 115.88935 -20.836866 61.441944 -10.531415 -90.731377
945500000 -7.3453865 -21.679785 7.3109097 14.043282 -20.58609 -31.523069 -11.405479 -152.48752
955000000 -7.2320943 -43.972969 7.0443468 -87.802658 -20.749931 -124.57126 -13.361227 135.72984
964500000 -6.7215528 -70.292107 6.8885508 172.71477 -20.805103 144.63824 -15.059455 48.49427
974000000 -6.7236547 -99.554863 6.9223771 72.140594 -20.690548 52.648613 -13.761653 -31.946123
983500000 -7.1806884 -127.04155 6.863946 -28.434446 -20.691862 -39.389664 -11.273152 -99.803101
993000000 -7.3026819 -152.64238 6.865582 -129.33829 -20.651903 -131.79822 -10.554969 -162.72653
1002500000 -7.1323271 178.61456 6.6835217 129.90738 -20.815441 135.99127 -11.018847 140.01201
1012000000 -7.4270358 147.71928 6.7248311 31.056921 -20.758282 45.704906 -12.262149 74.473778
1021500000 -8.0528765 120.68497 7.0449643 -71.021698 -20.430372 -47.744385 -14.767375 -4.9834213
1031000000 -7.7865677 96.982704 6.7323046 -174.291 -20.734232 -142.29698 -14.680986 -90.649612
1040500000 -6.9679279 68.032539 6.3331008 87.079872 -21.120281 127.82378 -12.166839 -167.33923
1050000000 -6.7984166 35.539513 6.6550498 -11.586376 -20.778646 38.000431 -10.581779 128.73213
1059500000 -7.4796939 6.5027618 6.9435215 -114.36102 -20.469669 -55.956696 -9.8166208 70.443825
1069000000 -7.7606525 -14.350724 6.738028 142.3877 -20.630781 -150.35178 -10.19368 6.0517144
1078500000 -6.924294 -38.129154 6.3577418 41.978615 -20.970436 118.10617 -12.398808 -64.703522
1088000000 -6.4882274 -68.253349 6.3195987 -57.176365 -20.977869 27.808741 -14.183185 -142.92525
1097500000 -6.9861631 -98.508469 6.4976082 -157.56143 -20.766912 -63.706924 -12.845732 135.83337
1107000000 -7.7399607 -123.24055 6.6253586 100.30853 -20.612865 -156.9247 -10.726369 61.580418
1116500000 -7.6094809 -147.41536 6.4674482 -1.9839623 -20.749609 109.72896 -10.141511 -2.6910722
1126000000 -7.38589 -177.38091 6.2193613 -102.31586 -20.991421 18.364857 -10.227101 -61.404953
1135500000 -7.8126922 151.53648 6.3759847 158.19302 -20.824007 -72.121025 -11.001659 -127.63157
1145000000 -8.2670174 125.01653 6.5957637 55.07917 -20.594681 -166.15233 -12.805035 155.93741
1154500000 -7.7409935 98.338821 6.172667 -47.84774 -21.011272 100.029 -12.893165 76.095535
1164000000 -7.1248717 66.235115 5.8737545 -145.96854 -21.301456 10.995343 -10.955086 1.7699867
1173500000 -7.2391782 33.069874 6.3301611 114.34546 -20.825384 -79.565079 -9.3405571 -62.847324
1183000000 -7.8239303 5.6155581 6.519557 10.098908 -20.607632 -174.6987 -8.4465227 -122.76048
1192500000 -7.5010433 -17.215162 6.0876145 -93.137161 -21.011454 91.139587 -8.8418865 174.45586
1202000000 -6.7002587 -45.252819 5.6527143 167.3633 -21.413897 0.68504488 -10.649482 110.1036
1211500000 -6.5645161 -76.672783 5.6965446 69.036697 -21.339754 -88.55909 -12.305422 37.887257
1221000000 -7.1826782 -105.97956 6.0868416 -32.059978 -20.920019 179.40094 -12.116618 -45.126144
1230500000 -7.6407738 -130.08693 6.0835805 -135.91875 -20.901724 84.639671 -10.44943 -122.19311
1240000000 -7.3223152 -155.97108 5.6970339 122.54501 -21.281916 -7.76652 -9.1829691 171.49355
1249500000 -7.1478424 173.55606 5.6045432 23.041805 -21.368906 -98.043243 -8.8098593 111.20225
1259000000 -7.4281983 143.0596 5.7521715 -77.813629 -21.217756 170.34088 -9.1438675 49.780293
1268500000 -7.5574226 115.00494 5.7728353 179.79353 -21.19956 77.270958 -10.393721 -18.847576
1278000000 -7.1905446 85.823906 5.5297413 78.134834 -21.440727 -14.975372 -11.539657 -94.86087
1287500000 -6.9579792 54.53582 5.4530497 -21.26088 -21.497032 -105.02055 -10.784998 -173.38879
1297000000 -7.142354 24.89052 5.7992568 -122.75413 -21.126518 162.85539 -9.2060919 114.91965
1306500000 -7.1335664 -0.60523796 5.6670914 132.71324 -21.232758 67.587151 -8.127018 51.170097
1316000000 -6.5627828 -26.666426 5.0531054 32.025063 -21.817417 -23.916552 -8.0497684 -10.961392
1325500000 -6.2039785 -55.47942 4.9993153 -65.715469 -21.83309 -112.5012 -9.1689396 -73.085335
1335000000 -6.4177713 -83.937401 5.2864428 -166.1987 -21.521921 156.02979 -10.588443 -140.57294
1344500000 -6.75284 -108.92323 5.3675585 91.681381 -21.421627 62.934341 -11.28719 137.91229
1354000000 -6.5926294 -133.42166 5.2128119 -10.019628 -21.579052 -29.829916 -10.633077 55.677608
1363500000 -6.4522309 -161.25075 5.0580626 -109.85891 -21.750822 -120.70849 -9.18888 -13.522107
1373000000 -6.7858477 170.25462 5.3042316 150.29034 -21.533781 148.39851 -8.0613832 -77.569839
1382500000 -7.1031756 144.92935 5.4784288 46.921879 -21.408995 54.035011 -8.1144772 -142.62624
1392000000 -6.7034616 119.03835 5.02946 -55.384277 -21.90012 -39.180435 -9.3811121 149.2124
1401500000 -6.2785425 88.582718 4.7801123 -153.80179 -22.203209 -128.50217 -10.784576 76.368141
1411000000 -6.3967438 57.024338 5.0351281 107.00201 -21.993822 141.50287 -10.333961 0.43159658
1420500000 -6.8752766 29.502405 5.3823624 4.8702884 -21.681946 48.525879 -8.4979534 -74.419754
1430000000 -6.6769524 5.9984627 5.2739396 -99.405075 -21.826281 -46.564072 -7.762125 -143.47792
1439500000 -6.0103512 -20.923803 4.6648221 159.11617 -22.47076 -138.87177 -8.0677834 155.96758
1449000000 -5.8046155 -50.129593 4.418767 62.040871 -22.762287 133.1955 -8.7778111 95.103493
1458500000 -6.1248269 -77.616013 4.9183726 -37.096313 -22.314283 43.264362 -10.013342 24.731594
1468000000 -6.3439746 -101.45885 5.1580162 -140.81383 -22.132135 -51.254505 -10.9734 -58.234459
1477500000 -6.0940609 -126.19847 4.8253646 116.86245 -22.525621 -144.31218 -10.102336 -140.33977
1487000000 -6.0208592 -153.74576 4.6853666 17.614985 -22.729561 125.74559 -8.3809614 149.56847
1496500000 -6.2643256 179.01688 4.968174 -83.121208 -22.516829 34.412666 -7.2491245 85.18425
1506000000 -6.2825117 153.00098 4.9540868 173.35573 -22.591438 -59.649906 -7.3836522 21.858032
1515500000 -6.0219059 124.52077 4.5197239 72.353668 -23.08032 -151.14227 -8.5424957 -42.192917
1525000000 -6.0152669 93.424568 4.5009379 -25.927404 -23.146744 120.14622 -9.7703056 -111.02893
1534500000 -6.37602 63.113476 4.8906007 -126.59215 -22.797529 29.039473 -9.6717682 172.64659
1544000000 -6.5857625 36.348442 5.0567198 129.89064 -22.658537 -64.937057 -8.5503654 95.289719
1553500000 -6.2001963 9.1805248 4.7661176 26.66754 -22.973755 -158.62553 -8.0088797 27.265015
1563000000 -5.8694191 -20.662664 4.3059688 -73.329933 -23.45562 110.87935 -7.8197627 -32.797665
1572500000 -5.9551373 -50.002518 4.4524508 -171.10126 -23.343163 22.550365 -8.0554075 -95.235069
1582000000 -6.1706982 -76.177299 4.9455581 86.285713 -22.889908 -70.641052 -9.1977348 -165.26971
1591500000 -5.9715037 -101.73823 4.6343856 -17.871393 -23.242662 -165.37354 -10.239766 116.80333
1601000000 -5.7309623 -130.11545 4.2498341 -116.81548 -23.685415 105.17939 -9.7670593 38.45203
1610500000 -5.8859758 -159.3335 4.5521793 143.92336 -23.442276 15.447641 -8.2443943 -30.340099
1620000000 -6.2633853 173.35698 4.80018 41.179169 -23.25614 -77.684418 -6.915092 -95.003799
1629500000 -6.238534 146.67696 4.6713934 -61.800911 -23.441978 -170.99281 -7.0848346 -159.8129
1639000000 -5.9984589 116.94263 4.3923812 -163.16144 -23.77037 97.383133 -8.4489975 137.45842
1648500000 -6.0461946 85.624878 4.2638364 97.479362 -23.935797 7.7829971 -9.675662 69.50502
1658000000 -6.3276472 55.510685 4.5841713 -3.0221989 -23.629978 -82.992836 -9.8858805 -8.7344122
1667500000 -6.3328485 27.18758 4.6575971 -106.9567 -23.558043 -177.23814 -8.9713316 -85.437172
1677000000 -6.0162616 -2.0255737 4.2089596 150.96243 -24.010551 90.332642 -7.945116 -152.07806
1686500000 -5.8658829 -31.880762 4.0216422 52.159378 -24.192753 1.1272899 -7.4288006 147.11021
1696000000 -5.9612823 -60.119694 4.3250093 -48.269176 -23.881409 -89.777351 -7.7357373 85.014938
1705500000 -5.8878684 -86.377884 4.363358 -152.08673 -23.842276 175.90257 -9.1541319 16.895269
1715000000 -5.5732045 -113.59647 3.8889709 106.25432 -24.343264 83.783157 -10.744006 -60.477657
1724500000 -5.4755569 -142.08746 3.8334212 7.8968635 -24.434454 -5.0517082 -10.452091 -141.62573
1734000000 -5.694428 -169.78212 4.1827655 -93.76004 -24.128052 -97.109032 -8.5564976 146.07413
1743500000 -5.8127575 164.22372 4.0359154 162.7225 -24.328621 168.95001 -7.1057215 78.851654
1753000000 -5.5720553 137.05571 3.725338 61.773487 -24.696135 77.660568 -7.3865495 14.832
1762500000 -5.4007535 107.67907 3.5384266 -39.051762 -24.929352 -13.547656 -8.5562449 -45.726128
1772000000 -5.4954624 77.923775 3.3178344 -138.06082 -25.183683 -102.94371 -9.5935297 -113.37897
1781500000 -5.6272607 49.255596 3.648941 122.15568 -24.877117 166.81529 -10.171623 168.28558
1791000000 -5.5181437 20.941298 3.620997 18.430511 -24.933258 72.593521 -9.564271 92.955009
1800500000 -5.363533 -7.972466 3.1548305 -81.180061 -25.419271 -17.636942 -8.4194765 25.659714
1810000000 -5.3753123 -36.221863 3.4572721 179.81505 -25.134058 -107.32966 -7.958662 -37.452213
1819500000 -5.3647442 -62.739899 3.5274773 75.764412 -25.104443 157.89355 -8.4044523 -101.97232
1829000000 -5.0855498 -89.136063 2.9981782 -25.556046 -25.684261 65.892822 -10.0068 -174.30319
1838500000 -4.8064227 -116.75903 2.8455753 -124.74876 -25.90621 -23.976303 -11.350608 106.9936
1848000000 -4.7861032 -144.53004 2.711771 135.38432 -26.11937 -114.38995 -10.056405 30.151392
1857500000 -4.9402723 -171.2489 2.8951082 36.200298 -26.020266 155.89307 -7.9329882 -40.107719
1867000000 -4.9227324 162.59479 3.0721312 -67.161446 -25.94717 62.118931 -7.1065722 -104.01885
1876500000 -4.772994 135.04271 2.4588053 -168.92546 -26.64291 -29.95845 -7.4523954 -163.40602
1886000000 -4.7841182 106.42021 2.3226893 94.265312 -26.8563 -117.07822 -8.6863384 136.12836
1895500000 -4.9521704 77.805367 2.694905 -6.3160248 -26.532894 152.15262 -10.274234 67.929276
1905000000 -5.0537682 49.479382 2.6194191 -107.99611 -26.655172 60.253677 -10.958457 -13.480703
1914500000 -5.0032172 20.868805 2.7025986 151.55025 -26.60747 -30.41629 -10.088153 -93.1521
1924000000 -4.9770827 -8.00846 2.6892703 49.005161 -26.654795 -123.17207 -8.6341438 -159.86086
1933500000 -5.0113759 -36.276772 2.4990945 -51.61137 -26.871412 146.02101 -7.6903973 136.65778
1943000000 -4.9223332 -63.825962 2.6118453 -153.27896 -26.780914 54.174118 -8.2181654 71.820557
1952500000 -4.7015162 -91.818909 2.2060845 103.53606 -27.227846 -39.152809 -9.665535 5.093173
1962000000 -4.5869584 -120.22197 1.6994289 5.4632192 -27.761158 -127.37651 -10.613765 -68.405228
1971500000 -4.6507969 -148.15274 1.9936544 -92.773491 -27.499138 144.31714 -9.9401398 -144.3277
1981000000 -4.746171 -175.31239 2.2065034 164.80223 -27.309284 51.884911 -8.5172653 145.34189
1990500000 -4.7345424 157.43729 2.0253735 62.931465 -27.510363 -40.009109 -7.8968167 80.880722
2000000000 -4.7294054 129.45752 1.8705038 -37.545101 -27.678986 -130.53523 -8.3087025 20.089111
