!Keysight Technologies,N5242B,MY48420967,A.15.65.19
!Date: Saturday, February 04, 2023 18:06:24
!Correction: S11(C  1-Port  ) 
!S21(Off) 
!S12(Off) 
!S22(Off) 
!S2P File: Measurements: S11, S21, S12, S22:
# Hz S  dB   R 50
100000000 -18.811804 -10.480153 28.01852 11.490946 -34.379387 -86.090065 -23.064703 47.135204
109500000 -17.237585 -13.84718 27.263937 -90.330093 -33.560093 -178.98245 -25.62978 -2.7799487
119000000 -14.133997 -47.755901 26.402411 167.07986 -32.989285 87.495735 -22.843571 -130.85902
128500000 -14.748467 -90.117638 25.504543 66.246979 -32.590546 -4.3641453 -19.633375 142.79805
138000000 -19.560225 -112.30031 24.876856 -34.344925 -31.976288 -96.061111 -18.228317 96.471466
147500000 -18.035578 -99.100586 24.37402 -135.66745 -31.313908 171.39366 -16.838058 49.34626
157000000 -13.751848 -139.14668 23.843199 122.10696 -30.797121 77.966492 -17.724039 0.055780686
166500000 -13.381795 166.38268 23.175879 20.060163 -30.47192 -15.336628 -20.711388 -52.265911
176000000 -16.509069 114.26394 22.516487 -80.69783 -30.179604 -107.41323 -29.133041 -124.21902
185500000 -22.022003 95.932457 22.061764 178.78699 -29.741652 160.75661 -28.943686 79.081627
195000000 -18.026222 99.460396 21.678921 77.466049 -29.276857 68.113594 -21.855659 22.042202
204500000 -14.718815 58.274014 21.214643 -24.392504 -28.945601 -25.118309 -18.133694 -27.188274
214000000 -15.027318 14.934501 20.662449 -125.40316 -28.738134 -117.4306 -17.792986 -81.137672
223500000 -16.683308 -8.8899593 20.276627 134.2769 -28.380787 150.91431 -20.329378 -124.5252
233000000 -15.295876 -22.22183 19.995489 33.254353 -27.969963 58.561893 -22.747232 -167.01515
242500000 -13.810297 -56.305599 19.647984 -68.390938 -27.649265 -34.469578 -29.047966 113.24927
252000000 -15.098452 -95.731041 19.235918 -169.48952 -27.418194 -126.96975 -27.932619 -26.248106
261500000 -18.066771 -113.58658 18.91436 89.788551 -27.11755 140.97238 -22.565908 -93.414398
271000000 -16.163836 -120.84454 18.678158 -11.316941 -26.754902 48.504456 -20.942225 -139.15347
280500000 -13.783178 -161.10883 18.439152 -113.22078 -26.428175 -44.819431 -19.568548 176.46912
290000000 -14.041766 149.17819 18.014008 144.87401 -26.305933 -138.12981 -21.761728 116.16462
299500000 -16.663334 111.12315 17.65995 44.309628 -26.139462 129.96762 -30.969681 74.171371
309000000 -17.766239 100.22338 17.437166 -56.757088 -25.85154 37.585724 -51.878124 -12.517751
318500000 -14.755992 74.417572 17.18602 -158.51056 -25.609903 -55.45755 -26.749065 -171.64586
328000000 -13.516477 33.503395 16.84337 100.08215 -25.479713 -148.16103 -22.679758 128.62105
337500000 -14.725389 0.35045001 16.552141 -0.91590786 -25.301567 119.60063 -22.27002 76.254799
347000000 -15.119499 -14.658299 16.328268 -102.03508 -25.077753 27.11858 -25.355814 19.395506
356500000 -12.811012 -40.678539 16.121485 156.65433 -24.848633 -65.543327 -32.102589 -22.132584
366000000 -12.070269 -81.499382 15.879192 54.852673 -24.662771 -158.73172 -33.447735 -125.30279
375500000 -14.087537 -120.09979 15.552402 -46.222637 -24.577795 108.80789 -25.763758 121.49669
385000000 -16.543329 -134.98685 15.364311 -147.06992 -24.365099 16.486078 -23.905575 47.840313
394500000 -13.793225 -150.97444 15.185899 111.42724 -24.165609 -76.496712 -25.61681 -1.2492081
404000000 -11.549729 167.66666 14.905927 9.5305271 -24.066652 -169.97629 -25.796144 -59.988461
413500000 -11.768876 122.62011 14.533038 -91.00811 -24.071276 98.0196 -26.343008 -169.96161
423000000 -13.454696 89.809532 14.419918 168.61852 -23.855515 6.1222973 -23.733795 89.068459
432500000 -13.21952 73.91275 14.271204 66.743172 -23.662188 -87.15918 -21.181353 32.873329
442000000 -11.153691 46.105312 13.908848 -34.790321 -23.693571 179.86017 -18.607552 -25.42618
451500000 -10.672877 9.3472614 13.655359 -134.95576 -23.621706 88.356743 -19.317514 -86.593491
461000000 -11.714482 -20.526091 13.514313 123.98434 -23.448761 -4.0177202 -20.624571 -147.32294
470500000 -11.792985 -37.68198 13.301157 22.661453 -23.350498 -96.64901 -21.962423 122.37593
480000000 -10.269781 -63.626156 13.118639 -78.344498 -23.217775 171.12668 -22.682089 29.657181
489500000 -9.9113073 -100.25789 12.883317 -179.99934 -23.148069 78.218742 -20.180454 -26.748985
499000000 -11.124304 -134.02205 12.623096 79.669724 -23.105427 -13.347758 -17.370232 -91.594894
508500000 -12.080304 -154.61301 12.603477 -21.579323 -22.831114 -105.87164 -18.488157 -155.79144
518000000 -10.847024 -178.0639 12.391513 -123.99337 -22.746433 160.47321 -20.385754 147.49947
527500000 -9.9526329 146.19279 12.016478 135.08652 -22.837618 68.273285 -22.137415 63.54668
537000000 -10.427574 111.02719 11.900791 34.574818 -22.663965 -23.473398 -21.369682 -31.514875
546500000 -11.099343 87.012032 11.76066 -67.199356 -22.508307 -116.52262 -17.799536 -103.49801
556000000 -10.059451 64.773621 11.471461 -168.57587 -22.496931 150.83153 -16.010763 -168.35457
565500000 -9.0177298 32.417042 11.211923 90.564651 -22.453451 58.688374 -16.315018 138.06494
575000000 -9.4363279 -1.3801043 10.961479 -9.6047783 -22.400848 -32.829826 -16.746864 81.233437
584500000 -10.760349 -24.906652 10.94297 -109.75097 -22.114788 -124.55298 -19.757469 6.0431008
594000000 -10.299724 -41.392967 10.838732 148.54735 -21.924786 141.98862 -23.30154 -83.66127
603500000 -9.0701599 -70.568649 10.494919 47.991844 -22.07609 49.578087 -20.387548 -171.15163
613000000 -9.2833004 -105.82782 10.471118 -51.184231 -21.942738 -41.530663 -18.517536 119.21325
622500000 -10.707671 -135.17241 10.470986 -152.60741 -21.817169 -134.90623 -17.616463 70.286537
632000000 -11.10371 -155.45161 10.271439 106.72447 -21.89959 132.56842 -17.554235 3.9139359
641500000 -10.081388 177.0034 10.220067 6.3516726 -21.812122 40.480717 -22.47205 -69.184082
651000000 -9.8477907 142.35925 10.0711 -95.256325 -21.828203 -52.612362 -24.361906 -151.90469
660500000 -10.519991 111.40577 9.9030075 164.25946 -21.853464 -144.41931 -19.203613 114.31368
670000000 -10.447478 87.576515 9.8575058 62.99752 -21.757833 123.01026 -16.51235 44.363575
679500000 -9.416378 59.468353 9.6641378 -38.390682 -21.80464 30.425098 -15.760611 -9.0356359
689000000 -9.2081404 26.009068 9.5004902 -138.73308 -21.819305 -61.188263 -16.002991 -61.987396
698500000 -10.197588 -3.3604844 9.5246401 120.38303 -21.645634 -153.28094 -18.133186 -122.17187
708000000 -10.616586 -21.760481 9.438139 18.383921 -21.582682 113.45943 -22.298046 154.17772
717500000 -9.3974752 -44.611382 9.1809635 -82.765121 -21.691261 21.049603 -21.4102 41.889122
727000000 -8.8388329 -77.698792 9.0713291 177.19763 -21.64782 -70.30159 -17.37207 -32.369789
736500000 -9.6384611 -111.30898 9.1341238 76.143112 -21.431046 -162.71025 -15.265247 -88.272644
746000000 -10.634842 -136.18817 9.0582705 -26.147116 -21.356796 103.67202 -14.533065 -141.65091
755500000 -10.100904 -160.04419 8.7706461 -127.72894 -21.505775 10.741644 -15.573536 159.37729
765000000 -9.4483013 166.48909 8.5864258 132.09923 -21.551369 -80.791901 -18.651001 90.726479
774500000 -9.8026114 130.99695 8.5837212 31.170784 -21.420099 -173.07727 -20.58329 1.8138344
784000000 -10.477228 103.71183 8.4684353 -70.861794 -21.405376 93.614899 -17.156528 -83.054787
793500000 -9.7576761 80.428925 8.1634216 -172.18633 -21.591799 1.0283667 -14.089707 -150.85239
803000000 -8.6209917 49.065804 7.9640684 87.834251 -21.670233 -90.189178 -13.264038 152.31395
812500000 -8.4960794 14.629667 7.9012332 -12.40929 -21.614552 178.35481 -13.229282 100.71108
822000000 -9.3559036 -13.604554 7.9705667 -113.24443 -21.424768 86.335548 -14.131932 38.963436
831500000 -9.4658556 -33.028942 7.9223423 144.25116 -21.359171 -7.3935246 -17.095728 -37.968945
841000000 -8.4120073 -58.441921 7.5427084 42.671177 -21.620295 -100.19406 -17.837246 -128.21062
850500000 -8.0107393 -90.888954 7.3532815 -56.150368 -21.692678 169.79936 -14.845974 151.5105
860000000 -8.6238136 -122.36135 7.607604 -157.07092 -21.317444 77.69249 -12.946827 88.098366
869500000 -9.2518702 -147.89995 7.4500575 99.69825 -21.354818 -16.759001 -11.868129 33.229946
879000000 -8.8754272 -174.22523 7.0551496 -0.73576498 -21.635851 -108.3959 -12.229638 -28.538458
888500000 -8.5089417 153.90839 7.0842204 -100.5521 -21.487061 160.58717 -14.933029 -93.024445
898000000 -8.8062763 122.18583 7.0201416 157.55547 -21.436401 67.528664 -16.843798 -166.93552
907500000 -9.065835 95.642197 6.8314571 56.537811 -21.510822 -24.625525 -15.265441 101.25898
917000000 -8.4362555 69.621048 6.7015014 -44.492737 -21.529486 -116.75932 -13.262011 25.892473
926500000 -7.7881494 39.405376 6.4619131 -145.12392 -21.65353 151.53044 -11.885658 -31.4694
936000000 -7.8642192 8.8838396 6.4373636 115.47373 -21.555508 61.05061 -11.244988 -88.333961
945500000 -8.3178473 -16.807737 6.5643492 13.770692 -21.322842 -31.773149 -12.185031 -148.84154
955000000 -8.1236086 -39.34914 6.3134413 -88.056152 -21.477276 -124.78604 -14.401392 140.43373
964500000 -7.6238832 -65.671333 6.1460648 172.32515 -21.538456 144.29465 -16.509836 51.437637
974000000 -7.67378 -94.524467 6.1639018 71.764992 -21.443523 52.329678 -15.012992 -31.889671
983500000 -8.1266336 -121.66554 6.0888877 -28.868523 -21.462702 -39.786308 -12.28802 -99.654404
993000000 -8.2202234 -147.38934 6.0697193 -129.66765 -21.442017 -132.08878 -11.443424 -161.40837
1002500000 -8.0883274 -176.13872 5.8997922 129.57176 -21.59174 135.70251 -11.884517 142.30498
1012000000 -8.4281912 153.33893 5.9051838 30.526878 -21.568462 45.21172 -13.337171 78.0644
1021500000 -8.995223 126.40555 6.180778 -71.233871 -21.284073 -47.931038 -16.266977 -0.862216
1031000000 -8.6728287 101.90955 5.9101777 -174.28366 -21.549999 -142.2726 -16.232344 -90.067345
1040500000 -7.8960681 72.515434 5.5300293 86.76339 -21.913824 127.56213 -13.344626 -167.93222
1050000000 -7.7737961 40.27533 5.7944903 -12.07412 -21.630238 37.565243 -11.581352 128.98161
1059500000 -8.3922052 11.722746 6.0423508 -114.61643 -21.359884 -56.16061 -10.781675 71.954514
1069000000 -8.5150528 -9.7349224 5.8438416 142.39603 -21.519243 -150.297 -11.22914 9.2465506
1078500000 -7.6928945 -34.117359 5.4919019 41.921841 -21.835346 118.08927 -13.642178 -60.164185
1088000000 -7.3312311 -63.886345 5.4372253 -57.462944 -21.853113 27.565241 -15.840829 -139.76508
1097500000 -7.8365488 -93.489265 5.5627341 -157.905 -21.700525 -63.988266 -14.457606 135.82245
1107000000 -8.4646969 -118.17562 5.6485515 100.27184 -21.582705 -156.93246 -12.05127 61.642929
1116500000 -8.3174047 -142.7515 5.5122705 -1.7556362 -21.696665 109.99557 -11.260943 -1.506588
1126000000 -8.1953068 -172.53139 5.2828302 -102.23276 -21.919506 18.508688 -11.324544 -59.229961
1135500000 -8.6517143 156.67471 5.3879771 158.18364 -21.804777 -72.075264 -12.2831 -124.12778
1145000000 -9.0196285 129.92282 5.5856776 55.509411 -21.596119 -165.71103 -14.405643 159.73969
1154500000 -8.536931 102.8821 5.2237468 -47.295979 -21.952074 100.60264 -14.588219 76.954475
1164000000 -8.0360222 70.855301 4.9311466 -145.87099 -22.234608 11.129972 -12.363894 1.0066196
1173500000 -8.1509666 38.081158 5.3062458 114.37445 -21.844303 -79.503548 -10.563448 -63.212002
1183000000 -8.5752478 10.904654 5.4633899 10.558992 -21.65943 -174.21893 -9.6343813 -122.03822
1192500000 -8.2252121 -12.541765 5.0715356 -92.390167 -22.016394 91.933464 -10.062653 176.67496
1202000000 -7.5323234 -40.785168 4.6747465 167.88829 -22.383505 1.2709905 -12.015843 113.1986
1211500000 -7.4250851 -71.683945 4.6848812 69.225166 -22.347242 -88.339752 -14.066673 39.912861
1221000000 -7.9604635 -99.974892 5.0024781 -31.768703 -21.994652 179.73807 -13.995421 -46.561802
1230500000 -8.3451471 -124.02266 4.9884744 -135.20461 -21.99082 85.393372 -11.998397 -124.4146
1240000000 -8.1023293 -150.34804 4.635457 123.34453 -22.338266 -6.9171367 -10.493876 170.32256
1249500000 -7.977489 179.48959 4.5403357 23.697781 -22.429638 -97.373886 -10.071487 110.9515
1259000000 -8.2466698 149.6601 4.6560178 -77.160812 -22.310862 171.0558 -10.554133 50.399879
1268500000 -8.3967447 121.57674 4.6618514 -179.32204 -22.301416 78.231377 -12.087591 -17.836842
1278000000 -8.0985727 91.979462 4.4483619 79.07682 -22.512045 -14.023617 -13.466237 -95.922874
1287500000 -7.8796816 60.838497 4.3611174 -20.604059 -22.579794 -104.3312 -12.496141 -177.0956
1297000000 -8.0041275 31.624163 4.6423535 -122.00555 -22.276018 163.62495 -10.644337 111.29327
1306500000 -7.9510255 5.7235394 4.5154672 133.85695 -22.378923 68.760765 -9.4983368 48.964149
1316000000 -7.4211073 -20.994385 3.944139 33.103592 -22.917805 -22.78826 -9.4340143 -11.497018
1325500000 -7.0659766 -49.682903 3.873981 -64.928886 -22.953896 -111.67937 -10.703521 -72.738365
1335000000 -7.2245264 -77.532166 4.1128864 -165.50482 -22.686756 156.793 -12.551873 -140.5685
1344500000 -7.4977012 -102.53584 4.1387472 92.561829 -22.645609 63.876122 -13.562323 135.19562
1354000000 -7.3614302 -127.62041 3.986975 -8.8115654 -22.793903 -28.577625 -12.503482 50.88393
1363500000 -7.2371988 -155.38235 3.8503609 -108.75779 -22.952717 -119.56715 -10.71668 -17.62525
1373000000 -7.528059 176.62505 4.0368505 151.26102 -22.795357 149.40176 -9.5502558 -80.184074
1382500000 -7.8229365 150.89308 4.1619873 48.382507 -22.714319 55.575294 -9.720768 -143.46964
1392000000 -7.5218334 124.11252 3.7648921 -53.561417 -23.160364 -37.31699 -11.16282 149.40405
1401500000 -7.1546559 93.746666 3.5564368 -152.2332 -23.418316 -126.86056 -12.763994 74.961433
1411000000 -7.2595639 62.726559 3.7726738 108.17899 -23.24839 142.70552 -12.247424 -3.7979529
1420500000 -7.6527386 34.947987 4.0103431 6.1913776 -23.047083 49.923004 -10.19599 -78.305702
1430000000 -7.4343967 10.122255 3.8931885 -97.280617 -23.196913 -44.363754 -9.2725344 -145.31749
1439500000 -6.822711 -17.008743 3.3799207 161.37953 -23.752724 -136.56064 -9.5251465 155.66428
1449000000 -6.6363206 -45.793129 3.1440094 63.689392 -24.03483 134.92805 -10.410316 95.977257
1458500000 -6.8976378 -73.26194 3.5315101 -35.578281 -23.694851 44.838886 -12.102747 25.997501
1468000000 -7.0389752 -97.8134 3.7194624 -138.63733 -23.564875 -49.007088 -13.417137 -59.614868
1477500000 -6.8311372 -122.78571 3.4397771 119.38365 -23.906551 -141.77202 -12.12576 -144.20691
1487000000 -6.8091173 -150.11792 3.3130124 19.909536 -24.095642 128.08765 -10.001722 146.48468
1496500000 -7.0455852 -177.5412 3.535449 -80.749893 -23.939625 36.837124 -8.746212 83.83786
1506000000 -7.0779157 156.08856 3.5240197 176.25308 -24.017427 -56.694168 -8.8906384 22.294847
1515500000 -6.9018092 127.90829 3.1594062 75.261162 -24.433527 -148.18684 -10.179232 -40.65004
1525000000 -6.9511046 97.187706 3.1331918 -23.472364 -24.508209 122.62955 -11.696966 -110.20802
1534500000 -7.2529774 66.84082 3.4368436 -124.21 -24.240923 31.4816 -11.76987 170.94104
1544000000 -7.3939428 39.54697 3.548722 132.83083 -24.158863 -61.911533 -10.424069 92.932045
1553500000 -7.0948091 12.211552 3.30934 30.068146 -24.427135 -155.17909 -9.6002083 25.835827
1563000000 -6.8188205 -17.418165 2.9090087 -70.178215 -24.850756 114.07271 -9.3478479 -33.205589
1572500000 -6.8368096 -46.60096 2.9924788 -168.37796 -24.796873 25.310915 -9.7443399 -94.490463
1582000000 -6.9683042 -72.892876 3.3970175 89.491783 -24.428263 -67.375069 -11.241199 -163.93628
1591500000 -6.8374562 -98.559326 3.1365569 -14.105347 -24.732752 -161.54828 -12.581578 116.18618
1601000000 -6.6681643 -126.63115 2.8013828 -113.32825 -25.125074 108.71939 -11.795775 34.97002
1610500000 -6.7826929 -155.42686 3.0497153 147.1631 -24.939604 18.728003 -9.9182186 -34.172222
1620000000 -7.0971909 177.39964 3.2291336 44.685978 -24.821821 -74.126122 -8.5196104 -97.348015
1629500000 -7.156395 150.6114 3.1008267 -57.763332 -25.004555 -166.89983 -8.67171 -160.12981
1639000000 -7.0207038 121.18071 2.8752453 -158.9668 -25.27688 101.59414 -10.143539 137.9814
1648500000 -7.0609412 90.356102 2.7593269 101.34541 -25.433962 11.693463 -11.718029 69.193039
1658000000 -7.2941613 60.487343 2.9991436 0.79222262 -25.206295 -79.166527 -12.093884 -11.991457
1667500000 -7.3306842 31.88007 3.0423088 -102.56953 -25.167704 -172.81403 -10.875393 -90.009911
1677000000 -7.0693512 2.5644004 2.6512427 155.56557 -25.561073 94.969414 -9.5835953 -155.66104
1686500000 -6.8908234 -27.08782 2.4673095 56.439594 -25.736513 5.4472928 -9.0080557 144.89059
1696000000 -6.9282956 -55.340984 2.687638 -43.964756 -25.515511 -85.4039 -9.4717083 84.240997
1705500000 -6.8621092 -81.984688 2.6995537 -147.12958 -25.491924 -179.06902 -11.243693 17.206053
1715000000 -6.5943713 -109.17026 2.2947557 111.44003 -25.929733 89.024467 -13.198075 -61.98642
1724500000 -6.4969916 -137.27281 2.2387214 12.75226 -26.024179 -0.13662556 -12.609172 -147.0125
1734000000 -6.6831822 -164.9187 2.5190694 -88.813255 -25.782551 -92.164345 -10.323418 140.5817
1743500000 -6.8113203 168.62657 2.3456271 168.1626 -26.012934 174.44473 -8.755722 75.77372
1753000000 -6.6582747 141.48593 2.0638494 67.588196 -26.346577 83.485939 -8.9281349 13.960042
1762500000 -6.5522571 112.53566 1.9263024 -33.091015 -26.530447 -7.5045691 -10.193449 -45.718147
1772000000 -6.6533074 82.82972 1.7189869 -132.46661 -26.769987 -97.289879 -11.561628 -113.24703
1781500000 -6.7591991 53.860733 1.9653599 127.84192 -26.547615 172.57487 -12.316378 166.59692
1791000000 -6.6767211 25.410755 1.9534255 24.723263 -26.591223 78.94709 -11.511464 89.776573
1800500000 -6.5601063 -3.5972388 1.5333428 -75.100052 -27.031923 -11.518019 -10.149607 23.422844
1810000000 -6.5374632 -32.295788 1.7521474 -174.14349 -26.833523 -101.25401 -9.6331358 -38.268578
1819500000 -6.4870238 -59.359009 1.8001478 82.549774 -26.818914 164.74831 -10.247539 -100.91297
1829000000 -6.2683625 -85.811485 1.345618 -18.440559 -27.322336 73.058716 -12.09235 -171.8596
1838500000 -6.0472612 -113.27952 1.2292324 -117.68979 -27.514088 -16.848248 -13.617495 106.78965
1848000000 -5.9971137 -141.10867 1.1194581 142.27083 -27.70026 -107.44128 -12.052307 27.2099
1857500000 -6.1054177 -167.97989 1.2445401 42.9753 -27.663387 162.68687 -9.608696 -42.103439
1867000000 -6.1463656 165.85454 1.4047691 -59.766403 -27.598497 69.534164 -8.5950956 -104.27719
1876500000 -6.0825047 138.51054 0.89431465 -161.43529 -28.206039 -22.416391 -8.8932743 -162.02164
1886000000 -6.1109896 110.05396 0.75230104 101.15979 -28.413172 -110.12936 -10.238236 138.75703
1895500000 -6.2617745 81.537033 1.0541564 0.64710587 -28.163012 159.15201 -12.259768 70.815598
1905000000 -6.3788338 53.238426 0.96585512 -100.87159 -28.292917 67.404747 -13.330055 -13.006684
1914500000 -6.3630824 24.697521 1.0092013 158.7906 -28.298748 -23.162922 -12.124907 -95.215607
1924000000 -6.3314662 -4.1498866 0.99201763 56.612782 -28.338661 -115.54686 -10.399948 -161.84161
1933500000 -6.3242354 -32.580978 0.7915141 -43.968002 -28.562319 153.69299 -9.408391 136.31042
1943000000 -6.2212567 -60.225685 0.86566627 -145.14195 -28.520935 62.368916 -9.9613152 73.069557
1952500000 -6.014246 -87.941246 0.54441887 112.21548 -28.87767 -30.452068 -11.599017 6.7916546
1962000000 -5.8895736 -116.15644 0.10617621 13.686714 -29.346418 -119.13808 -12.739312 -68.347
1971500000 -5.8972034 -144.12097 0.33664349 -84.81163 -29.141821 152.32692 -11.91221 -146.53909
1981000000 -5.949471 -171.2339 0.51313239 173.11275 -28.986853 60.187279 -10.268158 143.42078
1990500000 -5.9733434 161.79012 0.3498596 71.455986 -29.178053 -31.479324 -9.5214615 80.481323
2000000000 -6.0159602 134.03104 0.20245858 -29.046576 -29.33559 -121.95872 -9.9614019 21.001902
