!Keysight Technologies,N5242B,MY48420967,A.15.65.19
!Date: Saturday, February 04, 2023 05:29:55
!Correction: S11(C  1-Port  ) 
!S21(Off) 
!S12(Off) 
!S22(Off) 
!S2P File: Measurements: S11, S21, S12, S22:
# Hz S  dB   R 50
100000000 -17.813465 -13.020441 28.186483 12.48823 -34.206402 -85.183289 -22.591499 45.100636
109500000 -16.705528 -16.453684 27.449505 -89.391998 -33.381992 -177.85141 -25.077267 -2.306392
119000000 -13.655019 -48.792519 26.595425 167.95436 -32.798519 88.354111 -22.685122 -126.91395
128500000 -14.171228 -91.070648 25.702702 67.098282 -32.372021 -3.4733624 -19.78167 145.21581
138000000 -18.911612 -115.20971 25.080267 -33.528053 -31.775055 -95.239861 -18.383425 99.171219
147500000 -17.849459 -101.19532 24.581268 -134.83438 -31.116293 172.17619 -16.862549 52.256134
157000000 -13.398647 -139.95811 24.06617 122.94617 -30.579741 78.793579 -17.60446 3.4063318
166500000 -12.843701 165.48715 23.412767 20.802511 -30.21944 -14.609483 -20.367281 -48.258358
176000000 -15.735024 112.77892 22.751019 -80.048431 -29.942169 -106.75338 -28.4555 -114.58436
185500000 -21.111156 91.016632 22.291239 179.42168 -29.518118 161.37151 -30.603531 82.28717
195000000 -17.691465 95.863014 21.910837 78.123001 -29.054193 68.797638 -22.523069 24.172443
204500000 -14.251744 55.769386 21.454142 -23.756037 -28.709917 -24.448986 -18.424452 -25.078041
214000000 -14.405132 11.955106 20.902998 -124.79987 -28.494328 -116.81246 -17.990345 -79.30629
223500000 -16.086437 -13.452061 20.519373 134.87083 -28.148888 151.4834 -20.52619 -121.55152
233000000 -14.934879 -26.467916 20.239992 33.83749 -27.729145 59.077278 -22.687933 -162.32269
242500000 -13.363873 -60.123581 19.895981 -67.814247 -27.398355 -33.934288 -29.082796 122.48413
252000000 -14.47509 -100.56683 19.486996 -168.93927 -27.17378 -126.38395 -29.178677 -24.398067
261500000 -17.590425 -121.29765 19.162848 90.321449 -26.865557 141.44803 -23.252459 -92.449463
271000000 -16.093779 -126.48421 18.925814 -10.753442 -26.507023 48.999077 -21.484692 -136.40669
280500000 -13.447393 -165.32617 18.694227 -112.63414 -26.178766 -44.299763 -19.75769 -179.49783
290000000 -13.41355 144.89806 18.27338 145.44095 -26.043148 -137.55133 -21.827183 121.16761
299500000 -15.844228 105.49009 17.923363 44.866894 -25.866564 130.53265 -30.164907 88.791168
309000000 -17.292868 93.460625 17.697788 -56.215187 -25.589479 38.089111 -39.961494 62.532444
318500000 -14.361846 70.158051 17.448217 -157.90979 -25.354002 -54.906303 -28.873951 -169.82602
328000000 -12.985114 30.054335 17.117609 100.69389 -25.203075 -147.53777 -23.964174 131.24298
337500000 -14.147766 -3.774816 16.828705 -0.34965023 -25.020176 120.03461 -23.375835 81.671257
347000000 -14.748757 -18.876669 16.601303 -101.4227 -24.80718 27.715958 -26.791201 30.500395
356500000 -12.438726 -43.453835 16.409349 157.35083 -24.560555 -64.857559 -32.073559 12.294394
366000000 -11.555772 -84.113564 16.189442 55.472561 -24.352692 -158.09947 -36.420929 -78.357811
375500000 -13.457077 -123.67727 15.85839 -45.724598 -24.275255 109.25731 -28.730528 122.0744
385000000 -16.105354 -139.75595 15.657379 -146.54755 -24.07663 16.976871 -26.351936 45.72205
394500000 -13.469178 -153.67963 15.484032 112.08331 -23.868395 -75.848091 -28.846325 6.2890606
404000000 -11.055462 165.70245 15.232103 10.19674 -23.739515 -169.28465 -28.42293 -46.886211
413500000 -11.131337 120.45596 14.870708 -90.461548 -23.739027 98.561928 -29.517916 -176.34462
423000000 -12.790131 86.983353 14.754369 169.07324 -23.518055 6.6117358 -25.047495 75.989479
432500000 -12.701597 71.128235 14.596699 67.219345 -23.342737 -86.740204 -22.597914 25.854279
442000000 -10.61778 43.957756 14.243643 -34.246876 -23.358606 -179.58633 -19.638334 -28.701815
451500000 -10.049143 7.0893555 14.008754 -134.46814 -23.272034 88.809715 -20.459534 -89.664146
461000000 -11.065904 -23.415804 13.861436 124.35281 -23.099783 -3.6432464 -21.968166 -149.46181
470500000 -11.238718 -40.758785 13.638227 23.101879 -23.01206 -96.21627 -23.094477 115.57679
480000000 -9.6958885 -66.26149 13.474674 -77.835739 -22.864143 171.6124 -23.363878 19.278107
489500000 -9.2275162 -102.96885 13.250678 -179.61935 -22.782171 78.56987 -20.934273 -32.093121
499000000 -10.35743 -137.34035 12.982736 80.028069 -22.74972 -13.025309 -17.802635 -95.321732
508500000 -11.376047 -158.4664 12.96487 -21.2283 -22.469105 -105.52248 -19.096535 -160.19827
518000000 -10.186846 178.66554 12.751203 -123.63082 -22.393499 160.82916 -21.281805 144.26918
527500000 -9.2150431 143.3158 12.383095 135.49532 -22.472858 68.711998 -22.856808 57.904625
537000000 -9.627409 108.01855 12.278969 34.926422 -22.287952 -23.126209 -21.605856 -38.139751
546500000 -10.354995 83.653152 12.129456 -66.875359 -22.142269 -116.2092 -17.918041 -107.77155
556000000 -9.3887959 61.813923 11.843486 -168.15308 -22.127644 151.2426 -16.140751 -172.02695
565500000 -8.311801 29.767731 11.602473 90.973152 -22.06501 59.109276 -16.629868 134.81108
575000000 -8.6794519 -4.3638077 11.353228 -9.2367105 -22.010897 -32.475956 -17.094868 78.204964
584500000 -10.0582 -28.68269 11.341283 -109.39158 -21.71863 -124.1982 -20.21365 0.1372177
594000000 -9.7202225 -44.946732 11.234861 148.89679 -21.531487 142.32112 -23.650639 -93.6623
603500000 -8.4419518 -73.652199 10.897669 48.438892 -21.671288 50.021507 -20.278715 -177.99377
613000000 -8.5642557 -109.21088 10.906677 -50.7831 -21.508493 -41.139458 -18.455112 112.94362
622500000 -9.9772596 -139.3414 10.895995 -152.40002 -21.39753 -134.69238 -17.893171 65.277939
632000000 -10.465927 -159.63945 10.685035 107.04469 -21.492243 132.84436 -17.788317 -1.7259696
641500000 -9.4320135 173.46863 10.655478 6.7179623 -21.377592 40.843872 -22.97827 -80.503906
651000000 -9.1266699 138.8741 10.511329 -94.981873 -21.389673 -52.356522 -24.479288 -164.62524
660500000 -9.7918825 107.65913 10.345298 164.55444 -21.415642 -144.18071 -18.726662 107.65613
670000000 -9.7929993 84.045074 10.305548 63.285324 -21.312468 123.27846 -16.180811 38.7327
679500000 -8.7635603 56.428196 10.119819 -38.071602 -21.356239 30.711723 -15.713498 -14.522316
689000000 -8.511075 22.830011 9.9752626 -138.4315 -21.34519 -60.887222 -16.154194 -67.716576
698500000 -9.5269861 -7.1462231 10.007663 120.5498 -21.163647 -153.13356 -18.492464 -130.01031
708000000 -10.082512 -25.481525 9.9057798 18.509253 -21.119741 113.59634 -22.334089 140.36679
717500000 -8.8630829 -47.699001 9.6484089 -82.494576 -21.223604 21.308947 -20.278975 32.621559
727000000 -8.2166386 -80.861298 9.5714025 177.52596 -21.149733 -69.971085 -16.577606 -38.140823
736500000 -8.9742308 -115.12794 9.6574554 76.286575 -20.909065 -162.54108 -14.809925 -93.919777
746000000 -10.040187 -140.34262 9.5680838 -26.144579 -20.853912 103.66357 -14.348834 -147.50307
755500000 -9.5169296 -163.65785 9.2703943 -127.63888 -21.007883 10.805489 -15.528342 152.57253
765000000 -8.7772779 163.02435 9.1099167 132.25896 -21.028078 -80.664352 -18.55529 81.019043
774500000 -9.0798111 127.18308 9.1277494 31.169313 -20.876347 -173.06293 -19.847904 -8.6171503
784000000 -9.813818 99.71843 8.998805 -70.993736 -20.88135 93.476593 -16.381668 -88.902184
793500000 -9.1321144 77.011314 8.6819162 -172.23848 -21.07505 0.98339605 -13.543726 -155.17191
803000000 -7.9397769 45.898746 8.5025692 87.860268 -21.135576 -90.155655 -12.90648 147.98955
812500000 -7.7673869 11.106792 8.4580345 -12.474895 -21.057335 178.27774 -12.999377 96.185905
822000000 -8.6760979 -17.704477 8.5353146 -113.43574 -20.862726 86.124001 -13.881633 33.210163
831500000 -8.8757305 -36.952843 8.4712572 143.93558 -20.812635 -7.7197785 -16.645077 -45.858883
841000000 -7.7797012 -62.053234 8.0728655 42.459763 -21.093662 -100.41495 -16.9611 -134.14348
850500000 -7.2958751 -94.757408 7.9086099 -56.188305 -21.137651 169.73439 -14.04154 148.33464
860000000 -7.8717246 -126.82919 8.1963902 -157.31923 -20.72875 77.417862 -12.335715 85.056984
869500000 -8.5301142 -152.64236 8.0107365 99.292763 -20.800381 -17.167015 -11.38905 30.09866
879000000 -8.1322718 -178.72891 7.6071954 -0.96762234 -21.086843 -108.64127 -11.75025 -32.452805
888500000 -7.7022057 149.46375 7.6667576 -100.79752 -20.908236 160.33231 -14.382574 -98.352318
898000000 -7.9699507 117.51299 7.5944333 157.18448 -20.865135 67.141541 -15.972424 -172.07329
907500000 -8.2617712 90.960724 7.4048977 56.210163 -20.939346 -24.963089 -14.233499 98.823036
917000000 -7.6480761 65.33902 7.276423 -44.856098 -20.956957 -117.14687 -12.460364 24.319595
926500000 -6.9769425 35.26096 7.0246162 -145.41534 -21.092165 151.23178 -11.23579 -33.062832
936000000 -7.0424733 4.4692745 7.0234079 115.32959 -20.972857 60.903465 -10.60941 -90.548798
945500000 -7.5479922 -21.527252 7.1713047 13.491377 -20.723648 -32.048531 -11.498043 -152.18491
955000000 -7.4106288 -43.912617 6.9070349 -88.359894 -20.886499 -125.12177 -13.489157 136.05438
964500000 -6.8979392 -70.160065 6.7491579 172.13287 -20.939709 144.08907 -15.226027 48.599899
974000000 -6.9189687 -99.316223 6.7807178 71.563461 -20.829676 52.117847 -13.894494 -32.124683
983500000 -7.3823504 -126.83111 6.7209315 -29.027912 -20.834249 -39.96207 -11.389499 -99.951469
993000000 -7.4907026 -152.54488 6.7177892 -129.92059 -20.798021 -132.35884 -10.663114 -162.64856
1002500000 -7.3223991 178.73351 6.5382972 129.34912 -20.960508 135.44997 -11.12229 140.1945
1012000000 -7.636888 147.9241 6.5803041 30.460049 -20.896139 45.145214 -12.40532 74.787766
1021500000 -8.2642889 120.87083 6.8925915 -71.607178 -20.574429 -48.303757 -14.961433 -4.5281873
1031000000 -7.979063 97.019043 6.5835514 -174.83229 -20.880405 -142.82379 -14.859596 -90.6595
1040500000 -7.1556697 68.05114 6.1918087 86.499298 -21.251995 127.29877 -12.315542 -167.53706
1050000000 -7.0055199 35.645885 6.5070844 -12.23411 -20.922775 37.36541 -10.724023 128.71281
1059500000 -7.6982136 6.6820254 6.7854156 -114.98235 -20.62056 -56.523643 -9.9517975 70.623291
1069000000 -7.9405665 -14.275362 6.581008 141.81837 -20.785763 -150.88321 -10.350166 6.3909316
1078500000 -7.08639 -38.100857 6.2081785 41.397572 -21.120085 117.56573 -12.605968 -64.258331
1088000000 -6.6748867 -68.11515 6.1689754 -57.822731 -21.124439 27.171307 -14.452568 -142.8329
1097500000 -7.1968732 -98.33947 6.3352332 -158.23584 -20.926908 -64.356812 -13.083757 135.40096
1107000000 -7.9099555 -123.11792 6.4530611 99.691887 -20.778376 -157.52519 -10.913632 61.18261
1116500000 -7.7493863 -147.29773 6.2999587 -2.5369091 -20.909824 109.20362 -10.298918 -2.8706219
1126000000 -7.5632892 -177.24348 6.0580797 -102.89278 -21.147387 17.823442 -10.377721 -61.385868
1135500000 -8.0140581 151.57758 6.2090139 157.58296 -20.9865 -72.708946 -11.172061 -127.38171
1145000000 -8.4287062 125.05067 6.4251313 54.520828 -20.763193 -166.69928 -13.011649 156.29185
1154500000 -7.8938103 98.524513 6.0122857 -48.396152 -21.170452 99.48143 -13.125807 76.047928
1164000000 -7.3183498 66.436455 5.7154303 -146.62212 -21.450853 10.361026 -11.177102 1.4468518
1173500000 -7.4319086 33.247219 6.1520867 113.64951 -21.001638 -80.253899 -9.5506134 -63.148174
1183000000 -7.9585137 5.9995618 6.3295441 9.5027838 -20.795258 -175.27542 -8.6571159 -122.9976
1192500000 -7.6271319 -16.855993 5.9052672 -93.640488 -21.18696 90.671944 -9.0691786 174.34538
1202000000 -6.87044 -45.140701 5.4812732 166.83315 -21.584898 0.19603367 -10.890543 110.02932
1211500000 -6.7404733 -76.612862 5.5223298 68.459824 -21.511372 -89.097839 -12.557407 37.493076
1221000000 -7.3370156 -105.5858 5.9067984 -32.632793 -21.097668 178.84924 -12.341909 -45.895592
1230500000 -7.7944083 -129.57065 5.9032173 -136.46483 -21.073847 84.117226 -10.6426 -122.81651
1240000000 -7.4975119 -155.75034 5.5181966 121.99208 -21.45479 -8.2840977 -9.3618956 171.17253
1249500000 -7.3119097 173.71747 5.4228234 22.479906 -21.54908 -98.585922 -8.9982262 111.03862
1259000000 -7.5756803 143.47104 5.5675144 -78.363983 -21.403004 169.83278 -9.3721552 49.692837
1268500000 -7.7233562 115.42707 5.5874619 179.27087 -21.378984 76.787392 -10.675508 -18.93284
1278000000 -7.3735132 85.997452 5.3489027 77.619041 -21.613829 -15.471801 -11.841445 -95.342308
1287500000 -7.1244798 54.724075 5.2732487 -21.815928 -21.676521 -105.55139 -11.037176 -174.28561
1297000000 -7.295455 25.362448 5.6116614 -123.32161 -21.308992 162.28624 -9.4216642 114.08995
1306500000 -7.2989812 -0.16385278 5.4766989 132.18922 -21.421289 67.08992 -8.3381443 50.627174
1316000000 -6.7427621 -26.52817 4.8670292 31.519585 -21.995968 -24.367254 -8.2680206 -11.254079
1325500000 -6.3716669 -55.370205 4.8156562 -66.244911 -22.014973 -113.01494 -9.4175014 -73.297722
1335000000 -6.5748978 -83.601212 5.1010208 -166.76456 -21.701927 155.50943 -10.898673 -140.9563
1344500000 -6.9269738 -108.54726 5.1743374 91.10981 -21.612192 62.391476 -11.621907 137.0965
1354000000 -6.7788863 -133.3172 5.0185132 -10.549474 -21.770061 -30.30167 -10.890919 54.674458
1363500000 -6.6185532 -161.20837 4.8689618 -110.39725 -21.935452 -121.22994 -9.3981552 -14.349201
1373000000 -6.9391909 170.54201 5.1094456 149.69754 -21.728012 147.82455 -8.280757 -78.139595
1382500000 -7.273118 145.21066 5.272172 46.376854 -21.60815 53.521133 -8.3667555 -142.88219
1392000000 -6.8877692 118.967 4.8291488 -55.852497 -22.099297 -39.610012 -9.669858 149.04785
1401500000 -6.4427943 88.516151 4.5922518 -154.30005 -22.384346 -128.94928 -11.110814 75.816597
1411000000 -6.564507 57.228409 4.8460102 106.39081 -22.184191 140.92114 -10.641766 -0.67183596
1420500000 -7.0556002 29.713037 5.1702538 4.2276258 -21.889084 47.94223 -8.7632704 -75.500893
1430000000 -6.8367047 5.9046826 5.0530148 -99.900124 -22.042395 -47.030964 -7.9987202 -144.20221
1439500000 -6.155551 -21.020897 4.4615736 158.68225 -22.67103 -139.26152 -8.298274 155.49571
1449000000 -5.9743629 -50.078102 4.2246528 61.493198 -22.950565 132.69237 -9.0387001 94.762131
1458500000 -6.312933 -77.624245 4.7058382 -37.716808 -22.522877 42.68116 -10.340528 24.302368
1468000000 -6.5007033 -101.61475 4.9317589 -141.33424 -22.358183 -51.729347 -11.325472 -59.159096
1477500000 -6.2386842 -126.30289 4.609405 116.41693 -22.735928 -144.75011 -10.377544 -141.53072
1487000000 -6.1866865 -153.80249 4.4746227 17.093798 -22.936506 125.2888 -8.6031046 148.62451
1496500000 -6.4335494 178.80911 4.7409921 -83.662216 -22.734669 33.897842 -7.4650955 84.572662
1506000000 -6.4232564 152.74979 4.7217698 172.94046 -22.816092 -60.043873 -7.6186547 21.508156
1515500000 -6.1655703 124.43669 4.3041234 71.972443 -23.292486 -151.50314 -8.8181458 -42.420231
1525000000 -6.1934319 93.359978 4.2878036 -26.412357 -23.35342 119.70374 -10.093452 -111.50966
1534500000 -6.5428286 62.967823 4.6612291 -127.10658 -23.023392 28.540073 -9.9980707 171.59348
1544000000 -6.7099638 36.248833 4.8168349 129.47368 -22.896336 -65.280907 -8.8279552 94.129921
1553500000 -6.3409595 9.1595554 4.5351295 26.332354 -23.201637 -158.90108 -8.2373343 26.384789
1563000000 -6.0456967 -20.759321 4.0857596 -73.696182 -23.675598 110.51852 -8.0324392 -33.431568
1572500000 -6.1177735 -50.151817 4.2249904 -171.53784 -23.56472 22.1621 -8.2946844 -95.693466
1582000000 -6.3015628 -76.20002 4.7045155 85.915001 -23.125809 -70.99543 -9.4982519 -165.66322
1591500000 -6.1198659 -101.74242 4.4020033 -18.148352 -23.467882 -165.58357 -10.586551 116.13028
1601000000 -5.9108863 -130.23404 4.0272808 -117.14152 -23.90321 104.8898 -10.061533 37.391552
1610500000 -6.0507398 -159.46657 4.3209362 143.55338 -23.672375 15.121436 -8.4803782 -31.440931
1620000000 -6.3998623 173.35468 4.5586138 40.856312 -23.497627 -77.986832 -7.1448932 -95.869141
1629500000 -6.3934116 146.66861 4.431673 -62.030453 -23.676081 -171.18916 -7.3193927 -160.28928
1639000000 -6.182611 116.84208 4.1633515 -163.35281 -23.99308 97.202339 -8.6978598 137.19537
1648500000 -6.2190642 85.55912 4.0439162 97.247459 -24.144747 7.5609522 -9.9791594 69.116707
1658000000 -6.4864135 55.6049 4.3584051 -3.3026111 -23.852663 -83.240746 -10.229115 -9.5989828
1667500000 -6.5072703 27.282948 4.4260664 -107.18636 -23.79072 -177.41545 -9.2752371 -86.561356
1677000000 -6.2052665 -2.0507686 3.9859748 150.76816 -24.235106 90.204269 -8.1999388 -153.10928
1686500000 -6.0466447 -31.902042 3.8035378 51.908184 -24.405291 0.91147959 -7.6652493 146.24391
1696000000 -6.1366868 -60.097279 4.0953813 -48.549084 -24.106752 -90.013611 -7.9896274 84.353073
1705500000 -6.0674963 -86.433983 4.1283097 -152.26904 -24.069847 175.77354 -9.4500351 16.42906
1715000000 -5.7583585 -113.715 3.6695337 106.11391 -24.555946 83.685333 -11.084465 -61.085499
1724500000 -5.6681523 -142.17064 3.6197567 7.663403 -24.650928 -5.2441387 -10.761889 -142.71263
1734000000 -5.8931084 -169.88048 3.956774 -94.023331 -24.343313 -97.33683 -8.8191299 144.88332
1743500000 -5.9990821 164.01816 3.8041639 162.52827 -24.558279 168.8134 -7.3592772 77.920006
1753000000 -5.7567835 136.86929 3.4996462 61.625408 -24.915304 77.535851 -7.6301441 14.224648
1762500000 -5.6061645 107.55798 3.3192952 -39.187416 -25.142282 -13.611721 -8.8085203 -46.212406
1772000000 -5.7090392 77.718987 3.1058085 -138.2491 -25.390331 -103.0743 -9.8904448 -113.93941
1781500000 -5.8158593 49.026379 3.4289544 121.92594 -25.093079 166.63698 -10.497428 167.40483
1791000000 -5.7049885 20.837894 3.4010704 18.250669 -25.147501 72.466522 -9.8621111 91.806389
1800500000 -5.5812011 -8.0981913 2.9423895 -81.419373 -25.624111 -17.805227 -8.6797876 24.53396
1810000000 -5.587368 -36.528255 3.2296872 179.51097 -25.359133 -107.57607 -8.207983 -38.518867
1819500000 -5.5401955 -63.050632 3.2875597 75.558838 -25.337315 157.74554 -8.6734457 -102.91579
1829000000 -5.2710476 -89.318413 2.7671466 -25.689089 -25.909697 65.797882 -10.288641 -175.10474
1838500000 -5.0293784 -116.98656 2.6203887 -124.88997 -26.122002 -24.05538 -11.616893 106.02267
1848000000 -5.0043368 -144.9091 2.4921396 135.22388 -26.332312 -114.52663 -10.293239 29.026747
1857500000 -5.1272693 -171.57771 2.6687906 35.97002 -26.24296 155.70506 -8.1616945 -41.1437
1867000000 -5.1138158 162.39473 2.8333414 -67.324814 -26.16848 62.02755 -7.3398757 -104.87268
1876500000 -4.9918704 134.81027 2.2309117 -169.01881 -26.86619 -30.024494 -7.6911325 -164.12859
1886000000 -5.0056796 106.09911 2.0990629 94.109116 -27.075659 -117.15742 -8.9376984 135.39209
1895500000 -5.1550307 77.528732 2.4654224 -6.4662175 -26.752537 152.00761 -10.553788 66.960213
1905000000 -5.2503486 49.302155 2.3934083 -108.13759 -26.871094 60.157139 -11.232062 -14.725763
1914500000 -5.2158422 20.715569 2.4729106 151.37123 -26.838451 -30.552942 -10.310816 -94.37072
1924000000 -5.1987181 -8.2005444 2.4549878 48.848969 -26.882488 -123.31793 -8.8428507 -160.98039
1933500000 -5.2178636 -36.504498 2.2603505 -51.793114 -27.103848 145.89529 -7.9198656 135.63974
1943000000 -5.1118002 -64.001205 2.3574152 -153.40872 -27.036623 54.091286 -8.4710426 70.909264
1952500000 -4.9056573 -91.890015 1.9556298 103.55595 -27.464262 -39.127541 -9.9250784 4.1453691
1962000000 -4.8151035 -120.36469 1.4649571 5.4935274 -27.997358 -127.32292 -10.842685 -69.492859
1971500000 -4.8667698 -148.39232 1.7600887 -92.762688 -27.714865 144.34744 -10.121952 -145.37868
1981000000 -4.9357748 -175.45685 1.9771553 164.84076 -27.533239 51.905243 -8.6920147 144.51311
1990500000 -4.9410539 157.44473 1.8027537 62.948105 -27.729357 -40.001461 -8.0855808 80.258087
2000000000 -4.966517 129.39902 1.6469116 -37.567226 -27.884888 -130.51639 -8.525712 19.50234
