!Keysight Technologies,N5242B,MY48420967,A.15.65.19
!Date: Saturday, February 04, 2023 07:34:55
!Correction: S11(C  1-Port  ) 
!S21(Off) 
!S12(Off) 
!S22(Off) 
!S2P File: Measurements: S11, S21, S12, S22:
# Hz S  dB   R 50
100000000 -18.254072 -16.05088 28.238546 12.357332 -34.160759 -85.387962 -23.401518 42.502254
109500000 -17.188293 -17.481428 27.491344 -89.545357 -33.344376 -178.0836 -26.286497 -2.7721753
119000000 -13.954546 -49.703671 26.633593 167.87285 -32.776192 88.261932 -23.076727 -132.20621
128500000 -14.454189 -92.6306 25.750311 67.043663 -32.339909 -3.6210423 -19.859798 141.01805
138000000 -19.499329 -117.3946 25.132036 -33.637863 -31.722986 -95.40229 -18.654253 96.061485
147500000 -18.344578 -99.786537 24.625221 -134.98691 -31.085003 172.07901 -17.220348 50.351246
157000000 -13.678981 -139.56818 24.099501 122.83408 -30.535376 78.618683 -18.085529 2.447643
166500000 -13.104432 164.91809 23.448679 20.774685 -30.208712 -14.639733 -21.025576 -48.089985
176000000 -16.06144 110.84998 22.798805 -80.06971 -29.898584 -106.80074 -30.138865 -113.80968
185500000 -21.899088 88.232689 22.342154 179.33403 -29.462801 161.36195 -30.326712 70.052917
195000000 -18.238487 96.671295 21.953255 78.007553 -29.018 68.670044 -22.586723 19.405481
204500000 -14.606857 55.709633 21.491825 -23.826784 -28.670668 -24.496815 -18.598066 -27.674532
214000000 -14.763784 11.143829 20.946056 -124.84193 -28.455332 -116.88966 -18.221592 -81.428429
223500000 -16.555477 -14.196913 20.565613 134.79427 -28.097372 151.40468 -20.989635 -123.24534
233000000 -15.333696 -26.208586 20.280848 33.742775 -27.691713 58.987202 -23.351601 -162.4962
242500000 -13.681166 -60.170185 19.933456 -67.877632 -27.36661 -33.940231 -30.48794 120.46478
252000000 -14.832073 -101.19472 19.528109 -168.97618 -27.123463 -126.51412 -29.026323 -33.303619
261500000 -18.139204 -121.52397 19.208738 90.263443 -26.823601 141.42429 -23.174406 -97.096428
271000000 -16.484673 -125.24108 18.967873 -10.853546 -26.475111 48.8997 -21.681494 -140.15097
280500000 -13.722299 -164.8456 18.727749 -112.70894 -26.143826 -44.29871 -20.110573 178.07695
290000000 -13.689913 144.61758 18.308905 145.42937 -26.007299 -137.576 -22.367439 118.42761
299500000 -16.213917 104.55041 17.96772 44.854767 -25.820267 130.5439 -32.161827 89.040405
309000000 -17.777678 93.567093 17.742949 -56.269634 -25.546967 38.06945 -43.144928 100.96078
318500000 -14.669295 70.499054 17.488634 -157.96976 -25.311823 -54.93367 -27.997099 -178.08318
328000000 -13.243757 29.891815 17.157059 100.66702 -25.159815 -147.56537 -23.59733 125.76144
337500000 -14.460155 -4.1901355 16.874247 -0.36619741 -24.982351 120.03963 -23.298529 75.775024
347000000 -15.092278 -18.646576 16.649956 -101.48885 -24.754173 27.621058 -27.072157 21.509426
356500000 -12.675851 -43.120922 16.449432 157.25807 -24.520214 -64.956856 -34.691063 3.4964447
366000000 -11.773472 -84.221695 16.224709 55.43922 -24.320982 -158.1235 -39.036835 -105.96301
375500000 -13.740945 -124.22378 15.903288 -45.717037 -24.2279 109.27981 -27.446934 115.07932
385000000 -16.53603 -139.65305 15.71062 -146.60791 -24.022722 16.943806 -25.269777 40.744514
394500000 -13.728513 -152.90471 15.528085 111.95676 -23.823151 -75.993057 -28.005713 -4.1096382
404000000 -11.247666 165.93053 15.265011 10.11341 -23.709038 -169.35822 -28.044819 -58.244167
413500000 -11.33048 120.22929 14.907641 -90.474129 -23.707855 98.563431 -27.779566 179.34702
423000000 -13.058963 86.617393 14.800502 169.04623 -23.469543 6.5588746 -23.916143 77.859161
432500000 -12.971597 71.367493 14.64208 67.144432 -23.294218 -86.786934 -21.713837 25.431957
442000000 -10.812959 44.219051 14.282666 -34.325603 -23.323021 -179.66045 -19.03587 -30.078972
451500000 -10.241036 7.1240025 14.046432 -134.50322 -23.232101 88.783157 -19.844383 -91.714439
461000000 -11.303884 -23.432575 13.90731 124.33125 -23.057819 -3.6869886 -21.286388 -152.56461
470500000 -11.480302 -40.317284 13.687065 23.011494 -22.964617 -96.277542 -22.178165 114.24032
480000000 -9.8814554 -65.805161 13.511793 -77.944588 -22.828125 171.48183 -22.465446 20.600639
489500000 -9.4143686 -102.76479 13.285417 -179.65213 -22.752445 78.56118 -20.236881 -32.273342
499000000 -10.58838 -137.29718 13.028633 80.01123 -22.703793 -13.029483 -17.296774 -95.758995
508500000 -11.644505 -158.0827 13.013511 -21.309196 -22.419905 -105.60215 -18.52762 -161.12614
518000000 -10.39775 179.19963 12.792981 -123.7354 -22.351255 160.73628 -20.618221 142.06078
527500000 -9.4045639 143.57944 12.420637 135.4191 -22.435808 68.635406 -21.989706 56.902084
537000000 -9.8368349 108.07616 12.320292 34.88348 -22.247221 -23.199652 -20.85297 -36.703499
546500000 -10.588155 83.901482 12.177915 -66.95089 -22.092972 -116.284 -17.401411 -106.80189
556000000 -9.5802307 62.221706 11.885997 -168.28642 -22.088022 151.09859 -15.713692 -171.5648
565500000 -8.4757824 30.006275 11.635948 90.881897 -22.032738 59.014126 -16.188395 134.57079
575000000 -8.8601198 -4.2860823 11.393477 -9.270793 -21.972391 -32.525547 -16.628138 77.367737
584500000 -10.283143 -28.422754 11.391219 -109.47163 -21.663843 -124.29768 -19.508226 -0.52999401
594000000 -9.9103775 -44.296345 11.279908 148.74751 -21.489994 142.16672 -22.665165 -91.979813
603500000 -8.5949574 -73.137444 10.932593 48.290237 -21.639847 49.863766 -19.678236 -175.74492
613000000 -8.7340031 -108.86196 10.937815 -50.867519 -21.479881 -41.210453 -17.973551 114.9228
622500000 -10.192459 -138.92775 10.93837 -152.44528 -21.358349 -134.75832 -17.357645 66.037933
632000000 -10.680119 -158.86353 10.733031 106.91041 -21.443563 132.73157 -17.241802 -1.3285477
641500000 -9.6068163 174.18654 10.690657 6.5584316 -21.345146 40.667294 -22.087845 -78.852654
651000000 -9.3068562 139.41704 10.545288 -95.079964 -21.354786 -52.437954 -23.534342 -160.84587
660500000 -9.9982624 108.20339 10.386296 164.45 -21.373938 -144.27817 -18.335793 110.63258
670000000 -9.9872704 84.776779 10.345664 63.13435 -21.272261 123.13792 -15.888457 40.855904
679500000 -8.9281101 57.059082 10.152896 -38.226299 -21.320011 30.544067 -15.379735 -13.073071
689000000 -8.6800213 23.302616 10.006197 -138.54143 -21.312054 -60.993187 -15.758099 -66.791397
698500000 -9.7301559 -6.6157336 10.046836 120.46065 -21.12571 -153.21561 -17.945669 -129.1955
708000000 -10.278347 -24.562319 9.95086 18.354271 -21.07498 113.43124 -21.588585 143.15561
717500000 -9.0037546 -46.784912 9.6843967 -82.71225 -21.191988 21.084608 -20.027098 36.639217
727000000 -8.3555155 -80.162949 9.5962572 177.3401 -21.124058 -70.152542 -16.447592 -35.457077
736500000 -9.1453838 -114.44209 9.6841841 76.166893 -20.882114 -162.68031 -14.632747 -91.85656
746000000 -10.2316 -139.39973 9.6038589 -26.277016 -20.815966 103.52905 -14.096139 -145.95241
755500000 -9.6695185 -162.62859 9.3036871 -127.83617 -20.976273 10.614133 -15.208427 153.87941
765000000 -8.9245749 163.87183 9.1332293 132.07007 -21.006773 -80.840981 -18.141483 82.979156
774500000 -9.2530832 127.92626 9.1515007 31.040684 -20.853409 -173.19371 -19.513971 -5.2913427
784000000 -10.003614 100.63991 9.0317965 -71.132782 -20.847805 93.334427 -16.210007 -86.392273
793500000 -9.282732 78.004494 8.7126169 -172.44917 -21.045731 0.76904112 -13.406728 -153.53539
803000000 -8.0733376 46.676041 8.5219631 87.656509 -21.117273 -90.373032 -12.754813 149.28195
812500000 -7.9166222 11.741505 8.4766922 -12.612446 -21.037949 178.15019 -12.797927 97.223747
822000000 -8.8486156 -16.965931 8.5630064 -113.56493 -20.837786 86.002953 -13.625588 34.204632
831500000 -9.0284853 -35.957413 8.5016527 143.7484 -20.783037 -7.9137278 -16.330088 -44.31818
841000000 -7.8972373 -61.172718 8.0966883 42.230816 -21.06926 -100.64741 -16.744963 -132.07489
850500000 -7.4203048 -94.021088 7.9229412 -56.402134 -21.122513 169.54379 -13.9383 149.95332
860000000 -8.018919 -126.07449 8.2106476 -157.46535 -20.716776 77.292168 -12.232222 86.388802
869500000 -8.6814146 -151.73074 8.0348511 99.136307 -20.775038 -17.328564 -11.244359 31.063246
879000000 -8.2633801 -177.80583 7.6270185 -1.1932323 -21.06974 -108.86013 -11.591613 -31.674463
888500000 -7.8339815 150.26581 7.6768718 -100.99048 -20.898106 160.13922 -14.178691 -97.345726
898000000 -8.1161613 118.30949 7.6099477 157.03458 -20.84926 66.98513 -15.737464 -170.72025
907500000 -8.4075928 91.866516 7.4240346 56.017776 -20.920225 -25.176249 -14.097945 100.21664
917000000 -7.7706184 66.233589 7.2893534 -45.068459 -20.943579 -117.35266 -12.373669 25.437967
926500000 -7.0950489 36.049213 7.0345263 -145.60965 -21.08334 151.04906 -11.141363 -32.236832
936000000 -7.1720586 5.2377005 7.0329461 115.15545 -20.963421 60.706646 -10.503166 -89.879578
945500000 -7.6827593 -20.632774 7.1852436 13.323049 -20.709085 -32.22591 -11.361542 -151.58884
955000000 -7.527072 -42.920845 6.9215021 -88.576118 -20.871962 -125.33833 -13.326591 136.73993
964500000 -7.0043893 -69.215973 6.7555699 171.907 -20.935188 143.85608 -15.09473 49.705982
974000000 -7.033155 -98.374939 6.7857409 71.37307 -20.824085 51.916218 -13.822848 -31.046478
983500000 -7.5043006 -125.79659 6.7281327 -29.228893 -20.82542 -40.151527 -11.332582 -99.169014
993000000 -7.6055856 -151.44586 6.7224274 -130.1284 -20.795019 -132.56387 -10.603676 -162.01163
1002500000 -7.4389448 179.78221 6.5425911 129.1416 -20.955069 135.2513 -11.045691 140.7489
1012000000 -7.7689548 148.98547 6.5812244 30.24695 -20.898859 44.916351 -12.318689 75.405022
1021500000 -8.3997889 122.05275 6.8935108 -71.792389 -20.576277 -48.50238 -14.867388 -3.5556958
1031000000 -8.0895081 98.203743 6.5894403 -175.04379 -20.876892 -143.03969 -14.808994 -89.64106
1040500000 -7.2590513 69.064537 6.1908641 86.242226 -21.258026 127.01541 -12.30307 -166.8345
1050000000 -7.1213527 36.568844 6.4983554 -12.456203 -20.928736 37.166191 -10.716451 129.32137
1059500000 -7.8257599 7.692235 6.781064 -115.17002 -20.629416 -56.726639 -9.9265356 71.202866
1069000000 -8.0419579 -13.136939 6.5796471 141.59206 -20.786209 -151.11195 -10.312409 6.9299688
1078500000 -7.1638422 -37.090195 6.2004805 41.140427 -21.124306 117.28668 -12.57144 -63.608444
1088000000 -6.7595882 -67.196281 6.1552744 -58.065754 -21.137794 26.930487 -14.444166 -141.99336
1097500000 -7.2926931 -97.349716 6.3198886 -158.46013 -20.940014 -64.577103 -13.111352 136.12549
1107000000 -7.9971952 -121.97402 6.4362373 99.477272 -20.796339 -157.75883 -10.943789 61.742172
1116500000 -7.8197045 -146.16328 6.2828951 -2.7446394 -20.929953 108.97441 -10.318056 -2.3563137
1126000000 -7.6388211 -176.14774 6.0401444 -103.1132 -21.165674 17.612974 -10.389538 -60.899601
1135500000 -8.0997362 152.73199 6.1854038 157.36621 -21.012508 -72.8946 -11.189381 -126.8335
1145000000 -8.5051746 126.29488 6.4009843 54.346294 -20.787127 -166.86734 -13.045769 156.95898
1154500000 -7.9579091 99.675598 5.9929729 -48.58588 -21.18807 99.293137 -13.175953 76.596718
1164000000 -7.3916583 67.467461 5.6906304 -146.84354 -21.479862 10.171056 -11.230424 1.7825301
1173500000 -7.5205417 34.287441 6.1213064 113.45975 -21.032026 -80.41787 -9.5985432 -62.852684
1183000000 -8.0420713 7.1378536 6.3014879 9.3389082 -20.823326 -175.45073 -8.6940899 -122.68565
1192500000 -7.6884756 -15.763721 5.8784347 -93.820351 -21.214592 90.474037 -9.1032524 174.67245
1202000000 -6.9301171 -44.162033 5.45189 166.63713 -21.61161 0.0097189303 -10.931469 110.40806
1211500000 -6.811378 -75.644417 5.4883485 68.255913 -21.5443 -89.322075 -12.623469 37.870358
1221000000 -7.4107447 -104.49997 5.8677163 -32.81353 -21.135794 178.64967 -12.429507 -45.670055
1230500000 -7.8519659 -128.39812 5.8647552 -136.61974 -21.118822 83.96508 -10.71634 -122.70696
1240000000 -7.547843 -154.62993 5.4799314 121.83287 -21.492949 -8.4345322 -9.4251795 171.26668
1249500000 -7.370409 174.81822 5.3822641 22.317459 -21.591393 -98.764198 -9.0580177 111.1497
1259000000 -7.63939 144.62057 5.5241213 -78.520584 -21.440624 169.65915 -9.4385691 49.84251
1268500000 -7.7847548 116.6002 5.5423794 179.13202 -21.424099 76.65316 -10.756157 -18.766657
1278000000 -7.4364886 87.100983 5.3051987 77.48365 -21.659052 -15.623786 -11.938853 -95.264778
1287500000 -7.1958375 55.795006 5.2264638 -21.966969 -21.721195 -105.71856 -11.131654 -174.38295
1297000000 -7.3661475 26.466841 5.5597668 -123.45007 -21.359505 162.17345 -9.5038404 113.96464
1306500000 -7.358243 0.9208284 5.4270391 132.08417 -21.468019 66.989906 -8.4153242 50.553204
1316000000 -6.7994413 -25.536407 4.8175993 31.392681 -22.048115 -24.526073 -8.3467417 -11.265247
1325500000 -6.4313202 -54.418522 4.7621956 -66.381508 -22.066217 -113.19139 -9.5080833 -73.273315
1335000000 -6.6369238 -82.607536 5.0440135 -166.89612 -21.760721 155.35561 -11.018456 -140.95807
1344500000 -6.9769535 -107.5071 5.1125088 90.989883 -21.674307 62.286041 -11.763151 136.90182
1354000000 -6.8234148 -132.31821 4.9553838 -10.638724 -21.830067 -30.427004 -11.013314 54.33107
1363500000 -6.6668458 -160.23045 4.8062224 -110.49277 -21.99445 -121.34058 -9.5005569 -14.677725
1373000000 -6.9875474 171.56656 5.0408478 149.5988 -21.797329 147.72897 -8.3823452 -78.393044
1382500000 -7.3113637 146.24348 5.1990209 46.321266 -21.68243 53.475513 -8.4802036 -143.05128
1392000000 -6.9260578 119.91625 4.758534 -55.875408 -22.166454 -39.659988 -9.7991467 148.92546
1401500000 -6.4929342 89.424347 4.5239573 -154.32755 -22.45521 -128.98999 -11.250206 75.546051
1411000000 -6.6196408 58.157314 4.775578 106.33617 -22.254353 140.82855 -10.773961 -1.1560174
1420500000 -7.1036687 30.67622 5.089921 4.1798315 -21.970493 47.865723 -8.8813524 -75.970634
1430000000 -6.8749733 6.7774549 4.9699135 -99.871933 -22.129717 -46.989601 -8.1106873 -144.52328
1439500000 -6.1990223 -20.225172 4.3865576 158.73248 -22.742996 -139.2141 -8.411294 155.27655
1449000000 -6.0221429 -49.275101 4.1498017 61.495689 -23.026569 132.68794 -9.1682348 94.570633
1458500000 -6.3548927 -76.779472 4.6213245 -37.724014 -22.607525 42.684258 -10.506038 24.029474
1468000000 -6.5343165 -100.79345 4.8411932 -141.28403 -22.440762 -51.69062 -11.506886 -59.705227
1477500000 -6.2715235 -125.51942 4.5213552 116.50807 -22.821402 -144.62952 -10.518514 -142.18958
1487000000 -6.2231574 -153.02155 4.3875146 17.183498 -23.02438 125.36293 -8.7148886 148.05885
1496500000 -6.4692507 179.61066 4.6490145 -83.556404 -22.830942 34.00528 -7.5735149 84.140526
1506000000 -6.4587431 153.52118 4.6291776 173.10114 -22.909616 -59.909496 -7.7373581 21.194004
1515500000 -6.2105789 125.20353 4.2176428 72.153267 -23.378374 -151.31403 -8.9508715 -42.688053
1525000000 -6.2453485 94.154236 4.2037272 -26.253342 -23.440002 119.86021 -10.240299 -111.90443
1534500000 -6.5942736 63.783974 4.5719819 -126.96561 -23.108866 28.701073 -10.147098 170.98827
1544000000 -6.7573643 37.020233 4.7201514 129.65285 -22.994337 -65.134811 -8.959836 93.519295
1553500000 -6.3938646 9.8702383 4.442307 26.579504 -23.293854 -158.67737 -8.3555126 25.893873
1563000000 -6.1039267 -20.066801 4.00073 -73.464706 -23.763096 110.78399 -8.15201 -33.828312
1572500000 -6.1737905 -49.450333 4.1357074 -171.35199 -23.656836 22.3116 -8.4299641 -96.054436
1582000000 -6.3518567 -75.538696 4.6066689 86.138329 -23.224426 -70.759659 -9.6655703 -166.07925
1591500000 -6.1733603 -101.11552 4.3068371 -17.869099 -23.564333 -165.32329 -10.76402 115.52901
1601000000 -5.9683008 -129.59796 3.9367466 -116.86646 -23.992071 105.15446 -10.200689 36.658367
1610500000 -6.1070089 -158.80605 4.2292418 143.80797 -23.767912 15.374563 -8.5923853 -32.140972
1620000000 -6.4537387 174.00778 4.4607763 41.115345 -23.594055 -77.74511 -7.2603784 -96.434875
1629500000 -6.4523191 147.29675 4.3297443 -61.716606 -23.778944 -170.89188 -7.4444737 -160.70558
1639000000 -6.247807 117.48173 4.0677819 -162.99898 -24.090622 97.548508 -8.8371429 136.79576
1648500000 -6.2869992 86.214149 3.9521649 97.572479 -24.239845 7.8756642 -10.139725 68.567551
1658000000 -6.5526576 56.264286 4.2597661 -2.9937003 -23.947495 -82.951965 -10.383557 -10.426348
1667500000 -6.5744739 27.905329 4.3235044 -106.82697 -23.88916 -177.07306 -9.4034748 -87.409767
1677000000 -6.2766376 -1.4370662 3.8882875 151.1584 -24.329731 90.552879 -8.3140497 -153.80733
1686500000 -6.1167593 -31.286837 3.7072809 52.274151 -24.499367 1.2567072 -7.7818789 145.66057
1696000000 -6.2023082 -59.490341 3.9925599 -48.189075 -24.211084 -89.658272 -8.1272545 83.801529
1705500000 -6.1326652 -85.851669 4.020998 -151.85664 -24.178335 176.16115 -9.6241226 15.830682
1715000000 -5.8273525 -113.12699 3.5663984 106.56696 -24.667242 84.124832 -11.26827 -61.952473
1724500000 -5.7372131 -141.54079 3.5188057 8.1074524 -24.745907 -4.8074408 -10.890789 -143.82512
1734000000 -5.9587717 -169.23781 3.8527293 -93.587311 -24.451826 -96.933716 -8.9179783 143.86287
1743500000 -6.0666356 164.65205 3.6935658 162.99005 -24.665735 169.23744 -7.4629292 77.127274
1753000000 -5.8321033 137.51668 3.3878407 62.15469 -25.026836 78.056793 -7.7384462 13.588572
1762500000 -5.6873426 108.25349 3.2158344 -38.607166 -25.247152 -13.067644 -8.9328775 -46.861153
1772000000 -5.7909389 78.437904 3.0078096 -137.70461 -25.487839 -102.55331 -10.031227 -114.71598
1781500000 -5.8996148 49.736523 3.3236411 122.47192 -25.199606 167.16765 -10.625476 166.37558
1791000000 -5.7932 21.539259 3.2977431 18.858686 -25.250294 73.048325 -9.9639912 90.756088
1800500000 -5.6721196 -7.4024653 2.8454766 -80.824112 -25.724833 -17.233433 -8.7706833 23.65716
1810000000 -5.6784768 -35.85257 3.1283417 -179.90733 -25.461626 -107.01454 -8.3043385 -39.324909
1819500000 -5.632566 -62.410282 3.1830847 76.17247 -25.436428 158.35487 -8.7995205 -103.69442
1829000000 -5.367578 -88.693069 2.6630864 -25.036648 -26.014128 66.447235 -10.430934 -175.95966
1838500000 -5.1272955 -116.34303 2.5205731 -124.19217 -26.220917 -23.361692 -11.731113 104.8906
1848000000 -5.1008596 -144.25746 2.4014487 135.90276 -26.425138 -113.86329 -10.361598 27.908419
1857500000 -5.2240343 -170.93706 2.5726531 36.606701 -26.335241 156.3277 -8.2162027 -42.04348
1867000000 -5.2161222 163.03639 2.7310078 -66.631355 -26.272974 62.68663 -7.4047422 -105.62446
1876500000 -5.0989928 135.47932 2.1361001 -168.28624 -26.96904 -29.289324 -7.7733088 -164.75711
1886000000 -5.1150589 106.79084 2.0071177 94.821487 -27.163853 -116.46069 -9.0341797 134.73949
1895500000 -5.2664189 78.227951 2.3724473 -5.7518864 -26.849281 152.76314 -10.672135 66.077812
1905000000 -5.3655996 50.000813 2.2991886 -107.4313 -26.970549 60.830814 -11.332161 -15.857708
1914500000 -5.3344674 21.424559 2.3740494 152.10802 -26.932674 -29.847063 -10.366859 -95.45813
1924000000 -5.3196464 -7.4878178 2.3608596 49.62619 -26.978382 -122.5442 -8.893508 -161.92252
1933500000 -5.3387728 -35.795021 2.1669424 -51.048088 -27.198219 146.60379 -7.9818993 134.82623
1943000000 -5.2339587 -63.294994 2.2552342 -152.61862 -27.141365 54.887833 -8.5476484 70.106689
1952500000 -5.0281272 -91.170341 1.8606378 104.43112 -27.569321 -38.213108 -10.017826 3.2689879
1962000000 -4.9346395 -119.61806 1.3805424 6.3501344 -28.079576 -126.42435 -10.916589 -70.507042
1971500000 -4.9834361 -147.6543 1.675783 -91.932976 -27.804028 145.20752 -10.160644 -146.43826
1981000000 -5.0540166 -174.71263 1.8912671 165.67227 -27.617561 52.728573 -8.7245483 143.55923
1990500000 -5.0588045 158.19978 1.7157571 63.796795 -27.816261 -39.104176 -8.1283712 79.408119
2000000000 -5.0873847 130.18488 1.5631359 -36.700809 -27.974136 -129.65482 -8.5848751 18.668718
