!Keysight Technologies,N5242B,MY48420967,A.15.65.19
!Date: Monday, January 23, 2023 05:27:08
!Correction: S11(C  1-Port  ) 
!S21(Off) 
!S12(Off) 
!S22(Off) 
!S2P File: Measurements: S11, S21, S12, S22:
# Hz S  dB   R 50
100000000 -19.214441 -15.670136 28.180218 11.947382 -34.227661 -85.726494 -23.329256 42.960735
109500000 -17.599377 -15.242237 27.424685 -89.900681 -33.416882 -178.51355 -26.248158 -2.2544923
119000000 -14.208342 -47.996197 26.569422 167.54843 -32.839989 87.969528 -23.292021 -132.25812
128500000 -14.836483 -91.744217 25.681381 66.706512 -32.406929 -3.8741457 -19.892876 140.01689
138000000 -19.942505 -117.19989 25.058367 -33.938366 -31.808111 -95.764496 -18.625877 93.930283
147500000 -18.577593 -98.926506 24.549812 -135.27896 -31.166048 171.69641 -17.250731 47.894772
157000000 -13.969503 -138.68845 24.016897 122.54847 -30.631294 78.393646 -18.13497 -0.59574008
166500000 -13.532473 165.20796 23.357317 20.55784 -30.292549 -14.907491 -21.169481 -52.241829
176000000 -16.548969 110.92123 22.711506 -80.202812 -29.991302 -106.92887 -30.235792 -123.4248
185500000 -22.670805 91.135132 22.262449 179.21736 -29.547915 161.13503 -29.261328 71.698273
195000000 -18.562035 99.762039 21.874943 77.871948 -29.085402 68.577507 -22.178709 18.601362
204500000 -14.894863 57.100662 21.409779 -23.947947 -28.748278 -24.636501 -18.440485 -29.221912
214000000 -15.06916 12.873819 20.865578 -124.93144 -28.527815 -116.90097 -18.113136 -83.099014
223500000 -16.989872 -11.14258 20.487101 134.70984 -28.17511 151.3371 -20.875874 -126.11298
233000000 -15.664277 -23.299168 20.202806 33.66021 -27.766426 58.91922 -23.427845 -166.80952
242500000 -13.94178 -57.761032 19.85541 -67.950684 -27.438263 -34.071011 -30.288012 112.60743
252000000 -15.179736 -97.740562 19.451305 -169.03949 -27.198334 -126.56686 -28.250864 -32.075768
261500000 -18.578957 -115.88076 19.134554 90.200882 -26.892128 141.29552 -22.784044 -96.985878
271000000 -16.601759 -121.03496 18.894581 -10.936699 -26.535217 48.840061 -21.418556 -141.69078
280500000 -13.881838 -161.9035 18.652252 -112.79743 -26.214617 -44.383934 -20.051582 175.85323
290000000 -14.055921 147.83284 18.23332 145.33607 -26.08573 -137.68538 -22.322582 114.9824
299500000 -16.863525 108.14713 17.8897 44.76133 -25.907433 130.36697 -33.081936 76.696289
309000000 -18.196745 98.116547 17.667259 -56.357277 -25.626614 38.041973 -50.676636 164.71721
318500000 -14.869085 73.796516 17.413578 -158.09917 -25.391445 -55.13205 -26.715963 -177.59825
328000000 -13.555249 32.674358 17.073948 100.52033 -25.257076 -147.78499 -22.750999 124.63082
337500000 -14.864586 -1.4542258 16.789843 -0.47587156 -25.065405 119.9749 -22.527248 72.390633
347000000 -15.358044 -15.670373 16.56953 -101.62805 -24.837099 27.536724 -25.966368 14.302213
356500000 -12.882676 -40.805962 16.360579 157.05498 -24.604105 -65.15712 -34.106533 -26.26399
366000000 -12.085819 -82.252426 16.119928 55.282936 -24.421579 -158.28835 -34.481274 -136.08675
375500000 -14.14953 -122.12518 15.802408 -45.776733 -24.324032 109.22601 -25.580753 116.40411
385000000 -16.876753 -136.42508 15.621345 -146.68713 -24.105112 16.873007 -23.753738 43.230305
394500000 -13.951333 -150.56676 15.436515 111.7739 -23.912968 -76.16375 -25.758247 -6.8048968
404000000 -11.550456 167.36064 15.152988 9.9227524 -23.812923 -169.56123 -25.930885 -65.63707
413500000 -11.69087 121.49146 14.789551 -90.564346 -23.819374 98.454422 -25.715685 -175.03828
423000000 -13.482669 88.279961 14.688529 169.00948 -23.578442 6.5156884 -23.089725 87.153778
432500000 -13.356701 73.324402 14.536892 67.07666 -23.401991 -86.860695 -20.784098 31.251408
442000000 -11.137816 45.672634 14.169609 -34.438885 -23.435041 -179.78505 -18.302368 -27.337425
451500000 -10.569671 8.5862684 13.923724 -134.56314 -23.354553 88.743431 -19.086525 -89.459198
461000000 -11.691202 -21.623224 13.791128 124.33219 -23.172853 -3.6941001 -20.357975 -150.6705
470500000 -11.856648 -38.39341 13.577175 22.954626 -23.075155 -96.340828 -21.246929 118.88372
480000000 -10.219686 -64.118073 13.388169 -78.035034 -22.951866 171.40892 -21.798605 27.572735
489500000 -9.7917576 -100.91803 13.158137 -179.65614 -22.878256 78.560638 -19.635185 -27.99614
499000000 -11.075268 -135.11197 12.907042 80.012344 -22.825113 -13.030355 -16.91477 -92.422737
508500000 -12.130733 -155.50772 12.891569 -21.30953 -22.540972 -105.60677 -18.055035 -157.57961
518000000 -10.778193 -178.44313 12.672812 -123.74342 -22.472448 160.7103 -20.021618 144.61761
527500000 -9.7984953 145.74619 12.296953 135.37729 -22.554806 68.585663 -21.542715 60.291508
537000000 -10.30884 110.15668 12.189919 34.876198 -22.377584 -23.19557 -20.592947 -32.857784
546500000 -11.057329 86.064224 12.054789 -66.939407 -22.21492 -116.27699 -17.151831 -104.09601
556000000 -9.9713373 64.362885 11.762278 -168.34401 -22.210424 151.05177 -15.464704 -169.23363
565500000 -8.8795862 31.997978 11.50188 90.821465 -22.166004 58.937141 -15.84647 136.85129
575000000 -9.3188267 -2.2699723 11.257691 -9.3082838 -22.108719 -32.557819 -16.24794 79.708107
584500000 -10.728442 -25.848213 11.253713 -109.50163 -21.804678 -124.31697 -19.092781 3.6302361
594000000 -10.243743 -41.507015 11.145824 148.705 -21.623837 142.13477 -22.429787 -85.50013
603500000 -8.9371243 -70.786423 10.791834 48.159065 -21.779606 49.758038 -19.696747 -171.36705
613000000 -9.1297102 -106.67142 10.773698 -50.949001 -21.64426 -41.258129 -17.913965 118.64457
622500000 -10.604059 -136.33749 10.784006 -152.39374 -21.506777 -134.68877 -17.063831 68.941422
632000000 -11.062132 -155.97409 10.588905 106.87058 -21.586296 132.68773 -16.922276 1.9833089
641500000 -9.9983349 176.62975 10.531592 6.4667568 -21.499611 40.599972 -21.525209 -71.797943
651000000 -9.719943 141.63443 10.379843 -95.114166 -21.518616 -52.465687 -23.164736 -151.84123
660500000 -10.406271 110.78638 10.221564 164.42053 -21.535212 -144.29671 -18.508701 115.85162
670000000 -10.365088 87.456741 10.179278 63.084454 -21.440859 123.08957 -16.036886 44.925499
679500000 -9.2901325 59.199032 9.9767523 -38.31712 -21.497841 30.464457 -15.332077 -9.2911091
689000000 -9.0315075 25.336042 9.8143835 -138.57925 -21.505781 -61.029556 -15.543778 -63.218052
698500000 -10.069592 -4.1195412 9.8566513 120.53262 -21.315489 -153.14302 -17.568346 -124.64256
708000000 -10.58404 -21.965229 9.7750731 18.415668 -21.248755 113.49052 -21.271528 151.70911
717500000 -9.2991352 -44.765652 9.5044632 -82.779671 -21.371305 21.014704 -20.489475 44.10696
727000000 -8.6659203 -78.154572 9.3907146 177.26581 -21.330465 -70.242134 -16.817362 -30.67942
736500000 -9.4903355 -111.89281 9.4687853 76.23526 -21.096931 -162.61127 -14.813629 -87.639641
746000000 -10.584332 -136.62474 9.4010067 -26.149071 -21.018734 103.64545 -14.101644 -141.76697
755500000 -9.9953613 -160.33148 9.1030245 -127.78828 -21.171917 10.656489 -15.077862 158.50287
765000000 -9.2553053 166.06157 8.9146099 132.10498 -21.225782 -80.802925 -17.983828 89.280678
774500000 -9.6333542 130.42406 8.9248323 31.189577 -21.080709 -173.04636 -19.74164 2.2122266
784000000 -10.397996 103.16133 8.8169479 -70.92495 -21.058609 93.558327 -16.568363 -81.522659
793500000 -9.6312351 80.194023 8.5027523 -172.32057 -21.25346 0.90860707 -13.646171 -150.06888
803000000 -8.4162855 48.807053 8.2957382 87.75058 -21.339766 -90.258057 -12.880098 152.42795
812500000 -8.3025789 14.083716 8.239809 -12.44002 -21.276388 178.31902 -12.834433 100.33961
822000000 -9.2315254 -14.48257 8.324666 -113.29809 -21.071487 86.251602 -13.634559 37.960022
831500000 -9.3424845 -33.526627 8.2756424 144.06268 -21.006784 -7.6005058 -16.390192 -39.173935
841000000 -8.2152166 -58.748249 7.8797889 42.45578 -21.287022 -100.39808 -17.074398 -127.54517
850500000 -7.8034997 -91.484856 7.6888428 -56.267033 -21.3598 169.69995 -14.311336 152.78371
860000000 -8.4419956 -123.35979 7.9594655 -157.1907 -20.966547 77.560081 -12.515487 88.932632
869500000 -9.0811768 -148.74797 7.8041964 99.488289 -21.00395 -16.967924 -11.434288 33.47718
879000000 -8.6670303 -174.74751 7.3990984 -0.96957129 -21.294369 -108.63604 -11.770678 -29.023434
888500000 -8.2851572 153.23096 7.4291863 -100.74806 -21.144131 160.39049 -14.386672 -93.935822
898000000 -8.5847692 121.24075 7.369092 157.34776 -21.089167 67.332062 -16.107487 -167.17949
907500000 -8.8501205 94.896011 7.1847019 56.299297 -21.162457 -24.886217 -14.591432 102.35377
917000000 -8.2069626 69.153595 7.0481381 -44.771442 -21.184864 -117.03851 -12.76443 26.847588
926500000 -7.547339 38.761356 6.7998338 -145.36116 -21.318846 151.29552 -11.450754 -30.956852
936000000 -7.6199465 7.9856048 6.7840066 115.31918 -21.212778 60.887218 -10.794429 -88.364761
945500000 -8.0955667 -17.587343 6.9255338 13.563285 -20.968393 -31.970959 -11.664855 -149.51353
955000000 -7.9109845 -39.851986 6.6699257 -88.345406 -21.12361 -125.07542 -13.727959 139.40518
964500000 -7.395155 -66.317375 6.4956303 172.06183 -21.193924 144.02115 -15.703012 51.857349
974000000 -7.4345737 -95.413216 6.5164585 71.537079 -21.092279 52.087036 -14.388415 -30.216618
983500000 -7.8968649 -122.54852 6.4497633 -29.090591 -21.102839 -40.019699 -11.785402 -98.5186
993000000 -7.9962535 -148.08626 6.434803 -129.94624 -21.079195 -132.37872 -10.990958 -161.01961
1002500000 -7.8517251 -176.92323 6.2576556 129.28212 -21.23768 135.39124 -11.416649 142.16066
1012000000 -8.1892786 152.36316 6.2695212 30.307329 -21.206018 44.982071 -12.758428 77.428375
1021500000 -8.7729874 125.58916 6.5613365 -71.531151 -20.905581 -48.247547 -15.486426 -1.1896647
1031000000 -8.4368048 101.42834 6.2808709 -174.70677 -21.182909 -142.70673 -15.495509 -88.659874
1040500000 -7.6383753 71.916641 5.881773 86.406677 -21.558479 127.1964 -12.832819 -166.51808
1050000000 -7.5114565 39.387207 6.1571116 -12.304683 -21.270542 37.293068 -11.150682 129.85631
1059500000 -8.157917 10.802058 6.4272709 -114.88343 -20.980442 -56.433056 -10.334417 72.222206
1069000000 -8.3106384 -10.20548 6.2309489 141.97188 -21.132814 -150.7444 -10.727917 8.7529955
1078500000 -7.4613657 -34.600784 5.8585825 41.471779 -21.465206 117.62182 -13.038508 -61.024162
1088000000 -7.0724397 -64.725815 5.7999554 -57.796036 -21.490849 27.203262 -15.082264 -139.55916
1097500000 -7.583365 -94.46096 5.9444942 -158.16747 -21.314154 -64.291115 -13.796923 137.36707
1107000000 -8.2626429 -118.92516 6.0492477 99.891006 -21.182827 -157.3378 -11.542775 62.871052
1116500000 -8.1095085 -143.41971 5.9026709 -2.2648022 -21.30316 109.46912 -10.82704 -0.87429196
1126000000 -7.9387422 -173.38748 5.6598234 -102.69534 -21.546503 17.973614 -10.886019 -59.126228
1135500000 -8.3817348 155.88567 5.7775254 157.78122 -21.419741 -72.489525 -11.785807 -124.55558
1145000000 -8.7848129 129.3259 5.9842582 54.982246 -21.203318 -166.23148 -13.794836 159.39946
1154500000 -8.2747316 102.1534 5.6010094 -47.887192 -21.579065 99.971558 -13.944043 77.66629
1164000000 -7.7229042 69.948318 5.2992439 -146.29454 -21.869513 10.682981 -11.842165 2.0421336
1173500000 -7.8593011 37.130173 5.7022748 114.02499 -21.447775 -79.889404 -10.11191 -62.385445
1183000000 -8.3623915 9.9477577 5.8780346 10.064422 -21.242741 -174.71245 -9.1723318 -121.61488
1192500000 -7.9900351 -13.36909 5.4726419 -93.039093 -21.616463 91.24688 -9.5732689 176.49007
1202000000 -7.2344737 -41.568295 5.0561028 167.29428 -22.006804 0.64781195 -11.480632 112.72334
1211500000 -7.1400232 -72.56797 5.0717406 68.748749 -21.959002 -88.828712 -13.423815 39.985909
1221000000 -7.7262659 -101.20062 5.4090724 -32.255966 -21.592945 179.23936 -13.36885 -45.253933
1230500000 -8.1074934 -125.24564 5.3984098 -135.80901 -21.584528 84.803841 -11.495207 -123.1436
1240000000 -7.8125687 -151.35211 5.0347843 122.71893 -21.942133 -7.5405774 -10.058945 170.97623
1249500000 -7.6925015 178.429 4.9406691 23.110786 -22.029196 -97.957047 -9.6460085 111.18802
1259000000 -7.9881124 148.29521 5.0637712 -77.757469 -21.906265 170.44249 -10.065542 50.305073
1268500000 -8.1086149 120.20185 5.0712404 -179.98227 -21.892376 77.568558 -11.489864 -18.066902
1278000000 -7.7754984 90.817589 4.8485479 78.401596 -22.113916 -14.706623 -12.791625 -95.377579
1287500000 -7.5780358 59.594288 4.7618442 -21.199371 -22.177885 -104.9403 -11.924837 -175.62915
1297000000 -7.737103 30.130758 5.0603104 -122.61327 -21.864714 162.9987 -10.178649 112.63524
1306500000 -7.6660199 4.3456359 4.9330463 133.1317 -21.961613 68.07737 -9.0523243 49.731346
1316000000 -7.1038203 -22.096769 4.3475342 32.382038 -22.517178 -23.512373 -8.9853706 -11.392867
1325500000 -6.7694235 -50.833782 4.2796583 -65.567131 -22.550575 -112.33622 -10.210205 -72.969086
1335000000 -6.9621549 -78.96447 4.5295177 -166.12169 -22.272921 156.15491 -11.915694 -140.7059
1344500000 -7.2279263 -103.92866 4.5671082 91.899376 -22.222269 63.186684 -12.831472 135.96156
1354000000 -7.0611773 -128.74344 4.4131503 -9.5528173 -22.369463 -29.338835 -11.931638 52.286392
1363500000 -6.9531446 -156.53227 4.269455 -109.47254 -22.531277 -120.30676 -10.260062 -16.549944
1373000000 -7.2729106 175.2016 4.4687014 150.59262 -22.369465 148.72728 -9.1041927 -79.665436
1382500000 -7.5435371 149.57089 4.6063151 47.593342 -22.272243 54.757706 -9.2398806 -143.59344
1392000000 -7.1992755 123.10294 4.1933513 -54.447952 -22.73266 -38.200207 -10.619949 148.91753
1401500000 -6.8470974 92.635185 3.9705803 -153.03697 -23.003176 -127.68231 -12.134315 75.032028
1411000000 -6.9675274 61.285698 4.1966848 107.50148 -22.829712 142.04562 -11.63793 -2.6950688
1420500000 -7.3608918 33.611542 4.4641876 5.4816918 -22.593498 49.169273 -9.6740799 -77.287689
1430000000 -7.1418519 9.2448692 4.3489094 -98.206345 -22.745373 -45.344116 -8.8270521 -144.93245
1439500000 -6.5338569 -17.96579 3.8063464 160.41167 -23.325073 -137.56654 -9.1015043 155.55675
1449000000 -6.3352704 -46.996956 3.5646384 62.918903 -23.607353 134.10304 -9.9359035 95.393295
1458500000 -6.5960197 -74.378067 3.9849067 -36.296963 -23.243198 44.110832 -11.490717 25.142563
1468000000 -6.7654505 -98.666687 4.1853337 -139.549 -23.100182 -49.93634 -12.683682 -59.61797
1477500000 -6.558053 -123.71259 3.8855691 118.39498 -23.461334 -142.78587 -11.522581 -143.30516
1487000000 -6.5095935 -151.16801 3.7544985 19.031979 -23.65477 127.19635 -9.5248547 147.10612
1496500000 -6.7418547 -178.46558 3.9986129 -81.629486 -23.479176 35.918388 -8.3146257 83.880417
1506000000 -6.7901902 155.23036 3.98685 175.21362 -23.552254 -57.78194 -8.4583006 21.772186
1515500000 -6.5965643 126.80152 3.6000528 74.23584 -23.994308 -149.2502 -9.694602 -41.575878
1525000000 -6.6105499 95.98037 3.5786932 -24.342268 -24.061655 121.74105 -11.102036 -110.97856
1534500000 -6.9311271 65.754028 3.9097075 -125.07821 -23.77096 30.584242 -11.111706 171.09038
1544000000 -7.1117916 38.527092 4.0331383 131.79303 -23.67857 -62.979939 -9.857295 93.417786
1553500000 -6.7817769 11.107008 3.7762482 28.927179 -23.95508 -156.34113 -9.1387548 26.028025
1563000000 -6.4713397 -18.500074 3.3609843 -71.220062 -24.400837 113.01062 -8.9187946 -33.424694
1572500000 -6.5172315 -47.632767 3.466325 -169.30861 -24.322384 24.356356 -9.2790794 -95.242287
1582000000 -6.6898055 -73.979912 3.8921452 88.395714 -23.938362 -68.530434 -10.666965 -165.09738
1591500000 -6.5318518 -99.700684 3.6112173 -15.320787 -24.260008 -162.78658 -11.87611 115.54627
1601000000 -6.3267078 -127.75022 3.2668061 -114.416 -24.661674 107.6127 -11.163645 35.384621
1610500000 -6.4654226 -156.5905 3.5366049 146.12338 -24.454836 17.660498 -9.4070768 -33.56216
1620000000 -6.8177352 176.09802 3.7316318 43.541157 -24.322193 -75.305046 -8.053113 -97.204178
1629500000 -6.8434367 149.25105 3.5993621 -59.032894 -24.506308 -168.19742 -8.2306128 -160.69388
1639000000 -6.6671176 119.83189 3.361069 -160.25824 -24.79389 100.30373 -9.6811619 136.96805
1648500000 -6.7240205 88.901459 3.2439485 100.13728 -24.951826 10.444104 -11.12915 68.140152
1658000000 -6.9775057 58.840366 3.5048153 -0.42196748 -24.702337 -80.409065 -11.397636 -12.178079
1667500000 -6.9922638 30.252127 3.5514414 -103.93542 -24.665039 -174.2054 -10.267264 -89.530891
1677000000 -6.7088442 1.0589411 3.1438322 154.1783 -25.070395 93.587631 -9.0798893 -155.29973
1686500000 -6.5451531 -28.633308 2.9637766 55.144833 -25.241095 4.1317415 -8.5484838 144.84018
1696000000 -6.6003108 -56.936401 3.2072637 -45.295303 -24.994715 -86.786194 -8.997694 83.568222
1705500000 -6.5293565 -83.45269 3.2200878 -148.64673 -24.979219 179.36971 -10.690749 15.85051
1715000000 -6.2523766 -110.61494 2.7930601 109.89735 -25.439165 87.4701 -12.488662 -63.178123
1724500000 -6.1525235 -138.84721 2.7409282 11.329928 -25.525274 -1.5875628 -11.905039 -146.87869
1734000000 -6.3410077 -166.49706 3.0431259 -90.291794 -25.261227 -93.621338 -9.7378454 141.04131
1743500000 -6.4775958 167.19397 2.8688512 166.53644 -25.486835 172.80818 -8.2388077 75.670807
1753000000 -6.3118019 139.98965 2.5750968 65.917511 -25.839556 81.858894 -8.4691601 13.212001
1762500000 -6.1756182 110.8816 2.4298837 -34.765316 -26.032265 -9.225256 -9.725873 -46.907093
1772000000 -6.268177 81.220634 2.2230353 -134.05435 -26.270985 -98.876678 -10.979365 -114.78013
1781500000 -6.402411 52.332748 2.4898582 126.20718 -26.031578 170.91904 -11.615583 165.46738
1791000000 -6.3156915 23.783085 2.468837 22.943977 -26.075911 77.145966 -10.84902 89.414665
1800500000 -6.1652989 -5.1987591 2.0375106 -76.775681 -26.525101 -13.207581 -9.5725069 23.050871
1810000000 -6.1532807 -33.634819 2.2857978 -175.82544 -26.29768 -102.91286 -9.106205 -39.07513
1819500000 -6.1421747 -60.57056 2.3330097 80.623352 -26.289732 162.83945 -9.7160797 -102.43519
1829000000 -5.9086418 -87.134651 1.8491808 -20.397892 -26.830845 71.122063 -11.49817 -174.13635
1838500000 -5.6468062 -114.57407 1.7274209 -119.55543 -27.015888 -18.715988 -12.887727 104.96953
1848000000 -5.6079364 -142.26785 1.6189648 140.45685 -27.202126 -109.3226 -11.338055 26.625809
1857500000 -5.7559376 -169.14851 1.7614917 41.174271 -27.148483 160.90797 -8.9946613 -42.614433
1867000000 -5.786097 164.55128 1.9233271 -61.72427 -27.078796 67.587883 -8.0691042 -105.19512
1876500000 -5.6832995 137.16553 1.3870423 -163.36514 -27.708906 -24.400637 -8.4113445 -163.39345
1886000000 -5.707963 108.744 1.2574301 99.406456 -27.912214 -111.89588 -9.7410698 136.84288
1895500000 -5.8836441 80.183952 1.5851988 -1.1820951 -27.635313 157.26346 -11.633319 68.382355
1905000000 -6.0090775 51.790226 1.4958928 -102.78809 -27.774742 65.490181 -12.51575 -14.93566
1914500000 -5.9772806 23.205101 1.5454663 156.84572 -27.755087 -25.069454 -11.374234 -96.025261
1924000000 -5.9390492 -5.5656509 1.5287402 54.587353 -27.803234 -117.54325 -9.7520618 -162.4313
1933500000 -5.9576478 -33.865929 1.3302721 -46.013237 -28.027248 151.63077 -8.7972727 135.30554
1943000000 -5.872026 -61.505054 1.4093975 -147.32083 -27.977226 60.154247 -9.3633509 71.472504
1952500000 -5.6464009 -89.319183 1.0614656 109.95361 -28.358404 -32.675648 -10.955426 4.858809
1962000000 -5.5027995 -117.48543 0.61169374 11.597363 -28.835022 -121.19179 -12.000809 -69.930153
1971500000 -5.5311193 -145.32977 0.86748934 -86.842651 -28.616121 150.25003 -11.185613 -147.39813
1981000000 -5.6133986 -172.53484 1.0523003 170.9512 -28.459778 58.056351 -9.6203442 142.55881
1990500000 -5.6189814 160.29248 0.87938219 69.265434 -28.644997 -33.663113 -8.9346018 79.172554
2000000000 -5.6303315 132.52956 0.73518884 -31.177017 -28.796019 -124.11212 -9.3822966 19.185692
