!Keysight Technologies,N5242B,MY48420967,A.15.65.19
!Date: Sunday, January 22, 2023 23:55:47
!Correction: S11(C  1-Port  ) 
!S21(Off) 
!S12(Off) 
!S22(Off) 
!S2P File: Measurements: S11, S21, S12, S22:
# Hz S  dB   R 50
100000000 -18.400976 -16.743872 28.291037 12.717164 -34.121376 -85.012489 -22.780954 41.905666
109500000 -17.133461 -16.863401 27.550411 -89.16787 -33.2924 -177.84859 -25.6346 -2.2447772
119000000 -13.80779 -48.411285 26.701294 168.22455 -32.714821 88.638252 -23.108267 -128.69472
128500000 -14.353322 -91.885155 25.81547 67.363419 -32.274746 -3.2852564 -19.979374 142.1967
138000000 -19.295494 -118.30519 25.196136 -33.296864 -31.669058 -95.072762 -18.710428 96.18531
147500000 -18.294426 -100.49989 24.691288 -134.62408 -31.021931 172.35075 -17.228189 50.204666
157000000 -13.623077 -139.08231 24.170393 123.20365 -30.475573 79.052681 -17.988174 2.0116665
166500000 -13.073359 165.14014 23.520367 21.134148 -30.13596 -14.286206 -20.816961 -49.21328
176000000 -15.944521 110.99807 22.870872 -79.693504 -29.82843 -106.4622 -29.427465 -115.44763
185500000 -21.838572 89.291588 22.416946 179.72704 -29.391117 161.65489 -30.598291 74.764664
195000000 -18.181679 97.680084 22.03211 78.405884 -28.930262 69.063774 -22.666822 20.832659
204500000 -14.484595 55.933594 21.573214 -23.434547 -28.59371 -24.150543 -18.617752 -27.200897
214000000 -14.579602 11.503825 21.028143 -124.44926 -28.374933 -116.45483 -18.189898 -81.309677
223500000 -16.484013 -13.714218 20.649183 135.19638 -28.022118 151.81824 -20.882813 -123.67865
233000000 -15.335608 -25.917885 20.366842 34.149906 -27.610012 59.435863 -23.185553 -163.5887
242500000 -13.57149 -60.002544 20.022165 -67.47113 -27.276691 -33.581604 -29.871275 119.693
252000000 -14.678173 -100.62273 19.61813 -168.58025 -27.037241 -126.12714 -29.015511 -28.933861
261500000 -18.113543 -120.99362 19.298058 90.664978 -26.738384 141.75769 -23.179773 -95.212486
271000000 -16.490343 -125.01411 19.058653 -10.436645 -26.385778 49.27903 -21.676836 -139.2043
280500000 -13.592434 -164.6689 18.822735 -112.28536 -26.051723 -43.868866 -20.057661 178.84206
290000000 -13.554978 145.25053 18.404951 145.82903 -25.922544 -137.16942 -22.203726 118.56553
299500000 -16.185562 104.72115 18.062136 45.264732 -25.735735 130.91507 -31.935595 86.795036
309000000 -17.744013 93.39695 17.839464 -55.845711 -25.455763 38.440693 -43.568459 91.705734
318500000 -14.531256 70.907501 17.588285 -157.54807 -25.219774 -54.526974 -28.049692 -175.63591
328000000 -13.121374 30.508789 17.256674 101.07819 -25.063982 -147.18359 -23.565331 126.86351
337500000 -14.379962 -4.0936713 16.973532 0.057176683 -24.893847 120.48564 -23.240868 76.372284
347000000 -15.022137 -18.614304 16.751616 -101.05483 -24.659222 28.07052 -26.965626 22.112165
356500000 -12.569139 -42.67659 16.553894 157.68611 -24.414532 -64.535515 -34.222691 3.0920312
366000000 -11.669643 -83.815804 16.328667 55.856514 -24.219419 -157.73047 -38.10812 -103.47629
375500000 -13.624388 -124.22552 16.006968 -45.285095 -24.124781 109.69257 -27.491419 116.51457
385000000 -16.457932 -139.58015 15.816705 -146.1678 -23.921637 17.353836 -25.358765 41.641361
394500000 -13.659745 -152.28818 15.63609 112.39048 -23.718569 -75.556839 -27.977644 -2.9247115
404000000 -11.150933 166.32892 15.372354 10.544931 -23.599939 -168.92128 -27.904484 -57.895435
413500000 -11.195549 120.5053 15.016153 -90.028221 -23.601067 98.986824 -27.667837 -179.59601
423000000 -12.966443 86.928322 14.911872 169.49023 -23.363609 7.0244045 -23.977346 78.867622
432500000 -12.937104 71.831024 14.754025 67.578659 -23.188581 -86.351036 -21.733534 26.61488
442000000 -10.720609 44.647243 14.393197 -33.88699 -23.218451 -179.25616 -19.001707 -29.566046
451500000 -10.102104 7.5772452 14.160255 -134.04527 -23.123705 89.240166 -19.86047 -91.659241
461000000 -11.203302 -23.074501 14.022939 124.76638 -22.947557 -3.2714877 -21.270433 -152.23473
470500000 -11.429539 -40.103184 13.800673 23.445238 -22.856243 -95.860374 -21.969439 114.60457
480000000 -9.7884235 -65.509422 13.625093 -77.483917 -22.721598 171.97182 -22.25346 21.160553
489500000 -9.2903862 -102.31599 13.404358 -179.19708 -22.636391 79.00531 -20.164337 -31.38291
499000000 -10.510526 -136.91437 13.145954 80.452057 -22.586193 -12.623859 -17.22167 -94.694824
508500000 -11.60181 -157.7718 13.130742 -20.858469 -22.309458 -105.15676 -18.471926 -160.30675
518000000 -10.293162 179.68405 12.911983 -123.27825 -22.236074 161.18053 -20.630165 142.69138
527500000 -9.2678204 144.18425 12.540624 135.87172 -22.317009 69.045822 -22.026461 56.936398
537000000 -9.7271767 108.50449 12.440594 35.335266 -22.125769 -22.76511 -20.793859 -36.835133
546500000 -10.513144 84.116928 12.298182 -66.493523 -21.978643 -115.8364 -17.262424 -106.65328
556000000 -9.4895954 62.647541 12.007614 -167.82146 -21.967421 151.58115 -15.567622 -171.43787
565500000 -8.3714314 30.536619 11.760108 91.338974 -21.909924 59.432358 -16.064959 134.92209
575000000 -8.7703171 -3.9120157 11.514954 -8.8164454 -21.853951 -32.108997 -16.483919 77.986504
584500000 -10.208725 -28.088581 11.51455 -108.994 -21.546257 -123.83725 -19.390511 0.14125603
594000000 -9.819149 -43.650192 11.406429 149.21855 -21.36437 142.61246 -22.696325 -91.554626
603500000 -8.4814777 -72.524025 11.057481 48.746216 -21.516714 50.280167 -19.66466 -175.74994
613000000 -8.6072826 -108.51961 11.062553 -50.382412 -21.35766 -40.730293 -17.889744 114.53898
622500000 -10.062188 -138.73506 11.066902 -151.96072 -21.234529 -134.28041 -17.264116 65.665329
632000000 -10.592547 -158.44894 10.863904 107.38415 -21.316187 133.18063 -17.082705 -1.6200159
641500000 -9.5289345 174.64012 10.821579 7.0200496 -21.21615 41.121376 -21.853378 -78.87159
651000000 -9.2037945 139.74524 10.674732 -94.620163 -21.230181 -51.998245 -23.340425 -159.7886
660500000 -9.8859806 108.69473 10.517124 164.92261 -21.246941 -143.82445 -18.252945 111.27106
670000000 -9.901619 85.482651 10.477629 63.591022 -21.147083 123.58122 -15.840207 40.990795
679500000 -8.8307219 57.563728 10.281569 -37.778927 -21.194979 30.988569 -15.322645 -13.063813
689000000 -8.5366459 23.632072 10.133226 -138.05211 -21.193167 -60.505661 -15.658587 -67.100891
698500000 -9.5884075 -6.2563467 10.180698 120.96671 -20.99427 -152.73639 -17.805992 -129.84293
708000000 -10.207571 -24.145193 10.088215 18.823858 -20.937477 113.88369 -21.328472 142.94679
717500000 -8.9246283 -46.464481 9.8169413 -82.264336 -21.064493 21.525372 -19.833614 37.639309
727000000 -8.2234259 -79.856079 9.7256784 177.83043 -21.000776 -69.696068 -16.31443 -34.807476
736500000 -9.0133152 -114.01202 9.8212328 76.676498 -20.750763 -162.17738 -14.527406 -91.645081
746000000 -10.156178 -139.03769 9.7433252 -25.808851 -20.6791 103.97835 -13.99741 -145.82271
755500000 -9.5809565 -162.3542 9.4372177 -127.38142 -20.845535 11.030757 -15.058951 153.90298
765000000 -8.7805824 164.23041 9.2657862 132.57512 -20.878141 -80.36274 -17.923723 82.808525
774500000 -9.1211767 128.35509 9.2916317 31.54954 -20.718544 -172.72171 -19.302662 -4.8554897
784000000 -9.9283876 100.91789 9.1736774 -70.660675 -20.708431 93.794922 -16.076303 -85.646439
793500000 -9.1938705 78.3592 8.8499823 -171.99638 -20.910446 1.2056094 -13.287475 -153.05782
803000000 -7.9427795 47.179157 8.6567259 88.142303 -20.983566 -89.905769 -12.642019 149.45183
812500000 -7.7892861 12.199885 8.6145 -12.107333 -20.905283 178.62308 -12.683439 97.265892
822000000 -8.744153 -16.793354 8.7042208 -113.05371 -20.699547 86.473335 -13.459753 34.159462
831500000 -8.9272842 -35.741207 8.6436863 144.22818 -20.644737 -7.4481778 -16.083839 -44.307484
841000000 -7.774436 -60.730633 8.2349501 42.699814 -20.936382 -100.17603 -16.507845 -131.43781
850500000 -7.2992573 -93.600281 8.0602894 -55.895947 -20.990173 170.04047 -13.77632 150.68602
860000000 -7.9069266 -125.85408 8.3549557 -156.94704 -20.574383 77.78537 -12.101437 86.918701
869500000 -8.5713882 -151.4541 8.1813841 99.616257 -20.633152 -16.870922 -11.112178 31.438385
879000000 -8.1467562 -177.27287 7.7678094 -0.72130889 -20.929083 -108.40072 -11.438647 -31.533655
888500000 -7.7202439 150.7816 7.818315 -100.48362 -20.76012 160.6429 -14.003201 -97.376175
898000000 -7.9990911 118.63142 7.7551594 157.52786 -20.708761 67.491112 -15.529496 -170.4342
907500000 -8.2932272 92.246452 7.569139 56.507851 -20.781374 -24.694468 -13.904671 100.84709
917000000 -7.6635776 66.797211 7.432507 -44.575081 -20.802916 -116.86806 -12.220978 25.898838
926500000 -6.9872785 36.526489 7.176765 -145.10686 -20.944914 151.52591 -11.008017 -31.929667
936000000 -7.0488572 5.565949 7.1764321 115.68504 -20.821159 61.227341 -10.358718 -89.704979
945500000 -7.562274 -20.256493 7.3339133 13.846077 -20.563498 -31.715591 -11.185881 -151.56972
955000000 -7.4211798 -42.401802 7.0689282 -88.077377 -20.726595 -124.85838 -13.101532 136.7603
964500000 -6.8961959 -68.789711 6.9004688 172.42175 -20.794508 144.34354 -14.846968 50.202408
974000000 -6.9107928 -98.069771 6.9326706 71.905838 -20.680382 52.41534 -13.6385 -30.264732
983500000 -7.3826017 -125.42812 6.8780813 -28.688242 -20.680637 -39.633072 -11.177048 -98.577827
993000000 -7.4965672 -150.94481 6.875371 -129.60376 -20.646997 -132.0838 -10.454676 -161.72707
1002500000 -7.3285623 -179.75726 6.6931591 129.64203 -20.805424 135.70157 -10.893739 140.89139
1012000000 -7.6476946 149.34377 6.7294669 30.780155 -20.751598 45.407681 -12.118611 75.444061
1021500000 -8.2831688 122.47767 7.0492039 -71.254379 -20.424454 -47.987816 -14.612056 -3.4531317
1031000000 -7.9799929 98.777893 6.7449684 -174.56583 -20.7236 -142.5948 -14.59123 -89.021423
1040500000 -7.1465254 69.56292 6.3351884 86.72934 -21.117834 127.46827 -12.142124 -166.18044
1050000000 -6.9958057 36.899433 6.6445861 -11.883929 -20.789351 37.692505 -10.565858 129.7332
1059500000 -7.6968532 7.9702034 6.9398789 -114.6017 -20.471428 -56.205151 -9.7705765 71.388008
1069000000 -7.9387383 -12.680635 6.7401533 142.08513 -20.633268 -150.65266 -10.127006 6.9421239
1078500000 -7.0639553 -36.63549 6.350049 41.619381 -20.980726 117.72807 -12.330981 -63.633808
1088000000 -6.6342416 -66.915131 6.301559 -57.515488 -20.994154 27.458967 -14.156349 -141.53976
1097500000 -7.1498413 -97.092728 6.4761972 -157.86511 -20.789881 -64.003265 -12.873446 137.06949
1107000000 -7.89539 -121.61712 6.6026907 100.01818 -20.636566 -157.22777 -10.760779 62.558907
1116500000 -7.7352309 -145.77403 6.4443698 -2.269531 -20.773722 109.4126 -10.159259 -1.8057932
1126000000 -7.5163774 -175.81541 6.1936035 -102.62043 -21.01358 18.052313 -10.230714 -60.57214
1135500000 -7.9579039 153.19273 6.3413672 157.89833 -20.86146 -72.40992 -11.011666 -126.69205
1145000000 -8.3976002 126.81416 6.5608625 54.847931 -20.63101 -166.37932 -12.83402 157.09122
1154500000 -7.8506927 100.00806 6.1440783 -48.104301 -21.041553 99.752434 -12.949436 77.062714
1164000000 -7.2447848 67.736107 5.8362212 -146.27139 -21.337011 10.675947 -11.023681 2.4028747
1173500000 -7.3787823 34.595867 6.2829366 114.09961 -20.873043 -79.816231 -9.4024897 -62.287556
1183000000 -7.9570804 7.3044367 6.4775105 9.897912 -20.650969 -174.94167 -8.4881344 -122.2033
1192500000 -7.5993476 -15.570651 6.0478635 -93.367393 -21.049471 90.908012 -8.8753157 175.00613
1202000000 -6.7938976 -43.763237 5.6083612 167.10722 -21.458826 0.45582944 -10.691233 110.70348
1211500000 -6.6765485 -75.183571 5.6442809 68.780602 -21.398703 -88.822731 -12.379922 38.527569
1221000000 -7.300272 -104.31297 6.0283198 -32.274277 -20.97821 179.17133 -12.223237 -44.656342
1230500000 -7.7351265 -128.26894 6.027081 -136.09705 -20.960876 84.454185 -10.544405 -121.9068
1240000000 -7.4040537 -154.2234 5.6405168 122.35658 -21.335358 -7.947854 -9.2622995 171.70871
1249500000 -7.2426839 175.30249 5.5441809 22.852859 -21.433052 -98.22506 -8.8850241 111.42451
1259000000 -7.530735 144.88968 5.6879911 -77.988907 -21.285624 170.17656 -9.2260942 50.036148
1268500000 -7.6570964 116.86857 5.7065535 179.64624 -21.263906 77.143341 -10.493281 -18.553963
1278000000 -7.2922411 87.597725 5.4654765 77.992607 -21.498352 -15.146387 -11.661865 -94.704613
1287500000 -7.0724983 56.261204 5.3844948 -21.42647 -21.569437 -105.18387 -10.906054 -173.45665
1297000000 -7.2612371 26.668665 5.7239423 -122.87922 -21.207502 162.69081 -9.314764 114.79784
1306500000 -7.2361517 1.1539947 5.5965614 132.61967 -21.307331 67.493813 -8.2282991 51.103539
1316000000 -6.6573825 -25.051785 4.9827156 31.893658 -21.886881 -24.035292 -8.154151 -10.955131
1325500000 -6.3070488 -53.916443 4.9221373 -65.85405 -21.912479 -112.63885 -9.2903347 -73.035408
1335000000 -6.5256047 -82.317154 5.2052674 -166.32916 -21.603836 155.90114 -10.746345 -140.55885
1344500000 -6.8460608 -107.23428 5.2797337 91.562454 -21.510841 62.787518 -11.476304 137.69383
1354000000 -6.6746531 -131.79153 5.1229777 -10.095369 -21.666265 -29.899044 -10.797651 55.249462
1363500000 -6.5414205 -159.64578 4.9693446 -109.94106 -21.837797 -120.82064 -9.328124 -13.937549
1373000000 -6.8791051 171.92969 5.2069545 150.20085 -21.6329 148.27902 -8.2002325 -77.898331
1382500000 -7.182478 146.61815 5.374783 46.896332 -21.513464 53.986279 -8.2698746 -142.8322
1392000000 -6.7825651 120.5807 4.9297695 -55.367561 -22.00419 -39.20961 -9.5551004 149.05661
1401500000 -6.3745842 90.053513 4.6832275 -153.79271 -22.301933 -128.46764 -10.973896 76.033035
1411000000 -6.5044456 58.510529 4.9358735 106.97501 -22.095728 141.48421 -10.517121 -0.19194412
1420500000 -6.9731383 31.017979 5.2686176 4.8462257 -21.797863 48.494595 -8.6642399 -75.031059
1430000000 -6.758481 7.3748364 5.1560345 -99.318542 -21.945044 -46.49036 -7.9178071 -143.89799
1439500000 -6.0967746 -19.679253 4.5587311 159.2307 -22.581198 -138.77602 -8.2231131 155.69272
1449000000 -5.897171 -48.910847 4.3127551 62.080688 -22.866112 133.24266 -8.9546995 94.868286
1458500000 -6.2107821 -76.340729 4.7978892 -37.067162 -22.438972 43.266102 -10.23804 24.396557
1468000000 -6.4140754 -100.22178 5.0289083 -140.70433 -22.261906 -51.153542 -11.223022 -58.909256
1477500000 -6.1658716 -125.03528 4.6994348 117.02957 -22.651836 -144.20653 -10.299448 -141.19618
1487000000 -6.0956159 -152.56851 4.5599704 17.773804 -22.858696 125.92744 -8.5384598 148.82845
1496500000 -6.3361683 -179.78633 4.8344688 -82.935631 -22.650406 34.590382 -7.4012685 84.621605
1506000000 -6.3540788 154.1638 4.8194313 173.62424 -22.728142 -59.401779 -7.5476737 21.447708
1515500000 -6.1035991 125.67301 4.3928919 72.652802 -23.205425 -150.86075 -8.7232943 -42.539532
1525000000 -6.1061425 94.610527 4.3764977 -25.658049 -23.273409 120.39592 -9.9702978 -111.55444
1534500000 -6.4644775 64.337784 4.7592201 -126.345 -22.925995 29.281506 -9.8740597 171.83057
1544000000 -6.6668844 37.515648 4.9144473 130.19707 -22.802368 -64.609039 -8.7308598 94.476028
1553500000 -6.2870178 10.263643 4.6284037 27.070536 -23.113737 -158.23932 -8.1695442 26.598843
1563000000 -5.9622107 -19.586752 4.1799002 -72.942215 -23.588774 111.23337 -7.9817533 -33.34203
1572500000 -6.0441394 -48.912205 4.319706 -170.7756 -23.481655 22.863089 -8.2394285 -95.741623
1582000000 -6.2511768 -75.104462 4.8002682 86.671265 -23.034805 -70.269707 -9.4215202 -165.86996
1591500000 -6.05407 -100.72544 4.4932623 -17.400602 -23.387156 -164.89078 -10.47858 115.96357
1601000000 -5.8193231 -129.06935 4.1153197 -116.34805 -23.823509 105.64883 -9.9521561 37.442379
1610500000 -5.9733386 -158.23042 4.4158473 144.37279 -23.579933 15.892838 -8.3941641 -31.306049
1620000000 -6.3470392 174.47571 4.6552186 41.634724 -23.40387 -77.251228 -7.0721769 -95.795349
1629500000 -6.3279681 147.76791 4.5213232 -61.262924 -23.593822 -170.47087 -7.2545872 -160.41455
1639000000 -6.0993447 118.07243 4.2510762 -162.55585 -23.909967 97.97525 -8.6371088 136.86971
1648500000 -6.1532979 86.804222 4.1293473 98.049675 -24.07057 8.3281345 -9.890358 68.70343
1658000000 -6.4335103 56.694195 4.4409657 -2.4717677 -23.76914 -82.448906 -10.092043 -9.892251
1667500000 -6.4413161 28.327894 4.5098743 -106.33217 -23.711363 -176.62857 -9.143343 -86.624527
1677000000 -6.1322284 -0.90677071 4.0694318 151.62889 -24.152315 91.02417 -8.1005316 -153.05818
1686500000 -5.9807978 -30.763033 3.8854473 52.790138 -24.332106 1.7648094 -7.5869412 146.27959
1696000000 -6.0728602 -59.021935 4.1795793 -47.649529 -24.02632 -89.170364 -7.9242406 84.221939
1705500000 -5.9997711 -85.323997 4.212429 -151.38895 -23.997839 176.61894 -9.3905973 16.035238
1715000000 -5.6913486 -112.54333 3.7455263 106.99942 -24.493364 84.530975 -10.993931 -61.681553
1724500000 -5.5929942 -140.99617 3.6927018 8.6236048 -24.5818 -4.3149142 -10.627061 -143.15306
1734000000 -5.8097672 -168.67863 4.0385003 -93.040611 -24.272243 -96.413651 -8.6910505 144.6535
1743500000 -5.9326568 165.30302 3.8835697 163.46655 -24.481625 169.69763 -7.2478209 77.744286
1753000000 -5.7025414 138.14577 3.5694196 62.609291 -24.852875 78.478256 -7.5334454 13.945477
1762500000 -5.5380292 108.81193 3.3942437 -38.139336 -25.071478 -12.613545 -8.7247257 -46.631622
1772000000 -5.6364975 79.084129 3.181864 -137.20891 -25.317581 -102.08135 -9.7830477 -114.46695
1781500000 -5.7719693 50.392624 3.5008075 123.00473 -25.031187 167.67148 -10.341233 166.86182
1791000000 -5.6685514 22.049126 3.4764011 19.372759 -25.081778 73.52829 -9.7024975 91.498245
1800500000 -5.5160265 -6.8813105 3.0195403 -80.267609 -25.558832 -16.730814 -8.5403814 24.45145
1810000000 -5.5264854 -35.163124 3.3143892 -179.29298 -25.283831 -106.41439 -8.0862637 -38.586979
1819500000 -5.5180354 -61.735718 3.3799236 76.70562 -25.248316 158.84763 -8.5737095 -103.10033
1829000000 -5.2450342 -88.151077 2.8501918 -24.566515 -25.834408 66.910103 -10.195154 -175.52837
1838500000 -4.9669237 -115.74868 2.7021949 -123.68452 -26.053919 -22.888588 -11.495506 105.39293
1848000000 -4.9445734 -143.50848 2.5821269 136.42976 -26.251743 -113.38363 -10.140631 28.600328
1857500000 -5.1000872 -170.23756 2.7572134 37.173904 -26.161016 156.87827 -7.9970407 -41.377022
1867000000 -5.0893693 163.60971 2.9236283 -66.095245 -26.088669 63.211796 -7.1870532 -105.10104
1876500000 -4.9444838 136.10388 2.3219416 -167.79457 -26.784388 -28.866316 -7.5574245 -164.33333
1886000000 -4.9583368 107.51836 2.1886036 95.366722 -26.989546 -115.95459 -8.8081369 135.15085
1895500000 -5.1303325 78.921928 2.5610373 -5.1966276 -26.668116 153.22427 -10.422288 66.614349
1905000000 -5.2378645 50.607155 2.4846666 -106.89345 -26.7873 61.319 -11.076025 -15.118001
1914500000 -5.1924663 22.009838 2.5598533 152.69989 -26.758553 -29.259787 -10.143023 -94.701302
1924000000 -5.1669736 -6.853147 2.555301 50.224777 -26.78916 -121.96128 -8.6868124 -161.2137
1933500000 -5.2030616 -35.121429 2.366509 -50.447803 -27.001902 147.17947 -7.7596064 135.46887
1943000000 -5.1156425 -62.668907 2.4655344 -152.05746 -26.930502 55.393154 -8.3082132 70.625488
1952500000 -4.8940134 -90.627968 2.0695989 104.89222 -27.367474 -37.832096 -9.7756777 3.788264
1962000000 -4.7739019 -119.00795 1.5782518 6.7992191 -27.889599 -126.00665 -10.693621 -69.890511
1971500000 -4.8339553 -146.92012 1.8732551 -91.466858 -27.616699 145.61597 -9.9686251 -145.85767
1981000000 -4.9296865 -174.07069 2.0866108 166.114 -27.425968 53.162853 -8.5411434 143.96272
1990500000 -4.9202647 158.7065 1.9042002 64.261955 -27.633043 -38.705582 -7.9381833 79.639427
2000000000 -4.9182086 130.75977 1.7537013 -36.186684 -27.791655 -129.21454 -8.3699265 18.844074
