!Keysight Technologies,N5242B,MY48420967,A.15.65.19
!Date: Friday, February 03, 2023 23:45:38
!Correction: S11(C  1-Port  ) 
!S21(Off) 
!S12(Off) 
!S22(Off) 
!S2P File: Measurements: S11, S21, S12, S22:
# Hz S  dB   R 50
100000000 -17.852543 -13.34201 28.206091 12.479893 -34.197315 -85.23909 -22.854446 44.826191
109500000 -16.755444 -16.51819 27.467319 -89.402649 -33.368923 -177.95421 -25.386953 -1.6948075
119000000 -13.681711 -48.83773 26.613564 167.95793 -32.78307 88.378174 -22.849661 -127.70123
128500000 -14.207628 -91.183052 25.72337 67.101387 -32.36964 -3.510088 -19.863007 144.42964
138000000 -19.014702 -115.3225 25.101528 -33.54121 -31.749765 -95.242805 -18.498356 98.783493
147500000 -17.908287 -100.64462 24.600525 -134.8539 -31.11622 172.21376 -16.966751 52.23056
157000000 -13.429833 -139.67943 24.08429 122.9376 -30.553068 78.80471 -17.708561 3.5559494
166500000 -12.892124 165.48701 23.432772 20.80522 -30.216124 -14.59598 -20.482222 -47.857983
176000000 -15.808026 112.41348 22.773287 -80.055504 -29.922194 -106.77847 -28.712994 -113.76006
185500000 -21.294851 90.539886 22.313297 179.39897 -29.493927 161.35863 -30.692436 80.08802
195000000 -17.818123 96.144211 21.931046 78.094963 -29.027077 68.763084 -22.585442 23.458363
204500000 -14.331369 55.716984 21.473713 -23.778629 -28.684479 -24.438478 -18.477375 -25.455387
214000000 -14.476772 11.650372 20.92362 -124.81889 -28.468397 -116.79256 -18.058304 -79.70089
223500000 -16.181585 -13.782758 20.540676 134.84158 -28.120691 151.47495 -20.661036 -121.87025
233000000 -15.020702 -26.644297 20.259636 33.800285 -27.697369 59.07473 -22.872028 -162.26218
242500000 -13.427032 -60.386169 19.914181 -67.843346 -27.376387 -33.969593 -29.499989 122.06768
252000000 -14.539495 -101.01369 19.506117 -168.96036 -27.148392 -126.5079 -29.162634 -27.193735
261500000 -17.698626 -121.82056 19.183315 90.293045 -26.844374 141.36748 -23.256527 -93.95295
271000000 -16.185436 -126.5764 18.944855 -10.794789 -26.484999 48.957199 -21.585672 -137.50082
280500000 -13.499701 -165.53302 18.710423 -112.66737 -26.147982 -44.251869 -19.897594 179.9113
290000000 -13.449417 144.49916 18.289846 145.42816 -26.028744 -137.56717 -22.035267 120.51619
299500000 -15.875796 104.86574 17.942968 44.855816 -25.849548 130.51506 -30.763409 89.756195
309000000 -17.367699 92.985786 17.717667 -56.242298 -25.566339 38.095207 -40.835281 73.017357
318500000 -14.41272 69.890717 17.466106 -157.93491 -25.333797 -54.874779 -28.713371 -172.73749
328000000 -13.01401 29.678289 17.135735 100.68023 -25.181568 -147.52715 -23.924608 129.64795
337500000 -14.172451 -4.2190633 16.848541 -0.36053735 -25.001457 120.12782 -23.424477 80.125298
347000000 -14.795051 -19.198486 16.621887 -101.44532 -24.784706 27.708363 -26.978094 28.53043
356500000 -12.465513 -43.702374 16.428408 157.3251 -24.537081 -64.877075 -32.715187 11.952679
366000000 -11.56603 -84.408043 16.208231 55.459789 -24.329514 -158.10336 -37.319908 -81.559395
375500000 -13.471508 -124.0798 15.879582 -45.731918 -24.253956 109.30441 -28.51679 119.89983
385000000 -16.159353 -140.15305 15.680219 -146.57127 -24.053694 16.969267 -26.16721 44.143387
394500000 -13.497556 -153.81361 15.50502 112.04856 -23.840584 -75.875359 -28.79896 3.8732722
404000000 -11.0633 165.57118 15.251686 10.170646 -23.717798 -169.28177 -28.481119 -48.983913
413500000 -11.137659 120.26085 14.89159 -90.476929 -23.720242 98.565331 -29.240898 -177.95479
423000000 -12.805682 86.762794 14.777366 169.05086 -23.491566 6.5698404 -24.829725 75.718567
432500000 -12.721144 71.050606 14.619327 67.185776 -23.313679 -86.741806 -22.46932 25.304628
442000000 -10.633922 43.908756 14.2654 -34.279469 -23.333275 -179.66144 -19.565016 -29.221312
451500000 -10.066041 6.9608707 14.031266 -134.49573 -23.244455 88.818802 -20.393156 -90.322487
461000000 -11.088828 -23.552504 13.885324 124.31863 -23.072203 -3.7240493 -21.908304 -150.30759
470500000 -11.269012 -40.801052 13.66195 23.055647 -22.985338 -96.247917 -22.971666 114.74299
480000000 -9.7197437 -66.31691 13.496862 -77.883987 -22.843798 171.5537 -23.215771 18.902092
489500000 -9.24615 -103.12129 13.273006 -179.66122 -22.757559 78.551025 -20.829821 -32.521858
499000000 -10.380033 -137.55815 13.006904 79.985214 -22.722786 -13.029787 -17.721306 -95.686417
508500000 -11.412251 -158.66475 12.989022 -21.288284 -22.443354 -105.56784 -19.008404 -160.74057
518000000 -10.210752 178.49553 12.773256 -123.69666 -22.368801 160.76343 -21.184803 143.53366
527500000 -9.228034 143.10896 12.40424 135.43834 -22.449135 68.658623 -22.689573 57.323257
537000000 -9.640192 107.75595 12.301001 34.871895 -22.26292 -23.16563 -21.42819 -38.172359
546500000 -10.368726 83.399887 12.152095 -66.938492 -22.114183 -116.27571 -17.792017 -107.82094
556000000 -9.396924 61.601833 11.864366 -168.2234 -22.104034 151.19809 -16.037895 -172.18279
565500000 -8.3143625 29.558453 11.621715 90.91481 -22.042439 59.05241 -16.528715 134.47224
575000000 -8.6814814 -4.6325779 11.374229 -9.2811832 -21.988424 -32.518089 -16.98884 77.672813
584500000 -10.066607 -28.947708 11.364942 -109.44868 -21.691267 -124.25813 -20.037214 -0.54862422
594000000 -9.7303457 -45.102615 11.256491 148.82094 -21.506628 142.27515 -23.363111 -93.925812
603500000 -8.4453487 -73.807579 10.916561 48.373558 -21.64913 49.975727 -20.09119 -177.82494
613000000 -8.5660515 -109.42284 10.926876 -50.829372 -21.485092 -41.138947 -18.305746 113.12305
622500000 -9.9843073 -139.57024 10.918677 -152.44856 -21.371277 -134.73167 -17.750671 65.123138
632000000 -10.483253 -159.80978 10.708447 106.98145 -21.460762 132.82741 -17.643015 -2.0200608
641500000 -9.4407139 173.29961 10.677279 6.6506782 -21.349489 40.811638 -22.73732 -80.739487
651000000 -9.1322546 138.6962 10.532721 -95.03933 -21.360117 -52.3941 -24.200024 -164.23705
660500000 -9.8022718 107.43734 10.368697 164.49817 -21.387398 -144.20628 -18.590506 108.16422
670000000 -9.8020887 83.850708 10.3295 63.216442 -21.285378 123.23346 -16.083254 39.030621
679500000 -8.7668839 56.247681 10.142351 -38.142899 -21.32766 30.662468 -15.620964 -14.388709
689000000 -8.5160818 22.625776 9.9979191 -138.49287 -21.320559 -60.922024 -16.051901 -67.730194
698500000 -9.5368614 -7.4013381 10.032768 120.48588 -21.134842 -153.18364 -18.357912 -130.13759
708000000 -10.093211 -25.675739 9.9313068 18.426294 -21.085712 113.51144 -22.124735 140.62839
717500000 -8.8646336 -47.811581 9.6717119 -82.587128 -21.196913 21.220516 -20.17267 33.382202
727000000 -8.2180395 -81.021431 9.5934906 177.44215 -21.125168 -70.053719 -16.516552 -37.665649
736500000 -8.9750738 -115.33108 9.6800737 76.21019 -20.882572 -162.60461 -14.749635 -93.591026
746000000 -10.042629 -140.49992 9.5918407 -26.225821 -20.821913 103.58841 -14.275131 -147.34067
755500000 -9.5183563 -163.75714 9.2936592 -127.73099 -20.980928 10.727162 -15.445704 152.63416
765000000 -8.7760029 162.91325 9.1318998 132.17 -21.002089 -80.711792 -18.443026 81.125893
774500000 -9.0796556 127.06151 9.1505165 31.087563 -20.851549 -173.13576 -19.73661 -8.235673
784000000 -9.8191681 99.650024 9.0226898 -71.081795 -20.850229 93.418037 -16.307503 -88.565475
793500000 -9.1349001 76.975533 8.7051859 -172.3356 -21.046488 0.89033759 -13.48928 -154.99818
803000000 -7.9381461 45.831394 8.5248909 87.769646 -21.109365 -90.248062 -12.858789 148.06927
812500000 -7.7709537 11.003152 8.4811678 -12.558055 -21.030693 178.22694 -12.947487 96.191177
822000000 -8.6871033 -17.808531 8.5608492 -113.52345 -20.83329 86.051163 -13.816934 33.14753
831500000 -8.8870621 -37.015179 8.4967585 143.82832 -20.781126 -7.8039131 -16.560354 -45.903492
841000000 -7.7835279 -62.125153 8.096199 42.349976 -21.065208 -100.51297 -16.881708 -133.9953
850500000 -7.3003101 -94.874298 7.9318142 -56.290699 -21.111662 169.67738 -13.987514 148.50327
860000000 -7.8791776 -126.99645 8.2206345 -157.42433 -20.700619 77.330711 -12.291954 85.172264
869500000 -8.5382528 -152.80598 8.0350418 99.182022 -20.769344 -17.261383 -11.34032 30.139006
879000000 -8.1365347 -178.88132 7.6311111 -1.0830729 -21.060923 -108.73556 -11.699236 -32.466122
888500000 -7.703032 149.25688 7.6898751 -100.91615 -20.879068 160.24937 -14.319365 -98.37191
898000000 -7.9700933 117.29423 7.6172285 157.06921 -20.835615 67.050842 -15.887714 -172.00691
907500000 -8.2647104 90.768646 7.4284992 56.089054 -20.914124 -25.055361 -14.163819 98.994301
917000000 -7.645659 65.148155 7.2988253 -44.985229 -20.929136 -117.25088 -12.410858 24.4851
926500000 -6.9708247 35.059086 7.0458384 -145.53958 -21.067327 151.12843 -11.188348 -32.969296
936000000 -7.0380025 4.2639804 7.0451727 115.21234 -20.946962 60.805199 -10.561787 -90.512222
945500000 -7.5478034 -21.743637 7.1942215 13.37081 -20.693966 -32.141411 -11.438386 -152.21632
955000000 -7.4075618 -44.107357 6.9295025 -88.489609 -20.858486 -125.21471 -13.41488 136.01633
964500000 -6.8915653 -70.341393 6.7707467 172.00294 -20.915197 143.97716 -15.143416 48.710983
974000000 -6.9153123 -99.513329 6.8017178 71.439468 -20.803116 51.996662 -13.83126 -31.904995
983500000 -7.3800306 -127.05709 6.7429576 -29.151535 -20.806654 -40.037209 -11.338729 -99.786194
993000000 -7.483427 -152.76373 6.7395196 -130.05208 -20.770758 -132.47273 -10.614812 -162.54692
1002500000 -7.3141708 178.52356 6.5586734 129.22195 -20.932739 135.34425 -11.069122 140.23911
1012000000 -7.6306539 147.70116 6.6022201 30.341152 -20.869793 45.020878 -12.343677 74.815399
1021500000 -8.255908 120.65551 6.9157505 -71.738167 -20.550819 -48.41692 -14.88081 -4.3915606
1031000000 -7.9679065 96.84127 6.605237 -174.97128 -20.854683 -142.92513 -14.78655 -90.398407
1040500000 -7.1424303 67.881538 6.2121563 86.365822 -21.227167 127.18139 -12.26797 -167.33394
1050000000 -6.9919596 35.469097 6.5278993 -12.360376 -20.892677 37.277534 -10.685476 128.85822
1059500000 -7.6895118 6.5114651 6.8073616 -115.10888 -20.592356 -56.644951 -9.9099665 70.723198
1069000000 -7.9294472 -14.393634 6.6033707 141.68199 -20.756985 -150.98688 -10.302825 6.4105759
1078500000 -7.0716124 -38.208797 6.2291946 41.259129 -21.095026 117.44447 -12.553347 -64.256676
1088000000 -6.6611166 -68.22892 6.1896024 -57.955025 -21.100069 27.092258 -14.39398 -142.73325
1097500000 -7.1881385 -98.445686 6.3571424 -158.36201 -20.900646 -64.46888 -13.035569 135.57372
1107000000 -7.9040303 -123.21 6.4764481 99.557037 -20.752012 -157.62646 -10.877332 61.298996
1116500000 -7.7386103 -147.382 6.3225193 -2.6808162 -20.882309 109.07623 -10.26697 -2.7916532
1126000000 -7.5525026 -177.31862 6.0803475 -103.03234 -21.119949 17.701513 -10.345166 -61.359318
1135500000 -8.0108423 151.47095 6.2328377 157.44344 -20.957865 -72.813408 -11.136312 -127.37329
1145000000 -8.4248476 124.94575 6.4489694 54.368629 -20.733326 -166.82143 -12.971484 156.3425
1154500000 -7.8838716 98.428337 6.03513 -48.552441 -21.141176 99.369461 -13.086454 76.157394
1164000000 -7.309206 66.317482 5.7380171 -146.77631 -21.429281 10.262687 -11.151006 1.5347571
1173500000 -7.4272943 33.088707 6.1750159 113.48957 -20.972944 -80.37896 -9.5311184 -63.070915
1183000000 -7.9542751 5.8425717 6.3522744 9.3399582 -20.767359 -175.41579 -8.6354427 -122.94875
1192500000 -7.6216054 -17.003197 5.9275298 -93.807198 -21.162363 90.505875 -9.046895 174.34639
1202000000 -6.8623123 -45.319176 5.5027189 166.66359 -21.558056 0.063359812 -10.864069 110.01466
1211500000 -6.73278 -76.820541 5.5436401 68.294495 -21.484571 -89.252472 -12.521516 37.509674
1221000000 -7.3313475 -105.80015 5.9291911 -32.800156 -21.068783 178.71436 -12.307028 -45.817924
1230500000 -7.7901807 -129.78503 5.925518 -136.64421 -21.051569 83.988472 -10.616274 -122.72585
1240000000 -7.4894228 -155.97263 5.5390477 121.81055 -21.430918 -8.416563 -9.3405266 171.23749
1249500000 -7.301105 173.49409 5.4432898 22.299496 -21.524731 -98.753181 -8.9776402 111.06231
1259000000 -7.5668907 143.23151 5.5876794 -78.545555 -21.377081 169.67963 -9.3506241 49.694721
1268500000 -7.7125468 115.18915 5.6072149 179.08665 -21.349508 76.652382 -10.649183 -18.95743
1278000000 -7.3588815 85.767708 5.3679018 77.43808 -21.589148 -15.648276 -11.809693 -95.343735
1287500000 -7.1097665 54.516151 5.2929659 -21.993946 -21.649324 -105.71648 -11.008724 -174.25127
1297000000 -7.284018 25.159847 5.6319675 -123.50732 -21.285215 162.13515 -9.3984146 114.1254
1306500000 -7.2861791 -0.36185735 5.4955606 131.99736 -21.396448 66.965286 -8.3169146 50.629902
1316000000 -6.7288232 -26.728544 4.8849092 31.335522 -21.972853 -24.511225 -8.2486563 -11.287101
1325500000 -6.3576908 -55.580379 4.8347707 -66.42524 -21.992163 -113.1499 -9.3962088 -73.363564
1335000000 -6.5631485 -83.814178 5.1209712 -166.94765 -21.678291 155.35953 -10.872114 -141.03902
1344500000 -6.9175553 -108.75591 5.1942067 90.922058 -21.584909 62.242676 -11.587365 137.03311
1354000000 -6.7670517 -133.53665 5.0372906 -10.739554 -21.747208 -30.460079 -10.861485 54.668415
1363500000 -6.603797 -161.44873 4.8872385 -110.5847 -21.910364 -121.37181 -9.3748817 -14.354463
1373000000 -6.9236417 170.31662 5.1285348 149.51056 -21.704811 147.69917 -8.2606392 -78.164566
1382500000 -7.2588005 144.9866 5.2907634 46.179001 -21.582281 53.375286 -8.3482094 -142.9469
1392000000 -6.8699889 118.71793 4.8456287 -56.046211 -22.072075 -39.774124 -9.6499968 148.96722
1401500000 -6.4219184 88.273346 4.6091294 -154.48454 -22.362726 -129.10004 -11.085543 75.743889
1411000000 -6.5428448 57.000618 4.8634796 106.20603 -22.157513 140.76305 -10.61453 -0.70024657
1420500000 -7.0395713 29.512575 5.1880126 4.0387011 -21.869707 47.789505 -8.740181 -75.518738
1430000000 -6.817142 5.7073817 5.0695558 -100.09271 -22.021856 -47.200817 -7.9825029 -144.23769
1439500000 -6.1344981 -21.225742 4.4769206 158.49895 -22.649818 -139.42264 -8.2839451 155.44101
1449000000 -5.9552193 -50.274689 4.2412043 61.320755 -22.9298 132.58421 -9.0233316 94.677132
1458500000 -6.2972665 -77.823486 4.7242069 -37.894661 -22.497149 42.553043 -10.319956 24.192041
1468000000 -6.4868436 -101.81303 4.94941 -141.52046 -22.332922 -51.880447 -11.298363 -59.249645
1477500000 -6.2219667 -126.50455 4.6262212 116.23524 -22.715668 -144.88396 -10.355022 -141.56598
1487000000 -6.1703863 -154.01591 4.4928079 16.917242 -22.91328 125.13338 -8.587429 148.59038
1496500000 -6.4208884 178.59213 4.7598367 -83.844276 -22.713058 33.746643 -7.4530964 84.523819
1506000000 -6.4094291 152.52046 4.7402964 172.75473 -22.794983 -60.189602 -7.6088085 21.442549
1515500000 -6.1510034 124.1794 4.3225603 71.789352 -23.267801 -151.66191 -8.8081837 -42.500168
1525000000 -6.1778622 93.086105 4.30723 -26.595427 -23.329983 119.55149 -10.079359 -111.5833
1534500000 -6.5282965 62.702881 4.6811752 -127.29615 -22.993233 28.414949 -9.9829817 171.53282
1544000000 -6.6965814 35.97871 4.8365035 129.2753 -22.868486 -65.452072 -8.816514 94.069336
1553500000 -6.327239 8.8736296 4.5539308 26.133411 -23.176167 -159.05832 -8.229785 26.32682
1563000000 -6.0296836 -21.051622 4.103878 -73.889305 -23.65103 110.37485 -8.0252762 -33.50618
1572500000 -6.1040063 -50.44323 4.2450585 -171.7312 -23.541759 21.974112 -8.2873573 -95.800209
1582000000 -6.2889481 -76.490875 4.7240815 85.703613 -23.099123 -71.174347 -9.4899645 -165.80072
1591500000 -6.1076469 -102.03452 4.419384 -18.358669 -23.451309 -165.7701 -10.572674 115.99557
1601000000 -5.8964596 -130.54344 4.0449104 -117.34298 -23.87949 104.71454 -10.048595 37.279228
1610500000 -6.036272 -159.78033 4.3393898 143.34416 -23.644852 14.946527 -8.4690828 -31.537249
1620000000 -6.3862886 173.0394 4.5760283 40.645786 -23.473042 -78.157227 -7.1356649 -95.990112
1629500000 -6.3802357 146.35147 4.4486351 -62.239799 -23.657082 -171.34239 -7.3141398 -160.42697
1639000000 -6.1669836 116.50852 4.1799078 -163.56357 -23.970078 97.045654 -8.6921415 137.03516
1648500000 -6.2027907 85.225151 4.0605493 97.044502 -24.126047 7.4340053 -9.968421 68.923225
1658000000 -6.4687123 55.292057 4.3761716 -3.5137608 -23.826933 -83.449951 -10.213837 -9.8000965
1667500000 -6.489397 26.963684 4.4419227 -107.41071 -23.768503 -177.64082 -9.260541 -86.730873
1677000000 -6.1882277 -2.3572145 4.000113 150.55989 -24.207844 89.986702 -8.1880627 -153.27385
1686500000 -6.0287895 -32.206779 3.8193934 51.707138 -24.380859 0.74922889 -7.6564336 146.06404
1696000000 -6.1194057 -60.386784 4.1121826 -48.762367 -24.083811 -90.183678 -7.9821959 84.131325
1705500000 -6.0505319 -86.717018 4.1426921 -152.48621 -24.048578 175.5945 -9.4419727 16.151756
1715000000 -5.742516 -114.00366 3.6827328 105.91068 -24.538618 83.509453 -11.067091 -61.381271
1724500000 -5.652215 -142.46536 3.6345012 7.4678035 -24.625259 -5.4293437 -10.73562 -142.95096
1734000000 -5.8772101 -170.16327 3.972182 -94.230431 -24.326756 -97.557732 -8.7963181 144.67833
1743500000 -5.9835525 163.7393 3.8176501 162.31767 -24.533978 168.63206 -7.3433957 77.709633
1753000000 -5.7418685 136.57593 3.5123367 61.425621 -24.893745 77.34655 -7.6195445 13.996387
1762500000 -5.5893617 107.2596 3.3325009 -39.379196 -25.124435 -13.786123 -8.7978077 -46.457687
1772000000 -5.6911654 77.43071 3.1206391 -138.42877 -25.368584 -103.25238 -9.8730803 -114.21996
1781500000 -5.7998552 48.750027 3.4456203 121.73531 -25.06329 166.48267 -10.474953 167.1212
1791000000 -5.688767 20.550753 3.4155343 18.049686 -25.127272 72.315704 -9.8391705 91.587334
1800500000 -5.5662127 -8.392499 2.9567831 -81.601585 -25.604448 -17.991369 -8.661088 24.325497
1810000000 -5.5720224 -36.816299 3.2465739 179.32524 -25.333992 -107.77599 -8.1926937 -38.743801
1819500000 -5.525598 -63.336536 3.303112 75.357285 -25.310263 157.56067 -8.660346 -103.17605
1829000000 -5.2582407 -89.612442 2.7815247 -25.875431 -25.886963 65.669617 -10.271873 -175.38725
1838500000 -5.0177197 -117.29013 2.6359527 -125.07069 -26.103777 -24.200043 -11.587211 105.77509
1848000000 -4.9912539 -145.23608 2.5089748 135.04433 -26.311842 -114.67869 -10.263507 28.857054
1857500000 -5.1139102 -171.91154 2.6874499 35.788754 -26.220888 155.55141 -8.1395836 -41.287663
1867000000 -5.1021543 162.05569 2.8514135 -67.522552 -26.148096 61.822624 -7.3250923 -105.02561
1876500000 -4.9818697 134.43962 2.247304 -169.20328 -26.842276 -30.183922 -7.6792274 -164.30295
1886000000 -4.9931002 105.70204 2.1189599 93.932846 -27.044571 -117.35071 -8.9253883 135.17073
1895500000 -5.1400342 77.135056 2.486026 -6.6628976 -26.728567 151.84373 -10.535195 66.691933
1905000000 -5.2373285 48.904533 2.413482 -108.33627 -26.845245 59.954159 -11.203582 -14.988116
1914500000 -5.202487 20.297691 2.4940231 151.16124 -26.810062 -30.720457 -10.284542 -94.569313
1924000000 -5.1833072 -8.6215439 2.4739671 48.630474 -26.859848 -123.50681 -8.8213005 -161.16309
1933500000 -5.2026043 -36.905464 2.2801464 -52.006645 -27.075851 145.72198 -7.9041014 135.42596
1943000000 -5.0974107 -64.397667 2.3768489 -153.6384 -27.004772 53.866577 -8.4584856 70.654221
1952500000 -4.8899345 -92.288315 1.971126 103.33029 -27.454271 -39.310875 -9.9115973 3.8670483
1962000000 -4.8011756 -120.75757 1.4817441 5.29145 -27.972769 -127.46915 -10.819099 -69.777893
1971500000 -4.8534102 -148.79909 1.7793409 -92.977837 -27.695808 144.16893 -10.092608 -145.62814
1981000000 -4.9221096 -175.85378 1.9953371 164.61612 -27.508343 51.752792 -8.6672611 144.28831
1990500000 -4.9263606 157.05183 1.8197411 62.722668 -27.697704 -40.193562 -8.0670357 80.013397
2000000000 -4.9546528 128.98972 1.6629436 -37.787003 -27.866745 -130.63588 -8.5111856 19.225855
