!Keysight Technologies,N5242B,MY48420967,A.15.65.19
!Date: Monday, January 23, 2023 08:21:05
!Correction: S11(C  1-Port  ) 
!S21(Off) 
!S12(Off) 
!S22(Off) 
!S2P File: Measurements: S11, S21, S12, S22:
# Hz S  dB   R 50
100000000 -19.010021 -10.998566 28.070747 11.827981 -34.331963 -85.85524 -22.543491 46.364307
109500000 -17.19401 -13.138155 27.322062 -89.975471 -33.50211 -178.68983 -25.06525 -2.0908294
119000000 -14.001556 -46.466259 26.46903 167.41109 -32.938339 87.846382 -22.887226 -127.66237
128500000 -14.676785 -89.388618 25.569231 66.544304 -32.513279 -4.0883579 -19.765156 143.80128
138000000 -19.433071 -113.14801 24.940016 -34.031521 -31.924463 -95.728699 -18.297615 96.523079
147500000 -17.982967 -99.496338 24.438507 -135.3327 -31.279119 171.73842 -16.861876 49.163139
157000000 -13.707707 -138.49879 23.912224 122.45071 -30.743675 78.281937 -17.6537 -0.32250485
166500000 -13.371615 166.64775 23.245743 20.395283 -30.405275 -15.073828 -20.534796 -53.23782
176000000 -16.429195 114.34546 22.58703 -80.346634 -30.116306 -107.10597 -28.538967 -125.03152
185500000 -22.006302 97.048683 22.135273 179.15198 -29.669649 161.13002 -29.039057 82.940529
195000000 -17.995461 100.61201 21.756052 77.833473 -29.207777 68.415291 -21.908554 23.27182
204500000 -14.62803 58.508549 21.29377 -24.032221 -28.864342 -24.745682 -18.143557 -26.809309
214000000 -14.875072 15.223795 20.742132 -125.04173 -28.654364 -117.09899 -17.761961 -81.109879
223500000 -16.638477 -8.4079599 20.357674 134.64696 -28.310751 151.22722 -20.240866 -124.99525
233000000 -15.313237 -21.825838 20.078655 33.62907 -27.891962 58.895206 -22.611017 -168.06889
242500000 -13.721894 -56.150097 19.733433 -68.016167 -27.55982 -34.08947 -28.576349 112.56063
252000000 -14.968149 -95.207123 19.322699 -169.12151 -27.327478 -126.61619 -27.81061 -23.076746
261500000 -18.063519 -112.9937 19.000875 90.161362 -27.026648 141.31149 -22.525692 -92.035683
271000000 -16.178772 -120.4781 18.766224 -10.933178 -26.674564 48.868629 -20.929453 -138.56026
280500000 -13.666526 -160.91585 18.530647 -112.82954 -26.340057 -44.461033 -19.524151 176.91805
290000000 -13.92695 149.8129 18.106649 145.24519 -26.211102 -137.78772 -21.638971 115.979
299500000 -16.661875 111.37923 17.751585 44.692013 -26.046343 130.34058 -30.838367 72.052246
309000000 -17.762857 100.26993 17.530987 -56.363998 -25.759506 38.033592 -49.056507 -17.930567
318500000 -14.628526 74.873665 17.282904 -158.12268 -25.519932 -55.084675 -26.682568 -169.94234
328000000 -13.412083 34.150356 16.939831 100.45992 -25.385069 -147.81973 -22.600748 129.41534
337500000 -14.674228 0.50735962 16.648499 -0.52622205 -25.202082 119.8988 -22.181978 76.520294
347000000 -15.065453 -14.532799 16.427057 -101.638 -24.984629 27.535563 -25.233374 19.492718
356500000 -12.713954 -40.122818 16.222692 157.04311 -24.75135 -65.174072 -31.783615 -22.663034
366000000 -11.989887 -81.05764 15.97926 55.232609 -24.567202 -158.32797 -32.975887 -124.24924
375500000 -14.006096 -120.08075 15.652455 -45.824749 -24.476019 109.17647 -25.680021 122.44804
385000000 -16.493366 -134.77644 15.467664 -146.66739 -24.270639 16.902945 -23.871254 48.538929
394500000 -13.732516 -150.25728 15.290875 111.81519 -24.055719 -76.137657 -25.491253 -0.78428257
404000000 -11.47182 168.1039 15.0091 9.915803 -23.962997 -169.56154 -25.594803 -60.21701
413500000 -11.654646 122.90112 14.636832 -90.603722 -23.978565 98.436661 -26.110905 -169.19553
423000000 -13.381916 90.173271 14.526981 169.02316 -23.740891 6.5648336 -23.679293 90.356651
432500000 -13.200227 74.458717 14.379526 67.136047 -23.561441 -86.790871 -21.11319 34.060532
442000000 -11.077914 46.562965 14.015185 -34.400253 -23.589714 -179.7374 -18.52529 -24.928207
451500000 -10.551297 9.7996817 13.76383 -134.54396 -23.515217 88.783615 -19.279417 -86.538734
461000000 -11.630856 -20.126177 13.625359 124.37843 -23.339342 -3.615016 -20.539722 -147.17136
470500000 -11.755965 -37.383976 13.410792 23.048285 -23.240271 -96.257561 -21.693926 122.59381
480000000 -10.189683 -63.300991 13.227056 -77.936157 -23.113728 171.48972 -22.397297 30.292562
489500000 -9.8070812 -99.80069 12.996463 -179.58958 -23.037733 78.633087 -20.034088 -25.802198
499000000 -11.067413 -133.60281 12.735406 80.069611 -22.997629 -12.973166 -17.245558 -90.52739
508500000 -12.053741 -154.23927 12.716288 -21.175846 -22.721409 -105.47002 -18.371744 -154.9229
518000000 -10.755789 -177.57089 12.505499 -123.58839 -22.639736 160.87721 -20.310389 148.08324
527500000 -9.829977 146.77263 12.130601 135.48738 -22.725559 68.667915 -22.087355 63.783901
537000000 -10.336515 111.44547 12.015037 34.979469 -22.556849 -23.089718 -21.255901 -31.362139
546500000 -11.03901 87.238869 11.875797 -66.789063 -22.394604 -116.15611 -17.627115 -103.17658
556000000 -9.978302 65.196625 11.587475 -168.16429 -22.386263 151.24365 -15.834266 -168.08647
565500000 -8.9251766 32.936089 11.329522 90.96962 -22.339838 59.074055 -16.15237 138.45686
575000000 -9.3594561 -1.019707 11.076709 -9.197587 -22.291952 -32.474232 -16.552492 81.846886
584500000 -10.695798 -24.569998 11.060612 -109.32232 -21.996143 -124.1495 -19.558348 6.8258638
594000000 -10.21421 -40.765129 10.959918 148.96309 -21.80998 142.39244 -23.235556 -82.548752
603500000 -8.9664888 -69.984291 10.613477 48.384525 -21.95944 49.954967 -20.344856 -170.63112
613000000 -9.1712008 -105.53135 10.587944 -50.759933 -21.831083 -41.129005 -18.420839 119.28233
622500000 -10.595495 -135.00117 10.591854 -152.17433 -21.703756 -134.4971 -17.486633 70.20359
632000000 -11.023346 -155.02652 10.394886 107.14658 -21.776583 132.96277 -17.359198 3.8656549
641500000 -10.015029 177.45276 10.343019 6.7591777 -21.692972 40.878075 -22.162703 -68.835213
651000000 -9.7569084 142.65982 10.192249 -94.848328 -21.708014 -52.219978 -24.06455 -150.14162
660500000 -10.420098 111.897 10.025627 164.68564 -21.736631 -144.02904 -19.115343 115.49008
670000000 -10.370809 88.289261 9.9824982 63.406471 -21.635664 123.41759 -16.469795 44.909519
679500000 -9.3328838 59.973927 9.7854548 -37.996254 -21.690254 30.800028 -15.698108 -8.7166748
689000000 -9.0825939 26.323236 9.6189308 -138.29877 -21.702953 -60.759022 -15.896525 -61.990826
698500000 -10.073394 -2.990597 9.6498594 120.84065 -21.521221 -152.83177 -17.987957 -122.48788
708000000 -10.556239 -21.280867 9.5676861 18.80986 -21.453663 113.87695 -22.019602 154.31543
717500000 -9.3296528 -44.250755 9.3063641 -82.366066 -21.570471 21.424408 -21.219982 43.36237
727000000 -8.722353 -77.385925 9.1929131 177.63197 -21.531668 -69.888763 -17.258455 -31.399988
736500000 -9.5253258 -110.85477 9.2618628 76.601456 -21.305927 -162.26184 -15.175186 -87.77459
746000000 -10.576064 -135.75479 9.1896324 -25.722063 -21.22995 104.08551 -14.441237 -141.26303
755500000 -10.02543 -159.70845 8.8972301 -127.32188 -21.38059 11.12977 -15.42718 159.6261
765000000 -9.3227339 166.88251 8.7107697 132.5453 -21.430244 -80.382957 -18.448055 90.800819
774500000 -9.6909399 131.47075 8.7144527 31.627296 -21.289152 -172.61374 -20.377968 2.5551164
784000000 -10.419828 104.08007 8.6014442 -70.433609 -21.276255 94.03199 -17.039761 -82.099609
793500000 -9.6851454 80.843216 8.2934542 -171.77937 -21.463572 1.42329 -13.983485 -150.25217
803000000 -8.5090647 49.606789 8.0914402 88.265747 -21.547434 -89.75 -13.163515 152.60838
812500000 -8.3923969 15.12638 8.0309429 -11.960335 -21.488899 178.77348 -13.122436 100.88054
822000000 -9.2769499 -13.349355 8.1032181 -112.78558 -21.298206 86.732368 -13.97722 39.026665
831500000 -9.384655 -32.7337 8.0565042 144.68111 -21.228483 -7.0036759 -16.8626 -37.861374
841000000 -8.3066616 -57.94891 7.673759 43.082489 -21.493347 -99.772659 -17.612976 -127.45663
850500000 -7.9115577 -90.427559 7.4829063 -55.71196 -21.564852 170.24139 -14.702066 152.33887
860000000 -8.5381317 -122.09915 7.7427168 -156.61569 -21.183861 78.125984 -12.833446 88.69693
869500000 -9.1620922 -147.57793 7.5879622 100.12132 -21.224339 -16.340725 -11.74809 33.664478
879000000 -8.7747383 -173.66093 7.1883225 -0.32863778 -21.509497 -108.01979 -12.089778 -28.328289
888500000 -8.414959 154.45198 7.2172775 -100.11509 -21.359886 161.01152 -14.769272 -92.955605
898000000 -8.7114639 122.53914 7.1561651 157.98164 -21.305456 67.951385 -16.646938 -166.55461
907500000 -8.9673901 96.062416 6.967422 56.959824 -21.37771 -24.218924 -15.090444 101.97314
917000000 -8.3433247 70.22773 6.8358307 -44.066917 -21.397629 -116.35007 -13.127926 26.391312
926500000 -7.6969013 39.900841 6.5953264 -144.6927 -21.524221 151.92784 -11.767323 -31.136719
936000000 -7.7599359 9.2206774 6.5713258 115.92518 -21.424534 61.487637 -11.113773 -88.142105
945500000 -8.2113209 -16.391184 6.7026439 14.219888 -21.189377 -31.329857 -12.024292 -148.79637
955000000 -8.0289698 -38.783035 6.4509926 -87.632248 -21.342134 -124.40206 -14.185297 140.46838
964500000 -7.5288439 -65.207664 6.2805886 172.75935 -21.413687 144.68996 -16.26779 52.021816
974000000 -7.5669684 -94.185654 6.2998362 72.214348 -21.311523 52.75351 -14.849216 -31.038303
983500000 -8.0183439 -121.25866 6.2264428 -28.414434 -21.327616 -39.350494 -12.152276 -99.037582
993000000 -8.1206589 -146.84828 6.2093577 -129.22253 -21.306965 -131.68719 -11.314318 -161.09647
1002500000 -7.9883246 -175.63391 6.0375328 129.9968 -21.459303 136.10605 -11.749029 142.47574
1012000000 -8.3195829 153.75072 6.0399652 30.976036 -21.438889 45.610729 -13.155644 78.116142
1021500000 -8.8878651 126.88152 6.3211432 -70.772202 -21.15225 -47.500198 -16.023949 -0.6965934
1031000000 -8.568347 102.53601 6.0509853 -173.86954 -21.411886 -141.87361 -16.031942 -89.339165
1040500000 -7.7937064 73.071243 5.6613307 87.181557 -21.78326 127.95422 -13.204383 -167.24875
1050000000 -7.6618066 40.658749 5.9265623 -11.581882 -21.502258 37.997162 -11.452271 129.40672
1059500000 -8.2737398 12.087481 6.184936 -114.12181 -21.222801 -55.705669 -10.645703 72.161087
1069000000 -8.4174547 -9.1982346 5.98805 142.82948 -21.382893 -149.88867 -11.062355 9.2772923
1078500000 -7.5987511 -33.604603 5.6269865 42.342937 -21.700047 118.49742 -13.419803 -60.175018
1088000000 -7.217433 -63.565868 5.5694108 -56.981392 -21.72377 28.000307 -15.561258 -139.27547
1097500000 -7.7074819 -93.163757 5.702765 -157.38281 -21.560238 -63.516285 -14.240869 136.84706
1107000000 -8.3667803 -117.71766 5.7972031 100.75385 -21.437952 -156.48822 -11.896295 62.512207
1116500000 -8.2381649 -142.29581 5.6573892 -1.3301415 -21.553879 110.39132 -11.129893 -0.91066933
1126000000 -8.0833912 -172.13954 5.4208188 -101.79504 -21.782681 18.916838 -11.192833 -58.850388
1135500000 -8.5179119 157.21783 5.5275331 158.65907 -21.668203 -71.629677 -12.134487 -123.96432
1145000000 -8.9210625 130.53284 5.7289352 55.965675 -21.458836 -165.26346 -14.224756 159.87289
1154500000 -8.4413509 103.29304 5.3605709 -46.858597 -21.822618 101.02099 -14.386563 77.415947
1164000000 -7.90344 71.210304 5.0630031 -145.35818 -22.106073 11.613084 -12.182558 1.5925295
1173500000 -8.0262756 38.505619 5.4516177 114.94385 -21.703613 -78.9673 -10.392798 -62.691044
1183000000 -8.5036268 11.220549 5.620935 11.064429 -21.50197 -173.73299 -9.4562378 -121.58841
1192500000 -8.1457815 -12.245735 5.2242522 -91.971176 -21.866953 92.318932 -9.8625402 176.99249
1202000000 -7.4079037 -40.32159 4.8175159 168.31845 -22.250824 1.6799083 -11.802811 113.49461
1211500000 -7.3065672 -71.132668 4.8272686 69.694405 -22.20223 -87.898643 -13.850998 40.563629
1221000000 -7.870357 -99.669479 5.1477757 -31.291761 -21.857662 -179.83037 -13.827913 -45.566837
1230500000 -8.2424831 -123.79994 5.1348271 -134.73485 -21.849461 85.822144 -11.865507 -123.68565
1240000000 -7.9728813 -149.86 4.7812648 123.81782 -22.195692 -6.468399 -10.36557 170.70753
1249500000 -7.8645024 -179.93695 4.687748 24.174515 -22.286247 -96.91671 -9.932497 111.16226
1259000000 -8.1570148 150.03082 4.8041549 -76.692154 -22.165375 171.49182 -10.377623 50.524384
1268500000 -8.2842855 121.91646 4.8100061 -178.86475 -22.158499 78.652664 -11.860989 -17.715136
1278000000 -7.9696164 92.540329 4.5943074 79.532341 -22.368662 -13.589936 -13.222197 -95.421791
1287500000 -7.7733068 61.384811 4.5055828 -20.130239 -22.440378 -103.87293 -12.308032 -176.24698
1297000000 -7.9192095 31.911734 4.7907472 -121.51091 -22.132254 164.13284 -10.492916 112.01328
1306500000 -7.8448768 5.9938846 4.667737 134.32515 -22.231339 69.220375 -9.3502331 49.419746
1316000000 -7.2915912 -20.47953 4.0932422 33.544979 -22.770247 -22.334671 -9.2773371 -11.256071
1325500000 -6.9539628 -49.127369 4.0198374 -64.474609 -22.81131 -111.24687 -10.524035 -72.583038
1335000000 -7.1296678 -77.188942 4.2589111 -165.0285 -22.546999 157.2205 -12.320452 -140.27985
1344500000 -7.3804741 -102.22459 4.2875681 93.04718 -22.500286 64.283997 -13.317271 135.89452
1354000000 -7.2225356 -127.06786 4.1364484 -8.3434439 -22.644894 -28.127012 -12.334893 51.682621
1363500000 -7.1220632 -154.77266 3.9964991 -108.29049 -22.80871 -119.15109 -10.586466 -17.05118
1373000000 -7.4328413 177.01561 4.1834812 151.76164 -22.653753 149.87831 -9.4102507 -79.840294
1382500000 -7.7007866 151.2773 4.3148413 48.868362 -22.569973 56.010147 -9.554225 -143.38539
1392000000 -7.3830414 124.77664 3.9141238 -53.121334 -23.016546 -36.914673 -10.961535 149.40324
1401500000 -7.046205 94.391907 3.6962376 -151.77254 -23.280037 -126.48393 -12.521904 75.286316
1411000000 -7.1565256 63.097836 3.9128442 108.71571 -23.114038 143.22253 -12.024611 -2.9833622
1420500000 -7.5280681 35.307236 4.1630878 6.7520633 -22.899065 50.425049 -10.01599 -77.516296
1430000000 -7.3194489 10.712022 4.0511708 -96.798393 -23.04496 -43.940655 -9.118021 -144.80106
1439500000 -6.7259283 -16.48246 3.5275149 161.81866 -23.609364 -136.16632 -9.374526 155.98853
1449000000 -6.5187993 -45.439587 3.2834632 64.198814 -23.895321 135.42729 -10.235439 96.169724
1458500000 -6.7575803 -72.810638 3.6807199 -35.00985 -23.54804 45.384804 -11.876616 26.206562
1468000000 -6.9193296 -97.245308 3.8766031 -138.12531 -23.409063 -48.554176 -13.169273 -58.955776
1477500000 -6.7268558 -122.31426 3.588985 119.85553 -23.756603 -141.34723 -11.94473 -143.30588
1487000000 -6.6836691 -149.67615 3.4576664 20.441854 -23.952461 128.60007 -9.8597631 147.14087
1496500000 -6.9121704 -176.96156 3.6905098 -80.186813 -23.790497 37.356853 -8.6080084 84.225403
1506000000 -6.973917 156.69293 3.6828737 176.74353 -23.858364 -56.287277 -8.7354279 22.466301
1515500000 -6.7984042 128.35277 3.3067505 75.739723 -24.28879 -147.75938 -9.9859447 -40.595848
1525000000 -6.8171368 97.638161 3.2789271 -22.913315 -24.366287 123.16898 -11.454903 -109.97229
1534500000 -7.1254315 67.418808 3.5937512 -123.63065 -24.087648 32.011902 -11.521566 171.71957
1544000000 -7.3043456 40.054199 3.7109807 133.35193 -23.999147 -61.441891 -10.227489 93.850075
1553500000 -6.9931579 12.587972 3.4656482 30.556454 -24.271748 -154.72452 -9.4473324 26.521416
1563000000 -6.6852803 -16.943506 3.0603693 -69.664223 -24.700661 114.52483 -9.2108622 -32.743969
1572500000 -6.7128825 -46.028748 3.1477785 -167.82411 -24.646889 25.830786 -9.5904293 -94.223213
1582000000 -6.8748655 -72.452766 3.559099 90.015778 -24.272024 -66.907051 -11.038535 -163.78667
1591500000 -6.7271142 -98.191696 3.29352 -13.622117 -24.580856 -161.10857 -12.330492 116.575
1601000000 -6.5295129 -126.10699 2.9531114 -112.80025 -24.978081 109.18955 -11.583453 35.73658
1610500000 -6.6593757 -154.82068 3.2087982 147.72188 -24.784584 19.256142 -9.7571344 -33.398518
1620000000 -7.0018654 177.87985 3.3940153 45.210621 -24.660257 -73.652115 -8.3712521 -96.7593
1629500000 -7.0450172 151.03691 3.2635517 -57.282921 -24.846815 -166.48293 -8.5218143 -159.8544
1639000000 -6.8865385 121.75519 3.0330923 -158.49228 -25.123388 102.05608 -9.9818096 138.02913
1648500000 -6.944129 90.962975 2.9131343 101.83936 -25.281139 12.105079 -11.507678 69.23761
1658000000 -7.1929879 60.925232 3.1555991 1.3155624 -25.055733 -78.648697 -11.836859 -11.538676
1667500000 -7.2136006 32.274521 3.2023945 -102.06128 -25.011425 -172.34166 -10.654381 -89.278221
1677000000 -6.9409666 3.0770912 2.8084242 156.0602 -25.407993 95.465256 -9.4081106 -154.96638
1686500000 -6.7723122 -26.575768 2.6227174 56.959614 -25.587042 5.9240665 -8.8530388 145.46239
1696000000 -6.814527 -54.897644 2.8489242 -43.429188 -25.350115 -84.900452 -9.3149757 84.613358
1705500000 -6.7444735 -81.50267 2.8643458 -146.64488 -25.336973 -178.63005 -11.062892 17.336897
1715000000 -6.4757781 -108.63625 2.4508085 111.89397 -25.785051 89.434006 -12.974659 -61.84211
1724500000 -6.3715019 -136.78091 2.3902895 13.267098 -25.876989 0.32459727 -12.384733 -146.4926
1734000000 -6.5491362 -164.40546 2.6800239 -88.276833 -25.626469 -91.637268 -10.136507 141.21686
1743500000 -6.6905146 169.21469 2.5083649 168.6402 -25.855661 174.87157 -8.5828028 76.274109
1753000000 -6.5467615 142.03613 2.2196956 68.053879 -26.194599 83.935516 -8.7632017 14.243774
1762500000 -6.4205551 113.0293 2.0808699 -32.610077 -26.37866 -7.1059589 -10.026234 -45.597301
1772000000 -6.5127597 83.418236 1.8707484 -131.97391 -26.624676 -96.857613 -11.357863 -113.16313
1781500000 -6.6469655 54.471096 2.1177332 128.35921 -26.404015 173.04555 -12.066513 166.90555
1791000000 -6.5692315 25.847467 2.1069221 25.235796 -26.445518 79.388664 -11.279516 90.378731
1800500000 -6.418541 -3.170938 1.6829079 -74.560631 -26.884439 -11.036715 -9.9508667 24.088615
1810000000 -6.3978729 -31.673937 1.9107469 -173.56129 -26.678875 -100.64832 -9.4515247 -37.669415
1819500000 -6.3858109 -58.752487 1.9651245 83.060326 -26.655581 165.23123 -10.069548 -100.43661
1829000000 -6.1635365 -85.375122 1.5011805 -17.966227 -27.176359 73.507355 -11.907643 -171.55215
1838500000 -5.9027548 -112.78648 1.3809202 -117.17269 -27.364479 -16.359842 -13.42399 107.07257
1848000000 -5.8548188 -140.43541 1.2712725 142.79703 -27.556749 -106.94921 -11.860118 27.668741
1857500000 -5.9960427 -167.34128 1.3969502 43.529392 -27.514828 163.24269 -9.4183617 -41.595921
1867000000 -6.0360565 166.32671 1.5625033 -59.221191 -27.44593 70.093346 -8.4055672 -103.86692
1876500000 -5.9433918 139.02182 1.0468055 -160.92029 -28.049309 -21.971209 -8.7057428 -161.67482
1886000000 -5.9675088 110.70096 0.90111482 101.72372 -28.271742 -109.61307 -10.041634 139.08908
1895500000 -6.1400275 82.186028 1.2084731 1.225417 -28.013168 159.65198 -12.041596 71.219688
1905000000 -6.26825 53.778805 1.1173191 -100.30473 -28.148884 67.974304 -13.101498 -12.401163
1914500000 -6.2376227 25.19278 1.160376 159.41226 -28.1544 -22.568365 -11.925418 -94.548706
1924000000 -6.1926961 -3.5887156 1.1506605 57.254181 -28.185301 -114.93797 -10.215772 -161.21181
1933500000 -6.2023702 -31.959354 0.95485818 -43.323811 -28.411638 154.33351 -9.2116232 136.90393
1943000000 -6.1199574 -59.675732 1.037347 -144.52017 -28.35523 62.949463 -9.7496834 73.568275
1952500000 -5.8981128 -87.49456 0.71724057 112.76787 -28.718428 -29.927687 -11.385891 7.3082566
1962000000 -5.7476897 -115.61488 0.27077124 14.223094 -29.1884 -118.54861 -12.546649 -67.730011
1971500000 -5.7642717 -143.42838 0.5012092 -84.255974 -28.982592 152.81857 -11.751085 -146.01248
1981000000 -5.8459311 -170.64047 0.67602336 173.64702 -28.835238 60.690765 -10.111075 143.76622
1990500000 -5.8561378 162.23009 0.50707239 72.009392 -29.031942 -30.950613 -9.3510637 80.683052
2000000000 -5.8679376 134.5679 0.36122373 -28.442314 -29.178125 -121.38961 -9.767849 21.136845
