!Keysight Technologies,N5242B,MY48420967,A.15.65.19
!Date: Saturday, February 04, 2023 11:03:53
!Correction: S11(C  1-Port  ) 
!S21(Off) 
!S12(Off) 
!S22(Off) 
!S2P File: Measurements: S11, S21, S12, S22:
# Hz S  dB   R 50
100000000 -18.982811 -19.483614 28.240013 11.912601 -34.152874 -85.701439 -24.596584 39.350166
109500000 -17.924562 -18.570393 27.475557 -90.004982 -33.345676 -178.57068 -28.073605 -3.9077868
119000000 -14.46412 -51.017086 26.610046 167.51125 -32.800739 87.937325 -23.410337 -139.77449
128500000 -14.953506 -94.875145 25.734703 66.721878 -32.350945 -3.8972125 -19.798769 135.9165
138000000 -20.416494 -120.72265 25.118412 -34.0056 -31.746904 -95.750244 -18.808207 91.754372
147500000 -19.154121 -98.242844 24.601809 -135.39932 -31.103552 171.64908 -17.539455 47.095325
157000000 -14.201272 -139.57982 24.059542 122.46162 -30.579435 78.282448 -18.609758 -0.11840127
166500000 -13.595334 163.64542 23.405073 20.528015 -30.226767 -14.852907 -21.877672 -49.924427
176000000 -16.589605 107.84499 22.768118 -80.257568 -29.92886 -107.02924 -32.63942 -119.19884
185500000 -23.000122 83.663841 22.31859 179.09473 -29.494362 161.04559 -29.011908 59.345314
195000000 -19.041645 97.307487 21.921471 77.7332 -29.03973 68.344841 -22.306822 13.786958
204500000 -15.15926 55.541203 21.452993 -24.039757 -28.711077 -24.726414 -18.668427 -31.331957
214000000 -15.319084 10.340942 20.914654 -125.00204 -28.484461 -117.00215 -18.428684 -84.464569
223500000 -17.241272 -14.473005 20.539806 134.60065 -28.128471 151.21484 -21.516119 -126.08549
233000000 -15.897058 -25.18051 20.249935 33.530548 -27.718105 58.807423 -24.237839 -163.36052
242500000 -14.166571 -59.407749 19.899965 -68.048218 -27.401239 -34.141285 -32.576443 116.46458
252000000 -15.415667 -100.79283 19.50111 -169.11807 -27.144146 -126.6069 -28.667536 -43.369518
261500000 -18.949547 -119.66803 19.188425 90.083145 -26.842419 141.21858 -23.095245 -102.4424
271000000 -16.95475 -122.08733 18.942755 -11.090569 -26.484814 48.661732 -21.908096 -144.63324
280500000 -14.150965 -163.06964 18.69327 -112.91824 -26.169899 -44.595577 -20.569748 175.17699
290000000 -14.211299 145.41277 18.279219 145.27841 -26.042057 -137.71507 -23.058941 115.35283
299500000 -16.931458 104.95995 17.945932 44.672203 -25.843189 130.36575 -35.063992 90.877823
309000000 -18.530571 95.780746 17.719357 -56.503994 -25.573303 37.816158 -40.480766 151.99129
318500000 -15.168054 72.178131 17.458786 -158.2173 -25.3417 -55.183926 -26.881144 174.30679
328000000 -13.71874 30.663229 17.124018 100.44432 -25.202154 -147.80203 -23.054386 119.87514
337500000 -15.015127 -3.5334373 16.846045 -0.57757086 -25.004774 119.83857 -23.016397 68.990417
347000000 -15.623234 -17.089314 16.623363 -101.76456 -24.786711 27.398287 -26.898832 10.048805
356500000 -13.072431 -41.988434 16.409685 156.94293 -24.555908 -65.219337 -37.73674 -25.332891
366000000 -12.181999 -83.727859 16.175018 55.207283 -24.365114 -158.38843 -37.023022 -150.88457
375500000 -14.260324 -124.09918 15.864535 -45.881409 -24.268408 109.11156 -25.712681 110.11316
385000000 -17.18594 -138.35983 15.682241 -146.84489 -24.052999 16.713064 -23.792936 37.692032
394500000 -14.14548 -151.49763 15.489106 111.62571 -23.866308 -76.321053 -26.306072 -12.895858
404000000 -11.627418 166.42931 15.208261 9.8273926 -23.759825 -169.6333 -26.657694 -70.021812
413500000 -11.747118 120.20007 14.852701 -90.658813 -23.756706 98.350426 -25.732098 178.61723
423000000 -13.547316 86.471786 14.755712 168.86877 -23.516123 6.4146185 -22.680878 82.291809
432500000 -13.436611 71.920769 14.598751 66.915031 -23.337973 -87.026634 -20.624376 26.971292
442000000 -11.193074 44.675156 14.23151 -34.573456 -23.372679 -179.91559 -18.244797 -30.249729
451500000 -10.625616 7.3417902 13.989615 -134.69742 -23.293726 88.576431 -19.013103 -92.413284
461000000 -11.739561 -23.118809 13.859961 124.18491 -23.105675 -3.8303561 -20.347498 -154.27202
470500000 -11.901714 -39.419521 13.646464 22.78153 -23.006395 -96.526886 -21.140099 114.9899
480000000 -10.246691 -64.944344 13.45531 -78.218346 -22.883104 171.218 -21.546165 24.034594
489500000 -9.8024588 -102.13728 13.223322 -179.8156 -22.812578 78.391541 -19.461746 -31.108595
499000000 -11.043804 -136.69955 12.98073 79.871246 -22.746845 -13.168288 -16.749424 -95.248276
508500000 -12.12905 -156.92607 12.968398 -21.516466 -22.465986 -105.78778 -17.889484 -160.88684
518000000 -10.810278 -179.57265 12.742002 -123.96629 -22.402327 160.50522 -19.848154 141.03432
527500000 -9.8102999 144.4165 12.365203 135.20184 -22.490881 68.391731 -21.128218 57.212128
537000000 -10.281055 108.73495 12.266468 34.706497 -22.29735 -23.354109 -20.169586 -34.335316
546500000 -11.048987 84.857536 12.133516 -67.155235 -22.134085 -116.4943 -16.926617 -105.20343
556000000 -9.9719343 63.298096 11.835977 -168.57484 -22.137005 150.84038 -15.321833 -170.48407
565500000 -8.8473206 30.783195 11.573619 90.630852 -22.098787 58.747204 -15.749257 135.00893
575000000 -9.2637262 -3.624408 11.338404 -9.4657269 -22.026953 -32.727249 -16.160137 77.286934
584500000 -10.727497 -27.348969 11.343197 -109.72292 -21.714233 -124.5321 -18.846088 0.12740909
594000000 -10.281736 -42.836449 11.227318 148.43311 -21.539986 141.87973 -21.80043 -88.902489
603500000 -8.9359922 -71.993965 10.869488 47.945103 -21.705271 49.528267 -19.178581 -172.5714
613000000 -9.1157398 -107.86628 10.862473 -51.15313 -21.556498 -41.515987 -17.575319 117.87897
622500000 -10.630272 -137.69272 10.874995 -152.64711 -21.420542 -134.95073 -16.835289 67.763031
632000000 -11.086765 -157.21567 10.678229 106.59177 -21.495037 132.40695 -16.727564 0.27117845
641500000 -9.9697809 175.58899 10.618066 6.1959677 -21.413162 40.316303 -21.252161 -75.108604
651000000 -9.6910114 140.59207 10.469027 -95.365059 -21.431578 -52.724838 -22.683193 -155.23009
660500000 -10.409587 109.43329 10.316389 164.15468 -21.44293 -144.55142 -18.067734 114.78894
670000000 -10.364732 86.158806 10.272823 62.79118 -21.348299 122.80244 -15.688184 44.133217
679500000 -9.2698574 58.232998 10.071039 -38.585083 -21.403032 30.206711 -15.081994 -10.424644
689000000 -9.038969 24.350971 9.9168921 -138.85434 -21.405262 -61.301029 -15.359811 -64.560005
698500000 -10.118189 -5.3531427 9.9628286 120.20245 -21.209593 -153.47775 -17.372505 -126.61167
708000000 -10.623035 -22.890888 9.876502 18.041842 -21.148293 113.12232 -20.909414 148.55504
717500000 -9.2882233 -45.318226 9.601861 -83.12471 -21.274616 20.67692 -19.995773 42.613155
727000000 -8.6651402 -78.880875 9.4943094 176.93785 -21.228292 -70.560913 -16.491438 -31.438917
736500000 -9.5015697 -113.04107 9.5772486 75.87397 -20.991573 -162.97594 -14.560882 -88.486023
746000000 -10.58551 -137.64709 9.5092239 -26.544989 -20.911486 103.25147 -13.891465 -143.04927
755500000 -9.979929 -160.94505 9.2094221 -128.19064 -21.069185 10.251452 -14.913208 156.77516
765000000 -9.2519598 165.29062 9.0230885 131.70003 -21.115427 -81.209709 -17.770781 87.086815
774500000 -9.618989 129.32411 9.0356064 30.768404 -20.968761 -173.46547 -19.337652 0.34095183
784000000 -10.366159 102.24306 8.9282637 -71.376846 -20.951298 93.089989 -16.214197 -82.471741
793500000 -9.5927849 79.54052 8.6101742 -172.78629 -21.148676 0.41362619 -13.40257 -150.83621
803000000 -8.3789787 47.941124 8.4029064 87.300858 -21.234016 -90.731941 -12.691189 151.64975
812500000 -8.2499294 12.967266 8.3513298 -12.877292 -21.163559 177.88762 -12.654809 99.377754
822000000 -9.1929464 -15.478117 8.4448462 -113.78385 -20.954172 85.778099 -13.438288 36.574757
831500000 -9.3243656 -34.24527 8.3910761 143.50438 -20.891325 -8.1755533 -16.129988 -40.952061
841000000 -8.1732759 -59.653999 7.9845591 41.916382 -21.179232 -100.97157 -16.728361 -128.62485
850500000 -7.7256942 -92.579727 7.7955003 -56.744793 -21.250057 169.17033 -14.030205 152.33392
860000000 -8.3578911 -124.4585 8.0741491 -157.6945 -20.850191 77.040489 -12.283331 88.468102
869500000 -9.0180359 -149.88776 7.9157577 98.943344 -20.894091 -17.519211 -11.224181 32.794464
879000000 -8.5896635 -176.03458 7.5078583 -1.4961286 -21.185045 -109.16657 -11.564405 -29.949923
888500000 -8.178628 151.90486 7.5410852 -101.27431 -21.030941 159.85347 -14.130445 -95.063377
898000000 -8.4857912 119.98648 7.4806299 156.82631 -20.980867 66.790054 -15.733185 -168.16138
907500000 -8.766799 93.635239 7.2998996 55.757175 -21.045298 -25.427931 -14.234074 102.1853
917000000 -8.1031885 67.862854 7.1603279 -45.350948 -21.072786 -117.62943 -12.506124 26.916237
926500000 -7.4303603 37.512844 6.9047284 -145.90269 -21.211773 150.75276 -11.226037 -31.008213
936000000 -7.521234 6.7317076 6.8969059 114.83539 -21.095154 60.398491 -10.574849 -88.669411
945500000 -8.024085 -18.952724 7.0469637 13.037956 -20.845039 -32.502445 -11.418888 -150.13972
955000000 -7.8340993 -41.201012 6.7881155 -88.901665 -21.003893 -125.64935 -13.417045 138.51239
964500000 -7.3037205 -67.590752 6.6127119 171.52423 -21.076153 143.47836 -15.310481 51.51561
974000000 -7.3476391 -96.70356 6.6358418 71.014214 -20.972872 51.561447 -14.051566 -29.866392
983500000 -7.8210073 -123.96416 6.5753989 -29.603636 -20.980097 -40.524956 -11.520121 -98.29174
993000000 -7.9110007 -149.57831 6.5626907 -130.49425 -20.95425 -132.93141 -10.755534 -161.02901
1002500000 -7.7519002 -178.40991 6.3827085 128.76491 -21.114798 134.85712 -11.172486 141.8765
1012000000 -8.097436 150.87233 6.4088469 29.8256 -21.069504 44.499081 -12.476711 76.878845
1021500000 -8.7118483 124.09743 6.7103167 -72.114464 -20.757376 -48.830326 -15.104988 -1.5852432
1031000000 -8.3654337 100.05993 6.4191933 -175.34181 -21.045492 -143.33275 -15.102777 -88.330139
1040500000 -7.5384231 70.670662 6.0178208 85.830887 -21.425835 126.60332 -12.559686 -166.12558
1050000000 -7.421896 38.167076 6.3039451 -12.870052 -21.119318 36.734241 -10.933796 130.09294
1059500000 -8.1128006 9.5103493 6.5806012 -115.48914 -20.825994 -57.033978 -10.113332 72.208229
1069000000 -8.2713976 -11.364844 6.3844886 141.30443 -20.98082 -151.40393 -10.496652 8.2786722
1078500000 -7.3827763 -35.580208 6.0066113 40.802059 -21.320789 116.93964 -12.7943 -61.812714
1088000000 -6.999783 -65.704666 5.9504461 -58.443329 -21.343159 26.574409 -14.782866 -140.19853
1097500000 -7.5413604 -95.624123 6.10113 -158.81917 -21.158571 -64.929176 -13.488317 137.1635
1107000000 -8.2141666 -120.11751 6.209558 99.197601 -21.023417 -158.02989 -11.271667 62.585159
1116500000 -8.0259628 -144.45042 6.0607944 -2.9765921 -21.150824 108.73709 -10.589772 -1.3421589
1126000000 -7.8660483 -174.44971 5.8188996 -103.38764 -21.387142 17.327818 -10.643067 -59.710361
1135500000 -8.3363419 154.5808 5.9472036 157.08427 -21.249586 -73.177864 -11.493176 -125.2801
1145000000 -8.7183571 128.13226 6.1582866 54.195862 -21.029779 -167.02686 -13.43503 158.78795
1154500000 -8.1735106 101.2666 5.7666173 -48.72216 -21.414219 99.145058 -13.602523 77.660667
1164000000 -7.6364264 68.991974 5.4609494 -147.10286 -21.709833 9.8929539 -11.602217 2.2046139
1173500000 -7.7755933 35.94706 5.8681836 113.21367 -21.286135 -80.690048 -9.9211359 -62.385693
1183000000 -8.2625294 8.8997202 6.044064 9.2181921 -21.080826 -175.58371 -8.9877844 -121.94519
1192500000 -7.8841457 -14.201524 5.6325507 -93.899818 -21.458626 90.415886 -9.3916578 175.77034
1202000000 -7.1470633 -42.683105 5.2115078 166.48064 -21.85277 -0.14602941 -11.259986 111.76337
1211500000 -7.0464211 -74.011543 5.2339931 68.014786 -21.798409 -89.576935 -13.075961 39.105942
1221000000 -7.6314249 -102.59021 5.590476 -33.001427 -21.415272 178.44351 -12.952617 -45.312191
1230500000 -8.0385427 -126.4698 5.5857267 -136.6727 -21.388983 83.901039 -11.158557 -122.74036
1240000000 -7.7460508 -152.79083 5.2113299 121.80058 -21.764191 -8.4742584 -9.7941208 171.32886
1249500000 -7.5912533 176.7291 5.1115341 22.237129 -21.858736 -98.833664 -9.4057579 111.41564
1259000000 -7.8664031 146.6785 5.2425756 -78.597054 -21.724209 169.61467 -9.8173332 50.359829
1268500000 -8.0063648 118.63868 5.256269 179.12648 -21.710793 76.638039 -11.20685 -18.080334
1278000000 -7.6751037 89.051308 5.0264096 77.489471 -21.933939 -15.622805 -12.464136 -95.08046
1287500000 -7.4457517 57.756428 4.9422312 -22.044674 -22.003958 -105.80559 -11.623405 -174.97835
1297000000 -7.6052308 28.501957 5.2552338 -123.48384 -21.661964 162.13026 -9.9278297 113.30667
1306500000 -7.5712457 2.8432631 5.1257257 132.17172 -21.772909 67.070549 -8.8097286 50.22287
1316000000 -7.0178676 -23.774134 4.5290689 31.448244 -22.332771 -24.447678 -8.7406702 -11.19402
1325500000 -6.6601238 -52.64455 4.4661832 -66.420616 -22.363825 -113.20247 -9.9463959 -72.941986
1335000000 -6.8553071 -80.684334 4.7303905 -166.9574 -22.072536 155.31889 -11.579665 -140.65797
1344500000 -7.1665831 -105.59142 4.7814832 91.002029 -22.006496 62.251385 -12.429856 136.45717
1354000000 -7.0116935 -130.53271 4.6256895 -10.528478 -22.158014 -30.30654 -11.583043 53.192757
1363500000 -6.8693352 -158.43585 4.4805431 -110.42104 -22.324076 -121.23519 -9.971777 -15.724222
1373000000 -7.182117 173.4595 4.6946712 149.64281 -22.144058 147.76181 -8.837718 -79.061745
1382500000 -7.4867616 147.99016 4.8386021 46.524841 -22.04154 53.686611 -8.9664965 -143.22682
1392000000 -7.125701 121.43302 4.4145103 -55.56583 -22.511173 -39.349899 -10.333368 149.05414
1401500000 -6.7212658 90.916832 4.1904283 -154.10599 -22.784485 -128.78481 -11.843778 75.221199
1411000000 -6.8478327 59.745285 4.426724 106.44796 -22.599312 140.97163 -11.350467 -2.2967861
1420500000 -7.294764 32.206333 4.7075067 4.3576546 -22.351877 48.035503 -9.3996172 -77.036911
1430000000 -7.0591898 7.932632 4.5867634 -99.452438 -22.507641 -46.605293 -8.5755358 -144.99586
1439500000 -6.4078131 -19.187311 4.0305133 159.18227 -23.106619 -138.77606 -8.8564215 155.25134
1449000000 -6.232193 -48.162674 3.793915 61.770981 -23.377066 132.96245 -9.6668882 94.858635
1458500000 -6.5407476 -75.634773 4.2310305 -37.47406 -23.001434 42.940388 -11.146015 24.401758
1468000000 -6.6991916 -99.856606 4.4347734 -140.82883 -22.850445 -51.210625 -12.252568 -60.092728
1477500000 -6.4554386 -124.73059 4.1293898 117.07373 -23.21413 -144.10545 -11.140027 -143.30376
1487000000 -6.419548 -152.19304 3.9986157 17.701817 -23.411894 125.88539 -9.2147932 147.14871
1496500000 -6.6605468 -179.61024 4.2441025 -83.001099 -23.233547 34.549126 -8.0382366 83.730827
1506000000 -6.6637206 154.15729 4.2260838 173.80411 -23.315563 -59.193146 -8.2017202 21.32975
1515500000 -6.4434891 125.8498 3.8334858 72.860664 -23.76391 -150.61386 -9.4460888 -42.219543
1525000000 -6.4854522 94.904366 3.8165812 -25.672199 -23.825937 120.43359 -10.820446 -111.65269
1534500000 -6.8166232 64.540848 4.158432 -126.40395 -23.525417 29.278685 -10.779038 170.54338
1544000000 -6.9670272 37.562996 4.2901521 130.39497 -23.423075 -64.388153 -9.5308714 92.925751
1553500000 -6.6282272 10.315789 4.0272946 27.461285 -23.70849 -157.80814 -8.846386 25.562954
1563000000 -6.3465996 -19.511576 3.6025732 -72.645699 -24.158098 111.59435 -8.626503 -33.891048
1572500000 -6.3986316 -48.820671 3.7196441 -170.6512 -24.07391 23.01903 -8.9576263 -95.815208
1582000000 -6.5603914 -74.993332 4.1633024 86.980919 -23.670763 -69.934021 -10.300189 -165.6974
1591500000 -6.4007654 -100.62914 3.8771863 -16.841089 -23.994783 -164.29576 -11.476197 115.30156
1601000000 -6.2123752 -128.97574 3.5241468 -115.9052 -24.406626 106.10904 -10.816275 35.589329
1610500000 -6.3444643 -158.04189 3.8019245 144.68762 -24.193764 16.230347 -9.1073618 -33.301819
1620000000 -6.6787972 174.74623 4.0110984 42.0756 -24.04595 -76.771492 -7.7597299 -97.163193
1629500000 -6.7001534 147.97975 3.8816891 -60.586456 -24.22809 -169.76004 -7.9425201 -160.86368
1639000000 -6.5234127 118.29311 3.6363134 -161.82684 -24.522036 98.741562 -9.3716412 136.82805
1648500000 -6.562922 87.175179 3.5237033 98.639053 -24.668116 8.9730377 -10.775802 68.256073
1658000000 -6.8157878 57.241535 3.8055682 -1.9414518 -24.401564 -81.877769 -11.056628 -11.648752
1667500000 -6.8423285 28.782267 3.8583317 -105.59073 -24.352186 -175.84506 -9.9814606 -88.977684
1677000000 -6.558156 -0.5428409 3.4404104 152.47433 -24.777166 91.863983 -8.8168344 -155.03221
1686500000 -6.3924499 -30.313408 3.2618718 53.498524 -24.944851 2.487011 -8.2744026 144.84128
1696000000 -6.4620023 -58.532585 3.5224299 -46.963123 -24.679255 -88.436707 -8.6811628 83.355949
1705500000 -6.3952866 -85.00325 3.5407944 -150.43446 -24.655529 177.63928 -10.296725 15.582886
1715000000 -6.1066289 -112.23657 3.106082 108.07782 -25.123882 85.641632 -12.036275 -62.933651
1724500000 -6.0147204 -140.53455 3.0610423 9.5249109 -25.200415 -3.4031799 -11.541323 -145.97499
1734000000 -6.2262697 -168.22208 3.3726988 -92.157028 -24.93465 -95.503151 -9.4479361 141.76486
1743500000 -6.3433175 165.52528 3.2026336 164.58801 -25.158836 170.83879 -7.9661126 75.818085
1753000000 -6.1403375 138.38899 2.9070904 63.88871 -25.506226 79.778717 -8.2180834 12.9346
1762500000 -6.010221 109.24225 2.7517147 -36.833603 -25.710709 -11.285334 -9.4516659 -47.314987
1772000000 -6.1127481 79.456337 2.5474637 -136.04175 -25.946688 -100.89626 -10.646534 -115.29321
1781500000 -6.2202215 50.65329 2.8369234 124.1491 -25.685158 168.8474 -11.268661 165.13528
1791000000 -6.1227107 22.368069 2.8104336 20.73082 -25.737684 74.921585 -10.532907 89.186676
1800500000 -6.0028133 -6.590899 2.3728127 -78.975098 -26.194836 -15.400764 -9.2775068 22.502481
1810000000 -5.9983754 -35.124367 2.633831 -178.07648 -25.956863 -105.16069 -8.8067513 -40.031826
1819500000 -5.9532771 -61.861015 2.6772032 78.230804 -25.946089 160.4371 -9.368187 -103.90282
1829000000 -5.7083116 -88.194427 2.1788585 -22.833313 -26.50058 68.666321 -11.074416 -175.922
1838500000 -5.4749169 -115.76526 2.0506516 -121.98483 -26.696768 -21.148031 -12.388178 103.9889
1848000000 -5.441843 -143.65024 1.9405115 138.07687 -26.882429 -111.67924 -10.904572 26.40649
1857500000 -5.5632873 -170.41992 2.0981145 38.761082 -26.815859 158.50256 -8.664423 -43.088932
1867000000 -5.576735 163.48668 2.2534649 -64.28624 -26.752924 65.019226 -7.807745 -106.11039
1876500000 -5.4819903 136.00911 1.6932213 -165.88412 -27.40394 -26.913551 -8.1729326 -164.76364
1886000000 -5.5060377 107.39444 1.5716803 97.037376 -27.598305 -114.23254 -9.4734621 134.99899
1895500000 -5.6616964 78.815895 1.9193046 -3.5646436 -27.304594 154.88815 -11.238832 66.181885
1905000000 -5.7730427 50.554764 1.8407367 -105.22099 -27.430792 63.01334 -11.973626 -16.552568
1914500000 -5.7514353 22.011732 1.9028225 154.32434 -27.407093 -27.603764 -10.897353 -96.712013
1924000000 -5.7332492 -6.8603668 1.8844422 51.948795 -27.455103 -120.21734 -9.3598442 -163.0304
1933500000 -5.7466407 -35.189777 1.6858426 -48.709698 -27.679062 148.93417 -8.4472637 134.25475
1943000000 -5.6434236 -62.701813 1.7607994 -150.13841 -27.635767 57.398643 -9.0308571 69.958755
1952500000 -5.4357638 -90.48893 1.3875858 107.10419 -28.039728 -35.592285 -10.561001 3.1769676
1962000000 -5.3291793 -118.84304 0.93161249 8.9133463 -28.528994 -123.92339 -11.501276 -71.148216
1971500000 -5.3612356 -146.85703 1.2109245 -89.462776 -28.275177 147.64717 -10.684904 -147.68965
1981000000 -5.4268003 -173.95293 1.4124271 168.2386 -28.101748 55.323311 -9.1945543 142.43149
1990500000 -5.4409056 158.98911 1.2418252 66.451775 -28.290607 -36.488377 -8.5723295 78.728851
2000000000 -5.4750433 131.03807 1.0948817 -34.033527 -28.444195 -127.00787 -9.0441446 18.334652
