!Keysight Technologies,N5242B,MY48420967,A.15.65.19
!Date: Sunday, January 22, 2023 20:03:50
!Correction: S11(C  1-Port  ) 
!S21(Off) 
!S12(Off) 
!S22(Off) 
!S2P File: Measurements: S11, S21, S12, S22:
# Hz S  dB   R 50
100000000 -17.761572 -12.373516 28.222593 12.908122 -34.162399 -84.725243 -21.824713 45.40712
109500000 -16.440403 -15.38137 27.496254 -88.940666 -33.332664 -177.56537 -24.1856 -1.1897993
119000000 -13.374963 -47.050396 26.653278 168.35464 -32.750496 88.734756 -22.581835 -121.69919
128500000 -13.956161 -89.553612 25.755344 67.450523 -32.334076 -3.2034137 -19.901924 147.89397
138000000 -18.516109 -114.86657 25.129765 -33.139439 -31.736046 -94.903053 -18.379499 100.52461
147500000 -17.564468 -101.8882 24.635002 -134.40376 -31.084991 172.64613 -16.766788 53.010185
157000000 -13.222825 -139.29604 24.129557 123.37505 -30.523205 79.217972 -17.348057 3.5868309
166500000 -12.723018 166.19933 23.477444 21.185345 -30.175917 -14.251725 -19.92395 -48.952259
176000000 -15.549693 113.81874 22.811378 -79.660789 -29.888819 -106.4132 -27.2794 -115.20446
185500000 -20.84996 93.239937 22.352331 179.85037 -29.458752 161.81329 -30.764654 93.077621
195000000 -17.487362 96.921509 21.97921 78.570435 -28.984003 69.191093 -22.564823 27.734274
204500000 -14.041113 56.149918 21.527248 -23.334129 -28.63558 -24.070263 -18.358307 -23.459894
214000000 -14.141291 12.575703 20.974344 -124.39095 -28.431488 -116.41801 -17.845589 -78.356575
223500000 -15.897933 -12.768658 20.590504 135.30161 -28.074747 151.90234 -20.228354 -121.47308
233000000 -14.821434 -26.257582 20.315439 34.281185 -27.656742 59.534683 -22.286203 -163.47066
242500000 -13.162484 -59.987453 19.97509 -67.382355 -27.333868 -33.477604 -28.081011 121.8243
252000000 -14.210818 -99.902122 19.565647 -168.52432 -27.087343 -126.05537 -28.952183 -17.088383
261500000 -17.388035 -120.88996 19.239416 90.753494 -26.79435 141.89883 -23.193876 -89.121513
271000000 -15.973955 -126.77188 19.005543 -10.29182 -26.443478 49.440422 -21.379408 -134.40823
280500000 -13.222729 -165.3652 18.78089 -112.17198 -26.099756 -43.819214 -19.583199 -178.19228
290000000 -13.179064 145.60443 18.360596 145.86171 -25.96703 -137.16376 -21.524424 121.84631
299500000 -15.674164 105.90358 18.006996 45.300419 -25.788025 130.91272 -29.523052 86.999947
309000000 -17.098124 93.210739 17.784098 -55.755924 -25.510532 38.611954 -38.356808 51.056538
318500000 -14.112784 70.416565 17.539501 -157.45311 -25.26664 -54.407154 -29.135807 -164.38705
328000000 -12.76865 30.648743 17.209667 101.12831 -25.111454 -147.15121 -24.030203 134.25133
337500000 -13.958224 -3.6015694 16.918699 0.088654675 -24.93774 120.53943 -23.328079 84.089485
347000000 -14.554041 -19.025534 16.692707 -100.95989 -24.719204 28.172035 -26.552507 33.879848
356500000 -12.242249 -43.169254 16.506325 157.81392 -24.469481 -64.426941 -30.994001 13.662693
366000000 -11.367729 -83.730202 16.287228 55.901043 -24.254896 -157.67842 -34.761234 -72.93074
375500000 -13.233986 -123.52338 15.952242 -45.296299 -24.182926 109.69903 -29.20805 126.89825
385000000 -15.866667 -139.76509 15.750602 -146.08846 -23.985699 17.460014 -26.845619 48.956696
394500000 -13.289939 -153.32947 15.582155 112.56022 -23.770172 -75.416931 -29.012087 11.713288
404000000 -10.872495 166.07777 15.333415 10.655873 -23.646215 -168.83809 -28.336052 -42.491119
413500000 -10.909812 120.90923 14.971858 -90.012466 -23.645958 98.976067 -30.105263 -173.1058
423000000 -12.596225 87.578598 14.854753 169.52621 -23.416317 7.052948 -25.597473 76.199905
432500000 -12.557611 71.680702 14.698131 67.683388 -23.243914 -86.249176 -23.003462 27.286432
442000000 -10.44528 44.472328 14.346402 -33.775883 -23.259766 -179.14754 -19.864523 -27.627451
451500000 -9.8430119 7.7090912 14.115869 -133.99445 -23.167181 89.281868 -20.754187 -88.76207
461000000 -10.89145 -22.867523 13.967802 124.79235 -23.003868 -3.2287309 -22.249727 -147.74265
470500000 -11.108104 -40.504887 13.741015 23.564556 -22.915604 -95.746529 -23.285769 116.42687
480000000 -9.5404043 -65.973953 13.581884 -77.335793 -22.759743 172.09616 -23.536682 19.163979
489500000 -9.0474634 -102.47792 13.365553 -179.15918 -22.672827 79.042068 -21.170515 -31.083796
499000000 -10.211713 -136.88875 13.091228 80.458717 -22.639927 -12.617907 -17.950972 -94.007996
508500000 -11.253639 -158.21524 13.071355 -20.761786 -22.367754 -105.06453 -19.296154 -158.89021
518000000 -10.016212 179.01416 12.86227 -123.14902 -22.285572 161.29268 -21.578671 146.04053
527500000 -9.016984 143.81723 12.496703 135.95644 -22.359688 69.157944 -23.271488 58.468399
537000000 -9.4510756 108.38289 12.390578 35.370487 -22.179655 -22.705194 -21.842342 -38.912704
546500000 -10.197283 83.773643 12.23786 -66.414917 -22.033627 -115.76657 -17.967724 -107.99051
556000000 -9.2277727 62.05418 11.954682 -167.66264 -22.016281 151.75092 -16.143076 -172.03203
565500000 -8.1431818 30.167009 11.718834 91.442398 -21.950882 59.545971 -16.66176 135.27388
575000000 -8.517828 -4.0489726 11.463758 -8.7873735 -21.903389 -32.069893 -17.105721 79.138412
584500000 -9.8939056 -28.451126 11.450564 -108.89632 -21.611284 -123.71596 -20.326664 1.0975312
594000000 -9.5493774 -44.568336 11.348977 149.40823 -21.421076 142.81523 -24.038359 -93.860893
603500000 -8.2619238 -73.240173 11.013505 48.941376 -21.565229 50.490791 -20.460035 -178.87921
613000000 -8.3641176 -108.98103 11.024852 -50.269169 -21.398348 -40.617645 -18.515072 111.85725
622500000 -9.7587538 -139.24374 11.014551 -151.90253 -21.2822 -134.20374 -17.969906 64.550735
632000000 -10.286638 -159.45891 10.804219 107.56298 -21.377239 133.37944 -17.801062 -2.2627814
641500000 -9.2784357 173.67781 10.779284 7.2299447 -21.259823 41.354103 -23.018642 -81.163353
651000000 -8.9496508 139.04271 10.634192 -94.492683 -21.269367 -51.876488 -24.594217 -164.83324
660500000 -9.599288 107.98614 10.467354 165.05486 -21.292099 -143.65497 -18.776525 107.23985
670000000 -9.6294241 84.517136 10.429532 63.785389 -21.192446 123.7729 -16.230623 38.080688
679500000 -8.6001644 56.713989 10.242674 -37.578751 -21.239798 31.196272 -15.770521 -15.062413
689000000 -8.299614 22.997835 10.097206 -137.91548 -21.226912 -60.355541 -16.19289 -68.355965
698500000 -9.3058004 -6.9528046 10.133803 121.07298 -21.044775 -152.61882 -18.545845 -130.98175
708000000 -9.9293051 -25.375107 10.033021 19.018023 -20.990202 114.08983 -22.326412 139.14075
717500000 -8.7200832 -47.681416 9.7733679 -81.986595 -21.105024 21.800045 -20.184359 32.27087
727000000 -8.0210199 -80.798119 9.6970577 178.06685 -21.030077 -69.462334 -16.493021 -38.407558
736500000 -8.7677841 -114.88857 9.7900648 76.823952 -20.780817 -162.05206 -14.767921 -94.445251
746000000 -9.882 -140.23166 9.699563 -25.644941 -20.723585 104.14271 -14.342515 -147.95145
755500000 -9.3544216 -163.66298 9.3964624 -127.12823 -20.886349 11.295837 -15.495641 152.06857
765000000 -8.5660706 163.19719 9.2388916 132.82101 -20.903805 -80.102966 -18.47821 80.045937
774500000 -8.8756695 127.47907 9.265029 31.712193 -20.743559 -172.54878 -19.740753 -9.5046034
784000000 -9.6590605 99.842819 9.1338596 -70.487137 -20.749922 93.96286 -16.303673 -89.159637
793500000 -8.978878 77.172874 8.8132458 -171.71948 -20.948795 1.4595094 -13.466964 -155.3726
803000000 -7.7564898 46.262287 8.6365576 88.413307 -21.002256 -89.650864 -12.847026 147.5833
812500000 -7.5866055 11.462852 8.5960732 -11.931635 -20.924835 178.79097 -12.960507 95.732773
822000000 -8.5090361 -17.648232 8.673378 -112.89697 -20.729132 86.637672 -13.814316 32.699184
831500000 -8.7206516 -36.950367 8.6086693 144.46355 -20.67767 -7.2295742 -16.516441 -46.545521
841000000 -7.6124253 -61.83638 8.2092505 42.995003 -20.960791 -99.868011 -16.805965 -134.34846
850500000 -7.1294417 -94.542351 8.0480747 -55.626434 -21.000494 170.31061 -13.918976 148.42268
860000000 -7.7097464 -126.82618 8.342927 -156.77446 -20.585258 77.943184 -12.245656 85.034485
869500000 -8.3664207 -152.64894 8.155057 99.799828 -20.658798 -16.679823 -11.314664 30.063627
879000000 -7.9659228 -178.49855 7.7471752 -0.44578895 -20.95113 -108.13082 -11.658869 -32.627014
888500000 -7.5368061 149.67032 7.8106704 -100.25468 -20.763603 160.87094 -14.283465 -98.775444
898000000 -7.7964544 117.53476 7.7397027 157.69373 -20.722738 67.654243 -15.854124 -172.29744
907500000 -8.0910082 90.998772 7.5479155 56.731476 -20.799562 -24.462301 -14.092046 98.943748
917000000 -7.4903693 65.556801 7.4194269 -44.324612 -20.817657 -116.60683 -12.341551 24.380774
926500000 -6.818799 35.431793 7.1673923 -144.88087 -20.951509 151.75815 -11.136527 -33.062798
936000000 -6.8647246 4.492496 7.1672778 115.88493 -20.830807 61.440762 -10.502323 -90.612335
945500000 -7.3693671 -21.491106 7.3184166 14.039098 -20.577154 -31.538532 -11.369779 -152.3866
955000000 -7.2537065 -43.76725 7.0520687 -87.817245 -20.741619 -124.59534 -13.317192 135.83488
964500000 -6.7410722 -70.09021 6.8947387 172.69975 -20.800268 144.62238 -15.019767 48.696026
974000000 -6.7439179 -99.359985 6.9285722 72.134575 -20.683262 52.636364 -13.735982 -31.717411
983500000 -7.2040977 -126.83607 6.8708973 -28.443144 -20.686491 -39.410797 -11.252315 -99.632416
993000000 -7.3258948 -152.42676 6.8723001 -129.34993 -20.649326 -131.81342 -10.535572 -162.59328
1002500000 -7.1548734 178.81795 6.6902013 129.89334 -20.808132 135.95538 -10.994547 140.11975
1012000000 -7.4521198 147.91362 6.731236 31.044823 -20.750429 45.649525 -12.233919 74.597527
1021500000 -8.0795174 120.89107 7.0515428 -71.033417 -20.42277 -47.753819 -14.735383 -4.7667837
1031000000 -7.8096943 97.192764 6.7397113 -174.30873 -20.728863 -142.33623 -14.657707 -90.401787
1040500000 -6.9870396 68.224243 6.3386536 87.050758 -21.109001 127.82301 -12.156265 -167.15599
1050000000 -6.8198552 35.69389 6.6592598 -11.606612 -20.772915 37.975086 -10.573767 128.88301
1059500000 -7.5039616 6.6707621 6.94876 -114.37442 -20.462442 -55.943027 -9.8039646 70.578804
1069000000 -7.7815533 -14.148488 6.7440281 142.36562 -20.624794 -150.34839 -10.177663 6.1713505
1078500000 -6.9393859 -37.936951 6.3620009 41.948395 -20.965555 118.08542 -12.380735 -64.55719
1088000000 -6.5028353 -68.078033 6.3227892 -57.202625 -20.973658 27.79797 -14.170147 -142.7242
1097500000 -7.0034037 -98.327087 6.5005116 -157.58154 -20.764103 -63.726929 -12.841391 136.00813
1107000000 -7.7571597 -123.03976 6.6281395 100.28868 -20.611027 -156.94547 -10.723763 61.723854
1116500000 -7.6224322 -147.19295 6.4703283 -2.0044777 -20.744152 109.7031 -10.136812 -2.5718997
1126000000 -7.4004455 -177.1649 6.2219687 -102.33865 -20.983591 18.360624 -10.221892 -61.300373
1135500000 -7.8303404 151.76169 6.3775525 158.17229 -20.822765 -72.124474 -10.994724 -127.5122
1145000000 -8.2840509 125.25313 6.5974336 55.06358 -20.593145 -166.1736 -12.799832 156.07793
1154500000 -7.7533088 98.556396 6.1748962 -47.867516 -21.011053 99.975784 -12.892653 76.224472
1164000000 -7.1375175 66.427589 5.8744755 -145.99379 -21.298309 11.005733 -10.957455 1.8610886
1173500000 -7.2544942 33.262005 6.329813 114.32861 -20.828323 -79.582253 -9.3422995 -62.76511
1183000000 -7.8388405 5.8265891 6.5202231 10.084775 -20.612471 -174.73808 -8.4458456 -122.68412
1192500000 -7.5122943 -17.011744 6.0880141 -93.156952 -21.005091 91.137947 -8.8393526 174.52422
1202000000 -6.7082272 -45.064812 5.6518893 167.34055 -21.413853 0.69819206 -10.647338 110.17353
1211500000 -6.5743403 -76.487663 5.6947031 69.019554 -21.341171 -88.578354 -12.304173 37.974068
1221000000 -7.1939039 -105.7671 6.0844493 -32.071609 -20.923702 179.36545 -12.11995 -45.049202
1230500000 -7.647994 -129.85052 6.0814724 -135.92714 -20.906748 84.648506 -10.451898 -122.14237
1240000000 -7.3274651 -155.74562 5.6944647 122.53514 -21.283115 -7.752224 -9.1851788 171.53456
1249500000 -7.153903 173.80223 5.6012068 23.036272 -21.37915 -98.073196 -8.8109722 111.23501
1259000000 -7.4348979 143.31555 5.7487879 -77.81562 -21.222698 170.36649 -9.145915 49.804558
1268500000 -7.5640421 115.28025 5.7692266 179.79591 -21.199823 77.2901 -10.395565 -18.828566
1278000000 -7.1975574 86.095955 5.5262423 78.140182 -21.442059 -14.986687 -11.543179 -94.85199
1287500000 -6.9669886 54.801712 5.4495015 -21.255014 -21.50106 -105.0279 -10.789438 -173.39429
1297000000 -7.1529818 25.169664 5.795289 -122.74236 -21.13303 162.84705 -9.2103748 114.89937
1306500000 -7.1434078 -0.32974789 5.6643047 132.72676 -21.234289 67.606133 -8.1317101 51.151356
1316000000 -6.5725141 -26.414169 5.0501618 32.03289 -21.818623 -23.877934 -8.0558777 -10.974038
1325500000 -6.2146587 -55.239109 4.9957395 -65.706535 -21.840948 -112.48594 -9.1769552 -73.097733
1335000000 -6.4305544 -83.689491 5.2828393 -166.18857 -21.521883 156.02731 -10.598027 -140.58896
1344500000 -6.7639747 -108.67226 5.3636804 91.691902 -21.425499 62.934887 -11.299779 137.87985
1354000000 -6.6029654 -133.18002 5.2085843 -10.006534 -21.580379 -29.81353 -10.643077 55.626091
1363500000 -6.4627438 -161.02841 5.0540962 -109.84671 -21.75119 -120.71976 -9.1987696 -13.563305
1373000000 -6.797709 170.48523 5.2996573 150.30069 -21.539537 148.37085 -8.070487 -77.600555
1382500000 -7.1129155 145.1763 5.4730892 46.937557 -21.409704 54.048725 -8.1255627 -142.65218
1392000000 -6.711442 119.24707 5.0244212 -55.365871 -21.908491 -39.186619 -9.3936691 149.19022
1401500000 -6.287848 88.79567 4.775228 -153.78471 -22.205435 -128.49548 -10.79845 76.330215
1411000000 -6.4081459 57.229156 5.0302029 107.01699 -22.003164 141.50203 -10.347747 0.36742929
1420500000 -6.8867097 29.708263 5.375855 4.8842788 -21.691145 48.543526 -8.5101681 -74.478577
1430000000 -6.6855798 6.1995296 5.266788 -99.381264 -21.834867 -46.570755 -7.773632 -143.52151
1439500000 -6.019073 -20.748686 4.6587958 159.14267 -22.483568 -138.8586 -8.0792131 155.93608
1449000000 -5.8140521 -49.963421 4.4129715 62.060009 -22.763783 133.25827 -8.7915554 95.076546
1458500000 -6.1334133 -77.440887 4.9108052 -37.077312 -22.322205 43.258976 -10.031384 24.690647
1468000000 -6.3502197 -101.28096 5.1497421 -140.78717 -22.141804 -51.226532 -10.992754 -58.303963
1477500000 -6.1012526 -126.03311 4.8173199 116.89378 -22.531378 -144.29716 -10.117597 -140.41283
1487000000 -6.0280552 -153.57483 4.6772289 17.64365 -22.738726 125.79951 -8.3923111 149.4942
1496500000 -6.2711072 179.18318 4.9593868 -83.088493 -22.526945 34.432671 -7.2607293 85.127769
1506000000 -6.2897234 153.15791 4.9449935 173.39528 -22.59832 -59.620975 -7.3966484 21.809662
1515500000 -6.0293584 124.67921 4.5108166 72.397644 -23.092569 -151.10814 -8.5578051 -42.228825
1525000000 -6.024765 93.583595 4.4923453 -25.883898 -23.154089 120.19017 -9.7854872 -111.08693
1534500000 -6.3852611 63.271103 4.8815179 -126.55347 -22.805676 29.092466 -9.6881695 172.56088
1544000000 -6.5936704 36.498623 5.0461521 129.93384 -22.671009 -64.86615 -8.5645752 95.208382
1553500000 -6.2073522 9.3223038 4.7557778 26.720819 -22.98719 -158.58182 -8.0217533 27.193747
1563000000 -5.8770084 -20.518492 4.2967477 -73.277817 -23.469934 110.89583 -7.8321972 -32.855988
1572500000 -5.9627042 -49.860546 4.4421544 -171.05463 -23.353664 22.593971 -8.0703917 -95.298775
1582000000 -6.1768465 -76.033836 4.9339008 86.339767 -22.897509 -70.604988 -9.2156954 -165.34938
1591500000 -5.9764452 -101.59763 4.6228104 -17.808287 -23.254862 -165.29175 -10.258537 116.70219
1601000000 -5.7363987 -129.9617 4.2384706 -116.74986 -23.698156 105.23418 -9.7805452 38.335411
1610500000 -5.8909135 -159.16864 4.5409813 143.99023 -23.458107 15.546692 -8.2546463 -30.455759
1620000000 -6.2677212 173.53673 4.7878489 41.247322 -23.271467 -77.630997 -6.9265451 -95.104866
1629500000 -6.2433186 146.86095 4.6581368 -61.722698 -23.458782 -170.91129 -7.098227 -159.90823
1639000000 -6.0053434 117.14281 4.3801503 -163.06966 -23.777546 97.430405 -8.464242 137.36252
1648500000 -6.0540786 85.833817 4.2528329 97.567993 -23.946503 7.8589182 -9.693634 69.380653
1658000000 -6.3349829 55.728951 4.5721326 -2.9324379 -23.641083 -82.912384 -9.9005003 -8.8976507
1667500000 -6.3413234 27.40799 4.6453919 -106.85858 -23.571884 -177.1432 -8.9831429 -85.597565
1677000000 -6.0260196 -1.811064 4.197979 151.06551 -24.022141 90.452515 -7.9569931 -152.2162
1686500000 -5.8758283 -31.670004 4.0111251 52.26107 -24.202656 1.2245226 -7.4405107 146.99109
1696000000 -5.971849 -59.907612 4.3140421 -48.169891 -23.892231 -89.673203 -7.7517734 84.891121
1705500000 -5.8983803 -86.171959 4.3519645 -151.97945 -23.85215 176.00943 -9.1744833 16.75662
1715000000 -5.5847926 -113.3989 3.8781691 106.36671 -24.357132 83.902954 -10.764756 -60.648865
1724500000 -5.4866223 -141.88142 3.8232207 8.0104485 -24.448997 -4.9021988 -10.462994 -141.82541
1734000000 -5.7056146 -169.57532 4.1729617 -93.649269 -24.132059 -97.041603 -8.563282 145.89418
1743500000 -5.8246164 164.42719 4.0248513 162.83112 -24.337334 169.04285 -7.1146126 78.70314
1753000000 -5.5849204 137.26448 3.7136393 61.896492 -24.703714 77.750305 -7.3975892 14.710129
1762500000 -5.4149776 107.88042 3.5284128 -38.915371 -24.938313 -13.413209 -8.5702524 -45.84893
1772000000 -5.5105753 78.129547 3.3089983 -137.93245 -25.190247 -102.83253 -9.6067419 -113.52612
1781500000 -5.6423802 49.455742 3.6388485 122.2821 -24.888172 166.97127 -10.18203 168.10797
1791000000 -5.5345373 21.138468 3.6119375 18.56687 -24.940142 72.687149 -9.5724287 92.776344
1800500000 -5.3799586 -7.7860837 3.1471643 -81.050308 -25.427284 -17.515202 -8.4253883 25.525129
1810000000 -5.3908501 -36.045036 3.4490061 179.94301 -25.145952 -107.21354 -7.9659152 -37.583927
1819500000 -5.3819928 -62.574963 3.5189476 75.892487 -25.112907 158.00044 -8.4149094 -102.11446
1829000000 -5.1028943 -88.975494 2.98945 -25.425194 -25.691698 66.000458 -10.019552 -174.45868
1838500000 -4.8232927 -116.61131 2.8368683 -124.60945 -25.912903 -23.827518 -11.357019 106.81528
1848000000 -4.803226 -144.38365 2.7048748 135.52469 -26.124058 -114.28251 -10.057113 29.995359
1857500000 -4.9582043 -171.10669 2.8878083 36.327847 -26.031723 156.04695 -7.9326043 -40.240051
1867000000 -4.9410892 162.72758 3.0632191 -67.027023 -25.946293 62.268574 -7.10887 -104.13712
1876500000 -4.7907429 135.1779 2.4506078 -168.78438 -26.649511 -29.837015 -7.4568706 -163.51634
1886000000 -4.8019085 106.55192 2.314826 94.404076 -26.865717 -116.90937 -8.6924515 136.01035
1895500000 -4.969995 77.939934 2.6870165 -6.1747241 -26.541309 152.26788 -10.281513 67.763252
1905000000 -5.0720315 49.623127 2.611217 -107.85773 -26.665508 60.425987 -10.960443 -13.67613
1914500000 -5.0206723 21.014471 2.6933553 151.69261 -26.618341 -30.245724 -10.084718 -93.324356
1924000000 -4.99541 -7.8665552 2.6810346 49.154457 -26.663815 -123.02592 -8.6311188 -160.01305
1933500000 -5.0295458 -36.124512 2.4904709 -51.46785 -26.878916 146.18393 -7.68889 136.51091
1943000000 -4.9407244 -63.663059 2.6012075 -153.13423 -26.80101 54.336895 -8.2194805 71.667915
1952500000 -4.719224 -91.643478 2.1962004 103.69984 -27.236773 -38.986183 -9.6695395 4.9232745
1962000000 -4.604804 -120.04674 1.6909872 5.6270294 -27.768326 -127.19144 -10.612729 -68.59523
1971500000 -4.667685 -147.96539 1.9856583 -92.609535 -27.506104 144.48491 -9.932127 -144.52219
1981000000 -4.7637429 -175.11842 2.1987104 164.96817 -27.320738 52.032333 -8.5111876 145.16777
1990500000 -4.7509747 157.64185 2.0169945 63.101467 -27.513565 -39.852608 -7.8938427 80.713982
2000000000 -4.7475729 129.66553 1.8626949 -37.370796 -27.67959 -130.3148 -8.3084974 19.908236
