!Keysight Technologies,N5242B,MY48420967,A.15.65.19
!Date: Saturday, February 04, 2023 14:24:25
!Correction: S11(C  1-Port  ) 
!S21(Off) 
!S12(Off) 
!S22(Off) 
!S2P File: Measurements: S11, S21, S12, S22:
# Hz S  dB   R 50
100000000 -19.013891 -15.638538 28.142754 11.648064 -34.267914 -86.083099 -24.022846 43.190174
109500000 -17.679689 -16.348637 27.380539 -90.227036 -33.450886 -178.81985 -27.0387 -3.1583736
119000000 -14.364919 -49.603523 26.515797 167.25154 -32.878529 87.599777 -23.227024 -136.35147
128500000 -14.916515 -92.887947 25.631292 66.446655 -32.454433 -4.1995859 -19.756016 138.54594
138000000 -20.130375 -116.90134 25.01001 -34.225868 -31.850321 -96.001419 -18.574303 93.593948
147500000 -18.695204 -98.500206 24.498758 -135.59285 -31.21711 171.3989 -17.260262 47.866604
157000000 -14.044398 -139.41312 23.960434 122.23328 -30.680569 78.044395 -18.264036 -0.19849341
166500000 -13.549105 164.73517 23.300438 20.25709 -30.349188 -15.184399 -21.43294 -51.070896
176000000 -16.632948 110.40762 22.655128 -80.516212 -30.041693 -107.27385 -31.207964 -122.04916
185500000 -22.730906 89.051506 22.203773 178.88289 -29.610113 160.8289 -29.025465 66.747604
195000000 -18.651754 98.369759 21.811628 77.530945 -29.152641 68.144516 -22.116272 16.851244
204500000 -15.017791 56.709755 21.343863 -24.276478 -28.822746 -24.985605 -18.451685 -29.876904
214000000 -15.254221 12.254698 20.799849 -125.2576 -28.604357 -117.34647 -18.178316 -83.252434
223500000 -17.065424 -12.049543 20.420311 134.37178 -28.237745 150.98222 -21.031496 -125.62382
233000000 -15.67881 -23.826374 20.133289 33.317822 -27.836266 58.611069 -23.65163 -165.29723
242500000 -14.057137 -58.065323 19.783646 -68.288345 -27.517246 -34.385658 -31.076698 114.11153
252000000 -15.340971 -98.613457 19.379087 -169.36852 -27.275379 -126.85257 -28.37068 -36.618088
261500000 -18.625109 -116.84033 19.062965 89.861595 -26.983301 141.01788 -22.8531 -98.948845
271000000 -16.638542 -121.41219 18.820837 -11.289555 -26.610476 48.482788 -21.486029 -142.62228
280500000 -14.027297 -162.23569 18.574457 -113.15047 -26.289896 -44.754078 -20.150108 175.36368
290000000 -14.186655 147.01248 18.155243 145.00684 -26.17733 -138.03879 -22.524715 115.27216
299500000 -16.888159 107.66968 17.813534 44.417953 -25.983685 130.04752 -33.402592 81.062401
309000000 -18.251352 97.892197 17.588518 -56.715752 -25.705563 37.608479 -46.595974 157.11496
318500000 -15.021836 73.18042 17.331095 -158.44981 -25.473291 -55.383335 -26.760099 179.7493
328000000 -13.67574 31.901426 16.992298 100.18498 -25.333843 -148.15715 -22.85206 123.27168
337500000 -14.944076 -1.8280709 16.708944 -0.82585245 -25.14986 119.60421 -22.661915 71.781738
347000000 -15.438756 -15.988264 16.485905 -101.98943 -24.918846 27.14551 -26.193821 13.60545
356500000 -12.992556 -41.406628 16.274109 156.70619 -24.702421 -65.480034 -34.933167 -26.002203
366000000 -12.179505 -82.796455 16.034859 54.946461 -24.508715 -158.63373 -35.269951 -139.72264
375500000 -14.246569 -122.40977 15.718016 -46.129829 -24.415462 108.89565 -25.644335 114.63039
385000000 -16.962421 -136.82001 15.534254 -147.04976 -24.203861 16.485125 -23.767002 41.90202
394500000 -14.033632 -151.30101 15.346713 111.4217 -24.008211 -76.538834 -25.899776 -8.0828228
404000000 -11.637559 166.85033 15.064345 9.5835133 -23.904203 -169.90726 -26.186415 -66.085625
413500000 -11.805393 121.08654 14.701329 -90.917686 -23.910025 98.099915 -25.899035 -176.56592
423000000 -13.562712 87.764046 14.597922 168.65103 -23.670237 6.177002 -23.070211 85.463455
432500000 -13.393875 72.644554 14.444611 66.728668 -23.500183 -87.230507 -20.806255 29.667105
442000000 -11.220608 45.129372 14.07897 -34.782417 -23.528769 179.87213 -18.361057 -28.106125
451500000 -10.691617 8.0541086 13.831347 -134.92453 -23.453951 88.369362 -19.107786 -89.843445
461000000 -11.779866 -22.135057 13.696893 123.98642 -23.271242 -4.0594478 -20.429127 -151.25294
470500000 -11.900054 -38.767147 13.484164 22.613049 -23.167753 -96.662857 -21.460901 118.18537
480000000 -10.300456 -64.483887 13.295763 -78.396835 -23.045938 171.03233 -22.005856 26.596003
489500000 -9.8982735 -101.43383 13.061179 179.98711 -22.975121 78.191833 -19.735121 -29.199511
499000000 -11.13303 -135.63605 12.81189 79.669151 -22.921469 -13.37673 -16.997978 -93.7201
508500000 -12.159219 -155.95464 12.796255 -21.665255 -22.640188 -105.96817 -18.131338 -158.73279
518000000 -10.870693 -178.95247 12.575367 -124.10082 -22.565435 160.35481 -20.059458 143.67307
527500000 -9.9199791 145.10468 12.199278 135.03181 -22.658415 68.24514 -21.534595 59.715321
537000000 -10.3943 109.6625 12.093236 34.528358 -22.473232 -23.560499 -20.645981 -33.211277
546500000 -11.121059 85.775269 11.957303 -67.297829 -22.317066 -116.63167 -17.277262 -104.52008
556000000 -10.054368 63.904495 11.663104 -168.70306 -22.309849 150.68382 -15.603466 -169.62054
565500000 -8.9655533 31.434082 11.401215 90.474678 -22.26848 58.570492 -15.977875 136.25862
575000000 -9.3897638 -2.6891241 11.159936 -9.6509056 -22.206404 -32.921207 -16.403919 78.864769
584500000 -10.794981 -26.277094 11.154769 -109.86636 -21.903793 -124.69502 -19.229404 2.5641189
594000000 -10.332376 -42.212364 11.043325 148.34769 -21.729683 141.78166 -22.403769 -86.688065
603500000 -9.036932 -71.41349 10.691373 47.828396 -21.879044 49.40799 -19.670931 -171.87358
613000000 -9.2395906 -107.02262 10.675836 -51.308083 -21.741125 -41.654301 -17.96492 118.57427
622500000 -10.71875 -136.6152 10.683126 -152.76477 -21.611242 -135.03577 -17.147326 68.906517
632000000 -11.140841 -156.46216 10.486184 106.50754 -21.687794 132.32372 -17.07024 1.8737471
641500000 -10.062121 176.14984 10.428365 6.1116261 -21.607544 40.22123 -21.743296 -72.389
651000000 -9.8065109 141.26917 10.278264 -95.464966 -21.622086 -52.822582 -23.338541 -153.60312
660500000 -10.503786 110.21413 10.119298 164.05251 -21.641073 -144.66771 -18.543266 114.82542
670000000 -10.439384 86.693275 10.074592 62.72673 -21.549017 122.7383 -16.041195 44.467274
679500000 -9.3720865 58.657787 9.8751011 -38.656334 -21.603432 30.125011 -15.360336 -9.614089
689000000 -9.1522818 24.958782 9.7158375 -138.95605 -21.606102 -61.416462 -15.619337 -63.266983
698500000 -10.189521 -4.5560169 9.7520285 120.13159 -21.420513 -153.54935 -17.670681 -124.4726
708000000 -10.650204 -22.460838 9.6664591 18.042425 -21.359993 113.10197 -21.464674 151.39424
717500000 -9.3663368 -45.137791 9.3992147 -83.126678 -21.475056 20.663342 -20.615631 42.867603
727000000 -8.7760258 -78.504425 9.2889223 176.88734 -21.429653 -70.643784 -16.896307 -31.446556
736500000 -9.5993757 -112.38505 9.3617315 75.837738 -21.205347 -162.99615 -14.877855 -88.045265
746000000 -10.64163 -137.10306 9.2912064 -26.519907 -21.128609 103.27603 -14.169861 -142.13063
755500000 -10.067101 -160.66826 8.9973421 -128.14146 -21.280416 10.30896 -15.192279 158.24185
765000000 -9.3756266 165.68111 8.8109207 131.71609 -21.327923 -81.199547 -18.145807 89.12204
774500000 -9.7414598 129.92445 8.8153791 30.791107 -21.188614 -173.46429 -19.8958 1.5437167
784000000 -10.453166 102.76301 8.7051497 -71.296021 -21.172037 93.156685 -16.653603 -82.386063
793500000 -9.7008762 79.798958 8.3942385 -172.67398 -21.365168 0.55051428 -13.727684 -150.63173
803000000 -8.5251064 48.289921 8.1895275 87.373123 -21.4494 -90.646561 -12.961955 152.14207
812500000 -8.3997164 13.564406 8.1315956 -12.829647 -21.38611 177.94176 -12.919669 100.15424
822000000 -9.3051672 -14.741072 8.2145386 -113.6989 -21.186281 85.833298 -13.759459 37.834206
831500000 -9.4252348 -33.798077 8.1638575 143.68298 -21.120495 -7.9753995 -16.580263 -39.364998
841000000 -8.3181 -59.239838 7.7700186 42.091179 -21.400602 -100.80643 -17.251446 -128.23917
850500000 -7.8930345 -91.960594 7.5805626 -56.652451 -21.467802 169.25594 -14.424433 152.04828
860000000 -8.5205812 -123.61813 7.8462157 -157.59006 -21.081749 77.139519 -12.605299 88.383484
869500000 -9.166173 -149.08238 7.6884089 99.116707 -21.124586 -17.37092 -11.530972 33.057732
879000000 -8.7570105 -175.32303 7.287425 -1.3277185 -21.407351 -109.01208 -11.885339 -29.258728
888500000 -8.3679018 152.69807 7.317656 -101.13264 -21.257967 159.99196 -14.51581 -94.052338
898000000 -8.6729813 120.8789 7.2547975 156.97665 -21.206619 66.92865 -16.256733 -167.5706
907500000 -8.9412289 94.448921 7.0708594 55.929688 -21.273285 -25.26395 -14.725633 101.74435
917000000 -8.2887936 68.567863 6.9353194 -45.147236 -21.300556 -117.43457 -12.872478 26.429361
926500000 -7.6293983 38.270058 6.6869283 -145.7364 -21.432646 150.89149 -11.543275 -31.247393
936000000 -7.7154527 7.6190948 6.6713204 114.93111 -21.323128 60.487808 -10.89817 -88.558922
945500000 -8.1928062 -18.031282 6.8096938 13.175105 -21.084867 -32.373482 -11.79116 -149.57492
955000000 -7.9980297 -40.408981 6.5544167 -88.71106 -21.239714 -125.46964 -13.893476 139.3329
964500000 -7.4823165 -66.789978 6.3827806 171.68919 -21.310539 143.62634 -15.885384 51.39423
974000000 -7.5300479 -95.77578 6.4028435 71.151558 -21.205357 51.686943 -14.515161 -30.878513
983500000 -7.9955668 -122.95794 6.335156 -29.475887 -21.22146 -40.42099 -11.891162 -99.009224
993000000 -8.085906 -148.6344 6.3187408 -130.32655 -21.200176 -132.76442 -11.09199 -161.25902
1002500000 -7.9381328 -177.44298 6.1431794 128.9231 -21.354025 134.99617 -11.520849 142.02859
1012000000 -8.2820873 151.93156 6.1591649 29.926092 -21.321224 44.594311 -12.901491 77.382111
1021500000 -8.8732233 125.09875 6.4467211 -71.930138 -21.021898 -48.652092 -15.671561 -1.2791871
1031000000 -8.5317307 100.79004 6.1649861 -175.06851 -21.301613 -143.08653 -15.650533 -89.177231
1040500000 -7.7272272 71.376801 5.7741294 86.04261 -21.674286 126.80177 -12.944834 -167.02281
1050000000 -7.6108112 38.998188 6.048646 -12.733112 -21.379612 36.874252 -11.255857 129.54698
1059500000 -8.26616 10.415013 6.3099642 -115.311 -21.098866 -56.86235 -10.443788 72.089897
1069000000 -8.4010506 -10.754045 6.1128111 141.59486 -21.253361 -151.12088 -10.860287 8.7585564
1078500000 -7.5441465 -35.079578 5.74788 41.10252 -21.578714 117.25248 -13.217587 -60.981625
1088000000 -7.1760635 -65.04274 5.6919417 -58.217911 -21.602028 26.779346 -15.311756 -139.92912
1097500000 -7.7007184 -94.813553 5.828948 -158.62613 -21.434944 -64.760567 -13.979402 136.54892
1107000000 -8.3471127 -119.38561 5.926003 99.473885 -21.31216 -157.74911 -11.671064 62.152672
1116500000 -8.180295 -143.8625 5.783402 -2.6286843 -21.428461 109.09047 -10.936065 -1.3807937
1126000000 -8.0402384 -173.77338 5.5474105 -103.07433 -21.658588 17.650606 -10.993967 -59.424961
1135500000 -8.501771 155.34615 5.6636992 157.3685 -21.533131 -72.933121 -11.903529 -124.67101
1145000000 -8.8741369 128.75639 5.8675084 54.587147 -21.322504 -166.63312 -13.938722 159.31865
1154500000 -8.3596239 101.7796 5.4906454 -48.272148 -21.693501 99.619354 -14.113157 77.333824
1164000000 -7.8404136 69.62719 5.1921382 -146.75325 -21.98033 10.243508 -12.001137 1.5669801
1173500000 -7.9704356 36.739597 5.5825443 113.5185 -21.572844 -80.370544 -10.260479 -62.828678
1183000000 -8.4246492 9.6550894 5.747591 9.615984 -21.376486 -175.20767 -9.3286562 -122.01129
1192500000 -8.0580158 -13.624398 5.3462076 -93.408623 -21.747147 90.858727 -9.7461586 176.19934
1202000000 -7.3450522 -41.993362 4.9386282 166.91814 -22.125896 0.26199332 -11.663344 112.44873
1211500000 -7.2454724 -73.096146 4.9553471 68.341805 -22.07865 -89.255875 -13.603531 39.408943
1221000000 -7.8075829 -101.51742 5.2903566 -32.672722 -21.713171 178.80141 -13.504279 -46.087326
1230500000 -8.1991959 -125.45917 5.2795191 -136.21921 -21.705044 84.386665 -11.602379 -123.74075
1240000000 -7.9311748 -151.79977 4.9165878 122.29662 -22.06081 -7.9812632 -10.165987 170.67526
1249500000 -7.793376 177.87764 4.8195529 22.684832 -22.155714 -98.401985 -9.7627583 111.03738
1259000000 -8.0645943 147.93915 4.9420447 -78.165741 -22.024446 170.01088 -10.215299 50.223255
1268500000 -8.2074423 119.88799 4.9508858 179.61353 -22.019291 77.107056 -11.68509 -18.153524
1278000000 -7.8924155 90.280151 4.7291703 77.996803 -22.233049 -15.151533 -13.001074 -95.773369
1287500000 -7.6688399 59.062607 4.6435232 -21.615427 -22.302225 -105.39401 -12.084259 -176.35036
1297000000 -7.8091893 29.867235 4.9392691 -123.04652 -21.988396 162.55045 -10.307149 112.0085
1306500000 -7.76301 4.0849733 4.8080735 132.71915 -22.089249 67.601494 -9.1754704 49.350582
1316000000 -7.2212911 -22.596701 4.2247062 31.994816 -22.642105 -23.914557 -9.1144228 -11.578037
1325500000 -6.8661218 -51.364151 4.1596036 -65.965431 -22.670864 -112.73957 -10.359201 -73.080818
1335000000 -7.044621 -79.292252 4.4097462 -166.53586 -22.392626 155.7117 -12.108082 -140.92363
1344500000 -7.333128 -104.24363 4.4456034 91.479362 -22.340405 62.731716 -13.032455 135.40892
1354000000 -7.1866155 -129.27946 4.2912316 -9.9622097 -22.496141 -29.756554 -12.06583 51.654461
1363500000 -7.055541 -157.11215 4.1508441 -109.8782 -22.65414 -120.73728 -10.361488 -16.994444
1373000000 -7.3567963 174.83583 4.3505139 150.15532 -22.489557 148.2766 -9.216073 -79.897263
1382500000 -7.6533184 149.21451 4.4824033 47.162159 -22.397745 54.289642 -9.3737812 -143.59396
1392000000 -7.3230562 122.50053 4.0723848 -54.832195 -22.858797 -38.610401 -10.784375 148.98465
1401500000 -6.9399471 92.056137 3.858465 -153.44139 -23.120487 -128.11606 -12.339391 74.801498
1411000000 -7.0559955 60.952412 4.084456 107.0281 -22.940639 141.52147 -11.827336 -3.3658073
1420500000 -7.4712467 33.290768 4.3414526 4.9874568 -22.718161 48.664803 -9.8228941 -77.945564
1430000000 -7.2423172 8.7061396 4.2217445 -98.638283 -22.875595 -45.787121 -8.9511986 -145.3566
1439500000 -6.6146684 -18.429111 3.6882203 160.01828 -23.447491 -137.96237 -9.2201986 155.30933
1449000000 -6.4359169 -47.310654 3.4534197 62.4645 -23.726908 133.68437 -10.076914 95.268852
1458500000 -6.7211418 -74.783836 3.8647416 -36.805309 -23.365356 43.563595 -11.675824 25.014177
1468000000 -6.8697877 -99.195724 4.0585437 -140.00487 -23.230986 -50.438282 -12.88642 -60.134235
1477500000 -6.6455879 -124.13889 3.7671244 117.97057 -23.581556 -143.21765 -11.66861 -144.02724
1487000000 -6.6191244 -151.54361 3.6399133 18.546434 -23.769466 126.69673 -9.6383915 146.58939
1496500000 -6.8589997 -178.98999 3.8740869 -82.144135 -23.603703 35.434303 -8.4257631 83.603401
1506000000 -6.8761926 154.6841 3.8585038 174.7645 -23.684071 -58.257301 -8.5854845 21.676796
1515500000 -6.6792102 126.42773 3.4818516 73.802429 -24.119921 -149.67003 -9.8593616 -41.575207
1525000000 -6.7252183 95.593254 3.4617972 -24.846819 -24.182512 121.23037 -11.313846 -111.14644
1534500000 -7.0397267 65.227791 3.7824335 -125.59818 -23.901852 30.054636 -11.324482 170.43912
1544000000 -7.1829677 38.090096 3.902092 131.32877 -23.811548 -63.428616 -10.018615 92.622887
1553500000 -6.8645115 10.800326 3.6514955 28.487879 -24.087542 -156.80783 -9.2611132 25.447071
1563000000 -6.587328 -18.911005 3.2399545 -71.689919 -24.524645 112.51366 -9.026783 -33.769238
1572500000 -6.6211419 -48.142078 3.3408713 -169.80583 -24.453932 23.83604 -9.4013672 -95.404449
1582000000 -6.7669396 -74.359055 3.7620964 87.935005 -24.069054 -68.978699 -10.836357 -165.13899
1591500000 -6.6233773 -100.01146 3.4872799 -15.755742 -24.386658 -163.26158 -12.0918 115.28972
1601000000 -6.4461465 -128.21568 3.1460636 -114.89583 -24.78944 107.11852 -11.345744 34.783615
1610500000 -6.5707741 -157.13243 3.4098694 145.62386 -24.589487 17.173882 -9.5414114 -34.185982
1620000000 -6.8939271 175.67729 3.6009648 43.070637 -24.455948 -75.790848 -8.1742449 -97.660858
1629500000 -6.9354215 148.87494 3.4703717 -59.47002 -24.642593 -168.62712 -8.3511992 -160.86238
1639000000 -6.7787957 119.32383 3.2361379 -160.68491 -24.923141 99.867149 -9.8123589 137.0213
1648500000 -6.8195572 88.356651 3.123491 99.693008 -25.072187 10.00143 -11.307656 68.191505
1658000000 -7.0612173 58.458519 3.3822665 -0.89493734 -24.823788 -80.855843 -11.619471 -12.483757
1667500000 -7.0904307 29.921263 3.4268956 -104.39498 -24.791706 -174.67563 -10.456899 -90.108521
1677000000 -6.8169999 0.59900534 3.0219376 153.72087 -25.194166 93.124908 -9.2265692 -155.85518
1686500000 -6.6450009 -29.093866 2.8418 54.667221 -25.366747 3.6270981 -8.6731806 144.40623
1696000000 -6.6967573 -57.318417 3.080945 -45.778416 -25.120413 -87.272461 -9.1232853 83.320091
1705500000 -6.6305966 -83.886818 3.0922966 -149.08861 -25.111086 178.93336 -10.833812 15.835305
1715000000 -6.3531995 -111.09591 2.6724474 109.47723 -25.558672 87.005455 -12.671032 -63.187851
1724500000 -6.259531 -139.2894 2.6247993 10.854602 -25.643049 -2.0709143 -12.0926 -147.22266
1734000000 -6.4588437 -166.96324 2.9188776 -90.788734 -25.38973 -94.156677 -9.8943624 140.58664
1743500000 -6.5804973 166.66074 2.7432523 166.08954 -25.616119 172.34088 -8.3805523 75.313263
1753000000 -6.4040112 139.50581 2.4563296 65.475845 -25.960352 81.351631 -8.6034842 13.034945
1762500000 -6.2878041 110.45377 2.3110564 -35.22205 -26.152237 -9.7017078 -9.8620062 -46.932228
1772000000 -6.388948 80.696877 2.1072373 -134.50948 -26.390997 -99.381241 -11.150409 -114.78222
1781500000 -6.4941483 51.802441 2.3753853 125.72446 -26.148067 170.41479 -11.825336 165.25577
1791000000 -6.4048872 23.426607 2.3534 22.460541 -26.202217 76.650742 -11.040894 88.938065
1800500000 -6.2857819 -5.5581856 1.9262284 -77.288139 -26.646017 -13.73021 -9.732975 22.504442
1810000000 -6.2710705 -34.177654 2.1669936 -176.37889 -26.427454 -103.5146 -9.2484789 -39.563679
1819500000 -6.224184 -61.081692 2.2086868 80.128265 -26.419235 162.33432 -9.8523531 -102.81952
1829000000 -5.9961405 -87.485832 1.7337289 -20.86763 -26.946444 70.645248 -11.639083 -174.36778
1838500000 -5.7694926 -115.00449 1.6146616 -120.07193 -27.133224 -19.254154 -13.03945 104.7912
1848000000 -5.7285118 -142.86212 1.5055317 139.94087 -27.317455 -109.83502 -11.492449 26.287159
1857500000 -5.8453121 -169.68541 1.6492878 40.629311 -27.261187 160.3632 -9.1508503 -43.009132
1867000000 -5.874702 164.15396 1.8062278 -62.27264 -27.195959 67.068527 -8.2246332 -105.53487
1876500000 -5.7971196 136.73126 1.2727945 -163.89102 -27.828232 -24.940052 -8.5668144 -163.69865
1886000000 -5.8258157 108.18349 1.1467263 98.843719 -28.024975 -112.451 -9.9049063 136.53403
1895500000 -5.9819393 79.618942 1.4702719 -1.7547051 -27.756212 156.70805 -11.812209 67.989372
1905000000 -6.0979171 51.322201 1.3851038 -103.35596 -27.877636 64.887329 -12.695596 -15.481686
1914500000 -6.0805988 22.784904 1.4358462 156.21785 -27.875753 -25.732557 -11.530022 -96.581306
1924000000 -6.0565262 -6.0594573 1.4116472 53.928036 -27.928913 -118.25562 -9.8970728 -162.9425
1933500000 -6.0583277 -34.412266 1.2077032 -46.676723 -28.162098 150.98245 -8.9565401 134.83043
1943000000 -5.9522824 -61.974209 1.2787726 -147.97084 -28.118731 59.534393 -9.5376368 71.064201
1952500000 -5.7442498 -89.70652 0.92906171 109.36778 -28.504675 -33.338028 -11.130208 4.4412513
1962000000 -5.6276097 -117.97845 0.48523495 11.031979 -28.974092 -121.80727 -12.152719 -70.439957
1971500000 -5.6433382 -145.94991 0.74206197 -87.419312 -28.743458 149.69658 -11.307635 -147.81219
1981000000 -5.7022963 -173.05548 0.92899144 170.39003 -28.581425 57.472443 -9.7386456 142.31438
1990500000 -5.7208104 159.9174 0.76176101 68.684547 -28.767467 -34.272881 -9.0655088 79.045898
2000000000 -5.7588387 132.06252 0.61637485 -31.806671 -28.923014 -124.76114 -9.5346479 19.101078
