!Keysight Technologies,N5242B,MY48420967,A.15.65.19
!Date: Saturday, February 04, 2023 03:20:32
!Correction: S11(C  1-Port  ) 
!S21(Off) 
!S12(Off) 
!S22(Off) 
!S2P File: Measurements: S11, S21, S12, S22:
# Hz S  dB   R 50
100000000 -17.476721 -10.940085 28.147001 12.580434 -34.265968 -84.992714 -22.120338 46.771896
109500000 -16.348158 -15.698264 27.417147 -89.281548 -33.420887 -177.86 -24.401308 -1.6159313
119000000 -13.428267 -48.065651 26.565861 168.01724 -32.843548 88.505501 -22.451939 -123.55029
128500000 -13.965644 -89.832237 25.667072 67.140869 -32.418915 -3.4826164 -19.743811 147.97087
138000000 -18.498953 -113.42257 25.0417 -33.449482 -31.818384 -95.208305 -18.227907 101.26211
147500000 -17.469475 -101.79129 24.547701 -134.72388 -31.164366 172.32422 -16.639782 53.638111
157000000 -13.190875 -139.93735 24.040455 123.03273 -30.599649 78.913597 -17.289656 4.1902971
166500000 -12.674531 166.13875 23.386309 20.827816 -30.25971 -14.579952 -19.920055 -48.095627
176000000 -15.552473 114.32616 22.716 -80.03537 -29.985157 -106.76713 -27.379061 -114.50236
185500000 -20.658844 93.186035 22.253139 179.48199 -29.550238 161.44186 -30.632401 91.95134
195000000 -17.356991 95.83374 21.878763 78.207207 -29.086565 68.853203 -22.460373 27.860777
204500000 -14.044608 56.058552 21.425964 -23.705692 -28.736881 -24.360739 -18.280334 -23.059544
214000000 -14.207468 12.626704 20.870806 -124.77287 -28.527948 -116.81905 -17.799292 -77.695137
223500000 -15.820268 -12.798015 20.484228 134.92322 -28.179642 151.54727 -20.174204 -120.42004
233000000 -14.699128 -26.461044 20.208746 33.905312 -27.758158 59.160332 -22.203655 -162.34918
242500000 -13.175499 -59.974964 19.867041 -67.769363 -27.430555 -33.878475 -28.12402 123.33842
252000000 -14.264783 -100.08037 19.455059 -168.9119 -27.204504 -126.37641 -29.08799 -17.791988
261500000 -17.251162 -121.02774 19.127731 90.368805 -26.897409 141.46687 -23.233232 -89.063782
271000000 -15.843704 -127.16388 18.893778 -10.674892 -26.5513 49.063076 -21.306782 -133.92326
280500000 -13.271727 -165.55635 18.668221 -112.57064 -26.202751 -44.228062 -19.503899 -178.08084
290000000 -13.23683 145.1705 18.246161 145.4626 -26.075876 -137.57639 -21.469822 122.68461
299500000 -15.601014 106.09769 17.890829 44.891479 -25.899385 130.6075 -29.079765 88.452026
309000000 -16.982262 93.43338 17.665949 -56.163155 -25.619339 38.19516 -37.515125 49.748772
318500000 -14.161786 69.953316 17.420101 -157.85794 -25.38154 -54.824196 -29.350014 -163.57524
328000000 -12.812037 30.108315 17.090557 100.72099 -25.228098 -147.58586 -24.148428 135.14723
337500000 -13.938533 -3.5795822 16.797771 -0.33382717 -25.056232 120.12993 -23.371572 85.467453
347000000 -14.522039 -19.135077 16.568455 -101.37921 -24.834763 27.773216 -26.491964 35.896282
356500000 -12.275604 -43.751995 16.381977 157.40625 -24.587473 -64.826767 -30.655283 15.587969
366000000 -11.40433 -84.104347 16.164572 55.484573 -24.37496 -158.082 -34.539127 -68.346909
375500000 -13.256628 -123.34608 15.826607 -45.740166 -24.301027 109.29214 -29.542494 127.95895
385000000 -15.807745 -139.87814 15.619693 -146.51859 -24.110867 17.050959 -27.082479 49.823414
394500000 -13.274514 -154.19838 15.452158 112.1566 -23.89237 -75.787949 -29.224005 14.202297
404000000 -10.908233 165.59863 15.20714 10.240884 -23.762472 -169.25223 -28.484564 -38.97509
413500000 -10.982917 120.71352 14.842794 -90.463921 -23.764187 98.585335 -30.904963 -172.13991
423000000 -12.601845 87.440086 14.719878 169.08458 -23.547352 6.6247973 -25.925858 74.362831
432500000 -12.504226 71.190674 14.563019 67.266594 -23.368778 -86.642525 -23.282066 26.117649
442000000 -10.476652 43.987934 14.214719 -34.19688 -23.384857 -179.53429 -20.101707 -27.622589
451500000 -9.9226236 7.2834511 13.981 -134.44795 -23.298098 88.871147 -20.933392 -87.981133
461000000 -10.916402 -23.14823 13.828225 124.36121 -23.137701 -3.6456122 -22.495157 -146.817
470500000 -11.084503 -40.789417 13.602804 23.15954 -23.050114 -96.153557 -23.868618 116.69598
480000000 -9.5779552 -66.343254 13.448091 -77.763115 -22.890814 171.64157 -24.11974 18.023911
489500000 -9.1175823 -102.92299 13.227015 -179.60632 -22.809553 78.595802 -21.517012 -31.918547
499000000 -10.225104 -137.19325 12.950734 80.020287 -22.777317 -13.005587 -18.216028 -94.903694
508500000 -11.218835 -158.54512 12.92999 -21.18815 -22.503151 -105.48404 -19.570892 -159.33289
518000000 -10.060036 178.43942 12.721745 -123.57394 -22.420599 160.89331 -21.810076 146.34622
527500000 -9.1025047 143.21359 12.356636 135.52332 -22.498751 68.734467 -23.569241 59.013458
537000000 -9.505559 108.00914 12.248682 34.926674 -22.312765 -23.137838 -22.20731 -39.209999
546500000 -10.210687 83.527184 12.093752 -66.852531 -22.174751 -116.19346 -18.315311 -108.44658
556000000 -9.2682686 61.549355 11.811813 -168.09061 -22.158262 151.31447 -16.462032 -172.28598
565500000 -8.2064295 29.599213 11.576178 91.005096 -22.088556 59.106579 -16.95653 135.09323
575000000 -8.5621099 -4.4314265 11.321311 -9.2435341 -22.044973 -32.500576 -17.431974 78.920883
584500000 -9.9060221 -28.851881 11.302312 -109.36224 -21.751286 -124.17931 -20.721888 0.7659052
594000000 -9.5871439 -45.38039 11.198941 148.97333 -21.56686 142.41089 -24.389494 -94.872314
603500000 -8.3337488 -74.005775 10.868132 48.517513 -21.698606 50.093094 -20.705984 -179.62067
613000000 -8.4446573 -109.43826 10.879877 -50.74292 -21.536564 -41.078098 -18.783379 111.59711
622500000 -9.8235817 -139.56886 10.861773 -152.38536 -21.431253 -134.66859 -18.267569 64.793312
632000000 -10.311487 -160.10954 10.646982 107.12235 -21.521841 132.9599 -18.166485 -1.9741387
641500000 -9.3040743 173.01538 10.62622 6.814126 -21.404985 40.942837 -23.616486 -81.702812
651000000 -8.997304 138.56793 10.48311 -94.925964 -21.416021 -52.281208 -25.141756 -167.65329
660500000 -9.6468525 107.3618 10.312296 164.61441 -21.444393 -144.10075 -18.990105 105.53665
670000000 -9.6519995 83.642014 10.273462 63.378052 -21.345154 123.39133 -16.380045 37.236923
679500000 -8.6458302 56.058296 10.092785 -37.976219 -21.379425 30.814611 -15.948639 -15.547905
689000000 -8.3928881 22.584076 9.9498062 -138.36757 -21.369139 -60.798191 -16.435507 -68.372772
698500000 -9.3841085 -7.3979087 9.9765453 120.59874 -21.194691 -153.07773 -18.892225 -130.5489
708000000 -9.9388924 -25.994778 9.870676 18.603588 -21.151157 113.67039 -22.886118 138.21172
717500000 -8.7579565 -48.217609 9.6194677 -82.356834 -21.253372 21.467812 -20.450945 29.727077
727000000 -8.1159229 -81.253426 9.5501509 177.64056 -21.168703 -69.862061 -16.667854 -40.051338
736500000 -8.8524904 -115.47081 9.6347198 76.354637 -20.932161 -162.48987 -14.941821 -95.393456
746000000 -9.9029303 -140.82512 9.5389185 -26.065516 -20.879532 103.73336 -14.534851 -148.63411
755500000 -9.4037294 -164.21797 9.2431459 -127.51541 -21.032328 10.924527 -15.766374 151.60889
765000000 -8.6725769 162.59218 9.0897121 132.37582 -21.049278 -80.538834 -18.866144 79.5289
774500000 -8.9605417 126.84269 9.107502 31.243341 -20.897129 -173.00703 -20.085062 -11.210553
784000000 -9.683485 99.306229 8.9717865 -70.913857 -20.905289 93.579056 -16.502916 -90.801277
793500000 -9.0289383 76.50901 8.6566992 -172.10739 -21.097958 1.1114657 -13.642866 -156.41028
803000000 -7.8508973 45.514732 8.4860401 87.988571 -21.147739 -90.04631 -13.022631 147.00311
812500000 -7.6730614 10.806502 8.4424257 -12.398038 -21.070856 178.36572 -13.155889 95.393799
822000000 -8.5656576 -18.054834 8.5127754 -113.36952 -20.886227 86.196533 -14.081714 32.473171
831500000 -8.777688 -37.48806 8.4464808 144.04408 -20.834673 -7.6092167 -16.893265 -47.049015
841000000 -7.7040997 -62.555641 8.0535326 42.597664 -21.110912 -100.26275 -17.133408 -135.73465
850500000 -7.2176576 -95.187225 7.8958778 -56.069172 -21.148333 169.88771 -14.125957 147.12453
860000000 -7.7808108 -127.27052 8.1833668 -157.24966 -20.741581 77.506096 -12.421556 84.061653
869500000 -8.4342079 -153.19865 7.9903188 99.368088 -20.817682 -17.086473 -11.503473 29.387712
879000000 -8.0479593 -179.30759 7.5896077 -0.8469013 -21.101673 -108.50552 -11.8753 -32.983959
888500000 -7.6163077 148.93153 7.655385 -100.7037 -20.917215 160.43105 -14.544398 -99.032578
898000000 -7.8741965 116.97935 7.578578 157.24704 -20.880949 67.210083 -16.160685 -173.01765
907500000 -8.1657848 90.361084 7.3857565 56.302177 -20.956059 -24.882748 -14.344014 97.825111
917000000 -7.5638571 64.728462 7.2613077 -44.750721 -20.971762 -117.0214 -12.534439 23.541658
926500000 -6.8957796 34.715721 7.0114412 -145.3253 -21.102711 151.31694 -11.312296 -33.641354
936000000 -6.9536853 3.9486725 7.0093722 115.40528 -20.985451 60.97596 -10.69368 -90.997131
945500000 -7.4537754 -22.127647 7.1535468 13.565841 -20.740108 -31.994703 -11.603302 -152.57973
955000000 -7.326746 -44.572533 6.8885455 -88.248192 -20.902575 -124.99531 -13.616197 135.61308
964500000 -6.8206849 -70.78791 6.7361131 172.25343 -20.952896 144.20737 -15.330736 47.825939
974000000 -6.8372989 -99.927139 6.7680688 71.658005 -20.840349 52.218887 -13.956546 -32.901371
983500000 -7.2924223 -127.49445 6.7064223 -28.92536 -20.845629 -39.835979 -11.439135 -100.50864
993000000 -7.4021173 -153.23737 6.7048602 -129.81035 -20.807165 -132.23289 -10.712973 -163.09425
1002500000 -7.2345028 178.07649 6.5254092 129.46031 -20.971079 135.56969 -11.183007 139.79982
1012000000 -7.5380979 147.27637 6.5692501 30.577942 -20.907364 45.269238 -12.476754 74.356934
1021500000 -8.1595526 120.16624 6.8815722 -71.504562 -20.590206 -48.192635 -15.039867 -5.2209544
1031000000 -7.888535 96.300491 6.5691738 -174.70836 -20.89201 -142.68199 -14.906301 -91.416862
1040500000 -7.0749354 67.459808 6.1820297 86.656174 -21.262917 127.4362 -12.331762 -168.08264
1050000000 -6.9184136 35.138737 6.5027781 -12.099515 -20.925758 37.523285 -10.736887 128.24234
1059500000 -7.6004148 6.1414995 6.7779078 -114.87279 -20.628378 -56.43293 -9.9790983 70.178627
1069000000 -7.8565159 -14.895908 6.5707183 141.95944 -20.791119 -150.73985 -10.389701 5.9741473
1078500000 -7.0209665 -38.66378 6.2026973 41.567768 -21.124092 117.73558 -12.64595 -64.750938
1088000000 -6.6094713 -68.600533 6.1685634 -57.662479 -21.120375 27.36356 -14.474926 -143.48813
1097500000 -7.1233025 -98.839577 6.336235 -158.09406 -20.922308 -64.204239 -13.082308 134.80067
1107000000 -7.8386359 -123.71544 6.4542179 99.830429 -20.778284 -157.37756 -10.908607 60.714188
1116500000 -7.690722 -147.90588 6.3018637 -2.396137 -20.906855 109.32795 -10.299703 -3.2847853
1126000000 -7.5037065 -177.81812 6.0619326 -102.74706 -21.139143 17.978735 -10.387188 -61.773392
1135500000 -7.950099 150.97162 6.216383 157.72313 -20.976982 -72.531647 -11.182353 -127.80504
1145000000 -8.3708982 124.38081 6.4325418 54.637032 -20.75633 -166.57626 -13.016307 155.75133
1154500000 -7.8465424 97.890083 6.017827 -48.268429 -21.162277 99.604973 -13.117384 75.575157
1164000000 -7.2681942 65.86322 5.7252417 -146.47968 -21.442863 10.535864 -11.15967 1.1249462
1173500000 -7.374536 32.661301 6.1657281 113.76291 -20.988966 -80.10717 -9.5369625 -63.420528
1183000000 -7.9037151 5.3402472 6.3403363 9.597764 -20.783937 -175.17543 -8.6524878 -123.25436
1192500000 -7.588294 -17.521017 5.9154096 -93.529358 -21.176327 90.767738 -9.0696001 174.10677
1202000000 -6.8338232 -45.751686 5.4943194 166.9503 -21.56999 0.34543601 -10.88721 109.77325
1211500000 -6.6965671 -77.217979 5.5382924 68.569565 -21.492109 -89.002922 -12.543989 37.221115
1221000000 -7.2892647 -106.28441 5.9245806 -32.540905 -21.079166 178.98457 -12.315417 -46.125862
1230500000 -7.7567158 -130.34045 5.9199905 -136.38651 -21.059 84.221741 -10.617432 -122.96454
1240000000 -7.4654703 -156.50313 5.5350084 122.0743 -21.435513 -8.1767702 -9.3423042 171.07188
1249500000 -7.2737713 172.97601 5.4412065 22.558203 -21.528154 -98.496613 -8.9789715 110.94265
1259000000 -7.53473 142.68417 5.5869069 -78.293289 -21.376499 169.92554 -9.3514347 49.5933
1268500000 -7.6824379 114.6156 5.6074209 179.33203 -21.35824 76.870461 -10.649108 -19.04484
1278000000 -7.3301215 85.220421 5.3680582 77.678024 -21.59153 -15.414832 -11.806265 -95.400032
1287500000 -7.076067 53.979572 5.2943368 -21.749926 -21.651011 -105.48463 -11.000924 -174.26741
1297000000 -7.2459087 24.60306 5.6346121 -123.27483 -21.285271 162.35449 -9.3887615 114.12849
1306500000 -7.2541323 -0.92551249 5.4971032 132.22644 -21.400196 67.162987 -8.3074226 50.655422
1316000000 -6.7010036 -27.235172 4.8873816 31.573854 -21.973351 -24.29702 -8.2352686 -11.24703
1325500000 -6.3264446 -56.048328 4.8391829 -66.189537 -21.989613 -112.94998 -9.3775883 -73.307175
1335000000 -6.5280676 -84.297211 5.1254797 -166.71339 -21.677496 155.5791 -10.845057 -140.94518
1344500000 -6.884964 -109.27293 5.2008777 91.159019 -21.586334 62.457012 -11.556202 137.19148
1354000000 -6.7413983 -134.01877 5.0454669 -10.513357 -21.738113 -30.266521 -10.834478 54.842434
1363500000 -6.5772929 -161.89651 4.8954978 -110.36012 -21.907154 -121.16714 -9.3506002 -14.187169
1373000000 -6.8941946 169.84813 5.1390791 149.74094 -21.698341 147.89699 -8.232626 -78.004471
1382500000 -7.2327633 144.49934 5.3038969 46.398132 -21.574802 53.555584 -8.3133602 -142.80066
1392000000 -6.8488002 118.31572 4.859458 -55.843281 -22.066753 -39.598919 -9.6091871 149.11708
1401500000 -6.3973117 87.919762 4.6218414 -154.28752 -22.354916 -128.9164 -11.041912 75.954399
1411000000 -6.5126195 56.644508 4.876667 106.4173 -22.145117 140.96225 -10.577515 -0.43403459
1420500000 -7.0093784 29.129303 5.2056465 4.2571325 -21.854498 47.960041 -8.7047634 -75.263794
1430000000 -6.7959652 5.3760047 5.0907259 -99.907555 -22.004683 -47.028835 -7.9446659 -144.0397
1439500000 -6.1157799 -21.486952 4.4952531 158.66663 -22.63376 -139.28375 -8.2439566 155.60278
1449000000 -5.9325433 -50.528786 4.2583818 61.506947 -22.911169 132.73071 -8.9765978 94.85569
1458500000 -6.2725778 -78.081337 4.7455902 -37.697727 -22.482439 42.733162 -10.261455 24.443163
1468000000 -6.467226 -102.05499 4.9749994 -141.34325 -22.308718 -51.733116 -11.237228 -58.899441
1477500000 -6.2050195 -126.71413 4.6519256 116.38789 -22.693411 -144.71994 -10.310197 -141.20932
1487000000 -6.1535759 -154.21262 4.5181713 17.067707 -22.889687 125.25247 -8.5504818 148.89406
1496500000 -6.4021153 178.40131 4.7879238 -83.698898 -22.686571 33.907177 -7.4141355 84.790115
1506000000 -6.3925586 152.35126 4.7698545 172.87399 -22.770237 -60.100201 -7.5634656 21.668812
1515500000 -6.1315784 124.04172 4.3501525 71.891151 -23.242908 -151.56206 -8.7574005 -42.276901
1525000000 -6.1583219 92.949318 4.3337045 -26.489101 -23.30748 119.62108 -10.024552 -111.29886
1534500000 -6.5088205 62.547112 4.7098179 -127.17826 -22.971741 28.510817 -9.9314461 171.91664
1544000000 -6.6800008 35.839958 4.8696642 129.38014 -22.840374 -65.38401 -8.7697506 94.443321
1553500000 -6.3100767 8.764781 4.5869336 26.201212 -23.145502 -159.04926 -8.1867952 26.645153
1563000000 -6.0129209 -21.162182 4.1338539 -73.829712 -23.625782 110.41066 -7.9799433 -33.20787
1572500000 -6.0860648 -50.571461 4.2756839 -171.65469 -23.512157 22.019127 -8.2346716 -95.479759
1582000000 -6.2732 -76.621811 4.7596698 85.773125 -23.065628 -71.128647 -9.423708 -165.40169
1591500000 -6.0915022 -102.15468 4.4557452 -18.324253 -23.415476 -165.78351 -10.508101 116.49518
1601000000 -5.8799896 -130.67265 4.0788054 -117.32497 -23.850025 104.69838 -10.004065 37.806095
1610500000 -6.0187564 -159.93921 4.3727002 143.36961 -23.618198 14.928908 -8.4345188 -31.052307
1620000000 -6.3703461 172.86801 4.6125765 40.669674 -23.439653 -78.153458 -7.0951228 -95.537292
1629500000 -6.3612766 146.17792 4.4878016 -62.251091 -23.62149 -171.40775 -7.2646174 -160.01945
1639000000 -6.1451321 116.32991 4.2160215 -163.60443 -23.938013 96.986893 -8.634387 137.46658
1648500000 -6.1787014 85.019417 4.0930166 97.005325 -24.099449 7.3205805 -9.9064045 69.467873
1658000000 -6.4443526 55.060505 4.4100342 -3.5401318 -23.796345 -83.471581 -10.161026 -9.1117697
1667500000 -6.4634733 26.754074 4.4786191 -107.45489 -23.732779 -177.70119 -9.2201309 -86.071877
1677000000 -6.1585698 -2.5584052 4.0346966 150.48575 -24.179424 89.909859 -8.1498222 -152.71001
1686500000 -5.9980202 -32.41375 3.8504384 51.638256 -24.354998 0.6481353 -7.6131172 146.58826
1696000000 -6.0889564 -60.583778 4.1450772 -48.813534 -24.0501 -90.264557 -7.9258232 84.686478
1705500000 -6.0182748 -86.897858 4.179183 -152.56134 -24.017754 175.49146 -9.366703 16.788353
1715000000 -5.7080588 -114.17117 3.7174089 105.80721 -24.510679 83.369804 -10.99836 -60.59668
1724500000 -5.6175885 -142.62029 3.6659627 7.365881 -24.598127 -5.5244288 -10.704032 -142.1098
1734000000 -5.8402596 -170.32458 4.0038528 -94.316696 -24.299255 -97.656471 -8.7764759 145.42796
1743500000 -5.9454584 163.58731 3.8539045 162.22894 -24.502497 168.49728 -7.3128471 78.346031
1753000000 -5.6991796 136.4436 3.5508831 61.297752 -24.862078 77.210991 -7.5813103 14.571606
1762500000 -5.5466142 107.12695 3.3665981 -39.541866 -25.089972 -13.974143 -8.7518616 -45.862633
1772000000 -5.6471729 77.301361 3.1499994 -138.57707 -25.34605 -103.41927 -9.825532 -113.51524
1781500000 -5.7532582 48.630508 3.4776921 121.60032 -25.041887 166.31667 -10.443346 167.95236
1791000000 -5.6407561 20.45575 3.4486949 17.887899 -25.097927 72.077911 -9.8193645 92.362289
1800500000 -5.5174322 -8.4714966 2.9865794 -81.767166 -25.57876 -18.15708 -8.6428537 24.996502
1810000000 -5.5236058 -36.879921 3.2765787 179.17186 -25.310232 -107.90794 -8.1698036 -38.083309
1819500000 -5.4761443 -63.382927 3.3364503 75.202873 -25.285843 157.42212 -8.6213045 -102.46889
1829000000 -5.2063956 -89.653992 2.8164828 -26.060015 -25.857437 65.462364 -10.231149 -174.60667
1838500000 -4.9642277 -117.3226 2.6689675 -125.28552 -26.075624 -24.434896 -11.576649 106.65475
1848000000 -4.9401546 -145.25504 2.5362368 134.82674 -26.288782 -114.91722 -10.276803 29.622551
1857500000 -5.0620809 -171.91956 2.7152202 35.602196 -26.19795 155.34515 -8.1511049 -40.649731
1867000000 -5.0463476 162.04594 2.8845901 -67.723709 -26.120895 61.626877 -7.321794 -104.44169
1876500000 -4.9224925 134.44016 2.2783377 -169.44521 -26.816526 -30.445858 -7.6633635 -163.74049
1886000000 -4.9355912 105.71177 2.1459761 93.68885 -27.018108 -117.619 -8.9036026 135.80814
1895500000 -5.0829177 77.134941 2.5118151 -6.8950601 -26.701691 151.61383 -10.514472 67.519196
1905000000 -5.1762819 48.899418 2.4401605 -108.56101 -26.82328 59.692242 -11.208208 -14.054392
1914500000 -5.1400046 20.294975 2.5236828 150.92653 -26.785795 -31.012304 -10.311481 -93.754097
1924000000 -5.1226225 -8.6318264 2.5019574 48.373562 -26.832199 -123.77864 -8.8405256 -160.44333
1933500000 -5.1404371 -36.934666 2.3069415 -52.250454 -27.049629 145.42441 -7.9113708 136.12558
1943000000 -5.0350208 -64.446968 2.4094474 -153.88972 -26.982531 53.599384 -8.4532242 71.412193
1952500000 -4.8282051 -92.360275 2.0037677 103.01694 -27.419409 -39.661598 -9.9020109 4.7053561
1962000000 -4.7397084 -120.85273 1.5074607 4.9553971 -27.946827 -127.85619 -10.834003 -68.886551
1971500000 -4.7935219 -148.89514 1.8010688 -93.300217 -27.679007 143.79778 -10.131473 -144.77303
1981000000 -4.8627601 -175.96042 2.0163908 164.30563 -27.495319 51.416641 -8.7017775 145.06802
1990500000 -4.8656969 156.91769 1.8418349 62.404675 -27.686152 -40.555599 -8.0865631 80.768051
2000000000 -4.890902 128.85017 1.6837586 -38.121479 -27.85038 -131.06679 -8.5185375 20.026394
