!CSV A.01.01
!Keysight Technologies,N5242B,MY48420967,A.15.65.19
!Date: Friday, February 03, 2023 14:23:33
!Source: Standard

BEGIN CH1_DATA
Freq(Hz),SYSNPD(DB),SYSNPD(DEG)
100000000,-166.55385,0.018336613
109500000,-166.37491,0.0132384
119000000,-166.30055,0.012201362
128500000,-166.26634,0.013395193
138000000,-166.21164,0.016516773
147500000,-165.78841,0.01335343
157000000,-166.25844,0.016622404
166500000,-166.14671,0.015973208
176000000,-166.14619,0.01603795
185500000,-166.14066,0.015770854
195000000,-166.14539,0.015333181
204500000,-166.06152,0.014335378
214000000,-166.10925,0.013576459
223500000,-166.03064,0.012557711
233000000,-165.96115,0.011855903
242500000,-165.89697,0.011298101
252000000,-165.87357,0.010911312
261500000,-165.88928,0.01062112
271000000,-165.87598,0.010303026
280500000,-165.90828,0.010174918
290000000,-165.94962,0.010191275
299500000,-165.91359,0.010218753
309000000,-165.96625,0.010829057
318500000,-165.9494,0.011448395
328000000,-165.87146,0.011673169
337500000,-165.90237,0.01150939
347000000,-165.70642,0.0087553887
356500000,-165.73471,0.009851858
366000000,-165.79483,0.0098135313
375500000,-165.90216,0.0098745106
385000000,-165.98099,0.0097855134
394500000,-165.94899,0.0094458153
404000000,-165.87666,0.0092362473
413500000,-165.8508,0.0094150687
423000000,-165.74643,0.0094196219
432500000,-165.70976,0.009701889
442000000,-165.66032,0.009985093
451500000,-165.67542,0.010357056
461000000,-165.57329,0.010147525
470500000,-165.60645,0.01025669
480000000,-165.61179,0.010136623
489500000,-165.6064,0.0098439772
499000000,-165.66554,0.0096950019
508500000,-165.68988,0.0094359741
518000000,-165.69576,0.0091315331
527500000,-165.64551,0.0087649589
537000000,-165.64502,0.0086480901
546500000,-165.64084,0.0085240277
556000000,-165.59875,0.0083974702
565500000,-165.51651,0.0082366951
575000000,-165.43462,0.0080796471
584500000,-165.41171,0.0080432044
594000000,-165.33798,0.0079137525
603500000,-165.32014,0.0078950543
613000000,-165.28175,0.0078524798
622500000,-165.29208,0.0078981612
632000000,-165.30374,0.0078386953
641500000,-165.32191,0.007751883
651000000,-165.30014,0.007600083
660500000,-165.39471,0.0077044945
670000000,-165.3728,0.0076031471
679500000,-165.43076,0.007725385
689000000,-165.51038,0.007983366
698500000,-165.52292,0.0081217894
708000000,-165.5125,0.0083059641
717500000,-165.54243,0.0085851606
727000000,-165.55238,0.0087796003
736500000,-165.47281,0.0086169802
746000000,-165.45828,0.008584966
755500000,-165.50835,0.010282764
765000000,-165.42763,0.010550269
774500000,-165.40067,0.010938975
784000000,-165.36644,0.011303573
793500000,-165.36148,0.011647438
803000000,-165.29509,0.011438491
812500000,-165.23445,0.011248082
822000000,-165.22255,0.011185605
831500000,-165.26018,0.011250922
841000000,-165.21817,0.011026666
850500000,-165.21826,0.010890821
860000000,-165.27531,0.010896898
869500000,-165.20476,0.010585611
879000000,-165.19885,0.01051087
888500000,-165.21312,0.010588503
898000000,-165.27751,0.010790383
907500000,-165.2231,0.010699214
917000000,-165.16338,0.010596423
926500000,-165.18442,0.010712964
936000000,-165.17795,0.010761995
945500000,-165.16508,0.01079499
955000000,-165.18831,0.010917984
964500000,-165.1349,0.010707983
974000000,-165.04626,0.010341986
983500000,-165.06998,0.010248143
993000000,-165.02853,0.010001759
1002500000,-165.01808,0.0098165032
1012000000,-165.00763,0.0095970593
1021500000,-164.97839,0.0093381442
1031000000,-164.91617,0.0090135215
1040500000,-164.85631,0.0087009957
1050000000,-164.89677,0.0088247824
1059500000,-164.88867,0.0088831633
1069000000,-164.94388,0.0090725701
1078500000,-164.96004,0.0091824615
1088000000,-164.96191,0.0092864996
1097500000,-164.96202,0.0094115892
1107000000,-165.04259,0.0097150058
1116500000,-164.99104,0.0097260773
1126000000,-165.07292,0.010012504
1135500000,-165.02896,0.0097866291
1145000000,-165.01387,0.0096280649
1154500000,-164.98907,0.00944936
1164000000,-165.06261,0.0094847148
1173500000,-165.04669,0.0091156419
1183000000,-165.05894,0.0087243542
1192500000,-164.95361,0.0081082489
1202000000,-164.89172,0.007592238
1211500000,-164.79189,0.0070897858
1221000000,-164.76534,0.0068424498
1230500000,-164.68228,0.0065125991
1240000000,-164.64459,0.0062577999
1249500000,-164.53798,0.005912337
1259000000,-164.5778,0.0059887967
1268500000,-164.59529,0.0060471967
1278000000,-164.58734,0.0060702828
1287500000,-164.61424,0.0061423648
1297000000,-164.62294,0.0061920043
1306500000,-164.59644,0.0061936509
1316000000,-164.62209,0.0062698997
1325500000,-164.67134,0.0063814335
1335000000,-164.70184,0.0064256182
1344500000,-164.70055,0.006229952
1354000000,-164.69104,0.0060229897
1363500000,-164.63065,0.0057491441
1373000000,-164.63927,0.0055695255
1382500000,-164.62904,0.0054046963
1392000000,-164.59323,0.0052201026
1401500000,-164.50645,0.0049794056
1411000000,-164.40794,0.0047333683
1420500000,-164.28737,0.0045499522
1430000000,-164.28848,0.0046109613
1439500000,-164.26393,0.0046444754
1449000000,-164.2596,0.0046992842
1458500000,-164.15915,0.0046522478
1468000000,-164.21581,0.0049061491
1477500000,-164.32375,0.0052272701
1487000000,-164.36487,0.0054765414
1496500000,-164.43462,0.0057679606
1506000000,-164.54279,0.010222474
1515500000,-164.51469,0.010008362
1525000000,-164.50322,0.0098341377
1534500000,-164.57042,0.009837376
1544000000,-164.62334,0.0098060211
1553500000,-164.65483,0.0097243264
1563000000,-164.65623,0.0095743574
1572500000,-164.6411,0.0093769766
1582000000,-164.58052,0.0090716621
1591500000,-164.51834,0.0087698009
1601000000,-164.41251,0.0083899098
1610500000,-164.27417,0.0079634376
1620000000,-164.16792,0.0076114521
1629500000,-164.03856,0.0072332406
1639000000,-163.97614,0.0070536877
1648500000,-164.02762,0.0072615426
1658000000,-164.0717,0.0074606496
1667500000,-164.13249,0.0076925731
1677000000,-164.17575,0.0078976098
1686500000,-164.20905,0.0080874264
1696000000,-164.2823,0.0083562089
1705500000,-164.291,0.0084909452
1715000000,-164.29092,0.0084878784
1724500000,-164.26253,0.0084296418
1734000000,-164.25061,0.0084036337
1743500000,-164.24467,0.0083892867
1753000000,-164.21075,0.008321139
1762500000,-164.20804,0.008313057
1772000000,-164.17235,0.0082421871
1781500000,-164.08339,0.0080930945
1791000000,-164.073,0.0080934493
1800500000,-163.9821,0.007945098
1810000000,-163.94843,0.0079028802
1819500000,-163.82718,0.007703918
1829000000,-163.77252,0.0076259556
1838500000,-163.70023,0.0075181173
1848000000,-163.76808,0.0077533228
1857500000,-163.75424,0.0078784339
1867000000,-163.82379,0.0081578232
1876500000,-163.87221,0.0084031979
1886000000,-163.96342,0.0087387413
1895500000,-164.08313,0.009144512
1905000000,-164.23415,0.0096353665
1914500000,-164.2364,0.0096261902
1924000000,-164.2498,0.0095039355
1933500000,-164.21704,0.0092816651
1943000000,-164.20824,0.0091123348
1952500000,-164.20015,0.0089451289
1962000000,-164.11998,0.0086339852
1971500000,-164.03052,0.0083134538
1981000000,-163.97096,0.0080814715
1990500000,-163.89015,0.0078520617
2000000000,-163.8714,0.0077381707
END

