!CSV A.01.01
!Keysight Technologies,N5242B,MY48420967,A.15.65.19
!Date: Friday, February 03, 2023 15:15:40
!Source: Standard

BEGIN CH1_DATA
Freq(Hz),SYSNPD(DB),SYSNPD(DEG)
100000000,-166.48325,0.018040989
109500000,-166.3212,0.013075592
119000000,-166.26889,0.012112796
128500000,-166.21648,0.013242357
138000000,-166.18816,0.01642758
147500000,-165.74756,0.013228387
157000000,-166.20818,0.016430913
166500000,-166.09737,0.015792711
176000000,-166.07997,0.015795194
185500000,-166.07437,0.015532094
195000000,-166.05991,0.015034292
204500000,-165.9904,0.014102437
214000000,-165.98929,0.013206464
223500000,-165.94241,0.012305003
233000000,-165.88516,0.011650343
242500000,-165.83054,0.011126627
252000000,-165.80371,0.010737283
261500000,-165.77455,0.010344252
271000000,-165.78851,0.010097674
280500000,-165.80592,0.0099379458
290000000,-165.80569,0.0098591819
299500000,-165.79378,0.0099406783
309000000,-165.80193,0.010427051
318500000,-165.77905,0.011008104
328000000,-165.7003,0.011222161
337500000,-165.71568,0.011025224
347000000,-165.55095,0.0084474636
356500000,-165.55244,0.0094470195
366000000,-165.58138,0.0093428884
375500000,-165.72206,0.0094734747
385000000,-165.78081,0.0093447901
394500000,-165.73662,0.008995085
404000000,-165.67195,0.0088109253
413500000,-165.64532,0.0089800898
423000000,-165.54108,0.0089845527
432500000,-165.46329,0.0091666942
442000000,-165.40793,0.0094214901
451500000,-165.37761,0.0096707297
461000000,-165.306,0.0095418599
470500000,-165.32381,0.0096104108
480000000,-165.34212,0.0095262993
489500000,-165.35094,0.0092816036
499000000,-165.37067,0.0090586152
508500000,-165.3813,0.0087888595
518000000,-165.36188,0.0084558809
527500000,-165.3298,0.0081504202
537000000,-165.32433,0.0080326125
546500000,-165.2802,0.007844789
556000000,-165.23592,0.0077244355
565500000,-165.17268,0.0076097739
575000000,-165.09497,0.0074719326
584500000,-165.01726,0.0073448829
594000000,-164.95119,0.0072393371
603500000,-164.89886,0.0071652136
613000000,-164.8895,0.0071743801
622500000,-164.91324,0.0072384104
632000000,-164.91499,0.007167513
641500000,-164.91199,0.0070537031
651000000,-164.91983,0.0069628414
660500000,-164.94943,0.0069537037
670000000,-164.9697,0.0069291242
679500000,-164.99559,0.0069887959
689000000,-165.04092,0.0071653989
698500000,-165.04919,0.0072825016
708000000,-165.06271,0.0074887774
717500000,-165.06467,0.0076908008
727000000,-165.0426,0.007807273
736500000,-164.96922,0.0076734759
746000000,-164.97745,0.0076852227
755500000,-164.99585,0.0091382144
765000000,-164.94057,0.0094309915
774500000,-164.90427,0.0097574219
784000000,-164.89561,0.010142318
793500000,-164.88945,0.010447933
803000000,-164.79097,0.010184817
812500000,-164.73878,0.010034923
822000000,-164.72321,0.0099706752
831500000,-164.73236,0.009963491
841000000,-164.71249,0.0098146265
850500000,-164.70695,0.0096812872
860000000,-164.69337,0.0095302612
869500000,-164.6694,0.0093580093
879000000,-164.66069,0.0092858206
888500000,-164.68169,0.0093690231
898000000,-164.68416,0.0094125532
907500000,-164.67207,0.0094242794
917000000,-164.64917,0.0094132368
926500000,-164.63913,0.0094489651
936000000,-164.61769,0.0094594238
945500000,-164.60588,0.0094907628
955000000,-164.60086,0.0095367879
964500000,-164.55727,0.0093745161
974000000,-164.50577,0.0091318432
983500000,-164.47945,0.0089453338
993000000,-164.47684,0.0088086575
1002500000,-164.46916,0.0086509008
1012000000,-164.45218,0.0084448773
1021500000,-164.42877,0.0082280273
1031000000,-164.3871,0.0079797115
1040500000,-164.32062,0.0076913359
1050000000,-164.35809,0.0077954587
1059500000,-164.38995,0.0079194531
1069000000,-164.4059,0.0080155702
1078500000,-164.40703,0.0080845356
1088000000,-164.41136,0.0081808548
1097500000,-164.4268,0.0083203968
1107000000,-164.44418,0.008464586
1116500000,-164.47758,0.0086416155
1126000000,-164.50555,0.0087862369
1135500000,-164.45517,0.0085753109
1145000000,-164.4355,0.0084275743
1154500000,-164.45294,0.0083519872
1164000000,-164.50214,0.0083363354
1173500000,-164.48787,0.0080150301
1183000000,-164.44662,0.0075770426
1192500000,-164.39087,0.0071227783
1202000000,-164.31224,0.006643787
1211500000,-164.25215,0.0062612807
1221000000,-164.23759,0.0060595167
1230500000,-164.20631,0.0058365595
1240000000,-164.13751,0.0055681244
1249500000,-164.02632,0.0052552545
1259000000,-164.0603,0.0053161434
1268500000,-164.07793,0.0053680823
1278000000,-164.08559,0.0054079276
1287500000,-164.08144,0.0054332204
1297000000,-164.08063,0.0054651015
1306500000,-164.08849,0.0055099423
1316000000,-164.1087,0.0055708056
1325500000,-164.15425,0.0056651714
1335000000,-164.20885,0.0057360418
1344500000,-164.15939,0.0055001439
1354000000,-164.13448,0.005298567
1363500000,-164.12532,0.0051176986
1373000000,-164.11679,0.0049382299
1382500000,-164.11093,0.0047969171
1392000000,-164.08032,0.0046386663
1401500000,-164.01527,0.0044468888
1411000000,-163.91235,0.0042229365
1420500000,-163.8446,0.0041089738
1430000000,-163.85684,0.0041746837
1439500000,-163.83884,0.0042113988
1449000000,-163.80049,0.0042279195
1458500000,-163.75134,0.0042353193
1468000000,-163.80299,0.0044612936
1477500000,-163.85056,0.0046876497
1487000000,-163.91313,0.0049354909
1496500000,-163.99377,0.005211188
1506000000,-164.07265,0.0091735916
1515500000,-164.0643,0.0090224221
1525000000,-164.07957,0.0089201611
1534500000,-164.10773,0.0088432152
1544000000,-164.14397,0.0087813018
1553500000,-164.1749,0.0087070651
1563000000,-164.19269,0.0086051477
1572500000,-164.18945,0.0084507009
1582000000,-164.14984,0.0082151778
1591500000,-164.08983,0.0079457909
1601000000,-163.99673,0.0076239654
1610500000,-163.89229,0.0072931065
1620000000,-163.78688,0.0069721262
1629500000,-163.66629,0.0066391174
1639000000,-163.59691,0.0064639137
1648500000,-163.6432,0.0066464473
1658000000,-163.69301,0.0068377233
1667500000,-163.73363,0.0070176409
1677000000,-163.78148,0.007212203
1686500000,-163.82884,0.0074094897
1696000000,-163.87402,0.0076064728
1705500000,-163.90958,0.0077770953
1715000000,-163.88933,0.0077381651
1724500000,-163.86819,0.0076980419
1734000000,-163.85287,0.0076682107
1743500000,-163.84111,0.007644922
1753000000,-163.71167,0.0074177906
1762500000,-163.81284,0.0075900112
1772000000,-163.79214,0.0075512351
1781500000,-163.76056,0.0075132656
1791000000,-163.72328,0.0074672368
1800500000,-163.66289,0.0073820655
1810000000,-163.59845,0.0072909328
1819500000,-163.52299,0.0071827378
1829000000,-163.45581,0.0070895897
1838500000,-163.38431,0.0069906651
1848000000,-163.38724,0.007102374
1857500000,-163.42787,0.0073081432
1867000000,-163.46721,0.0075147883
1876500000,-163.55536,0.0078118648
1886000000,-163.64658,0.0081239361
1895500000,-163.75735,0.0084836129
1905000000,-163.86259,0.0088454215
1914500000,-163.93173,0.0089739496
1924000000,-163.92253,0.0088141691
1933500000,-163.9059,0.0086399224
1943000000,-163.88313,0.0084552458
1952500000,-163.84825,0.0082489653
1962000000,-163.78778,0.0079981266
1971500000,-163.72394,0.0077468837
1981000000,-163.66693,0.0075349943
1990500000,-163.62004,0.0073785111
2000000000,-163.57295,0.007224205
END

