!Keysight Technologies,N5242B,MY48420967,A.15.65.19
!Date: Monday, December 19, 2022 09:34:11
!Correction: S11(C  2-Port  ) 
!S21(C  2-Port  ) 
!S12(C  2-Port  ) 
!S22(C  2-Port  ) 
!S2P File: Measurements: S11, S21, S12, S22:
# Hz S  dB   R 50
100000000 -1.2910497 40.853031 -45.743389 140.87822 -45.733784 140.95049 -16.623774 51.481609
109500000 -1.1709696 11.464804 -45.137363 112.10052 -45.113811 112.20834 -16.120573 25.278637
119000000 -1.0410501 -16.677029 -44.527012 83.640297 -44.501717 83.720261 -15.731149 -0.24725151
128500000 -0.99096036 -44.718693 -43.906361 55.088646 -43.88216 55.167484 -15.450496 -25.368277
138000000 -0.98669833 -73.51281 -43.310375 26.240833 -43.290874 26.303541 -15.280855 -50.221386
147500000 -1.0170729 -102.4368 -42.786442 -2.702491 -42.755718 -2.6516709 -15.240779 -74.973396
157000000 -1.0771005 -131.4229 -42.283577 -31.763058 -42.258781 -31.747284 -15.349902 -99.929733
166500000 -1.1795686 -161.09753 -41.802837 -60.84584 -41.777367 -60.82951 -15.604829 -125.58094
176000000 -1.2893686 168.64491 -41.398106 -90.146935 -41.374241 -90.129776 -15.956593 -152.44368
185500000 -1.3777331 138.42245 -41.054089 -119.30667 -41.030434 -119.29782 -16.288328 179.17247
195000000 -1.4342408 108.23814 -40.749554 -148.3007 -40.7272 -148.26965 -16.445911 149.58276
204500000 -1.4257474 78.427444 -40.469093 -176.99208 -40.447769 -176.98964 -16.33502 119.8549
214000000 -1.3710868 49.242153 -40.183319 154.47617 -40.160648 154.45442 -16.003172 91.178658
223500000 -1.3493584 20.357111 -39.903458 125.93686 -39.883305 125.93869 -15.594621 64.090584
233000000 -1.3222393 -8.3798685 -39.625256 97.629082 -39.60503 97.644524 -15.246076 38.374538
242500000 -1.2458718 -36.877781 -39.308819 69.32766 -39.289551 69.332726 -15.033901 13.446863
252000000 -1.2280865 -65.175949 -38.984581 40.812813 -38.960796 40.812531 -14.972794 -11.272526
261500000 -1.3093429 -93.978439 -38.65992 12.103033 -38.639694 12.121033 -15.038079 -36.191509
271000000 -1.3891966 -123.63483 -38.354908 -16.797529 -38.336807 -16.812698 -15.193805 -61.492809
280500000 -1.4257722 -153.48189 -38.081593 -45.847988 -38.06152 -45.854721 -15.414762 -87.218109
290000000 -1.5054488 176.78383 -37.837914 -74.949753 -37.817726 -74.957695 -15.694461 -113.40987
299500000 -1.6388427 146.58476 -37.632511 -104.05262 -37.61272 -104.05512 -16.028173 -140.22879
309000000 -1.6934004 115.97819 -37.455303 -133.04999 -37.437798 -133.07571 -16.385256 -167.93198
318500000 -1.648735 85.966415 -37.310303 -161.93103 -37.289505 -161.9471 -16.684057 163.33604
328000000 -1.6263965 56.866653 -37.168892 169.45761 -37.150753 169.43553 -16.816978 133.90793
337500000 -1.6349194 27.867052 -37.005524 141.00528 -36.988911 140.99232 -16.727001 104.6854
347000000 -1.5941511 -1.4085294 -36.821953 112.48859 -36.80685 112.48206 -16.473162 76.604874
356500000 -1.5265806 -30.290318 -36.644833 83.925926 -36.628315 83.915932 -16.192671 50.065617
366000000 -1.5245209 -58.771633 -36.449596 55.384624 -36.43499 55.384422 -16.022078 24.79455
375500000 -1.5933313 -87.814903 -36.237911 26.666573 -36.221279 26.661774 -16.041904 0.14794557
385000000 -1.650697 -117.79417 -36.030895 -2.3534272 -36.017517 -2.3670607 -16.27103 -24.606976
394500000 -1.6851727 -148.02193 -35.87328 -31.569319 -35.858253 -31.573496 -16.676666 -50.085472
404000000 -1.7615047 -178.00726 -35.764652 -60.690357 -35.748875 -60.691177 -17.191349 -76.67794
413500000 -1.8539027 151.85883 -35.661175 -89.691605 -35.64946 -89.705849 -17.737631 -104.48019
423000000 -1.8898554 121.31931 -35.581867 -118.772 -35.568069 -118.78142 -18.254734 -133.40396
432500000 -1.8773919 91.172249 -35.554482 -147.71725 -35.541275 -147.72258 -18.703194 -163.31836
442000000 -1.8471014 62.074421 -35.538063 -176.23077 -35.524551 -176.23639 -19.036482 165.83205
451500000 -1.8112376 33.462749 -35.479946 155.45822 -35.467964 155.44072 -19.174704 134.29593
461000000 -1.7727952 4.7608504 -35.403088 127.06582 -35.390724 127.06487 -19.047173 102.83368
470500000 -1.7298777 -23.796635 -35.335907 98.704651 -35.323421 98.698601 -18.685745 72.548431
480000000 -1.7022773 -51.897076 -35.249729 70.489578 -35.240395 70.489342 -18.236074 44.132526
489500000 -1.7145344 -80.029556 -35.123756 42.226685 -35.112244 42.219807 -17.872715 17.469219
499000000 -1.7616922 -108.90514 -34.9804 13.634627 -34.969723 13.630401 -17.720261 -8.1645298
508500000 -1.8133487 -138.28946 -34.869003 -15.165329 -34.858528 -15.152494 -17.82539 -33.751221
518000000 -1.8503315 -167.52423 -34.773441 -43.975018 -34.763287 -43.95615 -18.152695 -60.284714
527500000 -1.8896594 163.26476 -34.692158 -72.985268 -34.682297 -72.987373 -18.5867 -88.530212
537000000 -1.935864 133.78171 -34.676556 -102.11943 -34.666767 -102.11539 -18.949203 -118.63779
546500000 -1.9460326 104.45113 -34.730793 -130.90825 -34.720325 -130.89374 -19.082661 -149.87788
556000000 -1.9054433 75.796089 -34.78318 -159.16624 -34.774208 -159.16338 -18.954405 178.95195
565500000 -1.851177 47.750534 -34.799038 172.82747 -34.789124 172.81914 -18.650076 148.65916
575000000 -1.8128016 19.984156 -34.786095 144.88699 -34.775066 144.8844 -18.271839 119.328
584500000 -1.7832931 -7.6627545 -34.74435 117.026 -34.737431 117.01412 -17.86413 90.803017
594000000 -1.7442778 -35.26725 -34.676514 89.161446 -34.669491 89.143219 -17.435324 63.050488
603500000 -1.7180817 -62.912518 -34.584946 61.16457 -34.580814 61.161755 -17.000872 36.243904
613000000 -1.7459092 -90.645905 -34.486675 33.084351 -34.480789 33.099525 -16.613081 10.456289
622500000 -1.803673 -118.86105 -34.36248 4.8966722 -34.356937 4.9277029 -16.343845 -14.45928
632000000 -1.8551346 -147.9005 -34.240753 -23.628897 -34.234112 -23.592535 -16.252964 -38.940563
641500000 -1.8881358 -177.21051 -34.163567 -52.302013 -34.152325 -52.272453 -16.362795 -63.617912
651000000 -1.9324033 153.73669 -34.115604 -80.881058 -34.107002 -80.858856 -16.641932 -89.174339
660500000 -1.9860188 124.68638 -34.066269 -109.34506 -34.058735 -109.33147 -17.002546 -116.11063
670000000 -1.9970253 95.285835 -34.029732 -137.90628 -34.02248 -137.89391 -17.307039 -144.44669
679500000 -1.955296 66.230476 -34.031425 -166.35886 -34.021294 -166.34523 -17.434967 -173.62299
689000000 -1.9093879 38.229656 -34.032127 165.58685 -34.024807 165.60216 -17.360909 157.34424
698500000 -1.8892398 10.651613 -33.979286 137.6996 -33.971138 137.70517 -17.159477 129.16232
708000000 -1.8694893 -17.47698 -33.889336 109.55856 -33.881401 109.56454 -16.932667 101.96936
717500000 -1.8395581 -45.785473 -33.822762 81.268845 -33.815926 81.280594 -16.74526 75.528687
727000000 -1.8349926 -73.476509 -33.754581 53.169811 -33.746696 53.186493 -16.617266 49.568439
736500000 -1.8897914 -101.37958 -33.629871 24.9799 -33.623581 24.987799 -16.543768 23.959326
746000000 -1.9773451 -130.65625 -33.503777 -3.7046905 -33.496593 -3.6947167 -16.529257 -1.2951491
755500000 -2.0175202 -160.53331 -33.430958 -32.552082 -33.424259 -32.537594 -16.598679 -26.190592
765000000 -2.0413237 170.15659 -33.389183 -61.272671 -33.383572 -61.259483 -16.795504 -50.877617
774500000 -2.1263063 140.80721 -33.342781 -89.986694 -33.337116 -89.972633 -17.156099 -75.728531
784000000 -2.1903501 110.53781 -33.320473 -118.88702 -33.314693 -118.87541 -17.684128 -101.28608
793500000 -2.1537256 80.468491 -33.359989 -147.72025 -33.354816 -147.70114 -18.33242 -128.146
803000000 -2.0982792 51.908928 -33.421707 -176.05101 -33.41647 -176.03978 -18.988354 -156.67732
812500000 -2.0869503 23.883818 -33.434147 155.80827 -33.428677 155.82523 -19.504465 173.32681
822000000 -2.0688436 -4.5930061 -33.430279 127.55991 -33.425068 127.57183 -19.780233 142.75024
831500000 -2.005028 -32.795017 -33.435745 99.348846 -33.43095 99.362686 -19.840479 112.65451
841000000 -1.9735707 -60.343746 -33.426216 71.253578 -33.421513 71.272896 -19.79488 83.601021
850500000 -2.0151384 -88.024895 -33.390724 43.158825 -33.385975 43.162754 -19.753279 55.549728
860000000 -2.0534215 -116.39339 -33.334629 14.895137 -33.330189 14.908856 -19.774445 28.178165
869500000 -2.0790827 -145.18372 -33.289864 -13.614413 -33.28553 -13.598963 -19.876825 1.1944164
879000000 -2.1347468 -174.04128 -33.278713 -42.132614 -33.276493 -42.12608 -20.07235 -25.576571
888500000 -2.1843171 156.91162 -33.273331 -70.626137 -33.268517 -70.614777 -20.387428 -52.279381
898000000 -2.210043 127.6544 -33.283203 -99.210556 -33.279171 -99.19799 -20.86211 -79.246643
907500000 -2.2260249 98.486404 -33.3274 -127.73394 -33.324619 -127.7226 -21.519962 -107.13109
917000000 -2.2075527 69.642929 -33.395187 -156.06346 -33.392006 -156.05457 -22.317471 -136.85445
926500000 -2.1471326 41.490543 -33.466396 175.86682 -33.463428 175.87218 -23.08399 -169.29625
936000000 -2.0834668 14.102752 -33.516376 148.02289 -33.513897 148.02548 -23.515387 155.68227
945500000 -2.0450389 -13.062672 -33.537956 120.2398 -33.537258 120.24246 -23.381525 120.06343
955000000 -2.0125039 -40.236801 -33.548996 92.472664 -33.547535 92.46833 -22.773161 86.36216
964500000 -1.973773 -67.171616 -33.538944 64.763947 -33.53838 64.770172 -21.994093 55.543213
974000000 -1.971404 -93.951691 -33.505074 37.053478 -33.505131 37.065445 -21.275522 27.124361
983500000 -2.0184381 -121.09064 -33.443336 9.2576733 -33.444695 9.272851 -20.716698 0.20406985
993000000 -2.0590305 -148.98242 -33.364735 -18.789028 -33.364922 -18.763195 -20.332426 -25.938334
1002500000 -2.0842957 -177.37361 -33.308083 -47.080776 -33.307995 -47.049969 -20.107019 -51.747013
1012000000 -2.1228988 154.39952 -33.280022 -75.274857 -33.2798 -75.240753 -20.027157 -77.510353
1021500000 -2.1640804 126.111 -33.234264 -103.44763 -33.231647 -103.42958 -20.089762 -103.50209
1031000000 -2.196377 97.160675 -33.199444 -131.87549 -33.197533 -131.85077 -20.281153 -130.09392
1040500000 -2.1816196 68.15963 -33.21904 -160.26604 -33.21809 -160.24615 -20.557312 -157.72855
1050000000 -2.124078 40.18951 -33.263996 171.72972 -33.261314 171.74452 -20.817261 173.2816
1059500000 -2.0822375 13.088337 -33.263489 144.00841 -33.261559 144.03465 -20.923468 143.1158
1069000000 -2.0606079 -14.357714 -33.21944 116.11617 -33.217529 116.13461 -20.768608 112.66523
1078500000 -2.0357518 -42.143494 -33.202911 88.079788 -33.201019 88.104431 -20.369001 83.121048
1088000000 -2.0036573 -69.082405 -33.19223 60.403393 -33.190231 60.415611 -19.851282 55.229618
1097500000 -2.0019836 -95.619415 -33.098988 32.818985 -33.097157 32.839325 -19.358427 29.042995
1107000000 -2.0639403 -123.2791 -32.965664 4.7275996 -32.963936 4.7514868 -18.988417 4.166194
1116500000 -2.1284466 -152.00186 -32.872467 -23.667936 -32.871704 -23.652227 -18.784712 -19.919655
1126000000 -2.15802 179.43118 -32.808044 -52.003525 -32.806618 -51.98608 -18.757135 -43.652046
1135500000 -2.2034109 151.02211 -32.715858 -80.316101 -32.715214 -80.290756 -18.89917 -67.370354
1145000000 -2.2779784 121.61029 -32.619289 -109.05756 -32.617531 -109.03937 -19.201849 -91.304092
1154500000 -2.3372784 91.374451 -32.604034 -138.03963 -32.603176 -138.02007 -19.660879 -115.71307
1164000000 -2.328356 61.906757 -32.64698 -166.59502 -32.646755 -166.57169 -20.268314 -140.89207
1173500000 -2.2789741 33.396397 -32.658318 165.13571 -32.655872 165.1501 -20.996908 -167.25655
1183000000 -2.2639132 4.8545918 -32.656654 136.72447 -32.65715 136.74333 -21.772406 164.76355
1192500000 -2.2573886 -23.786018 -32.691299 108.35835 -32.689537 108.37022 -22.459967 134.98087
1202000000 -2.2100394 -51.715691 -32.728188 80.304626 -32.72752 80.322197 -22.89547 103.94117
1211500000 -2.1686232 -78.88134 -32.715691 52.440857 -32.71471 52.458385 -23.001221 72.974579
1221000000 -2.1980939 -106.42372 -32.660778 24.314516 -32.659649 24.327061 -22.865458 43.425068
1230500000 -2.2742116 -134.83614 -32.629391 -4.0407362 -32.628723 -4.0200438 -22.668991 15.843904
1240000000 -2.3074284 -163.35799 -32.609505 -32.2943 -32.608112 -32.278118 -22.580704 -9.9868317
1249500000 -2.3143289 168.21791 -32.562004 -60.622463 -32.56123 -60.601147 -22.700829 -34.6535
1259000000 -2.3762538 139.27367 -32.528229 -89.256119 -32.527481 -89.241089 -23.088034 -58.786755
1268500000 -2.4505231 109.76188 -32.538574 -117.93857 -32.537601 -117.91893 -23.775772 -83.014732
1278000000 -2.4627254 80.275604 -32.578156 -146.54346 -32.577412 -146.51642 -24.791435 -107.98677
1287500000 -2.4355004 51.208916 -32.641247 -174.99557 -32.640923 -174.96962 -26.161951 -134.69826
1297000000 -2.3985131 22.652714 -32.720989 156.71808 -32.721272 156.74776 -27.868587 -164.70007
1306500000 -2.3539522 -5.3075018 -32.80151 128.67593 -32.801945 128.71007 -29.688412 159.51642
1316000000 -2.3065727 -32.806747 -32.862534 100.78195 -32.863598 100.81233 -30.848654 116.5387
1325500000 -2.2579803 -60.063679 -32.914536 72.997116 -32.914543 73.017494 -30.455219 71.80233
1335000000 -2.216311 -86.873116 -32.951984 45.310818 -32.953365 45.326878 -29.000441 33.51825
1344500000 -2.2103972 -113.32388 -32.949947 17.780519 -32.951569 17.788542 -27.465773 2.270334
1354000000 -2.2477684 -140.30168 -32.904301 -9.9903936 -32.907661 -9.9790297 -26.282383 -24.667126
1363500000 -2.2776523 -168.04776 -32.869549 -37.937557 -32.871365 -37.936569 -25.517956 -49.436211
1373000000 -2.2725091 164.35909 -32.840199 -65.842628 -32.843449 -65.827942 -25.158266 -73.403778
1382500000 -2.2943473 136.95929 -32.783672 -93.783585 -32.787239 -93.766647 -25.158136 -97.509552
1392000000 -2.3779399 108.65495 -32.724186 -122.05311 -32.729145 -122.02477 -25.468647 -122.58897
1401500000 -2.419337 79.574409 -32.720692 -150.44444 -32.723877 -150.41577 -25.998175 -149.38872
1411000000 -2.3688254 51.112911 -32.749763 -178.61467 -32.752434 -178.57793 -26.587904 -178.57875
1420500000 -2.3373904 23.559505 -32.766685 153.43324 -32.769524 153.47906 -27.005186 149.7343
1430000000 -2.3508518 -4.1291733 -32.766769 125.47115 -32.768299 125.50197 -27.021318 116.71664
1439500000 -2.3208776 -32.075619 -32.78804 97.532127 -32.788788 97.570229 -26.578112 84.385162
1449000000 -2.2332489 -59.061302 -32.807766 69.874588 -32.807827 69.918419 -25.851492 54.278385
1458500000 -2.1789801 -85.088837 -32.77161 42.418972 -32.772152 42.450737 -25.065817 26.724237
1468000000 -2.2165432 -111.60976 -32.68927 14.727463 -32.689262 14.75778 -24.375509 1.3119439
1477500000 -2.2675428 -139.09802 -32.611771 -13.119171 -32.61124 -13.100069 -23.852501 -22.603285
1487000000 -2.2557321 -166.58177 -32.520336 -41.014282 -32.519981 -40.9846 -23.532768 -45.518898
1496500000 -2.2623484 166.27669 -32.417542 -68.961815 -32.415733 -68.940094 -23.416046 -67.766098
1506000000 -2.3534493 138.41714 -32.288853 -97.146263 -32.287273 -97.120796 -23.505651 -89.675369
1515500000 -2.4405799 109.32687 -32.183136 -125.67616 -32.181786 -125.65587 -23.806955 -111.52391
1525000000 -2.4492316 80.135117 -32.123577 -154.21663 -32.122387 -154.19441 -24.329865 -133.56682
1534500000 -2.4531391 51.48423 -32.067764 177.32454 -32.066666 177.34518 -25.067638 -156.17343
1544000000 -2.5016932 22.538361 -32.018078 148.77089 -32.017673 148.78909 -26.004362 -179.85301
1553500000 -2.5113649 -6.7283859 -32.007809 120.19475 -32.005978 120.21823 -27.074261 154.80785
1563000000 -2.4461968 -35.18745 -32.010357 91.871284 -32.010662 91.89077 -28.141266 127.37699
1572500000 -2.4008675 -62.800789 -31.993073 63.697914 -31.992966 63.718082 -28.995039 98.142029
1582000000 -2.4146624 -90.434975 -31.958206 35.527233 -31.958055 35.539074 -29.478891 68.4683
1591500000 -2.4263895 -118.24215 -31.908442 7.3519168 -31.908661 7.3806725 -29.621798 40.148663
1601000000 -2.4341495 -146.06052 -31.839792 -20.878551 -31.839979 -20.864281 -29.611483 14.29098
1610500000 -2.4739823 -174.116 -31.764254 -49.217537 -31.764343 -49.199383 -29.635099 -9.0583086
1620000000 -2.5096152 157.47945 -31.682165 -77.659058 -31.681149 -77.640915 -29.783411 -30.302612
1629500000 -2.5530837 128.81239 -31.602995 -106.30276 -31.602797 -106.28015 -30.083933 -49.842937
1639000000 -2.6490686 99.652145 -31.55006 -135.09412 -31.549383 -135.07207 -30.502045 -67.834145
1648500000 -2.7134833 69.864273 -31.522024 -163.94606 -31.521742 -163.93454 -30.992016 -84.148972
1658000000 -2.6954002 40.221275 -31.523344 167.20319 -31.522264 167.22556 -31.491739 -98.583504
1667500000 -2.6925907 11.200342 -31.544298 138.46558 -31.543596 138.47734 -31.945179 -110.99286
1677000000 -2.7190285 -17.857874 -31.572592 109.82626 -31.572683 109.8466 -32.30632 -121.72351
1686500000 -2.6684456 -46.851944 -31.617083 81.285439 -31.616434 81.297836 -32.554066 -131.56122
1696000000 -2.5687928 -74.764938 -31.663467 52.991299 -31.66396 53.003708 -32.754818 -141.61411
1705500000 -2.5613992 -101.90658 -31.685616 24.858221 -31.685373 24.874357 -32.974602 -152.94156
1715000000 -2.6073229 -129.40341 -31.676947 -3.196604 -31.677687 -3.1837935 -33.317326 -166.62109
1724500000 -2.5706027 -157.24103 -31.634869 -31.341501 -31.634521 -31.329287 -33.851158 176.45894
1734000000 -2.5234625 175.28851 -31.587719 -59.65477 -31.58857 -59.645153 -34.559204 155.47351
1743500000 -2.5840466 147.9169 -31.542475 -87.985214 -31.544487 -87.975075 -35.276676 129.77463
1753000000 -2.6626973 119.84425 -31.476641 -116.36856 -31.477497 -116.36192 -35.717274 99.67012
1762500000 -2.6609831 91.165863 -31.398146 -145.04796 -31.400175 -145.02979 -35.650497 67.062943
1772000000 -2.6705453 62.535156 -31.360193 -173.96211 -31.361805 -173.94368 -35.090096 34.265873
1781500000 -2.7415113 34.08374 -31.356289 157.30777 -31.359026 157.32315 -34.205666 2.6890602
1791000000 -2.7572856 5.4985013 -31.330368 128.70323 -31.332026 128.72433 -33.156536 -27.245474
1800500000 -2.6927803 -23.133665 -31.292048 99.873795 -31.294403 99.898682 -32.059566 -55.248634
1810000000 -2.6550376 -51.238804 -31.298693 70.980843 -31.300753 71.017723 -31.063175 -81.262154
1819500000 -2.6581354 -78.62542 -31.318363 42.411491 -31.320421 42.44014 -30.293783 -105.41366
1829000000 -2.6279948 -105.67548 -31.280401 14.044747 -31.281372 14.075382 -29.889837 -128.26276
1838500000 -2.5712738 -132.77382 -31.187603 -14.678729 -31.187256 -14.646077 -29.949642 -150.66095
1848000000 -2.577415 -159.92729 -31.11381 -43.758636 -31.114683 -43.721821 -30.576212 -173.57196
1857500000 -2.6415789 172.97536 -31.058462 -72.833511 -31.058558 -72.805984 -31.862827 161.47073
1867000000 -2.6648426 145.75041 -30.963655 -102.01735 -30.962841 -101.99218 -33.846306 132.01576
1876500000 -2.6591761 118.15471 -30.854326 -131.85928 -30.852308 -131.82301 -36.188843 93.450943
1886000000 -2.735626 90.129959 -30.820793 -162.29976 -30.819498 -162.2718 -37.403954 43.101421
1895500000 -2.8748674 61.680405 -30.885006 167.09013 -30.882082 167.1149 -36.217812 -6.0725431
1905000000 -2.9400065 32.983406 -31.017111 136.4202 -31.01469 136.4402 -34.151005 -44.074635
1914500000 -2.9311695 4.3740082 -31.239437 105.67631 -31.236383 105.69691 -32.33297 -74.307938
1924000000 -2.972034 -24.206236 -31.578403 75.028542 -31.576118 75.036163 -30.867798 -100.3166
1933500000 -3.032295 -52.852722 -32.058567 45.008106 -32.057529 45.019161 -29.650345 -123.62779
1943000000 -2.9921191 -81.012169 -32.594917 16.050398 -32.592548 16.064966 -28.618322 -145.17314
1952500000 -2.9004629 -108.34148 -33.104721 -11.992201 -33.104145 -11.97956 -27.766567 -165.68364
1962000000 -2.8934491 -135.62578 -33.58358 -39.317871 -33.583088 -39.309296 -27.130922 173.94646
1971500000 -2.9460416 -163.37465 -33.995995 -65.96727 -33.996185 -65.959877 -26.745153 152.82722
1981000000 -2.9251561 168.94804 -34.300682 -92.010521 -34.299625 -91.989876 -26.615555 130.02484
1990500000 -2.8756132 141.57054 -34.454998 -117.96419 -34.453228 -117.94704 -26.668375 104.64989
2000000000 -2.9165096 113.82387 -34.497662 -144.3 -34.497257 -144.28851 -26.720722 76.175911
