!Keysight Technologies,N5242B,MY48420967,A.15.65.19
!Date: Monday, December 19, 2022 08:51:08
!Correction: S11(C  2-Port  ) 
!S21(C  2-Port  ) 
!S12(C  2-Port  ) 
!S22(C  2-Port  ) 
!S2P File: Measurements: S11, S21, S12, S22:
# Hz S  dB   R 50
100000000 -1.2900141 40.846523 -45.759048 140.85619 -45.747066 140.96277 -16.426378 51.692139
109500000 -1.1706938 11.463833 -45.15184 112.11366 -45.1255 112.22156 -15.932564 25.453983
119000000 -1.0393219 -16.680429 -44.539524 83.64505 -44.513222 83.738945 -15.550014 -0.11037099
128500000 -0.99000758 -44.721432 -43.917702 55.093945 -43.891148 55.172184 -15.27512 -25.271141
138000000 -0.9861272 -73.510277 -43.321587 26.243809 -43.299248 26.298449 -15.10996 -50.170597
147500000 -1.0155799 -102.43851 -42.798656 -2.705009 -42.763756 -2.6605968 -15.071925 -74.978539
157000000 -1.0758461 -131.42163 -42.295464 -31.779959 -42.267609 -31.75103 -15.180025 -99.994797
166500000 -1.1785835 -161.09422 -41.81403 -60.848106 -41.786701 -60.835785 -15.429952 -125.69472
176000000 -1.2882569 168.64577 -41.409431 -90.154648 -41.382324 -90.143692 -15.773981 -152.57858
185500000 -1.3760831 138.42712 -41.06567 -119.31248 -41.039738 -119.297 -16.098637 179.05756
195000000 -1.4332848 108.2449 -40.762081 -148.31209 -40.73539 -148.27879 -16.254227 149.52054
204500000 -1.4247867 78.433464 -40.481293 -177.0047 -40.457355 -176.99971 -16.148592 119.84581
214000000 -1.369404 49.247219 -40.194309 154.44728 -40.170448 154.45166 -15.826426 91.190338
223500000 -1.3485168 20.368176 -39.917332 125.92379 -39.893661 125.93131 -15.427282 64.087761
233000000 -1.3212117 -8.3693771 -39.640343 97.62278 -39.614674 97.644829 -15.085412 38.336605
242500000 -1.2446146 -36.871967 -39.322063 69.313408 -39.300629 69.324562 -14.877015 13.36854
252000000 -1.2271096 -65.162018 -38.994648 40.804474 -38.97327 40.807182 -14.817961 -11.389574
261500000 -1.3082215 -93.966476 -38.67234 12.084832 -38.649342 12.100991 -14.884528 -36.345638
271000000 -1.388238 -123.62617 -38.366241 -16.819571 -38.346806 -16.820419 -15.04032 -61.687443
280500000 -1.4243149 -153.46642 -38.091946 -45.846146 -38.072147 -45.858944 -15.260295 -87.453407
290000000 -1.5043159 176.79686 -37.849232 -74.9543 -37.826012 -74.969238 -15.536921 -113.68369
299500000 -1.6378896 146.59621 -37.64513 -104.06244 -37.623325 -104.06858 -15.865893 -140.52969
309000000 -1.6915878 115.99293 -37.466534 -133.07771 -37.447231 -133.08064 -16.216522 -168.23955
318500000 -1.6475868 85.982773 -37.321037 -161.95421 -37.298134 -161.95612 -16.510254 163.04755
328000000 -1.6252801 56.878887 -37.182358 169.43593 -37.159786 169.4213 -16.641396 133.6613
337500000 -1.6332989 27.877888 -37.018673 140.98343 -36.998695 140.9801 -16.555305 104.47482
347000000 -1.5927418 -1.3909019 -36.832726 112.47523 -36.817078 112.46793 -16.307859 76.409622
356500000 -1.5250162 -30.277649 -36.656357 83.914284 -36.636951 83.905762 -16.033768 49.856632
366000000 -1.5231006 -58.761513 -36.462547 55.367069 -36.443676 55.37006 -15.867656 24.552176
375500000 -1.5912465 -87.799736 -36.247669 26.655029 -36.230125 26.644548 -15.889456 -0.13829221
385000000 -1.6490135 -117.78406 -36.043198 -2.3775272 -36.026039 -2.3792644 -16.117823 -24.942471
394500000 -1.6835279 -148.0103 -35.884537 -31.579817 -35.867489 -31.586538 -16.519955 -50.470886
404000000 -1.7588651 -177.99515 -35.774471 -60.720123 -35.756214 -60.712406 -17.027782 -77.104889
413500000 -1.8522372 151.86647 -35.671505 -89.719299 -35.657551 -89.72821 -17.56455 -104.93356
423000000 -1.8877419 121.32656 -35.592625 -118.80297 -35.576836 -118.80751 -18.069693 -133.85556
432500000 -1.8744985 91.179428 -35.56538 -147.75078 -35.548862 -147.75519 -18.50613 -163.73419
442000000 -1.8452419 62.082577 -35.549473 -176.2641 -35.533028 -176.27429 -18.829723 165.48793
451500000 -1.8092771 33.466503 -35.491577 155.41689 -35.476997 155.41437 -18.964115 134.04979
461000000 -1.7703819 4.7631216 -35.416519 127.02441 -35.402054 127.02059 -18.840023 102.68635
470500000 -1.7276461 -23.789162 -35.349091 98.654388 -35.334778 98.652267 -18.487566 72.468163
480000000 -1.7005974 -51.894474 -35.264675 70.436317 -35.25219 70.438538 -18.04834 44.075867
489500000 -1.712644 -80.028389 -35.14127 42.180904 -35.127113 42.17157 -17.692741 17.402735
499000000 -1.7593441 -108.90115 -34.999733 13.591206 -34.987526 13.58939 -17.544338 -8.258913
508500000 -1.8121984 -138.28706 -34.893871 -15.190971 -34.88126 -15.178327 -17.649494 -33.879349
518000000 -1.849267 -167.52293 -34.801136 -43.934086 -34.789288 -43.917637 -17.97257 -60.433701
527500000 -1.8889451 163.26958 -34.710346 -72.861069 -34.699207 -72.85202 -18.399038 -88.66732
537000000 -1.9362282 133.79671 -34.676178 -101.9794 -34.663605 -101.9666 -18.752758 -118.71999
546500000 -1.9451551 104.46899 -34.718113 -130.87727 -34.70705 -130.86217 -18.881956 -149.8793
556000000 -1.9035859 75.813759 -34.776733 -159.22925 -34.7645 -159.21732 -18.757296 179.03146
565500000 -1.8494501 47.770916 -34.799412 172.7336 -34.787296 172.73865 -18.462269 148.79694
575000000 -1.8109778 20.000708 -34.79118 144.79315 -34.778057 144.79529 -18.094934 119.4943
584500000 -1.7811604 -7.6470895 -34.752956 116.93914 -34.743084 116.93263 -17.698093 90.977905
594000000 -1.7421185 -35.247147 -34.686951 89.081512 -34.678158 89.063766 -17.279388 63.219521
603500000 -1.7162147 -62.895271 -34.595928 61.088448 -34.590916 61.088421 -16.853657 36.394161
613000000 -1.7437974 -90.629585 -34.499043 33.013412 -34.49136 33.035271 -16.472752 10.579153
622500000 -1.8011609 -118.8433 -34.374805 4.8275328 -34.368004 4.8690686 -16.208393 -14.372255
632000000 -1.8535051 -147.88217 -34.253582 -23.692873 -34.244408 -23.652714 -16.119879 -38.894493
641500000 -1.8859277 -177.19156 -34.177097 -52.361561 -34.164009 -52.336365 -16.229437 -63.609558
651000000 -1.9298747 153.7547 -34.128616 -80.945297 -34.117916 -80.909721 -16.505718 -89.194275
660500000 -1.9841622 124.70736 -34.07962 -109.40307 -34.069622 -109.38223 -16.861876 -116.13958
670000000 -1.9947714 95.303131 -34.043495 -137.95741 -34.033932 -137.94447 -17.162302 -144.45929
679500000 -1.9527231 66.247536 -34.044708 -166.41571 -34.03278 -166.39992 -17.289148 -173.60092
689000000 -1.9069855 38.248932 -34.045376 165.52518 -34.036579 165.54199 -17.218243 157.39948
698500000 -1.8871239 10.666335 -33.992134 137.63655 -33.982826 137.64966 -17.021955 129.23526
708000000 -1.8666806 -17.463797 -33.903328 109.50127 -33.89341 109.51347 -16.800592 102.04057
717500000 -1.8366317 -45.769699 -33.836239 81.209808 -33.827511 81.229721 -16.616999 75.588211
727000000 -1.8326823 -73.461563 -33.769245 53.116379 -33.758396 53.133026 -16.492029 49.611687
736500000 -1.8869152 -101.37061 -33.643078 24.920258 -33.635628 24.936657 -16.420397 23.982708
746000000 -1.9742494 -130.64497 -33.518467 -3.7642069 -33.508755 -3.7483668 -16.407 -1.2914691
755500000 -2.0145793 -160.51906 -33.444767 -32.611782 -33.436337 -32.592434 -16.476725 -26.214281
765000000 -2.0383925 170.16344 -33.403778 -61.32917 -33.395428 -61.316479 -16.672289 -50.932751
774500000 -2.1231329 140.81555 -33.357273 -90.043037 -33.349274 -90.023804 -17.029066 -75.816414
784000000 -2.1869586 110.54856 -33.334858 -118.94836 -33.326027 -118.93182 -17.550388 -101.40199
793500000 -2.1507633 80.474304 -33.374561 -147.78186 -33.367157 -147.7552 -18.189188 -128.27104
803000000 -2.0950606 51.917046 -33.436203 -176.11621 -33.428341 -176.09756 -18.834635 -156.7822
812500000 -2.0835242 23.892456 -33.448784 155.74236 -33.441166 155.76984 -19.342363 173.27585
822000000 -2.0660563 -4.5858307 -33.444744 127.49374 -33.438179 127.51391 -19.61441 142.76523
831500000 -2.0015197 -32.786888 -33.45113 99.284821 -33.444 99.306259 -19.675613 112.72778
841000000 -1.9701431 -60.335392 -33.441322 71.189201 -33.435055 71.211266 -19.6327 83.712524
850500000 -2.0122011 -88.015228 -33.406113 43.095512 -33.399052 43.107559 -19.593079 55.682022
860000000 -2.0498352 -116.38616 -33.349255 14.829577 -33.342983 14.858575 -19.615082 28.323174
869500000 -2.0752227 -145.17384 -33.305256 -13.677544 -33.299 -13.657455 -19.716814 1.3442459
879000000 -2.1314328 -174.02798 -33.295002 -42.19524 -33.289509 -42.184193 -19.910398 -25.426125
888500000 -2.1808774 156.92088 -33.288799 -70.688316 -33.28249 -70.674065 -20.220303 -52.128235
898000000 -2.2060037 127.66674 -33.298939 -99.274857 -33.292889 -99.259308 -20.686398 -79.087952
907500000 -2.2222667 98.500412 -33.342903 -127.79774 -33.338158 -127.78093 -21.331747 -106.93967
917000000 -2.2043979 69.655907 -33.410973 -156.12465 -33.406059 -156.11148 -22.11375 -136.57877
926500000 -2.1432796 41.503281 -33.482208 175.79996 -33.476456 175.81543 -22.867842 -168.85637
936000000 -2.0797195 14.116124 -33.532295 147.95505 -33.527996 147.96288 -23.301912 156.34737
945500000 -2.0419569 -13.048019 -33.554462 120.17143 -33.550556 120.18281 -23.189747 120.91297
955000000 -2.0087621 -40.226135 -33.564037 92.401367 -33.560673 92.403175 -22.610126 87.283722
964500000 -1.9702238 -67.159653 -33.554943 64.695259 -33.553032 64.707481 -21.854473 56.448277
974000000 -1.9680066 -93.93779 -33.521404 36.982464 -33.519432 36.996918 -21.151022 27.979923
983500000 -2.0149519 -121.08292 -33.460152 9.1803608 -33.458771 9.2053814 -20.600601 1.010123
993000000 -2.0553894 -148.97202 -33.381676 -18.860703 -33.379971 -18.83025 -20.220308 -25.173271
1002500000 -2.0807633 -177.36116 -33.324982 -47.1511 -33.322903 -47.122978 -19.996435 -51.012527
1012000000 -2.119956 154.40919 -33.297695 -75.35141 -33.295235 -75.309814 -19.916073 -76.794579
1021500000 -2.1605246 126.12002 -33.251209 -103.52111 -33.246498 -103.49017 -19.976301 -102.79115
1031000000 -2.1929219 97.170273 -33.216381 -131.95256 -33.213787 -131.91789 -20.16498 -129.36984
1040500000 -2.1786568 68.171104 -33.236774 -160.34068 -33.232994 -160.3102 -20.438845 -156.96669
1050000000 -2.1203876 40.197056 -33.281029 171.65222 -33.2771 171.6817 -20.699883 174.0977
1059500000 -2.0789838 13.095683 -33.281132 143.92967 -33.277092 143.95892 -20.811682 143.98869
1069000000 -2.0574493 -14.347544 -33.237167 116.04173 -33.233131 116.06911 -20.666956 113.57242
1078500000 -2.0320554 -42.139206 -33.220322 88.003822 -33.216591 88.031731 -20.278381 84.020943
1088000000 -2.0001874 -69.077637 -33.210415 60.324841 -33.206627 60.340679 -19.768738 56.093174
1097500000 -1.998611 -95.612724 -33.117764 32.742252 -33.113579 32.775181 -19.279602 29.857246
1107000000 -2.0602946 -123.27757 -32.98465 4.6474795 -32.980595 4.6732483 -18.90938 4.9302578
1116500000 -2.1243613 -151.9994 -32.891815 -23.751711 -32.888538 -23.723019 -18.701841 -19.194035
1126000000 -2.1540229 179.43616 -32.827862 -52.081223 -32.824268 -52.05386 -18.668373 -42.953274
1135500000 -2.1997097 151.02419 -32.735073 -80.39476 -32.732159 -80.36483 -18.80254 -66.684074
1145000000 -2.2735968 121.6095 -32.639305 -109.13834 -32.634392 -109.1071 -19.096237 -90.618523
1154500000 -2.3329201 91.378334 -32.623966 -138.11305 -32.621315 -138.08766 -19.545275 -115.01245
1164000000 -2.3242698 61.913261 -32.667145 -166.6759 -32.664398 -166.63544 -20.141273 -140.16051
1173500000 -2.2748208 33.396851 -32.678692 165.0527 -32.674377 165.07553 -20.85771 -166.46826
1183000000 -2.2597752 4.8590007 -32.677441 136.64417 -32.675903 136.67429 -21.621328 165.64261
1192500000 -2.2529206 -23.776443 -32.711189 108.28186 -32.707348 108.30444 -22.301765 135.98785
1202000000 -2.2059956 -51.712509 -32.748653 80.221252 -32.746025 80.253166 -22.739182 105.08826
1211500000 -2.1646731 -78.87468 -32.73745 52.358128 -32.733189 52.388744 -22.855556 74.220512
1221000000 -2.1934538 -106.41424 -32.681595 24.236736 -32.678768 24.263321 -22.731388 44.707649
1230500000 -2.2698696 -134.82977 -32.651199 -4.1220164 -32.647167 -4.0892258 -22.540882 17.109821
1240000000 -2.3030534 -163.34824 -32.631653 -32.373867 -32.628086 -32.344246 -22.449417 -8.7514896
1249500000 -2.3095043 168.22968 -32.583881 -60.703983 -32.581161 -60.666233 -22.558708 -33.436558
1259000000 -2.3716714 139.28279 -32.550552 -89.338333 -32.54747 -89.308525 -22.9275 -57.554813
1268500000 -2.4457667 109.77148 -32.560936 -118.02431 -32.558681 -117.98592 -23.590681 -81.720627
1278000000 -2.4577768 80.288124 -32.600395 -146.62321 -32.597973 -146.57925 -24.575806 -106.5614
1287500000 -2.4308102 51.220646 -32.663647 -175.07449 -32.661102 -175.02995 -25.909605 -133.03416
1297000000 -2.3939645 22.662607 -32.744156 156.63608 -32.741711 156.68675 -27.577929 -162.59874
1306500000 -2.3491559 -5.2962737 -32.824066 128.59222 -32.822113 128.64758 -29.386446 162.40376
1316000000 -2.3021138 -32.796471 -32.885971 100.69805 -32.884338 100.75061 -30.639648 120.35795
1325500000 -2.2538271 -60.054546 -32.937523 72.918671 -32.936539 72.956177 -30.427979 75.787964
1335000000 -2.2117035 -86.864983 -32.974979 45.232582 -32.973618 45.256989 -29.083652 36.919163
1344500000 -2.2060049 -113.3171 -32.973663 17.699192 -32.97327 17.720577 -27.57349 5.0955625
1354000000 -2.2434435 -140.29601 -32.927818 -10.070241 -32.928669 -10.047527 -26.377974 -22.216831
1363500000 -2.2729301 -168.04445 -32.89344 -38.021248 -32.893688 -38.003895 -25.589767 -47.186504
1373000000 -2.267853 164.3633 -32.864319 -65.926254 -32.865498 -65.901611 -25.204201 -71.213402
1382500000 -2.2897742 136.96164 -32.808052 -93.869827 -32.809982 -93.834732 -25.182749 -95.271637
1392000000 -2.3733177 108.6515 -32.750206 -122.1328 -32.753216 -122.09675 -25.480179 -120.21397
1401500000 -2.4144533 79.574669 -32.746578 -150.52173 -32.747143 -150.4778 -26.011152 -146.82396
1411000000 -2.3639178 51.112862 -32.774868 -178.6949 -32.775478 -178.64525 -26.62011 -175.8277
1420500000 -2.3331256 23.556461 -32.793068 153.3531 -32.793602 153.41132 -27.073689 152.58339
1430000000 -2.3462234 -4.1311235 -32.792618 125.39229 -32.792362 125.43973 -27.128616 119.50848
1439500000 -2.3162475 -32.077656 -32.813778 97.451553 -32.813091 97.502831 -26.710165 87.001625
1449000000 -2.2290568 -59.062981 -32.833485 69.801575 -32.83139 69.853226 -25.990009 56.697144
1458500000 -2.1746044 -85.091896 -32.797569 42.336754 -32.795944 42.385757 -25.198288 28.975801
1468000000 -2.2122779 -111.61319 -32.716141 14.639456 -32.713871 14.685994 -24.494209 3.434587
1477500000 -2.2629433 -139.09877 -32.64064 -13.210229 -32.637962 -13.170088 -23.950575 -20.569803
1487000000 -2.2508237 -166.58472 -32.54874 -41.092201 -32.546452 -41.049042 -23.604244 -43.532162
1496500000 -2.2578044 166.27657 -32.447227 -69.043777 -32.443111 -69.008926 -23.456341 -65.774834
1506000000 -2.3484018 138.41753 -32.319321 -97.226311 -32.315804 -97.187958 -23.512802 -87.621803
1515500000 -2.4351761 109.3257 -32.215141 -125.7518 -32.211292 -125.7129 -23.780802 -109.34898
1525000000 -2.4438055 80.138969 -32.15646 -154.29002 -32.152996 -154.25462 -24.270535 -131.2375
1534500000 -2.4476018 51.489288 -32.10067 177.26326 -32.097759 177.29349 -24.976362 -153.65254
1544000000 -2.4960315 22.543768 -32.053226 148.72 -32.049671 148.75034 -25.880533 -177.09747
1553500000 -2.505513 -6.7213607 -32.04224 120.15761 -32.038139 120.18665 -26.914675 157.86555
1563000000 -2.4407797 -35.177952 -32.044193 91.847664 -32.042381 91.879066 -27.948439 130.81749
1572500000 -2.395366 -62.790592 -32.02496 63.687149 -32.022541 63.716541 -28.783087 102.01847
1582000000 -2.4091055 -90.427086 -31.988878 35.517853 -31.986458 35.543186 -29.268002 72.714615
1591500000 -2.4210095 -118.22954 -31.938438 7.353128 -31.935549 7.388104 -29.418663 44.563305
1601000000 -2.4281118 -146.04808 -31.866871 -20.88826 -31.86515 -20.859631 -29.399757 18.680109
1610500000 -2.4684057 -174.10718 -31.791124 -49.23328 -31.789366 -49.201412 -29.385172 -4.8140864
1620000000 -2.5039756 157.4946 -31.709492 -77.671112 -31.706362 -77.643898 -29.460188 -26.255835
1629500000 -2.5465322 128.82584 -31.629246 -106.31828 -31.627104 -106.2802 -29.656988 -46.049114
1639000000 -2.6431324 99.663002 -31.576353 -135.11176 -31.573143 -135.07767 -29.951868 -64.387596
1648500000 -2.7073176 69.880455 -31.547518 -163.96404 -31.544664 -163.94205 -30.309883 -81.227905
1658000000 -2.6888163 40.233749 -31.548077 167.17656 -31.544004 167.21227 -30.687637 -96.506378
1667500000 -2.6864848 11.212607 -31.569315 138.43857 -31.566271 138.45941 -31.051285 -110.19028
1677000000 -2.712899 -17.843641 -31.597277 109.80141 -31.595436 109.83011 -31.388184 -122.58846
1686500000 -2.6624837 -46.841648 -31.641039 81.258896 -31.638216 81.281693 -31.696753 -134.29361
1696000000 -2.5628338 -74.756569 -31.687551 52.958038 -31.685925 52.985863 -32.03426 -146.09946
1705500000 -2.5554283 -101.89833 -31.709579 24.824944 -31.706871 24.854118 -32.437107 -158.88939
1715000000 -2.6015141 -129.39633 -31.700247 -3.22809 -31.698524 -3.2083783 -32.969177 -173.65471
1724500000 -2.5646555 -157.23804 -31.658255 -31.372948 -31.655516 -31.354134 -33.666302 168.58636
1734000000 -2.5172493 175.29213 -31.610472 -59.687584 -31.608519 -59.669174 -34.487709 146.89511
1743500000 -2.5777421 147.92078 -31.56451 -88.021362 -31.563976 -88.00528 -35.24794 120.56551
1753000000 -2.6565397 119.84359 -31.497843 -116.41277 -31.496914 -116.39663 -35.644711 90.049736
1762500000 -2.6543231 91.165977 -31.41909 -145.09491 -31.418695 -145.06969 -35.473003 57.500404
1772000000 -2.6636672 62.535744 -31.380444 -174.01405 -31.380167 -173.99185 -34.805237 25.307476
1781500000 -2.735122 34.083096 -31.375807 157.2453 -31.37631 157.26892 -33.853275 -5.304069
1791000000 -2.7503886 5.497788 -31.350191 128.63184 -31.3493 128.65698 -32.795052 -34.16951
1800500000 -2.6858413 -23.133297 -31.312237 99.792564 -31.312311 99.822227 -31.743689 -61.231876
1810000000 -2.6485522 -51.23616 -31.319344 70.893478 -31.318743 70.933273 -30.8204 -86.603859
1819500000 -2.6512778 -78.626778 -31.337967 42.310852 -31.338238 42.345558 -30.131088 -110.42606
1829000000 -2.6212988 -105.67448 -31.301634 13.932713 -31.300104 13.972728 -29.798697 -133.19949
1838500000 -2.564549 -132.7672 -31.209351 -14.794943 -31.207146 -14.756595 -29.914921 -155.76204
1848000000 -2.5704601 -159.92603 -31.135101 -43.882538 -31.133566 -43.83783 -30.580671 -179.10017
1857500000 -2.634584 172.97829 -31.080072 -72.965073 -31.077061 -72.928879 -31.875408 155.08366
1867000000 -2.6574605 145.7588 -30.984735 -102.16365 -30.981981 -102.12764 -33.790359 124.05632
1876500000 -2.6518188 118.16026 -30.875048 -132.00987 -30.869949 -131.96674 -35.79562 83.453133
1886000000 -2.7277799 90.135895 -30.838444 -162.45857 -30.834314 -162.42607 -36.334721 33.646687
1895500000 -2.8666058 61.68932 -30.897732 166.90317 -30.892321 166.93292 -34.875439 -11.985118
1905000000 -2.9324667 32.992237 -31.025137 136.18077 -31.02006 136.20648 -32.928539 -47.775703
1914500000 -2.9232888 4.382617 -31.243237 105.34372 -31.237654 105.37309 -31.287876 -77.245148
1924000000 -2.9641511 -24.193361 -31.583021 74.568726 -31.578264 74.584908 -29.99309 -103.19029
1933500000 -3.0257506 -52.836266 -32.072086 44.392597 -32.068325 44.408619 -28.941442 -126.73133
1943000000 -2.9862669 -80.997353 -32.628746 15.27517 -32.623886 15.292544 -28.065708 -148.55635
1952500000 -2.8942342 -108.31936 -33.172215 -12.896841 -33.169365 -12.876324 -27.351225 -169.25984
1962000000 -2.8876626 -135.59395 -33.693851 -40.258705 -33.690701 -40.251812 -26.825737 170.31136
1971500000 -2.9406765 -163.34033 -34.153954 -66.838692 -34.150482 -66.821411 -26.518936 149.23901
1981000000 -2.9181166 168.98589 -34.496666 -92.690193 -34.49324 -92.671127 -26.438751 126.53358
1990500000 -2.8675461 141.61391 -34.680305 -118.39217 -34.676964 -118.37881 -26.514442 101.25873
2000000000 -2.9085214 113.86996 -34.736938 -144.44843 -34.734058 -144.42448 -26.564049 72.905739
