!Keysight Technologies,N5242B,MY48420967,A.15.65.19
!Date: Monday, December 19, 2022 10:47:17
!Correction: S11(C  2-Port  ) 
!S21(C  2-Port  ) 
!S12(C  2-Port  ) 
!S22(C  2-Port  ) 
!S2P File: Measurements: S11, S21, S12, S22:
# Hz S  dB   R 50
100000000 -1.3373305 40.885159 -45.658096 140.83459 -45.658962 140.85486 -18.382093 49.989422
109500000 -1.2167367 11.471977 -45.064804 112.03191 -45.053009 112.11147 -17.767706 24.123812
119000000 -1.0874978 -16.683052 -44.470112 83.567207 -44.455013 83.631096 -17.298435 -0.99265915
128500000 -1.0379163 -44.740242 -43.856777 55.021034 -43.843323 55.075142 -16.960915 -25.671589
138000000 -1.0339479 -73.544907 -43.272148 26.188501 -43.259441 26.226646 -16.753839 -50.059097
147500000 -1.0657743 -102.48164 -42.753502 -2.760689 -42.734024 -2.7097108 -16.696089 -74.326035
157000000 -1.1253445 -131.47289 -42.260624 -31.754162 -42.243965 -31.722149 -16.8109 -98.808754
166500000 -1.2282243 -161.15756 -41.780853 -60.823013 -41.765427 -60.797161 -17.098021 -124.06551
176000000 -1.3367916 168.5845 -41.380043 -90.08963 -41.361492 -90.061584 -17.503881 -150.7213
185500000 -1.4238783 138.35652 -41.034328 -119.19704 -41.018158 -119.19269 -17.892162 -179.20779
195000000 -1.4778864 108.17074 -40.728828 -148.16905 -40.713413 -148.14552 -18.072905 150.79529
204500000 -1.4663862 78.364548 -40.445896 -176.86247 -40.430397 -176.84106 -17.92556 120.58482
214000000 -1.4095205 49.186535 -40.157383 154.60205 -40.141579 154.60808 -17.510958 91.636856
223500000 -1.3846046 20.306595 -39.87796 126.07397 -39.863686 126.08324 -17.009945 64.580925
233000000 -1.3559411 -8.4188623 -39.600159 97.771606 -39.584969 97.783585 -16.584715 39.124981
242500000 -1.2776437 -36.90514 -39.282455 69.462051 -39.268177 69.474892 -16.319347 14.570503
252000000 -1.2589346 -65.194405 -38.956482 40.94838 -38.940285 40.943485 -16.22648 -9.7436342
261500000 -1.3395129 -93.986351 -38.63541 12.226954 -38.619053 12.244967 -16.27636 -34.263855
271000000 -1.4193374 -123.63317 -38.329994 -16.666431 -38.317162 -16.65691 -16.42918 -59.193684
280500000 -1.4563334 -153.47806 -38.056164 -45.690453 -38.040695 -45.704098 -16.657562 -84.574348
290000000 -1.53592 176.7908 -37.811478 -74.79493 -37.7981 -74.79808 -16.955599 -110.45267
299500000 -1.6704447 146.59294 -37.607563 -103.89355 -37.592091 -103.89323 -17.321758 -137.0186
309000000 -1.7263516 115.97735 -37.430614 -132.88931 -37.417065 -132.90588 -17.72364 -164.59573
318500000 -1.682314 85.956749 -37.282711 -161.75482 -37.266426 -161.76874 -18.067884 166.5891
328000000 -1.6611476 56.849617 -37.140976 169.62032 -37.127846 169.60474 -18.223639 136.86658
337500000 -1.6717466 27.839972 -36.977417 141.16162 -36.964699 141.15086 -18.115503 107.28496
347000000 -1.6327534 -1.4528738 -36.792736 112.62951 -36.783031 112.62907 -17.808769 78.992157
356500000 -1.5667897 -30.343061 -36.618752 84.071922 -36.605164 84.054214 -17.465092 52.486267
366000000 -1.5669676 -58.83176 -36.426785 55.520794 -36.415062 55.512596 -17.243311 27.46298
375500000 -1.6386284 -87.888702 -36.216095 26.80183 -36.205761 26.792645 -17.235344 3.211194
385000000 -1.6979766 -117.87905 -36.014404 -2.2085211 -36.005615 -2.2192612 -17.464777 -21.075512
394500000 -1.7339265 -148.11707 -35.858128 -31.404612 -35.849224 -31.409281 -17.901041 -46.081078
404000000 -1.8116198 -178.11082 -35.752678 -60.507431 -35.741756 -60.506748 -18.47579 -72.266449
413500000 -1.9039897 151.74762 -35.650887 -89.484627 -35.642914 -89.487968 -19.10745 -99.802437
423000000 -1.9398865 121.20037 -35.572796 -118.52758 -35.561714 -118.54512 -19.727844 -128.65752
432500000 -1.9265414 91.049545 -35.544571 -147.44629 -35.534763 -147.45253 -20.287268 -158.75571
442000000 -1.8943816 61.95158 -35.525547 -175.92276 -35.516472 -175.92674 -20.722759 169.89606
451500000 -1.8576384 33.34417 -35.46487 155.78612 -35.456966 155.78185 -20.923515 137.54228
461000000 -1.8188857 4.6456676 -35.386108 127.43297 -35.378067 127.42019 -20.787037 105.14387
470500000 -1.7751927 -23.907848 -35.314564 99.093369 -35.305431 99.08757 -20.349705 74.154488
480000000 -1.7469599 -51.994972 -35.219913 70.915909 -35.214775 70.914413 -19.799088 45.458179
489500000 -1.759938 -80.114067 -35.079971 42.687828 -35.072781 42.676746 -19.350578 18.88422
499000000 -1.8078563 -108.97351 -34.9109 14.073879 -34.903957 14.069991 -19.148619 -6.4422131
508500000 -1.8574188 -138.33388 -34.761711 -14.947613 -34.755112 -14.943363 -19.245165 -31.661581
518000000 -1.8894558 -167.55963 -34.682495 -44.359028 -34.675591 -44.352154 -19.606205 -57.961784
527500000 -1.9276012 163.20195 -34.711102 -73.481033 -34.70433 -73.485458 -20.116026 -86.248955
537000000 -1.976527 133.70569 -34.752365 -102.16287 -34.746098 -102.15862 -20.556541 -116.75427
546500000 -1.9894774 104.38805 -34.794106 -130.53206 -34.787651 -130.53024 -20.71913 -148.6962
556000000 -1.9499441 75.749619 -34.816929 -158.62569 -34.811684 -158.62524 -20.553751 179.39758
565500000 -1.8955946 47.71648 -34.810478 173.40846 -34.803688 173.39687 -20.169529 148.56572
575000000 -1.8574549 19.963871 -34.783039 145.46854 -34.775356 145.46838 -19.698732 118.9241
584500000 -1.8288544 -7.6732583 -34.731369 117.59452 -34.726879 117.58588 -19.198055 90.257248
594000000 -1.7907441 -35.273842 -34.655117 89.71608 -34.651638 89.696571 -18.680283 62.49371
603500000 -1.7654924 -62.912048 -34.558872 61.704239 -34.557796 61.696907 -18.164675 35.800804
613000000 -1.7951603 -90.640091 -34.456757 33.602207 -34.454994 33.618237 -17.709328 10.24026
622500000 -1.8554378 -118.8554 -34.330502 5.4014039 -34.32885 5.4287519 -17.391851 -14.368963
632000000 -1.9085419 -147.89835 -34.20715 -23.13541 -34.204292 -23.10601 -17.275385 -38.507793
641500000 -1.9436224 -177.21411 -34.129177 -51.817642 -34.121902 -51.793476 -17.382788 -62.860252
651000000 -1.9895314 153.72559 -34.080624 -80.390015 -34.074993 -80.371269 -17.68133 -88.178177
660500000 -2.0443256 124.66135 -34.029266 -108.85787 -34.024437 -108.85019 -18.075415 -115.02975
670000000 -2.0565486 95.248085 -33.992577 -137.41429 -33.987194 -137.40308 -18.410265 -143.48279
679500000 -2.0153809 66.176292 -33.991631 -165.86931 -33.985466 -165.86569 -18.546251 -172.92523
689000000 -1.969301 38.159977 -33.990166 166.06245 -33.986778 166.07579 -18.451031 157.77109
698500000 -1.9497609 10.570107 -33.936703 138.16466 -33.932087 138.17175 -18.210169 129.43121
708000000 -1.9317935 -17.574177 -33.846954 110.01548 -33.842438 110.02103 -17.941296 102.20447
717500000 -1.9028558 -45.898594 -33.779961 81.715347 -33.776379 81.728745 -17.717478 75.817513
727000000 -1.8988898 -73.600769 -33.712345 53.613907 -33.707378 53.615406 -17.561035 49.957932
736500000 -1.9562732 -101.51274 -33.588203 25.411169 -33.584511 25.414047 -17.465672 24.478886
746000000 -2.0464349 -130.8047 -33.463528 -3.2819901 -33.458927 -3.2727156 -17.435421 -0.61017638
755500000 -2.0872924 -160.69511 -33.392403 -32.128704 -33.388763 -32.115292 -17.497702 -25.300798
765000000 -2.1112223 169.9964 -33.35297 -60.841892 -33.349792 -60.834145 -17.699684 -49.740589
774500000 -2.1969557 140.64658 -33.307777 -89.550049 -33.305405 -89.538666 -18.083029 -74.330048
784000000 -2.2609954 110.37508 -33.28854 -118.4372 -33.284962 -118.42969 -18.655804 -99.656235
793500000 -2.2220857 80.316887 -33.328781 -147.2459 -33.326286 -147.23878 -19.371471 -126.39705
803000000 -2.1646652 51.776138 -33.390762 -175.56931 -33.387806 -175.55884 -20.108582 -155.02682
812500000 -2.1524065 23.77191 -33.403996 156.3112 -33.400921 156.32098 -20.695808 174.60986
822000000 -2.133431 -4.6824327 -33.399529 128.0759 -33.397285 128.08716 -21.007725 143.49091
831500000 -2.0690377 -32.857109 -33.40477 99.887299 -33.402416 99.894501 -21.064508 112.88968
841000000 -2.0371118 -60.373806 -33.394405 71.807205 -33.392445 71.818901 -20.994865 83.487885
850500000 -2.0789657 -88.022423 -33.35828 43.722252 -33.355759 43.726124 -20.929167 55.240883
860000000 -2.118624 -116.3576 -33.300667 15.48065 -33.299454 15.496687 -20.935884 27.775171
869500000 -2.1451571 -145.11725 -33.255718 -13.011076 -33.25396 -13.004915 -21.036064 0.74670678
879000000 -2.2013202 -173.94475 -33.243118 -41.514221 -33.242764 -41.513359 -21.244465 -26.037254
888500000 -2.2516272 157.03812 -33.234859 -69.990417 -33.233654 -69.984535 -21.590954 -52.75069
898000000 -2.2781422 127.80255 -33.24387 -98.558128 -33.242172 -98.549568 -22.123148 -79.777451
907500000 -2.294235 98.648567 -33.285923 -127.06521 -33.284908 -127.05514 -22.870745 -107.89125
917000000 -2.2751217 69.815666 -33.35083 -155.37546 -33.349045 -155.37952 -23.783031 -138.23761
926500000 -2.2143691 41.667957 -33.41835 176.55476 -33.417553 176.5636 -24.641495 -171.93687
936000000 -2.1502745 14.281253 -33.465149 148.72194 -33.46526 148.72139 -25.046926 151.29381
945500000 -2.1117847 -12.884874 -33.483208 120.94102 -33.484608 120.94566 -24.73344 114.27547
955000000 -2.0799534 -40.061726 -33.490192 93.176727 -33.49157 93.171288 -23.896656 80.108711
964500000 -2.0418692 -67.005157 -33.477089 65.467972 -33.479683 65.471741 -22.940248 49.477489
974000000 -2.0405483 -93.794388 -33.44025 37.752625 -33.442383 37.757969 -22.111485 21.461845
983500000 -2.0896108 -120.9426 -33.376038 9.9485817 -33.379494 9.9624681 -21.491777 -5.0643415
993000000 -2.1327147 -148.8528 -33.295097 -18.104971 -33.297863 -18.081739 -21.07696 -30.890255
1002500000 -2.1596141 -177.26772 -33.236706 -46.401218 -33.238789 -46.378479 -20.841707 -56.474407
1012000000 -2.1993039 154.48329 -33.206902 -74.608665 -33.208397 -74.583672 -20.765518 -82.113213
1021500000 -2.2423146 126.16892 -33.159519 -102.79189 -33.158669 -102.77358 -20.841619 -108.08751
1031000000 -2.2757387 97.187981 -33.124069 -131.23071 -33.124516 -131.20724 -21.051254 -134.79585
1040500000 -2.260376 68.155571 -33.143692 -159.62724 -33.144028 -159.60646 -21.338684 -162.70303
1050000000 -2.2017465 40.161827 -33.187428 172.35809 -33.187275 172.37732 -21.587326 167.90971
1059500000 -2.1591494 13.040907 -33.186218 144.63075 -33.186523 144.64339 -21.646444 137.3463
1069000000 -2.1379445 -14.42536 -33.142654 116.73009 -33.142654 116.74333 -21.415907 106.6853
1078500000 -2.1132309 -42.223358 -33.126408 88.695274 -33.126759 88.706749 -20.93981 77.198792
1088000000 -2.0804958 -69.172127 -33.11544 61.008991 -33.115925 61.021538 -20.369547 49.556934
1097500000 -2.0800509 -95.714432 -33.023705 33.423698 -33.023918 33.438984 -19.853806 23.680038
1107000000 -2.1445553 -123.37451 -32.891087 5.3301415 -32.891342 5.3358583 -19.486721 -0.91617286
1116500000 -2.2109799 -152.10045 -32.79916 -23.067595 -32.800484 -23.05307 -19.305231 -24.78817
1126000000 -2.2410111 179.33536 -32.735569 -51.39196 -32.735649 -51.385258 -19.31464 -48.389423
1135500000 -2.287411 150.93909 -32.644188 -79.704201 -32.64547 -79.687958 -19.505543 -72.063858
1145000000 -2.3640027 121.54293 -32.549946 -108.43474 -32.549835 -108.41982 -19.867704 -96.045341
1154500000 -2.4232202 91.320404 -32.533939 -137.39561 -32.535362 -137.38571 -20.396776 -120.62234
1164000000 -2.4122298 61.872341 -32.577648 -165.94115 -32.579399 -165.92569 -21.082113 -146.12769
1173500000 -2.3614614 33.392776 -32.588085 165.80391 -32.588715 165.81108 -21.890451 -173.03828
1183000000 -2.3456697 4.8802457 -32.586872 137.40462 -32.588375 137.42363 -22.728485 158.15875
1192500000 -2.3381922 -23.731026 -32.62006 109.0623 -32.620739 109.07153 -23.430185 127.33418
1202000000 -2.2892532 -51.625774 -32.655743 81.024902 -32.657074 81.039154 -23.811201 95.299545
1211500000 -2.247324 -78.754616 -32.641163 53.178211 -32.642311 53.185898 -23.816715 63.727627
1221000000 -2.2782221 -106.25738 -32.584404 25.069866 -32.585018 25.078028 -23.594009 34.026199
1230500000 -2.3556492 -134.63196 -32.550594 -3.2648616 -32.551624 -3.2556789 -23.360491 6.5306077
1240000000 -2.3898363 -163.12442 -32.527645 -31.509623 -32.528076 -31.500389 -23.291172 -19.209118
1249500000 -2.398041 168.48244 -32.477234 -59.827328 -32.477856 -59.816292 -23.47941 -43.938412
1259000000 -2.4616499 139.56984 -32.439281 -88.451874 -32.440529 -88.444916 -23.977707 -68.393768
1268500000 -2.537452 110.0771 -32.445332 -117.12769 -32.446899 -117.118 -24.817421 -93.338867
1278000000 -2.5503697 80.595871 -32.482277 -145.72925 -32.48336 -145.71562 -26.022951 -119.64771
1287500000 -2.5228002 51.529057 -32.541393 -174.18698 -32.543583 -174.16563 -27.595335 -148.78267
1297000000 -2.4850807 22.968187 -32.617924 157.53058 -32.619476 157.54723 -29.39662 176.96063
1306500000 -2.4398239 -5.0040693 -32.694965 129.48433 -32.696724 129.50206 -30.822021 135.15161
1316000000 -2.3916755 -32.515751 -32.755482 101.5905 -32.757751 101.60441 -30.800671 89.057068
1325500000 -2.3426356 -59.788109 -32.800331 73.787209 -32.802708 73.788452 -29.373884 47.950253
1335000000 -2.3008389 -86.61364 -32.837337 46.096554 -32.840019 46.099846 -27.648891 14.683363
1344500000 -2.2955565 -113.08056 -32.830078 18.53812 -32.832741 18.541157 -26.216452 -13.369479
1354000000 -2.334893 -140.07541 -32.785145 -9.2356491 -32.789101 -9.2319031 -25.211185 -38.676815
1363500000 -2.3669298 -167.84605 -32.74715 -37.187267 -32.750526 -37.186375 -24.617804 -62.792019
1373000000 -2.3628955 164.53076 -32.714493 -65.104813 -32.71928 -65.103081 -24.397486 -86.739693
1382500000 -2.3865736 137.1069 -32.655685 -93.058853 -32.660473 -93.05056 -24.494011 -111.30124
1392000000 -2.4727881 108.77596 -32.593216 -121.36366 -32.598911 -121.34708 -24.842886 -137.21841
1401500000 -2.5151763 79.654747 -32.592972 -149.77057 -32.597763 -149.75577 -25.327429 -165.04823
1411000000 -2.4636073 51.156849 -32.621552 -177.94704 -32.62677 -177.92303 -25.764769 164.86731
1420500000 -2.4309661 23.577644 -32.637943 154.10257 -32.642345 154.13683 -25.944214 132.96309
1430000000 -2.4446065 -4.1366506 -32.636894 126.11627 -32.640015 126.13301 -25.737869 100.70975
1439500000 -2.413419 -32.108215 -32.65889 98.171677 -32.661175 98.202057 -25.191267 69.756355
1449000000 -2.3236434 -59.110085 -32.679863 70.512016 -32.682064 70.55114 -24.490566 40.965172
1458500000 -2.2689598 -85.141747 -32.645573 43.071964 -32.64706 43.093399 -23.809776 14.310484
1468000000 -2.3079779 -111.66442 -32.560501 15.398496 -32.561794 15.425062 -23.257826 -10.66557
1477500000 -2.3606937 -139.15584 -32.474178 -12.452796 -32.475651 -12.434969 -22.884237 -34.522995
1487000000 -2.3495119 -166.63405 -32.385822 -40.407455 -32.386757 -40.383072 -22.719557 -57.684425
1496500000 -2.3570976 166.23769 -32.280094 -68.317848 -32.280708 -68.304108 -22.758881 -80.442177
1506000000 -2.4510705 138.39886 -32.14566 -96.546371 -32.146976 -96.530594 -23.009693 -103.16155
1515500000 -2.5401926 109.32803 -32.046257 -125.11407 -32.046463 -125.10126 -23.484024 -126.08383
1525000000 -2.5490654 80.158226 -31.984316 -153.63121 -31.985392 -153.6167 -24.175919 -149.51509
1534500000 -2.5527225 51.541298 -31.928179 177.87372 -31.928333 177.88365 -25.080561 -173.97623
1544000000 -2.6016183 22.631973 -31.880695 149.28395 -31.881413 149.29366 -26.159643 159.92764
1553500000 -2.6107068 -6.6032786 -31.875811 120.70096 -31.876472 120.71157 -27.301237 131.61073
1563000000 -2.5435526 -35.029533 -31.884323 92.392075 -31.88714 92.406052 -28.299932 100.93233
1572500000 -2.4972472 -62.601246 -31.868298 64.257034 -31.870733 64.267715 -28.931711 68.973373
1582000000 -2.5113008 -90.192711 -31.833725 36.104584 -31.835743 36.11359 -29.167622 37.780807
1591500000 -2.5236998 -117.96465 -31.783297 7.9598889 -31.785109 7.9778924 -29.198635 8.8961487
1601000000 -2.5329838 -145.74518 -31.71122 -20.252993 -31.71397 -20.247343 -29.288492 -17.431099
1610500000 -2.5744994 -173.76437 -31.631968 -48.578499 -31.635157 -48.56477 -29.614859 -41.749989
1620000000 -2.6123817 157.85629 -31.547001 -77.013245 -31.548489 -77.004547 -30.266016 -64.668381
1629500000 -2.6586366 129.21472 -31.464869 -105.64468 -31.467558 -105.63308 -31.3025 -86.572372
1639000000 -2.7571731 100.07061 -31.407139 -134.43515 -31.409241 -134.42316 -32.789253 -107.3858
1648500000 -2.8242085 70.276024 -31.374048 -163.29581 -31.376484 -163.29337 -34.893429 -126.32022
1658000000 -2.8070989 40.616539 -31.371378 167.83803 -31.372702 167.85472 -37.978172 -140.992
1667500000 -2.8041093 11.575851 -31.388842 139.08307 -31.390507 139.09271 -42.725796 -142.04555
1677000000 -2.8308668 -17.513859 -31.413853 110.42329 -31.416536 110.43347 -45.618946 -100.596
1686500000 -2.7792494 -46.547821 -31.456366 81.862373 -31.45841 81.868645 -40.406891 -77.647957
1696000000 -2.6774483 -74.498032 -31.499201 53.538696 -31.501963 53.546162 -36.354195 -84.127197
1705500000 -2.6691175 -101.67132 -31.520279 25.374119 -31.521782 25.383259 -33.856228 -98.273682
1715000000 -2.7157362 -129.2047 -31.510523 -2.7131929 -31.513777 -2.7084332 -32.381565 -115.5015
1724500000 -2.6797929 -157.08081 -31.469341 -30.893339 -31.470488 -30.887573 -31.63946 -134.95061
1734000000 -2.6327758 175.41632 -31.422359 -59.24353 -31.424419 -59.23737 -31.442369 -156.64392
1743500000 -2.6945136 148.01651 -31.379208 -87.61132 -31.382998 -87.601723 -31.621656 179.05173
1753000000 -2.7752378 119.91356 -31.316147 -116.02265 -31.318768 -116.02546 -31.994911 151.91542
1762500000 -2.7751231 91.204079 -31.240246 -144.73752 -31.244816 -144.72699 -32.371544 122.1834
1772000000 -2.7849624 62.55024 -31.205961 -173.68184 -31.209583 -173.66942 -32.613041 90.474495
1781500000 -2.8556781 34.079727 -31.205538 157.54921 -31.210518 157.56422 -32.629559 57.504635
1791000000 -2.8715854 5.475493 -31.183762 128.90916 -31.187647 128.92502 -32.362133 24.031452
1800500000 -2.8060732 -23.167572 -31.151991 100.02724 -31.155817 100.04234 -31.769518 -8.803545
1810000000 -2.7663262 -51.270943 -31.167637 71.069473 -31.171341 71.09864 -30.946878 -39.569958
1819500000 -2.7680476 -78.646957 -31.200954 42.435234 -31.205048 42.455196 -30.074999 -67.445969
1829000000 -2.7373719 -105.68704 -31.178886 14.003224 -31.182528 14.033023 -29.37908 -92.443428
1838500000 -2.6812541 -132.76807 -31.111473 -14.784322 -31.113354 -14.757174 -29.020855 -115.24369
1848000000 -2.6887472 -159.89024 -31.070108 -43.942635 -31.072971 -43.909046 -29.086927 -136.56508
1857500000 -2.7546275 173.04337 -31.067326 -73.012657 -31.069109 -72.991364 -29.630093 -157.22763
1867000000 -2.7807159 145.85011 -31.026548 -102.08318 -31.027925 -102.06034 -30.643269 -178.02417
1876500000 -2.7781215 118.30238 -30.981401 -131.70857 -30.981441 -131.68027 -32.12524 159.64827
1886000000 -2.8577354 90.334824 -31.014709 -161.74715 -31.015972 -161.73039 -34.085709 133.96603
1895500000 -2.9990835 61.938446 -31.137424 168.24869 -31.137897 168.27028 -36.413536 101.88474
1905000000 -3.0643001 33.291126 -31.308283 138.42035 -31.308308 138.43462 -38.498825 58.902821
1914500000 -3.0537183 4.7312856 -31.52564 108.71098 -31.526142 108.7298 -38.655579 6.8062825
1924000000 -3.0909464 -23.80928 -31.806555 79.167015 -31.807526 79.174866 -36.570438 -39.923233
1933500000 -3.1459553 -52.438816 -32.166168 50.196896 -32.168041 50.210808 -33.909241 -76.117363
1943000000 -3.100776 -80.59729 -32.523418 22.043514 -32.523987 22.055466 -31.551195 -105.62466
1952500000 -3.0051708 -107.93633 -32.814388 -5.5864244 -32.817421 -5.5740047 -29.668476 -131.4924
1962000000 -2.9961896 -135.23372 -33.054775 -32.966007 -33.056797 -32.952854 -28.293646 -155.56139
1971500000 -3.0494299 -162.99887 -33.248863 -60.188808 -33.250843 -60.177567 -27.410797 -179.1124
1981000000 -3.0316169 169.29727 -33.37611 -87.150436 -33.37706 -87.131996 -26.98666 156.74551
1990500000 -2.9860671 141.90005 -33.407562 -114.24151 -33.409214 -114.22429 -26.943476 130.91348
2000000000 -3.0323114 114.14497 -33.381924 -141.7709 -33.384563 -141.75879 -27.116133 102.34473
