!Keysight Technologies,N5242B,MY48420967,A.15.65.19
!Date: Monday, December 19, 2022 13:59:29
!Correction: S11(C  2-Port  ) 
!S21(C  2-Port  ) 
!S12(C  2-Port  ) 
!S22(C  2-Port  ) 
!S2P File: Measurements: S11, S21, S12, S22:
# Hz S  dB   R 50
100000000 -1.4864904 40.704742 -45.829006 141.76826 -45.837051 141.79167 -22.228277 47.752544
109500000 -1.3672472 11.237761 -45.260498 112.72261 -45.260685 112.75816 -21.270439 22.476675
119000000 -1.2439519 -16.908548 -44.692612 84.085899 -44.691566 84.120499 -20.545847 -1.8244908
128500000 -1.1981238 -44.945137 -44.105545 55.413311 -44.103405 55.472805 -20.011497 -25.598852
138000000 -1.2013338 -73.707649 -43.545891 26.529774 -43.546238 26.559044 -19.653063 -49.012619
147500000 -1.2312516 -102.60709 -43.046135 -2.3920882 -43.042332 -2.3645895 -19.490421 -72.254738
157000000 -1.2950052 -131.50487 -42.567711 -31.318699 -42.566528 -31.290068 -19.552896 -95.710014
166500000 -1.3963013 -161.13112 -42.105164 -60.406364 -42.102722 -60.385223 -19.849413 -120.06855
176000000 -1.505344 168.69525 -41.714268 -89.59536 -41.707695 -89.585747 -20.322485 -146.18375
185500000 -1.5889465 138.52104 -41.370117 -118.65233 -41.365093 -118.6349 -20.800894 -174.784
195000000 -1.6372412 108.38039 -41.061569 -147.5717 -41.058681 -147.53958 -21.012712 154.39233
204500000 -1.6209735 78.606262 -40.776775 -176.23033 -40.7724 -176.21101 -20.765985 123.15136
214000000 -1.5593423 49.448021 -40.483818 155.23553 -40.476105 155.2395 -20.151749 93.66243
223500000 -1.5294393 20.593769 -40.202515 126.69273 -40.19775 126.70798 -19.436167 66.739937
233000000 -1.4969565 -8.1382008 -39.923988 98.380768 -39.921307 98.400383 -18.834553 41.88332
242500000 -1.4175984 -36.612053 -39.607075 70.079155 -39.603588 70.08017 -18.442755 18.15296
252000000 -1.397135 -64.908615 -39.281319 41.554131 -39.275185 41.5578 -18.268005 -5.2636733
261500000 -1.4794186 -93.682198 -38.961754 12.836772 -38.955761 12.850425 -18.270798 -28.897503
271000000 -1.5624279 -123.33597 -38.657143 -16.051519 -38.653049 -16.049358 -18.403854 -52.977634
280500000 -1.6027617 -153.21152 -38.385376 -45.090973 -38.378456 -45.089527 -18.635607 -77.539864
290000000 -1.6843466 177.05991 -38.145649 -74.173714 -38.137672 -74.175758 -18.962841 -102.63283
299500000 -1.8230959 146.85072 -37.939808 -103.27204 -37.93314 -103.26195 -19.392269 -128.49031
309000000 -1.8846914 116.19577 -37.761642 -132.24973 -37.75769 -132.26962 -19.897753 -155.57246
318500000 -1.8414073 86.125938 -37.613045 -161.12898 -37.607014 -161.1535 -20.372877 175.65421
328000000 -1.8216746 57.011059 -37.472229 170.24167 -37.467415 170.23172 -20.634212 145.37238
337500000 -1.8370719 27.985159 -37.307301 141.75545 -37.304821 141.74742 -20.54142 114.86913
347000000 -1.8030707 -1.3468022 -37.128086 113.19771 -37.125214 113.18882 -20.150522 85.82476
356500000 -1.740743 -30.249645 -36.958046 84.615479 -36.953373 84.595299 -19.674118 59.071274
366000000 -1.7456377 -58.726658 -36.772324 56.050072 -36.770031 56.043774 -19.324457 34.308193
375500000 -1.8270105 -87.776459 -36.572258 27.331257 -36.568855 27.325844 -19.222628 10.67566
385000000 -1.8945282 -117.75787 -36.380116 -1.6376635 -36.377144 -1.6547778 -19.404694 -12.774437
394500000 -1.935762 -147.98557 -36.231529 -30.809669 -36.227131 -30.820488 -19.84655 -36.852066
404000000 -2.0192943 -177.94742 -36.128609 -59.857246 -36.124908 -59.867176 -20.483021 -62.146442
413500000 -2.1157553 151.95161 -36.030495 -88.780502 -36.030834 -88.799957 -21.230579 -88.967117
423000000 -2.1568079 121.41687 -35.954464 -117.79633 -35.951057 -117.80985 -22.013454 -117.41558
432500000 -2.1444118 91.287971 -35.92828 -146.65863 -35.924648 -146.67267 -22.771915 -147.56453
442000000 -2.1102202 62.224869 -35.908211 -175.10854 -35.906418 -175.11755 -23.417465 -179.63483
451500000 -2.0757308 33.660419 -35.847103 156.62399 -35.846016 156.61127 -23.771324 146.45435
461000000 -2.0411415 4.9885321 -35.76857 128.28331 -35.766285 128.26544 -23.634911 112.01789
470500000 -1.9990555 -23.544542 -35.69735 99.959129 -35.696285 99.943634 -23.033087 79.385551
480000000 -1.9725208 -51.585178 -35.606995 71.775101 -35.606651 71.761459 -22.25102 49.962685
489500000 -1.9923936 -79.667747 -35.472378 43.532814 -35.471771 43.516098 -21.598091 23.462894
499000000 -2.0487602 -108.51238 -35.315815 14.91998 -35.315155 14.905676 -21.259689 -1.3012676
508500000 -2.1023312 -137.86769 -35.194771 -14.083793 -35.193462 -14.07983 -21.302872 -25.748569
518000000 -2.1408684 -167.09486 -35.144424 -43.200909 -35.143665 -43.194847 -21.701546 -51.286839
527500000 -2.1874762 163.67522 -35.141613 -71.991142 -35.140774 -72.000313 -22.335606 -79.134682
537000000 -2.2390463 134.16972 -35.147518 -100.62573 -35.148327 -100.62401 -22.944349 -109.95866
546500000 -2.2517753 104.83901 -35.169094 -129.03522 -35.168983 -129.03989 -23.226446 -143.08653
556000000 -2.2111449 76.182831 -35.180706 -157.17497 -35.180656 -157.17564 -23.055912 -176.51801
565500000 -2.1561699 48.123943 -35.168076 174.82323 -35.167274 174.81093 -22.565271 151.39679
575000000 -2.1183414 20.365314 -35.136612 146.86205 -35.135471 146.84746 -21.947632 120.93884
584500000 -2.0916295 -7.2719264 -35.083679 118.96504 -35.084518 118.94753 -21.29302 91.783104
594000000 -2.05775 -34.880142 -35.005333 91.052994 -35.00787 91.023743 -20.623865 63.784542
603500000 -2.0369813 -62.514469 -34.909618 63.01963 -34.913841 63.008907 -19.964754 37.088562
613000000 -2.0729465 -90.229362 -34.810204 34.906799 -34.814045 34.908241 -19.385551 11.746222
622500000 -2.1428034 -118.43073 -34.686485 6.6992769 -34.690464 6.7099948 -18.973497 -12.472178
632000000 -2.2041533 -147.47499 -34.56776 -21.82493 -34.569019 -21.808348 -18.798986 -36.119362
641500000 -2.2459488 -176.80574 -34.490902 -50.498421 -34.490257 -50.48259 -18.888756 -59.964848
651000000 -2.2956696 154.1312 -34.444283 -79.04187 -34.444279 -79.035645 -19.212152 -84.879234
660500000 -2.354022 125.05832 -34.393124 -107.51823 -34.394325 -107.51172 -19.664421 -111.56652
670000000 -2.3701677 95.626633 -34.357365 -136.04321 -34.358189 -136.0462 -20.062071 -140.24049
679500000 -2.3278203 66.531471 -34.356232 -164.49008 -34.356209 -164.49367 -20.226282 -170.23621
689000000 -2.2786853 38.514595 -34.356155 167.44107 -34.357597 167.44766 -20.101675 159.84082
698500000 -2.2611554 10.95411 -34.30426 139.54861 -34.305401 139.54691 -19.790663 131.0728
708000000 -2.250175 -17.1724 -34.217873 111.40365 -34.219055 111.40299 -19.443428 103.65562
717500000 -2.2252588 -45.483685 -34.154243 83.116013 -34.155712 83.117775 -19.149965 77.245735
727000000 -2.2242603 -73.137024 -34.090511 55.021278 -34.092243 55.025906 -18.936409 51.451176
736500000 -2.2930839 -100.9727 -33.971523 26.839865 -33.974121 26.840601 -18.794989 26.089827
746000000 -2.3984632 -130.22107 -33.8526 -1.8121579 -33.853989 -1.8154774 -18.726948 1.1746904
755500000 -2.4474764 -160.09273 -33.785358 -30.625378 -33.788223 -30.618107 -18.763958 -23.267134
765000000 -2.4746673 170.65637 -33.748623 -59.281406 -33.751221 -59.281399 -18.958576 -47.382435
774500000 -2.5686531 141.35994 -33.705761 -87.94693 -33.708435 -87.948471 -19.362228 -71.597824
784000000 -2.6415224 111.09045 -33.686775 -116.7837 -33.689037 -116.78539 -19.991554 -96.57531
793500000 -2.598902 81.027 -33.727299 -145.54327 -33.729462 -145.53969 -20.805103 -123.1258
803000000 -2.5343318 52.510868 -33.784973 -173.83067 -33.787094 -173.82967 -21.670771 -151.92575
812500000 -2.523267 24.547325 -33.798096 158.07394 -33.801128 158.07562 -22.376141 177.03876
822000000 -2.5066397 -3.889091 -33.793304 129.87181 -33.796021 129.87523 -22.743694 144.89214
831500000 -2.4408436 -32.038162 -33.799862 101.71284 -33.801861 101.7107 -22.779579 113.30795
841000000 -2.4083571 -59.486965 -33.789005 73.67347 -33.791443 73.670563 -22.64967 83.212227
850500000 -2.4566109 -87.068031 -33.753193 45.614475 -33.755913 45.605614 -22.521555 54.557301
860000000 -2.5065193 -115.35287 -33.697006 17.405287 -33.69973 17.408655 -22.48052 26.851791
869500000 -2.5387599 -144.05782 -33.653255 -11.034379 -33.65654 -11.041075 -22.553185 -0.33595237
879000000 -2.5990584 -172.82773 -33.639194 -39.489403 -33.643433 -39.487789 -22.753086 -27.236885
888500000 -2.655771 158.1949 -33.628944 -67.9198 -33.631664 -67.918816 -23.117086 -54.062397
898000000 -2.686218 128.97459 -33.633812 -96.439636 -33.637722 -96.438156 -23.70112 -81.286949
907500000 -2.7007213 99.828629 -33.671555 -124.89918 -33.675404 -124.89651 -24.540955 -109.86907
917000000 -2.6772585 70.991791 -33.730125 -153.17711 -33.733555 -153.18816 -25.566305 -141.27808
926500000 -2.6116645 42.82682 -33.792873 178.77289 -33.796677 178.76923 -26.471254 -176.92531
936000000 -2.5419381 15.4354 -33.835148 150.95639 -33.839699 150.94568 -26.712435 144.00713
945500000 -2.5003932 -11.71748 -33.850845 123.18079 -33.855312 123.17087 -26.050369 105.80347
955000000 -2.4688041 -38.878201 -33.854389 95.427704 -33.858566 95.416862 -24.894207 71.859947
964500000 -2.4314301 -65.817146 -33.838783 67.718735 -33.84433 67.710449 -23.742798 42.03775
974000000 -2.4337707 -92.58567 -33.799809 40.011589 -33.80648 40.010983 -22.814768 14.833052
983500000 -2.4909019 -119.69283 -33.735657 12.215126 -33.74305 12.212324 -22.151997 -11.041074
993000000 -2.5449505 -147.59016 -33.653614 -15.816519 -33.660118 -15.803634 -21.726294 -36.398266
1002500000 -2.5805025 -176.01569 -33.593616 -44.100101 -33.59914 -44.094421 -21.500031 -61.66534
1012000000 -2.6250422 155.72235 -33.561302 -72.289818 -33.566143 -72.275635 -21.446035 -87.132874
1021500000 -2.6754789 127.39886 -33.51318 -100.47095 -33.517788 -100.46847 -21.554623 -113.08976
1031000000 -2.7152162 98.387527 -33.476143 -128.88217 -33.480202 -128.87434 -21.799633 -139.96312
1040500000 -2.6992097 69.282181 -33.492088 -157.27953 -33.495926 -157.27274 -22.112629 -168.23779
1050000000 -2.6342716 41.237682 -33.534142 174.70532 -33.537918 174.71265 -22.358599 161.83881
1059500000 -2.5872941 14.107554 -33.532509 146.96593 -33.53698 146.96945 -22.370556 130.73727
1069000000 -2.5694239 -13.364192 -33.490665 119.06021 -33.494884 119.06462 -22.059748 99.760727
1078500000 -2.5463264 -41.174213 -33.475994 91.033821 -33.480328 91.033737 -21.504366 70.25695
1088000000 -2.5106344 -68.117569 -33.465843 63.345135 -33.470055 63.346603 -20.883608 42.788773
1097500000 -2.5161986 -94.602974 -33.377079 35.746426 -33.381603 35.747112 -20.35228 17.12323
1107000000 -2.5970607 -122.19102 -33.252499 7.684948 -33.25668 7.6752033 -19.99737 -7.316627
1116500000 -2.6768701 -150.89079 -33.163185 -20.683943 -33.167519 -20.691282 -19.850973 -31.137768
1126000000 -2.7126102 -179.42117 -33.103569 -48.972153 -33.106773 -48.973534 -19.9105 -54.821815
1135500000 -2.7688966 152.25507 -33.016197 -77.25647 -33.020344 -77.260139 -20.165953 -78.717705
1145000000 -2.8615315 122.91698 -32.92326 -105.91551 -32.927303 -105.922 -20.602257 -103.09895
1154500000 -2.926332 92.692688 -32.906326 -134.83121 -32.911995 -134.8371 -21.213629 -128.28729
1164000000 -2.9092116 63.234112 -32.948032 -163.33841 -32.95266 -163.33263 -21.981527 -154.70258
1173500000 -2.8542883 34.788021 -32.957619 168.43379 -32.961342 168.42752 -22.85161 177.0878
1183000000 -2.837791 6.3087187 -32.955265 140.07393 -32.960377 140.07289 -23.689358 146.58768
1192500000 -2.8269074 -22.283365 -32.986118 111.76188 -32.990273 111.7572 -24.276152 113.95528
1202000000 -2.7700384 -50.132404 -33.020527 83.758255 -33.025536 83.753311 -24.430225 80.628853
1211500000 -2.7259436 -77.185478 -33.004227 55.92207 -33.00901 55.919754 -24.193354 48.650242
1221000000 -2.7650936 -104.5853 -32.951752 27.848656 -32.956821 27.83519 -23.803288 19.139429
1230500000 -2.8510101 -132.87027 -32.916286 -0.43076903 -32.92112 -0.44004136 -23.500168 -8.1007481
1240000000 -2.8908045 -161.30031 -32.892128 -28.631798 -32.897415 -28.641376 -23.431158 -33.856159
1249500000 -2.9066708 170.38924 -32.839062 -56.906895 -32.843567 -56.912926 -23.663837 -59.054081
1259000000 -2.9804692 141.56313 -32.799473 -85.468269 -32.804512 -85.479698 -24.22081 -84.55323
1268500000 -3.0640712 112.10477 -32.798164 -114.10789 -32.803276 -114.1151 -25.102863 -111.29412
1278000000 -3.0777619 82.618645 -32.830048 -142.65358 -32.835583 -142.66161 -26.267418 -140.39821
1287500000 -3.0466559 53.530361 -32.881046 -171.09373 -32.885899 -171.09695 -27.572523 -173.435
1297000000 -3.0028198 24.93342 -32.950748 160.64345 -32.955971 160.6353 -28.607092 148.35713
1306500000 -2.948112 -3.0685492 -33.021862 132.58984 -33.027588 132.59059 -28.7367 106.64444
1316000000 -2.8914733 -30.587507 -33.075848 104.7113 -33.082047 104.70414 -27.790012 66.927643
1325500000 -2.8377435 -57.871826 -33.117424 76.888351 -33.123375 76.873451 -26.359085 32.635891
1335000000 -2.7918267 -84.705345 -33.14986 49.199379 -33.155621 49.188763 -24.990799 3.1477807
1344500000 -2.7848306 -111.13234 -33.143009 21.610479 -33.149948 21.591974 -23.917334 -23.297342
1354000000 -2.8322556 -138.07031 -33.100014 -6.1296415 -33.106773 -6.1422639 -23.187393 -48.121906
1363500000 -2.8757191 -165.83257 -33.05703 -34.060543 -33.063499 -34.07917 -22.791893 -72.369629
1373000000 -2.8759787 166.53328 -33.022434 -61.975082 -33.030239 -61.990662 -22.697823 -96.789528
1382500000 -2.9057953 139.15115 -32.958206 -89.936234 -32.965534 -89.940643 -22.852676 -122.05892
1392000000 -3.0063956 110.85275 -32.900726 -118.23257 -32.910004 -118.24336 -23.185493 -148.69733
1401500000 -3.0585806 81.652962 -32.893272 -146.60013 -32.901379 -146.60451 -23.574524 -177.08313
1411000000 -3.0024073 53.061863 -32.914711 -174.76942 -32.922832 -174.7652 -23.864908 152.76451
1420500000 -2.9635165 25.447657 -32.925247 157.22208 -32.93285 157.23717 -23.914114 121.47887
1430000000 -2.9789922 -2.3104537 -32.92804 129.25325 -32.93409 129.26067 -23.661856 90.288605
1439500000 -2.9453728 -30.371273 -32.944351 101.28556 -32.94997 101.29039 -23.177872 60.318138
1449000000 -2.8443372 -57.438721 -32.964935 73.609993 -32.969967 73.622437 -22.601242 32.087879
1458500000 -2.7858939 -83.45475 -32.929565 46.14167 -32.935123 46.149025 -22.063778 5.5290604
1468000000 -2.8337119 -109.93587 -32.842957 18.446665 -32.848328 18.457405 -21.652901 -19.746126
1477500000 -2.8984892 -137.4306 -32.759899 -9.470542 -32.764061 -9.4766417 -21.414783 -44.196518
1487000000 -2.8932998 -164.90891 -32.68681 -37.382362 -32.690468 -37.377441 -21.369953 -68.178726
1496500000 -2.9083807 168.01653 -32.579525 -65.308167 -32.582863 -65.317879 -21.517441 -92.089218
1506000000 -3.0216503 140.24814 -32.456982 -93.539413 -32.461468 -93.538811 -21.866098 -116.24134
1515500000 -3.1302042 111.18904 -32.362568 -122.01492 -32.366467 -122.01871 -22.409164 -140.93758
1525000000 -3.1450181 81.997116 -32.297302 -150.52611 -32.301937 -150.53215 -23.128885 -166.59637
1534500000 -3.1509924 53.399006 -32.243469 -178.99352 -32.248005 -179.00052 -23.994112 166.25291
1544000000 -3.2080934 24.502636 -32.199898 152.45337 -32.205048 152.43977 -24.914249 137.09027
1553500000 -3.2187681 -4.7802787 -32.193321 123.92117 -32.197903 123.91515 -25.717356 105.70431
1563000000 -3.1401317 -33.234524 -32.197895 95.63102 -32.204163 95.624435 -26.205816 72.832932
1572500000 -3.0869343 -60.762115 -32.182068 67.499275 -32.188007 67.489021 -26.304108 40.185257
1582000000 -3.1039088 -88.299324 -32.148674 39.368645 -32.154659 39.357056 -26.155548 9.272994
1591500000 -3.1195204 -116.03601 -32.099258 11.242113 -32.105354 11.239413 -25.993982 -19.535452
1601000000 -3.1324234 -143.73413 -32.030422 -16.946547 -32.036133 -16.955454 -25.999861 -46.795391
1610500000 -3.1831849 -171.64867 -31.953251 -45.236645 -31.95977 -45.243668 -26.258482 -73.360901
1620000000 -3.2341616 160.03877 -31.870108 -73.637444 -31.874834 -73.641754 -26.787109 -100.07854
1629500000 -3.2908716 131.49405 -31.79039 -102.20771 -31.796608 -102.2116 -27.568787 -127.65988
1639000000 -3.4002619 102.45853 -31.727716 -130.92578 -31.732843 -130.93057 -28.572447 -156.73759
1648500000 -3.4804587 72.690887 -31.691095 -159.73405 -31.69697 -159.74748 -29.761572 171.92909
1658000000 -3.4645572 43.022038 -31.679672 171.45303 -31.684805 171.4532 -31.04434 137.04419
1667500000 -3.454499 14.006042 -31.687677 142.72737 -31.693396 142.72058 -32.075596 97.132729
1677000000 -3.47927 -15.069354 -31.706285 114.0752 -31.713043 114.0723 -32.158783 53.380409
1686500000 -3.4206355 -44.141811 -31.740273 85.552399 -31.745573 85.539421 -31.03805 11.979201
1696000000 -3.3023198 -72.103485 -31.772627 57.213947 -31.778997 57.208755 -29.406559 -23.045589
1705500000 -3.2839367 -99.213936 -31.787632 29.035673 -31.791967 29.03162 -27.92494 -52.644093
1715000000 -3.333504 -126.69408 -31.77047 0.92646641 -31.776928 0.92049855 -26.843596 -79.134033
1724500000 -3.3009751 -154.5542 -31.723345 -27.266609 -31.728743 -27.274458 -26.190168 -104.2746
1734000000 -3.2523353 177.99263 -31.670313 -55.637371 -31.676722 -55.647705 -25.916395 -129.29362
1743500000 -3.3184736 150.68315 -31.621351 -84.025574 -31.62838 -84.029457 -25.937592 -155.00587
1753000000 -3.4133911 122.63777 -31.549772 -112.46195 -31.556341 -112.4761 -26.145432 178.14508
1762500000 -3.4257221 93.932617 -31.466837 -141.21423 -31.474375 -141.21931 -26.443232 150.09792
1772000000 -3.4388547 65.280716 -31.420403 -170.19211 -31.427334 -170.1982 -26.757166 121.03591
1781500000 -3.5122073 36.791023 -31.407345 160.93623 -31.416069 160.9312 -27.056511 91.089325
1791000000 -3.5349684 8.1188908 -31.374216 132.15657 -31.381615 132.15817 -27.293131 60.258888
1800500000 -3.4689937 -20.613071 -31.338572 103.08363 -31.346367 103.09096 -27.380362 28.761677
1810000000 -3.4184802 -48.79438 -31.356047 73.92028 -31.363039 73.935623 -27.209866 -2.6450341
1819500000 -3.4115117 -76.226555 -31.402319 45.053661 -31.409569 45.064049 -26.779593 -32.697906
1829000000 -3.3801267 -103.3235 -31.404263 16.333754 -31.410538 16.347738 -26.211191 -60.485485
1838500000 -3.326757 -130.44249 -31.383728 -12.67178 -31.38936 -12.651714 -25.686653 -85.913635
1848000000 -3.3366261 -157.54803 -31.400341 -41.886253 -31.406681 -41.868267 -25.335772 -109.62078
1857500000 -3.410567 175.40593 -31.438082 -70.938751 -31.443588 -70.924309 -25.22312 -132.52513
1867000000 -3.454741 148.22108 -31.448286 -100.03278 -31.453278 -100.02177 -25.383814 -155.71915
1876500000 -3.4709239 120.73064 -31.455982 -129.57164 -31.460093 -129.55843 -25.826719 179.97169
1886000000 -3.5679188 92.877769 -31.538347 -159.46635 -31.543146 -159.4576 -26.510178 153.91731
1895500000 -3.7306879 64.586029 -31.711174 170.65225 -31.714851 170.65936 -27.362589 125.56769
1905000000 -3.8139286 36.001629 -31.947508 141.05034 -31.951265 141.0459 -28.270178 94.537392
1914500000 -3.809247 7.5187263 -32.228195 111.71672 -32.232555 111.71195 -29.079918 60.52084
1924000000 -3.8403273 -20.877632 -32.577499 82.692535 -32.583012 82.684265 -29.551161 23.626587
1933500000 -3.8826115 -49.435486 -32.98103 54.480938 -32.987072 54.473145 -29.426338 -14.83417
1943000000 -3.8146107 -77.602913 -33.342766 27.29291 -33.349205 27.288622 -28.639294 -52.102852
1952500000 -3.691627 -104.93369 -33.585129 0.60978657 -33.593616 0.60874915 -27.479647 -85.9412
1962000000 -3.6631861 -132.18387 -33.715828 -26.046127 -33.72366 -26.037237 -26.325962 -116.15339
1971500000 -3.7066941 -159.92899 -33.792603 -52.814907 -33.798393 -52.814827 -25.427658 -143.7462
1981000000 -3.6862397 172.32442 -33.793568 -79.618279 -33.800144 -79.613762 -24.889275 -170.07892
1990500000 -3.6400268 144.94514 -33.71217 -106.7938 -33.718136 -106.79115 -24.720709 163.61093
2000000000 -3.6936421 117.29558 -33.599541 -134.58409 -33.606537 -134.57982 -24.870071 136.17801
