!Keysight Technologies,N5242B,MY48420967,A.15.65.19
!Date: Thursday, December 22, 2022 14:11:36
!Correction: S11(C  2-Port  ) 
!S21(C  2-Port  ) 
!S12(C  2-Port  ) 
!S22(C  2-Port  ) 
!S2P File: Measurements: S11, S21, S12, S22:
# Hz S  dB   R 50
100000000 -1.4821132 40.636974 -45.893162 140.2036 -45.874645 140.2258 -22.221043 50.100956
109500000 -1.3799406 11.079742 -45.327423 111.39564 -45.299763 111.41699 -21.198715 23.955406
119000000 -1.24115 -17.221287 -44.744865 82.868927 -44.723862 82.914612 -20.417112 -0.75943249
128500000 -1.207978 -45.30368 -44.166157 54.284054 -44.140247 54.327942 -19.861094 -24.710938
138000000 -1.2224365 -74.088524 -43.603954 25.525047 -43.584229 25.542315 -19.515871 -48.297451
147500000 -1.2487196 -103.11319 -43.094093 -3.4018974 -43.068485 -3.3438897 -19.37701 -71.86187
157000000 -1.3188252 -131.96748 -42.623333 -32.179146 -42.595856 -32.170727 -19.445539 -95.791351
166500000 -1.4262725 -161.65213 -42.153454 -61.253628 -42.130604 -61.235664 -19.709818 -120.63868
176000000 -1.5409371 168.08969 -41.765579 -90.427788 -41.738224 -90.39399 -20.109142 -147.03117
185500000 -1.6179422 138.02327 -41.41964 -119.39527 -41.392162 -119.38962 -20.503031 -175.49159
195000000 -1.6784099 107.87064 -41.107105 -148.31546 -41.083103 -148.27061 -20.679642 154.19936
204500000 -1.6643926 77.997726 -40.818951 -176.95529 -40.792187 -176.93114 -20.47739 123.40195
214000000 -1.5880116 48.837784 -40.524136 154.48233 -40.501667 154.50761 -19.934893 93.909019
223500000 -1.5727066 20.126429 -40.253563 125.98672 -40.225868 126.02927 -19.260147 66.665993
233000000 -1.5453185 -8.612771 -39.963509 97.720367 -39.93951 97.756668 -18.652628 41.450367
242500000 -1.464081 -37.199665 -39.646564 69.375198 -39.624928 69.421997 -18.22957 17.520077
252000000 -1.4486493 -65.410965 -39.325031 40.859413 -39.299221 40.859531 -18.024914 -5.8833714
261500000 -1.5402905 -94.209045 -38.99979 12.126965 -38.975189 12.1751 -18.020199 -29.364035
271000000 -1.6348975 -123.8896 -38.703342 -16.767439 -38.676891 -16.719479 -18.175585 -53.312698
280500000 -1.6713297 -153.71092 -38.424191 -45.769775 -38.400074 -45.764336 -18.448288 -77.92234
290000000 -1.7696593 176.44609 -38.186062 -74.937515 -38.160751 -74.914352 -18.80871 -103.28362
299500000 -1.9163933 146.20453 -37.989323 -103.99294 -37.961441 -103.99038 -19.236345 -129.52029
309000000 -1.9692142 115.58828 -37.80703 -133.004 -37.784985 -132.98651 -19.697809 -156.87796
318500000 -1.9462146 85.508194 -37.663486 -161.89746 -37.635197 -161.88385 -20.112963 174.3878
328000000 -1.9288647 56.288494 -37.522724 169.4734 -37.496777 169.45421 -20.347506 144.46194
337500000 -1.9403393 27.201466 -37.367146 140.92432 -37.340099 140.9519 -20.289057 114.32755
347000000 -1.9202931 -2.0082343 -37.195656 112.4057 -37.17292 112.40174 -19.96339 85.33654
356500000 -1.8666767 -30.967743 -37.023808 83.80201 -37.000443 83.797806 -19.534122 58.323746
366000000 -1.8796293 -59.474339 -36.851494 55.223564 -36.8255 55.266304 -19.195965 33.207542
375500000 -1.9649532 -88.439514 -36.648956 26.544643 -36.627686 26.545921 -19.079424 9.3161383
385000000 -2.0539856 -118.51421 -36.464802 -2.4918408 -36.443378 -2.4513595 -19.23967 -14.22765
394500000 -2.1024513 -148.73767 -36.327435 -31.596069 -36.30278 -31.577785 -19.673733 -38.280621
404000000 -2.1788838 -178.65662 -36.219753 -60.665283 -36.198795 -60.625546 -20.32984 -63.566364
413500000 -2.3014982 151.22571 -36.136665 -89.594994 -36.114292 -89.557678 -21.114948 -90.583023
423000000 -2.3408842 120.70593 -36.061459 -118.52528 -36.039036 -118.50417 -21.916138 -119.53913
432500000 -2.3192761 90.595604 -36.033211 -147.42131 -36.010464 -147.37115 -22.626236 -150.34029
442000000 -2.3025131 61.571671 -36.019939 -175.85905 -35.996487 -175.82753 -23.148836 177.23799
451500000 -2.2658532 32.91745 -35.959984 155.86745 -35.940319 155.90396 -23.369753 143.68541
461000000 -2.2252939 4.2619238 -35.894062 127.50197 -35.870499 127.55806 -23.187223 110.09877
470500000 -2.1908412 -24.092581 -35.826965 99.233437 -35.803528 99.274467 -22.63858 78.102615
480000000 -2.1787248 -52.161869 -35.73864 71.040581 -35.717422 71.103004 -21.931129 48.769402
489500000 -2.2018468 -80.276588 -35.612926 42.788567 -35.589832 42.830582 -21.314766 22.037226
499000000 -2.2590561 -109.08552 -35.47028 14.177391 -35.448116 14.237588 -20.967434 -2.9638906
508500000 -2.3339465 -138.46339 -35.372547 -14.727871 -35.349876 -14.642176 -20.976383 -27.464895
518000000 -2.3742294 -167.68648 -35.313484 -43.559521 -35.291817 -43.50111 -21.341578 -52.795483
527500000 -2.4201703 163.10245 -35.284264 -72.362061 -35.263653 -72.283562 -21.968142 -80.276985
537000000 -2.4884593 133.62636 -35.285618 -101.00766 -35.26123 -100.94672 -22.612074 -110.82928
546500000 -2.4934242 104.25468 -35.298286 -129.45152 -35.277416 -129.37326 -22.937675 -144.02234
556000000 -2.4469883 75.595184 -35.309605 -157.65137 -35.285347 -157.56963 -22.761927 -177.70277
565500000 -2.4009085 47.558323 -35.299068 174.33031 -35.276768 174.37466 -22.223272 150.22702
575000000 -2.3613732 19.696997 -35.269848 146.3389 -35.245567 146.39818 -21.57534 120.16547
584500000 -2.3263733 -7.8920984 -35.223812 118.43701 -35.201946 118.45853 -20.95068 91.517197
594000000 -2.2980917 -35.360615 -35.146206 90.544724 -35.132973 90.56498 -20.364048 63.823776
603500000 -2.2970614 -63.052528 -35.051258 62.481644 -35.040413 62.556419 -19.791538 37.07222
613000000 -2.3355761 -90.813072 -34.956635 34.376118 -34.943352 34.480362 -19.260881 11.409599
622500000 -2.4054439 -119.00034 -34.832481 6.1143031 -34.817356 6.2765107 -18.851147 -13.141501
632000000 -2.4998085 -148.0732 -34.733509 -22.420202 -34.707607 -22.292772 -18.65073 -36.934288
641500000 -2.5410852 -177.43115 -34.657272 -50.997818 -34.631798 -50.879097 -18.717403 -60.690212
651000000 -2.5843437 153.49484 -34.609459 -79.566193 -34.582489 -79.466766 -19.048763 -85.332611
660500000 -2.6586351 124.50252 -34.567963 -108.00216 -34.543808 -107.91876 -19.549273 -111.80389
670000000 -2.6756256 94.995514 -34.52607 -136.5163 -34.502605 -136.43001 -20.019068 -140.61104
679500000 -2.6269236 65.857056 -34.528118 -164.97348 -34.502728 -164.89536 -20.221603 -171.0815
689000000 -2.5805128 37.85651 -34.529541 166.95499 -34.508789 167.02744 -20.067425 158.55328
698500000 -2.568625 10.214916 -34.483463 139.04282 -34.461071 139.12956 -19.696959 129.74242
708000000 -2.5499249 -17.89768 -34.403397 110.91178 -34.380623 110.97015 -19.321568 102.63738
717500000 -2.5313439 -46.079605 -34.346107 82.632843 -34.326214 82.719185 -19.059635 76.588852
727000000 -2.5499146 -73.680496 -34.285736 54.582951 -34.261929 54.657177 -18.920071 50.896626
736500000 -2.6211023 -101.59331 -34.166267 26.378073 -34.148647 26.443264 -18.850941 25.259779
746000000 -2.7369301 -130.82631 -34.058838 -2.2814372 -34.037525 -2.1876163 -18.810986 -0.18205877
755500000 -2.8001368 -160.63385 -34.001087 -31.043507 -33.979393 -30.959927 -18.824278 -25.088236
765000000 -2.8296282 170.06406 -33.966999 -59.684978 -33.948639 -59.588512 -18.97246 -49.371052
774500000 -2.926034 140.86227 -33.935326 -88.288315 -33.912235 -88.183075 -19.348465 -73.442329
784000000 -3.0045974 110.65812 -33.909977 -117.06588 -33.891769 -116.96275 -20.003832 -98.184181
793500000 -2.9664528 80.514725 -33.955891 -145.81639 -33.933876 -145.68732 -20.898867 -124.79124
803000000 -2.88678 52.058609 -34.011925 -174.04767 -33.990444 -173.95668 -21.84911 -154.29956
812500000 -2.8730857 24.147951 -34.025188 157.83994 -34.00436 157.9622 -22.533146 173.45804
822000000 -2.8682075 -4.2827888 -34.029484 129.67218 -34.006489 129.76396 -22.736935 140.52629
831500000 -2.7861962 -32.363033 -34.032955 101.57977 -34.013531 101.67575 -22.591799 109.20052
841000000 -2.756012 -59.697411 -34.023323 73.526978 -34.001453 73.632568 -22.395061 79.957245
850500000 -2.825279 -87.194534 -33.991066 45.525566 -33.970505 45.647003 -22.32062 51.911598
860000000 -2.8718376 -115.52224 -33.927643 17.332993 -33.908813 17.464972 -22.37273 24.076466
869500000 -2.9053547 -144.17181 -33.889843 -11.089873 -33.868305 -10.995064 -22.473902 -3.8863022
879000000 -2.9817398 -172.856 -33.876396 -39.481766 -33.857998 -39.404663 -22.588951 -31.618814
888500000 -3.0447898 158.10063 -33.865883 -67.899147 -33.845264 -67.787598 -22.787594 -58.728672
898000000 -3.0659568 128.91971 -33.870621 -96.380188 -33.848846 -96.263893 -23.216749 -85.532951
907500000 -3.0840664 99.858887 -33.903809 -124.80771 -33.883743 -124.68655 -23.985683 -113.32038
917000000 -3.0700059 70.972527 -33.957241 -153.05869 -33.934864 -152.94209 -25.033125 -144.21884
926500000 -2.9887011 42.69762 -34.011482 178.8788 -33.990231 178.97514 -25.941256 179.84901
936000000 -2.9131532 15.253407 -34.056183 151.00822 -34.035099 151.11491 -26.011021 140.528
945500000 -2.8719532 -11.895104 -34.074432 123.2541 -34.052391 123.33475 -25.140793 103.54747
955000000 -2.8286126 -39.084797 -34.075371 95.476784 -34.057671 95.560577 -23.974586 71.606834
964500000 -2.7973626 -65.939629 -34.066998 67.777412 -34.0485 67.878265 -22.991776 43.272728
974000000 -2.8103864 -92.666786 -34.020939 40.092724 -34.006687 40.18219 -22.291267 16.53606
983500000 -2.8745573 -119.92814 -33.958504 12.226957 -33.944057 12.361576 -21.803455 -9.7716808
993000000 -2.9344203 -147.82889 -33.885223 -15.798432 -33.866806 -15.671727 -21.434132 -35.94014
1002500000 -2.981946 -176.22147 -33.826668 -44.072895 -33.813244 -43.923466 -21.152853 -61.725922
1012000000 -3.0417569 155.46338 -33.802612 -72.250305 -33.783047 -72.095169 -21.008104 -87.021255
1021500000 -3.0857139 127.15514 -33.754848 -100.38335 -33.735828 -100.24662 -21.080833 -112.21055
1031000000 -3.1342981 98.167824 -33.71875 -128.8002 -33.699116 -128.64803 -21.401735 -138.21982
1040500000 -3.1306641 69.026894 -33.735641 -157.14302 -33.714916 -157.01563 -21.882807 -166.18761
1050000000 -3.0480599 40.844757 -33.768265 174.80296 -33.750084 174.94826 -22.281488 163.26813
1059500000 -2.9963217 13.684841 -33.77581 147.02072 -33.754715 147.1572 -22.303278 131.12354
1069000000 -2.9815974 -13.75561 -33.736137 119.13383 -33.717339 119.27689 -21.884211 99.741585
1078500000 -2.9543726 -41.638107 -33.724209 91.056213 -33.704182 91.212547 -21.256498 70.729195
1088000000 -2.9179497 -68.511948 -33.723171 63.393902 -33.70393 63.543667 -20.681856 43.952564
1097500000 -2.9296687 -94.914871 -33.636169 35.797478 -33.616909 35.953865 -20.280197 18.490063
1107000000 -3.025641 -122.56291 -33.516064 7.7085185 -33.49649 7.8695102 -20.050951 -6.4775124
1116500000 -3.1108463 -151.24512 -33.437778 -20.648397 -33.418823 -20.4877 -19.948774 -31.281071
1126000000 -3.1565561 -179.7092 -33.382175 -48.914913 -33.364388 -48.747517 -19.947861 -55.883793
1135500000 -3.2299786 151.98674 -33.304211 -77.154861 -33.285606 -76.983704 -20.07876 -80.133804
1145000000 -3.3249323 122.62937 -33.214443 -105.79316 -33.196198 -105.62789 -20.413511 -104.20343
1154500000 -3.3976014 92.469627 -33.210178 -134.6396 -33.192207 -134.46278 -21.019491 -128.74083
1164000000 -3.3807557 63.070793 -33.245701 -163.05217 -33.227455 -162.8783 -21.897129 -154.84676
1173500000 -3.3162167 34.556675 -33.251442 168.70569 -33.234402 168.88243 -22.907736 176.21313
1183000000 -3.3007848 6.136991 -33.257973 140.38342 -33.238392 140.56589 -23.737921 143.96565
1192500000 -3.2847414 -22.408119 -33.284027 112.10643 -33.265026 112.27878 -24.059361 110.02619
1202000000 -3.2233593 -50.319916 -33.323948 84.07 -33.304951 84.270309 -23.885141 77.274239
1211500000 -3.1753695 -77.213783 -33.31805 56.304558 -33.298096 56.49324 -23.531021 47.049232
1221000000 -3.21417 -104.44159 -33.257195 28.298853 -33.238804 28.500057 -23.246805 18.754816
1230500000 -3.3172934 -132.73523 -33.224468 -0.0029400224 -33.203606 0.20067699 -23.102999 -8.586544
1240000000 -3.362359 -161.13116 -33.202606 -28.138479 -33.184208 -27.93586 -23.07461 -35.478897
1249500000 -3.378526 170.64871 -33.150402 -56.391197 -33.131695 -56.162731 -23.156443 -61.845104
1259000000 -3.4645183 141.87581 -33.111511 -84.910225 -33.091457 -84.686226 -23.419437 -87.641426
1268500000 -3.5518844 112.46909 -33.113617 -113.48443 -33.095505 -113.23649 -23.989286 -113.32564
1278000000 -3.5641224 83.076187 -33.135555 -141.96266 -33.115467 -141.69249 -24.970312 -140.28185
1287500000 -3.5386109 53.994701 -33.177677 -170.36746 -33.158958 -170.09457 -26.308836 -170.94859
1297000000 -3.4937787 25.294577 -33.23724 161.35896 -33.218132 161.66272 -27.531944 152.04768
1306500000 -3.4244115 -2.778827 -33.301189 133.29878 -33.281349 133.60747 -27.71114 110.4631
1316000000 -3.3608787 -30.342815 -33.35125 105.37459 -33.33374 105.69818 -26.708069 71.937332
1325500000 -3.3055243 -57.645287 -33.391392 77.559425 -33.372581 77.860466 -25.400383 39.649136
1335000000 -3.2499146 -84.484085 -33.418709 49.869846 -33.401062 50.116493 -24.341873 11.384048
1344500000 -3.2445357 -110.91502 -33.412476 22.276457 -33.397633 22.508419 -23.609211 -15.232239
1354000000 -3.299623 -137.88347 -33.361809 -5.4580975 -33.345215 -5.2439709 -23.099319 -41.376972
1363500000 -3.3491516 -165.71428 -33.316338 -33.478004 -33.304474 -33.275276 -22.727571 -67.209717
1373000000 -3.3560209 166.67349 -33.28952 -61.40995 -33.276577 -61.188175 -22.491545 -92.494026
1382500000 -3.3899357 139.27461 -33.231163 -89.386147 -33.219841 -89.165794 -22.470234 -117.27074
1392000000 -3.5069339 110.88363 -33.17942 -117.65267 -33.170074 -117.40706 -22.740231 -142.27174
1401500000 -3.5661185 81.672928 -33.168636 -145.95203 -33.155022 -145.70224 -23.29985 -168.82428
1411000000 -3.5025048 53.004078 -33.17535 -174.18839 -33.162312 -173.91856 -23.969944 161.578
1420500000 -3.4675062 25.325489 -33.195049 157.75529 -33.178532 158.04788 -24.355762 128.76515
1430000000 -3.4816453 -2.4743934 -33.191219 129.76891 -33.174374 130.04117 -24.126648 95.249313
1439500000 -3.4478083 -30.696447 -33.207939 101.70151 -33.189308 101.98396 -23.443493 64.256516
1449000000 -3.3422654 -57.853786 -33.239132 73.956581 -33.217419 74.234344 -22.731638 36.506866
1458500000 -3.2719007 -83.884315 -33.21389 46.422852 -33.194561 46.683399 -22.241774 10.789306
1468000000 -3.3288765 -110.37375 -33.146648 18.704992 -33.124733 18.9736 -22.00746 -14.338061
1477500000 -3.4013011 -137.90108 -33.078232 -9.1964874 -33.055824 -8.9554739 -21.933353 -39.685158
1487000000 -3.3968763 -165.43102 -33.012466 -37.109959 -32.992599 -36.850403 -21.907833 -65.225189
1496500000 -3.4218404 167.59039 -32.92326 -65.002609 -32.899387 -64.748642 -21.909216 -90.366234
1506000000 -3.5464406 139.87956 -32.807529 -93.15918 -32.783764 -92.927704 -22.028744 -114.6321
1515500000 -3.6738694 110.78799 -32.719486 -121.62783 -32.695545 -121.38651 -22.408964 -138.29767
1525000000 -3.6931047 81.647469 -32.66748 -150.06291 -32.642464 -149.83409 -23.157314 -162.40947
1534500000 -3.6986499 53.098343 -32.614922 -178.46458 -32.592991 -178.22351 -24.267267 171.3418
1544000000 -3.7636757 24.228346 -32.57423 153.04784 -32.548145 153.27716 -25.504421 141.11151
1553500000 -3.774193 -5.0883932 -32.565964 124.53061 -32.543114 124.74327 -26.356878 106.79134
1563000000 -3.6916599 -33.565559 -32.577454 96.268661 -32.555454 96.504402 -26.455708 71.902252
1572500000 -3.6278958 -61.033573 -32.563087 68.184601 -32.539246 68.388367 -26.112244 40.199348
1582000000 -3.6465344 -88.527695 -32.533566 40.047874 -32.513638 40.265949 -25.846254 11.690224
1591500000 -3.6705489 -116.18299 -32.492348 11.980303 -32.468994 12.198627 -25.87438 -15.584947
1601000000 -3.6752098 -143.84744 -32.421101 -16.188824 -32.402046 -15.984028 -26.12755 -43.325436
1610500000 -3.7377043 -171.6949 -32.358669 -44.479031 -32.3382 -44.259167 -26.405537 -71.917328
1620000000 -3.8025694 160.21291 -32.284687 -72.741005 -32.262291 -72.548737 -26.59915 -100.33406
1629500000 -3.8598912 131.74957 -32.197479 -101.26905 -32.178158 -101.0575 -26.838631 -127.41914
1639000000 -3.9899144 102.81408 -32.147717 -129.94484 -32.125538 -129.74188 -27.402714 -153.26387
1648500000 -4.0816827 73.227219 -32.104641 -158.59473 -32.085442 -158.40134 -28.533325 -179.67244
1658000000 -4.0644879 43.557877 -32.0835 172.61815 -32.061668 172.82317 -30.288109 149.90196
1667500000 -4.0579906 14.576634 -32.089901 143.93829 -32.068562 144.12572 -32.115696 110.50373
1677000000 -4.0854998 -14.472906 -32.099449 115.34981 -32.080189 115.54586 -32.446827 63.631989
1686500000 -4.0257511 -43.675034 -32.123165 86.809219 -32.101414 86.999702 -31.094591 22.270008
1696000000 -3.8910921 -71.675758 -32.152054 58.481445 -32.131828 58.663807 -29.607927 -10.40717
1705500000 -3.8642585 -98.704559 -32.15913 30.299679 -32.138939 30.484282 -28.606371 -39.089092
1715000000 -3.9228787 -126.20618 -32.136299 2.1545596 -32.115734 2.3244102 -28.001652 -66.964149
1724500000 -3.8902738 -154.19667 -32.089298 -26.113483 -32.070599 -25.945889 -27.555912 -94.962372
1734000000 -3.8365796 178.37624 -32.042522 -54.493187 -32.021946 -54.320194 -27.14526 -122.38911
1743500000 -3.9107096 151.11389 -31.991457 -82.904854 -31.973272 -82.755249 -26.855227 -148.43443
1753000000 -4.0201683 122.98605 -31.926495 -111.40105 -31.910671 -111.23751 -26.880074 -173.30032
1762500000 -4.0310736 94.311081 -31.849209 -140.12685 -31.831015 -139.96779 -27.367176 161.78111
1772000000 -4.0537057 65.727394 -31.803217 -169.13957 -31.788464 -168.97943 -28.325411 134.69844
1781500000 -4.1484776 37.170143 -31.792294 161.98962 -31.775259 162.16043 -29.472532 103.05962
1791000000 -4.1647286 8.3179302 -31.758562 133.12402 -31.742361 133.27905 -30.150843 66.630432
1800500000 -4.1021934 -20.552666 -31.739931 103.96488 -31.72393 104.14315 -29.886787 30.106785
1810000000 -4.0588565 -48.830456 -31.777721 74.842926 -31.759676 75.010109 -29.12499 -1.9742534
1819500000 -4.0307589 -76.469322 -31.824232 45.976891 -31.80905 46.14595 -28.439226 -30.145044
1829000000 -3.9947603 -103.61493 -31.846275 17.244772 -31.827503 17.424944 -27.997166 -56.673176
1838500000 -3.9522166 -130.71143 -31.831278 -11.685612 -31.812243 -11.514563 -27.687328 -83.076172
1848000000 -3.9654942 -158.01779 -31.842083 -40.956787 -31.82445 -40.773033 -27.341267 -109.39049
1857500000 -4.0394459 174.91722 -31.894226 -70.105347 -31.873537 -69.939796 -26.963045 -134.85789
1867000000 -4.0912647 147.86272 -31.912678 -99.296127 -31.892744 -99.128113 -26.742201 -158.99602
1876500000 -4.1298757 120.32354 -31.948641 -129.02173 -31.926039 -128.8559 -26.915174 177.7601
1886000000 -4.2305865 92.542824 -32.075962 -159.07281 -32.054085 -158.92337 -27.655676 153.85706
1895500000 -4.3912902 64.523834 -32.317177 171.0009 -32.29546 171.15158 -28.994356 126.7567
1905000000 -4.4884791 36.094055 -32.633781 141.51021 -32.610088 141.65463 -30.61364 92.835442
1914500000 -4.4702339 7.6720681 -32.999718 112.47874 -32.977489 112.62093 -31.463785 51.047203
1924000000 -4.4749584 -20.592743 -33.426964 84.132416 -33.404236 84.266991 -30.827785 9.226244
1933500000 -4.5081449 -49.134483 -33.84726 56.86158 -33.825546 56.981236 -29.57198 -26.426081
1943000000 -4.4135151 -77.528778 -34.156933 30.430655 -34.136356 30.55225 -28.501747 -58.058765
1952500000 -4.2510457 -104.9097 -34.317898 4.2578454 -34.296818 4.3858871 -27.651405 -88.71904
1962000000 -4.2204113 -132.11421 -34.368214 -22.222914 -34.349621 -22.103455 -26.811167 -119.08682
1971500000 -4.2759466 -160.0007 -34.378181 -48.965565 -34.357082 -48.834415 -25.901726 -148.09233
1981000000 -4.2314692 172.23625 -34.322388 -75.846924 -34.300819 -75.724335 -25.093487 -174.86847
1990500000 -4.1825461 145.04817 -34.21246 -103.22927 -34.193615 -103.10469 -24.629868 160.11768
2000000000 -4.2695322 117.56314 -34.101921 -131.12589 -34.080067 -130.99925 -24.662275 135.28862
