!Keysight Technologies,N5242B,MY48420967,A.15.65.19
!Date: Monday, December 19, 2022 11:34:51
!Correction: S11(C  2-Port  ) 
!S21(C  2-Port  ) 
!S12(C  2-Port  ) 
!S22(C  2-Port  ) 
!S2P File: Measurements: S11, S21, S12, S22:
# Hz S  dB   R 50
100000000 -1.373742 40.90456 -45.624725 140.90941 -45.618706 140.9597 -19.33263 49.399025
109500000 -1.2527131 11.477393 -45.042572 112.06227 -45.029915 112.11899 -18.649109 23.70447
119000000 -1.1237769 -16.682619 -44.457245 83.55703 -44.444157 83.580338 -18.128693 -1.1955767
128500000 -1.0743905 -44.744877 -43.855305 54.979156 -43.843861 55.019157 -17.752905 -25.638559
138000000 -1.070755 -73.549866 -43.277622 26.142981 -43.270092 26.166784 -17.518303 -49.776733
147500000 -1.1026945 -102.49354 -42.765911 -2.7999573 -42.750072 -2.7479744 -17.443605 -73.784653
157000000 -1.1620053 -131.47966 -42.281921 -31.756283 -42.267387 -31.73378 -17.553804 -98.011185
166500000 -1.2647889 -161.16742 -41.804474 -60.844967 -41.791645 -60.804539 -17.850534 -123.04871
176000000 -1.3723741 168.57907 -41.405811 -90.081665 -41.39286 -90.061958 -18.278469 -149.58145
185500000 -1.4582704 138.35146 -41.062637 -119.18517 -41.049431 -119.16142 -18.691505 -178.11066
195000000 -1.5104729 108.16737 -40.757214 -148.12627 -40.744724 -148.09875 -18.879766 151.67616
204500000 -1.4969484 78.363914 -40.474243 -176.8065 -40.462692 -176.78505 -18.707052 121.20477
214000000 -1.4384048 49.189133 -40.185631 154.67171 -40.172234 154.67268 -18.241571 92.115395
223500000 -1.4114368 20.313715 -39.904064 126.13977 -39.894226 126.15788 -17.685125 65.08149
233000000 -1.3818791 -8.4109154 -39.627132 97.831291 -39.615551 97.860931 -17.213381 39.768364
242500000 -1.3022661 -36.893589 -39.308952 69.53894 -39.299999 69.538971 -16.914337 15.416564
252000000 -1.2830721 -65.182419 -38.983311 41.025471 -38.9711 41.022629 -16.799185 -8.6746674
261500000 -1.3633606 -93.973152 -38.661457 12.298131 -38.652214 12.327302 -16.836632 -32.978695
271000000 -1.4434316 -123.62207 -38.358681 -16.593525 -38.3484 -16.577141 -16.983839 -57.70377
280500000 -1.4807403 -153.47118 -38.0849 -45.628128 -38.074734 -45.611137 -17.21287 -82.892624
290000000 -1.560208 176.79523 -37.844604 -74.708771 -37.830215 -74.717552 -17.518421 -108.59413
299500000 -1.6952106 146.59235 -37.637062 -103.80772 -37.62553 -103.80955 -17.900671 -135.01341
309000000 -1.7513447 115.96805 -37.461327 -132.8071 -37.450603 -132.81384 -18.327675 -162.50433
318500000 -1.7071774 85.94001 -37.312164 -161.66638 -37.300854 -161.67393 -18.70212 168.65118
328000000 -1.685819 56.82719 -37.169556 169.7088 -37.159981 169.70268 -18.87923 138.7677
337500000 -1.6966316 27.810991 -37.005264 141.25021 -36.995415 141.24887 -18.771128 108.96579
347000000 -1.6576992 -1.4911954 -36.821495 112.72358 -36.815197 112.7205 -18.442801 80.517113
356500000 -1.5921558 -30.384531 -36.647587 84.148148 -36.637566 84.136116 -18.06868 53.987301
366000000 -1.5929418 -58.876839 -36.456947 55.591824 -36.447868 55.599243 -17.819771 29.068258
375500000 -1.6659517 -87.940117 -36.247837 26.871597 -36.240017 26.880749 -17.794418 5.0129032
385000000 -1.7263178 -117.93308 -36.047131 -2.1279507 -36.040894 -2.1362834 -18.018959 -19.023405
394500000 -1.7629794 -148.1747 -35.893238 -31.319952 -35.884869 -31.324331 -18.464191 -43.757305
404000000 -1.841897 -178.16913 -35.787796 -60.413708 -35.778812 -60.411133 -19.062613 -69.687065
413500000 -1.9347327 151.68958 -35.686634 -89.375938 -35.681175 -89.378838 -19.731459 -97.026367
423000000 -1.9713175 121.141 -35.608624 -118.42348 -35.59882 -118.43092 -20.399376 -125.77454
432500000 -1.9582487 90.991859 -35.579975 -147.3266 -35.572891 -147.32501 -21.013578 -155.89227
442000000 -1.9258534 61.895737 -35.561417 -175.79561 -35.553246 -175.79999 -21.503765 172.56355
451500000 -1.8894762 33.291241 -35.499519 155.92313 -35.494865 155.91559 -21.742191 139.81293
461000000 -1.8513316 4.5950432 -35.420166 127.56537 -35.41325 127.55908 -21.604624 106.91226
470500000 -1.8080337 -23.95801 -35.348351 99.231087 -35.341415 99.22464 -21.126219 75.520348
480000000 -1.780333 -52.042332 -35.253384 71.059891 -35.249485 71.058716 -20.517908 46.64698
489500000 -1.7944962 -80.159363 -35.112679 42.830032 -35.107239 42.82777 -20.018433 20.100515
499000000 -1.843695 -109.01888 -34.939987 14.221581 -34.934479 14.220785 -19.783335 -5.0704494
508500000 -1.8934451 -138.37866 -34.785065 -14.851959 -34.78019 -14.840428 -19.86842 -30.08824
518000000 -1.9254088 -167.61229 -34.723316 -44.345142 -34.718323 -44.330692 -20.242794 -56.220737
527500000 -1.9650639 163.14175 -34.763359 -73.343422 -34.758663 -73.342964 -20.789938 -84.44265
537000000 -2.0146093 133.64305 -34.79842 -101.95539 -34.793861 -101.9482 -21.273668 -115.08501
546500000 -2.0275724 104.32329 -34.833149 -130.31541 -34.829132 -130.30612 -21.461277 -147.37357
556000000 -1.9875919 75.682678 -34.852577 -158.40535 -34.848396 -158.40337 -21.287498 -179.68996
565500000 -1.9329705 47.646793 -34.84375 173.62582 -34.837952 173.61916 -20.8703 149.15558
575000000 -1.8948009 19.894264 -34.813625 145.67923 -34.808994 145.67889 -20.357029 119.3074
584500000 -1.8664181 -7.7442784 -34.762093 117.8073 -34.758324 117.79249 -19.812366 90.520401
594000000 -1.8287061 -35.346497 -34.68494 89.919571 -34.682144 89.898109 -19.251558 62.704647
603500000 -1.8040125 -62.982918 -34.58733 61.900265 -34.588318 61.898174 -18.69511 36.026478
613000000 -1.8347439 -90.710274 -34.485867 33.795662 -34.48521 33.810215 -18.205141 10.54111
622500000 -1.8963213 -118.92538 -34.359425 5.5959129 -34.359577 5.6198411 -17.861488 -13.945925
632000000 -1.9504195 -147.96893 -34.237175 -22.941572 -34.23476 -22.913498 -17.729244 -37.938656
641500000 -1.9863743 -177.28445 -34.159351 -51.624184 -34.154541 -51.596825 -17.832043 -62.144833
651000000 -2.0328813 153.65736 -34.110271 -80.195496 -34.106461 -80.172676 -18.137251 -87.351204
660500000 -2.0879638 124.5929 -34.05975 -108.66022 -34.057232 -108.64909 -18.545866 -114.15791
670000000 -2.1006196 95.179031 -34.022621 -137.21397 -34.018841 -137.20453 -18.895704 -142.66481
679500000 -2.0591674 66.108162 -34.020092 -165.6658 -34.015789 -165.65799 -19.036289 -172.24251
689000000 -2.0128043 38.09277 -34.019547 166.26913 -34.016438 166.28157 -18.931093 158.30727
698500000 -1.9937618 10.504452 -33.964497 138.37514 -33.961834 138.3766 -18.670311 129.87196
708000000 -1.9767619 -17.640179 -33.87468 110.22208 -33.871986 110.22997 -18.379642 102.61308
717500000 -1.9484941 -45.965778 -33.808266 81.921692 -33.805782 81.935333 -18.136341 76.238113
727000000 -1.9452665 -73.666405 -33.740299 53.814865 -33.737026 53.828529 -17.963615 50.413597
736500000 -2.0044618 -101.57689 -33.616009 25.614479 -33.61422 25.622938 -17.854834 24.98601
746000000 -2.0966718 -130.87291 -33.492622 -3.0716286 -33.489674 -3.069212 -17.813803 -0.033443566
755500000 -2.1385887 -160.76669 -33.422123 -31.923363 -33.420586 -31.909557 -17.868849 -24.632963
765000000 -2.1630652 169.92645 -33.384212 -60.630688 -33.381363 -60.623619 -18.068914 -48.960434
774500000 -2.2498376 140.57608 -33.339958 -89.331978 -33.337254 -89.322556 -18.457821 -73.424683
784000000 -2.3144305 110.30185 -33.320042 -118.21276 -33.317829 -118.2085 -19.046038 -98.630814
793500000 -2.274605 80.245071 -33.36071 -147.0177 -33.359894 -147.00323 -19.788441 -125.29135
803000000 -2.2162659 51.709366 -33.42205 -175.32957 -33.420582 -175.32291 -20.560837 -153.93381
812500000 -2.2040088 23.711863 -33.434608 156.55269 -33.433678 156.56491 -21.181883 175.55859
822000000 -2.1849375 -4.7371092 -33.430706 128.32634 -33.429382 128.3356 -21.512501 144.20218
831500000 -2.120409 -32.904766 -33.435444 100.13815 -33.43465 100.14688 -21.568958 113.36297
841000000 -2.0886605 -60.410141 -33.425526 72.071732 -33.424599 72.076302 -21.488338 83.787239
850500000 -2.1313601 -88.049065 -33.388252 43.991909 -33.388145 43.993263 -21.409996 55.439674
860000000 -2.1724174 -116.37648 -33.331306 15.748123 -33.330441 15.762052 -21.407156 27.920925
869500000 -2.1999109 -145.12846 -33.285629 -12.737294 -33.285557 -12.728532 -21.503101 0.8636719
879000000 -2.2566278 -173.94946 -33.273026 -41.230213 -33.273731 -41.227215 -21.713146 -25.929092
888500000 -2.3076925 157.03838 -33.264503 -69.700226 -33.264236 -69.69619 -22.069599 -52.644302
898000000 -2.3347805 127.80586 -33.272404 -98.262047 -33.272118 -98.25177 -22.622704 -79.686447
907500000 -2.3505177 98.652473 -33.313332 -126.76318 -33.313496 -126.75208 -23.406477 -107.88756
917000000 -2.3306863 69.818901 -33.376995 -155.07062 -33.376804 -155.06804 -24.366938 -138.487
926500000 -2.2691951 41.669937 -33.444 176.87083 -33.44418 176.87811 -25.264696 -172.7332
936000000 -2.204324 14.282644 -33.489517 149.03871 -33.490383 149.03816 -25.653759 149.72841
945500000 -2.1655061 -12.884198 -33.506645 121.25949 -33.5084 121.25977 -25.255129 112.13439
955000000 -2.1339209 -40.061714 -33.512764 93.494286 -33.514477 93.489914 -24.318438 77.825951
964500000 -2.095973 -67.006737 -33.498943 65.785088 -33.501308 65.78759 -23.289921 47.313747
974000000 -2.0953205 -93.796837 -33.460804 38.070538 -33.464111 38.070187 -22.417788 19.479855
983500000 -2.1456666 -120.94578 -33.3964 10.258942 -33.40023 10.271895 -21.77438 -6.8824921
993000000 -2.190465 -148.86086 -33.314888 -17.788708 -33.318447 -17.773092 -21.34763 -32.582626
1002500000 -2.2184343 -177.28011 -33.255829 -46.088463 -33.258919 -46.069946 -21.107811 -58.080208
1012000000 -2.2587318 154.4675 -33.225399 -74.290222 -33.22863 -74.269119 -21.032558 -83.667938
1021500000 -2.3028572 126.14832 -33.177715 -102.47872 -33.178314 -102.46404 -21.113655 -109.63806
1031000000 -2.3369133 97.16185 -33.141743 -130.9187 -33.144043 -130.89436 -21.329535 -136.396
1040500000 -2.3210704 68.122597 -33.161312 -159.31227 -33.162777 -159.29298 -21.620386 -164.41324
1050000000 -2.2616909 40.127251 -33.204411 172.67224 -33.205555 172.68848 -21.863636 166.03706
1059500000 -2.2186866 13.005452 -33.203354 144.94286 -33.204277 144.95612 -21.903498 135.31474
1069000000 -2.1979029 -14.461394 -33.159363 117.04675 -33.160984 117.05466 -21.643383 104.57437
1078500000 -2.1733704 -42.258545 -33.143375 89.011345 -33.144615 89.027245 -21.13789 75.105919
1088000000 -2.1405513 -69.206093 -33.131611 61.328987 -33.132904 61.331604 -20.548071 47.543972
1097500000 -2.1412706 -95.744659 -33.038338 33.731949 -33.039795 33.747303 -20.024132 21.764448
1107000000 -2.2081409 -123.40084 -32.907127 5.6401649 -32.908474 5.6511273 -19.658039 -2.7490087
1116500000 -2.2764196 -152.12715 -32.815048 -22.752226 -32.817638 -22.745525 -19.48457 -26.567894
1126000000 -2.3073204 179.30966 -32.751732 -51.079868 -32.753014 -51.073433 -19.506752 -50.151722
1135500000 -2.3550713 150.91754 -32.66061 -79.38739 -32.663231 -79.377991 -19.715076 -73.843521
1145000000 -2.4337265 121.52383 -32.56601 -108.11166 -32.567879 -108.10033 -20.098028 -97.884743
1154500000 -2.4932835 91.29985 -32.550594 -137.0657 -32.553192 -137.05907 -20.65131 -122.57278
1164000000 -2.4811583 61.851093 -32.59375 -165.60582 -32.596703 -165.5941 -21.363226 -148.26027
1173500000 -2.4296405 33.376804 -32.603771 166.1386 -32.604549 166.14296 -22.195862 -175.45284
1183000000 -2.4136364 4.8686996 -32.60218 137.74986 -32.604614 137.76134 -23.047075 155.35301
1192500000 -2.4054778 -23.73876 -32.634708 109.40848 -32.635929 109.4101 -23.736876 124.06697
1202000000 -2.3555028 -51.625328 -32.669006 81.377754 -32.671646 81.387825 -24.075985 91.648079
1211500000 -2.3134351 -78.746094 -32.654453 53.526714 -32.656246 53.536053 -24.028269 59.892227
1221000000 -2.3455417 -106.23868 -32.597328 25.42131 -32.599216 25.420597 -23.765387 30.183758
1230500000 -2.4240623 -134.60469 -32.562702 -2.9106703 -32.565468 -2.9049163 -23.515829 2.7339718
1240000000 -2.4590287 -163.09236 -32.539246 -31.154289 -32.541176 -31.151318 -23.451971 -22.999674
1249500000 -2.4683251 168.5218 -32.488548 -59.465984 -32.49054 -59.454769 -23.661964 -47.820461
1259000000 -2.5330672 139.61826 -32.450397 -88.088722 -32.452621 -88.082344 -24.193979 -72.507675
1268500000 -2.6098673 110.12925 -32.455379 -116.75474 -32.457783 -116.75066 -25.075075 -97.884674
1278000000 -2.6227531 80.64711 -32.491169 -145.35515 -32.493946 -145.34462 -26.321295 -124.92776
1287500000 -2.5942569 51.580761 -32.549522 -173.80496 -32.552326 -173.79468 -27.904797 -155.28101
1297000000 -2.5555303 23.02 -32.624737 157.91255 -32.627167 157.92099 -29.597874 168.67719
1306500000 -2.5091987 -4.9529161 -32.700706 129.85925 -32.703396 129.87679 -30.655031 125.47468
1316000000 -2.4600272 -32.463776 -32.760025 101.9743 -32.76318 101.98819 -30.185627 80.413391
1325500000 -2.4104116 -59.736164 -32.80365 74.157814 -32.807579 74.165642 -28.618311 41.565765
1335000000 -2.3683131 -86.561119 -32.840958 46.479546 -32.844257 46.481113 -26.948725 9.808177
1344500000 -2.363445 -113.02625 -32.832436 18.907177 -32.83633 18.90369 -25.609402 -17.524296
1354000000 -2.4041731 -140.0201 -32.787315 -8.8609304 -32.792461 -8.86236 -24.68417 -42.541988
1363500000 -2.4377487 -167.79451 -32.748173 -36.807335 -32.751804 -36.816113 -24.151369 -66.619957
1373000000 -2.4344747 164.57756 -32.714809 -64.730057 -32.720314 -64.727249 -23.971296 -90.68248
1382500000 -2.4593799 137.15311 -32.653721 -92.686455 -32.659695 -92.681862 -24.087685 -115.47453
1392000000 -2.5474861 108.81902 -32.59177 -121.00373 -32.598782 -120.99859 -24.4321 -141.67752
1401500000 -2.5907223 79.685692 -32.591362 -149.40836 -32.596939 -149.39339 -24.88254 -169.77069
1411000000 -2.5383017 51.178299 -32.619961 -177.57501 -32.625053 -177.55644 -25.258436 160.0222
1420500000 -2.504967 23.594868 -32.633541 154.47128 -32.638691 154.50177 -25.369186 128.25974
1430000000 -2.5188136 -4.1247816 -32.633133 126.47481 -32.637501 126.49509 -25.119703 96.388428
1439500000 -2.4868948 -32.104408 -32.653908 98.534515 -32.657482 98.561073 -24.571936 65.868149
1449000000 -2.3957183 -59.109169 -32.675419 70.879478 -32.676735 70.910149 -23.901352 37.394135
1458500000 -2.3410959 -85.138153 -32.63797 43.434971 -32.641384 43.456871 -23.263891 10.891451
1468000000 -2.3815958 -111.65842 -32.550262 15.758479 -32.551949 15.783076 -22.758274 -14.081782
1477500000 -2.435909 -139.15216 -32.462162 -12.120359 -32.463985 -12.104813 -22.431128 -38.06007
1487000000 -2.4256928 -166.63011 -32.378414 -40.086903 -32.380051 -40.0746 -22.31131 -61.426994
1496500000 -2.4347391 166.24339 -32.271091 -68.011383 -32.272545 -67.999786 -22.391365 -84.491966
1506000000 -2.5314043 138.40694 -32.141041 -96.246727 -32.142872 -96.238853 -22.683357 -107.60585
1515500000 -2.6227748 109.33369 -32.044163 -124.79223 -32.044563 -124.78462 -23.191778 -131.01801
1525000000 -2.6324077 80.15921 -31.979733 -153.31796 -31.981838 -153.30763 -23.908787 -155.09363
1534500000 -2.636461 51.541901 -31.924355 178.19002 -31.926577 178.19623 -24.825293 179.6445
1544000000 -2.6859667 22.632027 -31.878651 149.6107 -31.880718 149.61615 -25.886992 152.57968
1553500000 -2.6948731 -6.6078534 -31.873428 121.03973 -31.875208 121.04877 -26.959166 123.19477
1563000000 -2.6262164 -35.035042 -31.879929 92.741653 -31.883123 92.750435 -27.825502 91.59436
1572500000 -2.5791221 -62.601444 -31.86297 64.606941 -31.866001 64.612892 -28.296711 59.161728
1582000000 -2.5934517 -90.186188 -31.827593 36.453896 -31.830412 36.458004 -28.409571 27.907793
1591500000 -2.6064582 -117.9557 -31.775745 8.3084736 -31.778522 8.3224964 -28.388853 -1.0115154
1601000000 -2.61657 -145.7296 -31.704041 -19.903091 -31.707045 -19.898827 -28.482021 -27.676138
1610500000 -2.659374 -173.74055 -31.623665 -48.228733 -31.627066 -48.218723 -28.842129 -52.793682
1620000000 -2.6987982 157.88472 -31.538208 -76.663467 -31.540442 -76.653824 -29.543795 -77.106918
1629500000 -2.7466919 129.25194 -31.455809 -105.29703 -31.458668 -105.28351 -30.64518 -101.21392
1639000000 -2.8467436 100.1159 -31.396378 -134.07671 -31.399076 -134.06462 -32.224995 -125.49184
1648500000 -2.9148684 70.322533 -31.362406 -162.93774 -31.36495 -162.93611 -34.501049 -150.33023
1658000000 -2.8973596 40.665596 -31.357851 168.20224 -31.360249 168.21455 -38.032681 -177.03503
1667500000 -2.8934979 11.631077 -31.373014 139.44402 -31.375446 139.45444 -44.671898 145.65001
1677000000 -2.9197974 -17.455229 -31.396856 110.77829 -31.400225 110.78976 -48.547249 21.676891
1686500000 -2.8667877 -46.489491 -31.437344 82.222466 -31.439392 82.22525 -39.501335 -31.56819
1696000000 -2.762862 -74.434425 -31.477301 53.890717 -31.480667 53.898056 -35.001804 -57.554916
1705500000 -2.7538109 -101.59836 -31.496111 25.715948 -31.498632 25.726984 -32.386711 -79.772659
1715000000 -2.8009601 -129.12816 -31.484524 -2.3785489 -31.487429 -2.3799686 -30.830336 -101.21429
1724500000 -2.7653513 -157.0041 -31.440611 -30.572792 -31.442884 -30.570326 -30.003954 -123.05303
1734000000 -2.7186315 175.49789 -31.391773 -58.936783 -31.395195 -58.938934 -29.709089 -146.05006
1743500000 -2.78146 148.10362 -31.346966 -87.325401 -31.351093 -87.319611 -29.789095 -170.81906
1753000000 -2.8641081 119.99928 -31.280798 -115.75922 -31.284725 -115.76474 -30.08333 162.30885
1762500000 -2.8654759 91.284599 -31.202629 -144.49309 -31.20752 -144.48743 -30.437248 133.41071
1772000000 -2.8759766 62.628403 -31.1665 -173.46678 -31.170742 -173.46072 -30.740255 102.871
1781500000 -2.9469516 34.151085 -31.162567 157.72421 -31.168653 157.7346 -30.918976 71.069221
1791000000 -2.963304 5.5353346 -31.13937 129.03639 -31.1436 129.0443 -30.904011 38.397381
1800500000 -2.8973787 -23.118259 -31.105627 100.08263 -31.110769 100.09886 -30.60404 5.6142445
1810000000 -2.8564055 -51.228146 -31.123304 71.055305 -31.128162 71.077652 -30.019705 -25.825258
1819500000 -2.8571682 -78.609146 -31.161051 42.335354 -31.164948 42.3521 -29.274614 -54.756428
1829000000 -2.8263764 -105.65626 -31.146229 13.80248 -31.149658 13.826058 -28.5851 -80.734512
1838500000 -2.7709632 -132.74184 -31.092606 -15.089765 -31.095594 -15.064735 -28.13402 -104.23338
1848000000 -2.7796295 -159.86205 -31.073629 -44.319199 -31.076342 -44.293533 -28.013151 -125.97836
1857500000 -2.8470504 173.07181 -31.095034 -73.426056 -31.097288 -73.406471 -28.271952 -146.8264
1867000000 -2.8756509 145.8765 -31.080719 -102.50932 -31.082891 -102.49158 -28.880745 -167.71811
1876500000 -2.8759856 118.33513 -31.066278 -132.08604 -31.067793 -132.06375 -29.837748 170.08047
1886000000 -2.9586229 90.380394 -31.130049 -162.02515 -31.132151 -162.00333 -31.132414 145.35533
1895500000 -3.1027341 61.994164 -31.278816 168.13814 -31.279694 168.15265 -32.69558 116.60234
1905000000 -3.169481 33.35321 -31.47109 138.51752 -31.472082 138.52711 -34.342266 81.918373
1914500000 -3.1589816 4.8051815 -31.70109 109.0599 -31.702599 109.07598 -35.499741 39.834114
1924000000 -3.195456 -23.717926 -31.986519 79.783783 -31.988142 79.789124 -35.31039 -6.6630321
1933500000 -3.2481861 -52.340141 -32.339954 51.106003 -32.342442 51.118774 -33.703514 -49.625401
1943000000 -3.1992962 -80.495979 -32.679306 23.228231 -32.68021 23.242924 -31.612202 -85.297333
1952500000 -3.100049 -107.83106 -32.941048 -4.1605992 -32.94445 -4.1478744 -29.699154 -115.26781
1962000000 -3.0888972 -135.12611 -33.1408 -31.362375 -33.143909 -31.351036 -28.219402 -141.86072
1971500000 -3.1405833 -162.89386 -33.294533 -58.497765 -33.296757 -58.493038 -27.230963 -166.91542
1981000000 -3.1217759 169.39261 -33.380844 -85.436943 -33.382805 -85.420052 -26.720701 168.18507
1990500000 -3.07619 141.99174 -33.376083 -112.56555 -33.378536 -112.56132 -26.628283 142.1736
2000000000 -3.1237442 114.23678 -33.320816 -140.19072 -33.323891 -140.17789 -26.819477 113.85383
