!Keysight Technologies,N5242B,MY48420967,A.15.65.19
!Date: Monday, December 19, 2022 10:03:13
!Correction: S11(C  2-Port  ) 
!S21(C  2-Port  ) 
!S12(C  2-Port  ) 
!S22(C  2-Port  ) 
!S2P File: Measurements: S11, S21, S12, S22:
# Hz S  dB   R 50
100000000 -1.2929193 40.857365 -45.732143 140.86836 -45.725197 140.95595 -16.819094 51.27874
109500000 -1.1725827 11.467762 -45.125656 112.10091 -45.102081 112.22037 -16.305248 25.113276
119000000 -1.0429299 -16.674391 -44.516987 83.650589 -44.494541 83.728233 -15.908096 -0.36897445
128500000 -0.99267811 -44.717667 -43.89489 55.098499 -43.874813 55.174755 -15.622066 -25.444244
138000000 -0.98817682 -73.51313 -43.298748 26.227571 -43.280796 26.300303 -15.448854 -50.248043
147500000 -1.0188632 -102.43709 -42.776917 -2.708987 -42.749592 -2.6477211 -15.407132 -74.946762
157000000 -1.0788965 -131.42451 -42.276943 -31.762787 -42.253513 -31.743237 -15.517329 -99.850868
166500000 -1.181309 -161.10121 -41.793934 -60.837402 -41.77034 -60.803562 -15.776569 -125.45837
176000000 -1.2911974 168.64143 -41.389984 -90.146561 -41.367073 -90.134743 -16.13484 -152.29974
185500000 -1.3796554 138.41656 -41.045742 -119.28852 -41.022636 -119.28204 -16.473213 179.30206
195000000 -1.4360838 108.2304 -40.742161 -148.27728 -40.718861 -148.2589 -16.633295 149.66557
204500000 -1.4275144 78.419678 -40.460747 -176.97357 -40.44104 -176.97307 -16.518097 119.88757
214000000 -1.3729706 49.233414 -40.175938 154.47986 -40.152256 154.47665 -16.177362 91.186104
223500000 -1.3510377 20.346317 -39.89669 125.93945 -39.874481 125.95281 -15.75928 64.103577
233000000 -1.3239086 -8.3901892 -39.617775 97.643349 -39.59679 97.64991 -15.403161 38.418919
242500000 -1.2476399 -36.888462 -39.299774 69.34301 -39.281376 69.339424 -15.186234 13.532868
252000000 -1.2299248 -65.188583 -38.975506 40.830795 -38.9543 40.825596 -15.1224 -11.143614
261500000 -1.3110201 -93.990936 -38.650303 12.105679 -38.632252 12.123769 -15.186681 -36.019371
271000000 -1.3910488 -123.64719 -38.344479 -16.795193 -38.328102 -16.806776 -15.342508 -61.280998
280500000 -1.4278061 -153.49609 -38.071182 -45.829735 -38.053364 -45.847694 -15.564895 -86.967468
290000000 -1.5072955 176.76912 -37.831478 -74.940536 -37.811218 -74.947456 -15.847035 -113.12447
299500000 -1.6408037 146.57118 -37.625359 -104.03828 -37.606205 -104.04957 -16.185335 -139.91711
309000000 -1.6955146 115.96357 -37.447739 -133.05168 -37.431862 -133.06265 -16.547821 -167.61166
318500000 -1.6507432 85.950699 -37.302689 -161.91122 -37.282398 -161.93013 -16.851851 163.64084
328000000 -1.6284908 56.852638 -37.161716 169.46985 -37.142815 169.45465 -16.986423 134.17723
337500000 -1.6370397 27.852631 -36.997559 141.02107 -36.980801 141.00616 -16.894068 104.91496
347000000 -1.5963832 -1.4247307 -36.813568 112.50056 -36.79847 112.49054 -16.633804 76.816971
356500000 -1.5286999 -30.304893 -36.637257 83.944664 -36.619823 83.932838 -16.346533 50.287704
366000000 -1.5268315 -58.785217 -36.442749 55.401146 -36.427536 55.404175 -16.170462 25.047276
375500000 -1.5959316 -87.829552 -36.230267 26.690447 -36.214954 26.673115 -16.187897 0.44669294
385000000 -1.6531686 -117.80765 -36.024597 -2.3352149 -36.01083 -2.3495147 -16.417522 -24.255459
394500000 -1.6878232 -148.03409 -35.86647 -31.539536 -35.852631 -31.548754 -16.826881 -49.684414
404000000 -1.7643968 -178.01927 -35.757629 -60.666862 -35.742744 -60.672012 -17.348089 -76.233788
413500000 -1.8565795 151.84785 -35.654896 -89.666359 -35.643318 -89.677887 -17.90398 -104.01327
423000000 -1.8925133 121.31019 -35.575958 -118.7378 -35.560837 -118.75275 -18.432238 -132.93745
432500000 -1.880172 91.162781 -35.547176 -147.68336 -35.53405 -147.69077 -18.892214 -162.88225
442000000 -1.8496701 62.065357 -35.530266 -176.18277 -35.516998 -176.19661 -19.23554 166.20323
451500000 -1.8136603 33.45573 -35.471924 155.50261 -35.459446 155.49048 -19.378727 134.5732
461000000 -1.775315 4.7536378 -35.395397 127.11987 -35.383469 127.10565 -19.248613 103.01028
470500000 -1.7322632 -23.804962 -35.325958 98.748566 -35.314152 98.746452 -18.878397 72.652954
480000000 -1.7043445 -51.903378 -35.237919 70.540703 -35.229092 70.539597 -18.41844 44.209766
489500000 -1.7167901 -80.035294 -35.110115 42.278873 -35.099297 42.267944 -18.046505 17.5574
499000000 -1.7640016 -108.91148 -34.963356 13.682524 -34.953846 13.673398 -17.889778 -8.0441332
508500000 -1.8151101 -138.29523 -34.847759 -15.142519 -34.837788 -15.136617 -17.995075 -33.593925
518000000 -1.8516413 -167.52875 -34.749237 -44.018501 -34.740631 -44.015747 -18.326738 -60.105816
527500000 -1.8904166 163.25491 -34.680992 -73.114601 -34.670593 -73.115929 -18.768736 -88.364235
537000000 -1.9366241 133.76318 -34.684143 -102.22362 -34.674213 -102.21321 -19.140198 -118.52504
546500000 -1.9475954 104.43094 -34.742081 -130.89848 -34.732944 -130.8911 -19.277287 -149.84286
556000000 -1.907675 75.776459 -34.789532 -159.105 -34.780708 -159.09853 -19.144878 178.91051
565500000 -1.8534313 47.730103 -34.799553 172.90363 -34.789337 172.89497 -18.83157 148.56104
575000000 -1.81502 19.964937 -34.782696 144.96417 -34.772591 144.95763 -18.442905 119.1984
584500000 -1.7858273 -7.6818719 -34.739338 117.10329 -34.731895 117.0899 -18.024601 90.662025
594000000 -1.7468624 -35.288002 -34.669968 89.236275 -34.662548 89.208107 -17.585882 62.912258
603500000 -1.7205496 -62.933609 -34.576607 61.227627 -34.573521 61.223091 -17.142746 36.121243
613000000 -1.7485967 -90.666771 -34.477425 33.143475 -34.472996 33.159672 -16.747562 10.362293
622500000 -1.8065934 -118.88305 -34.3531 4.9565868 -34.348846 4.9830699 -16.47332 -14.5165
632000000 -1.85779 -147.92345 -34.231762 -23.568518 -34.225067 -23.541317 -16.379971 -38.958199
641500000 -1.891186 -177.23386 -34.154018 -52.243916 -34.144573 -52.223072 -16.489933 -63.596241
651000000 -1.9356332 153.71387 -34.105873 -80.825806 -34.097393 -80.800247 -16.771955 -89.127541
660500000 -1.989096 124.66245 -34.057198 -109.29068 -34.049301 -109.27023 -17.136719 -116.0558
670000000 -2.000232 95.262886 -34.020985 -137.84993 -34.013966 -137.84045 -17.444691 -144.4075
679500000 -1.958656 66.208282 -34.021969 -166.29866 -34.012894 -166.28871 -17.573206 -173.61559
689000000 -1.9125814 38.206646 -34.022499 165.64159 -34.015362 165.65279 -17.496515 157.32085
698500000 -1.8923773 10.630527 -33.968884 137.75285 -33.961216 137.76115 -17.290321 129.12279
708000000 -1.8728168 -17.497131 -33.879635 109.61496 -33.87244 109.61928 -17.058725 101.92879
717500000 -1.8429582 -45.805836 -33.81319 81.31884 -33.80587 81.332512 -16.86701 75.4972
727000000 -1.8382468 -73.495567 -33.745411 53.227413 -33.736443 53.239109 -16.736008 49.551498
736500000 -1.8932658 -101.39651 -33.619671 25.033833 -33.613304 25.041155 -16.660339 23.958416
746000000 -1.9810975 -130.67369 -33.492771 -3.649169 -33.485668 -3.6430304 -16.644213 -1.2737044
755500000 -2.0211854 -160.55109 -33.420433 -32.495255 -33.41428 -32.484802 -16.713362 -26.144527
765000000 -2.0449369 170.14186 -33.379219 -61.217216 -33.37302 -61.209362 -16.911499 -50.8004
774500000 -2.1300905 140.7935 -33.332722 -89.926331 -33.326851 -89.915924 -17.275463 -75.620865
784000000 -2.1942 110.52318 -33.310486 -118.83199 -33.303974 -118.82719 -17.8097 -101.15253
793500000 -2.157373 80.455162 -33.350159 -147.6593 -33.3452 -147.64352 -18.466549 -128.00298
803000000 -2.101881 51.896812 -33.411518 -175.99278 -33.405663 -175.98605 -19.132299 -156.54979
812500000 -2.0905867 23.871891 -33.423954 155.87006 -33.418007 155.87936 -19.656429 173.40826
822000000 -2.0723646 -4.6045008 -33.419632 127.6188 -33.414936 127.63103 -19.936121 142.76752
831500000 -2.0087416 -32.806679 -33.424541 99.409218 -33.420193 99.420593 -19.996225 112.61425
841000000 -1.9773006 -60.35503 -33.414524 71.31881 -33.410809 71.329407 -19.947929 83.52092
850500000 -2.0187268 -88.036163 -33.37965 43.219425 -33.374146 43.224785 -19.903925 55.447517
860000000 -2.0572705 -116.40462 -33.322685 14.957227 -33.318729 14.971443 -19.923803 28.064871
869500000 -2.0830662 -145.19606 -33.278656 -13.5539 -33.274536 -13.540477 -20.026237 1.0763203
879000000 -2.1387007 -174.05457 -33.267689 -42.075363 -33.264694 -42.06604 -20.22401 -25.694538
888500000 -2.1883843 156.89856 -33.26123 -70.56424 -33.257694 -70.557533 -20.543726 -52.397358
898000000 -2.2142916 127.64108 -33.271065 -99.147385 -33.268406 -99.137634 -21.026197 -79.373001
907500000 -2.2302048 98.470749 -33.315472 -127.672 -33.312893 -127.6601 -21.695856 -107.28924
917000000 -2.2115653 69.627563 -33.383499 -155.99896 -33.380241 -155.99573 -22.508009 -137.09547
926500000 -2.1512387 41.475082 -33.454979 175.92726 -33.451527 175.93869 -23.285223 -169.69064
936000000 -2.0875034 14.086025 -33.504421 148.08904 -33.502094 148.08873 -23.714436 155.07652
945500000 -2.0489967 -13.080019 -33.526161 120.30656 -33.52475 120.30499 -23.559933 119.28323
955000000 -2.0165684 -40.253067 -33.536068 92.535515 -33.534805 92.535744 -22.924253 85.51458
964500000 -1.9779582 -67.189003 -33.526333 64.834625 -33.525982 64.833183 -22.1231 54.710316
974000000 -1.9755155 -93.969444 -33.492188 37.120674 -33.492123 37.130745 -21.390118 26.336761
983500000 -2.0226862 -121.10797 -33.430645 9.3196583 -33.43137 9.3369713 -20.822996 -0.53514421
993000000 -2.0634108 -149.00015 -33.351028 -18.722288 -33.351906 -18.697054 -20.434469 -26.635643
1002500000 -2.0886254 -177.39261 -33.294643 -47.012051 -33.294872 -46.985462 -20.207844 -52.413143
1012000000 -2.1272116 154.38098 -33.266418 -75.208611 -33.267056 -75.181229 -20.128752 -78.158676
1021500000 -2.1684868 126.09357 -33.22052 -103.37995 -33.217945 -103.35835 -20.19355 -104.14851
1031000000 -2.2007768 97.14225 -33.185211 -131.80923 -33.184555 -131.78487 -20.388029 -130.7558
1040500000 -2.1859612 68.141228 -33.205307 -160.19661 -33.204216 -160.17445 -20.66581 -158.42586
1050000000 -2.1283875 40.172848 -33.25061 171.79611 -33.247498 171.81387 -20.924803 172.53093
1059500000 -2.0864301 13.072448 -33.249306 144.07761 -33.247444 144.09689 -21.024656 142.31516
1069000000 -2.0647922 -14.373532 -33.205116 116.18817 -33.203518 116.20422 -20.860281 111.83749
1078500000 -2.0400195 -42.157299 -33.188103 88.15477 -33.185986 88.170166 -20.450779 82.299217
1088000000 -2.0078619 -69.095695 -33.177277 60.480152 -33.175484 60.486641 -19.925999 54.442013
1097500000 -2.0061705 -95.632004 -33.084587 32.894226 -33.083302 32.911972 -19.43004 28.29686
1107000000 -2.068275 -123.29015 -32.950031 4.805182 -32.949043 4.8178539 -19.060261 3.4607885
1116500000 -2.1330459 -152.01288 -32.857552 -23.592655 -32.85638 -23.581966 -18.859516 -20.591404
1126000000 -2.1625166 179.41997 -32.792515 -51.92445 -32.790688 -51.912495 -18.837189 -44.299889
1135500000 -2.2079206 151.01247 -32.700413 -80.23909 -32.699337 -80.226555 -18.98591 -68.006203
1145000000 -2.2828257 121.60224 -32.60376 -108.98096 -32.601883 -108.96766 -19.296959 -91.939651
1154500000 -2.3421392 91.364937 -32.587723 -137.96078 -32.586487 -137.95129 -19.766066 -116.36412
1164000000 -2.3330719 61.897217 -32.631058 -166.51724 -32.631111 -166.50635 -20.384441 -141.57825
1173500000 -2.2836363 33.38908 -32.642128 165.20802 -32.64032 165.21402 -21.124163 -168.00169
1183000000 -2.2686591 4.84589 -32.640755 136.79355 -32.639965 136.81137 -21.909237 163.92369
1192500000 -2.2621238 -23.795671 -32.674374 108.43431 -32.67271 108.44192 -22.601416 134.01617
1202000000 -2.2146716 -51.724068 -32.711166 80.382164 -32.711285 80.395538 -23.033758 102.85118
1211500000 -2.1732318 -78.89003 -32.698254 52.518074 -32.697807 52.531754 -23.129551 71.797211
1221000000 -2.2029383 -106.43336 -32.643265 24.395325 -32.642365 24.404161 -22.983498 42.218544
1230500000 -2.2791758 -134.84552 -32.611916 -3.9572017 -32.611118 -3.9505448 -22.782206 14.646289
1240000000 -2.3124208 -163.36855 -32.591938 -32.215366 -32.590584 -32.202065 -22.696039 -11.164701
1249500000 -2.3194368 168.20605 -32.543995 -60.546642 -32.54303 -60.527451 -22.825645 -35.824673
1259000000 -2.3815134 139.26199 -32.510181 -89.178528 -32.509121 -89.172256 -23.228523 -59.975407
1268500000 -2.4558916 109.74946 -32.519855 -117.86564 -32.519615 -117.85064 -23.938288 -84.264267
1278000000 -2.4681292 80.261421 -32.559231 -146.46448 -32.559334 -146.44125 -24.983053 -109.36543
1287500000 -2.4407506 51.194088 -32.622017 -174.91891 -32.622635 -174.89653 -26.388601 -136.32344
1297000000 -2.4036939 22.637981 -32.701771 156.79703 -32.70256 156.82092 -28.128723 -166.79285
1306500000 -2.3591216 -5.3233485 -32.782631 128.75629 -32.782558 128.7769 -29.944672 156.63161
1316000000 -2.3116684 -32.822338 -32.843597 100.86107 -32.844547 100.88662 -30.991472 112.8315
1325500000 -2.2629654 -60.078453 -32.894321 73.075645 -32.895138 73.090248 -30.42461 68.16082
1335000000 -2.2214196 -86.888016 -32.932465 45.38839 -32.933155 45.398357 -28.886915 30.516893
1344500000 -2.215421 -113.3385 -32.929874 17.859507 -32.931618 17.862303 -27.344542 -0.21243446
1354000000 -2.2529132 -140.31602 -32.883961 -9.9075375 -32.886158 -9.907692 -26.17757 -26.852722
1363500000 -2.2830415 -168.06252 -32.848022 -37.861023 -32.850574 -37.864639 -25.435228 -51.480896
1373000000 -2.277787 164.34396 -32.818779 -65.768608 -32.822304 -65.759827 -25.095732 -75.405701
1382500000 -2.2996919 136.94518 -32.762196 -93.705017 -32.765507 -93.697113 -25.113216 -99.553314
1392000000 -2.3834081 108.64176 -32.701962 -121.97523 -32.706814 -121.9628 -25.433565 -124.74222
1401500000 -2.4249086 79.560234 -32.699223 -150.36929 -32.701958 -150.34593 -25.962851 -151.70366
1411000000 -2.3742974 51.098732 -32.727818 -178.53844 -32.73056 -178.51692 -26.535313 178.93776
1420500000 -2.3426533 23.547285 -32.744682 153.50795 -32.748295 153.54695 -26.918835 147.15941
1430000000 -2.3561506 -4.141499 -32.74416 125.55184 -32.745808 125.57535 -26.896852 114.19856
1439500000 -2.3262141 -32.088097 -32.764908 97.609146 -32.766453 97.643692 -26.429985 82.049469
1449000000 -2.2383592 -59.072414 -32.783894 69.949829 -32.783653 69.986237 -25.699934 52.144611
1458500000 -2.1841578 -85.098511 -32.747387 42.487942 -32.748573 42.510242 -24.925213 24.75305
1468000000 -2.2218323 -111.61909 -32.665012 14.795235 -32.665092 14.825696 -24.253222 -0.55358261
1477500000 -2.2731202 -139.10719 -32.588547 -13.050096 -32.587418 -13.031034 -23.751377 -24.418331
1487000000 -2.2612524 -166.59093 -32.494854 -40.942467 -32.493294 -40.918892 -23.455008 -47.329144
1496500000 -2.2679586 166.26825 -32.391151 -68.897003 -32.3895 -68.883629 -23.363993 -69.602615
1506000000 -2.3593359 138.40891 -32.262463 -97.084175 -32.261703 -97.067146 -23.479509 -91.58094
1515500000 -2.4467278 109.3182 -32.157524 -125.62312 -32.155487 -125.60735 -23.808414 -113.53857
1525000000 -2.4553869 80.125778 -32.09798 -154.16167 -32.097481 -154.14832 -24.36104 -135.73099
1534500000 -2.4592259 51.47435 -32.041313 177.38249 -32.040359 177.39529 -25.129963 -158.54166
1544000000 -2.5078912 22.528856 -31.990808 148.82539 -31.99003 148.83499 -26.099344 177.51048
1553500000 -2.5175867 -6.7386155 -31.978991 120.23252 -31.977783 120.24499 -27.199482 151.82379
1563000000 -2.4522228 -35.198952 -31.982706 91.895889 -31.983438 91.910309 -28.287205 123.97422
1572500000 -2.4068265 -62.811623 -31.967527 63.727345 -31.967457 63.738262 -29.141367 94.325027
1582000000 -2.4206462 -90.44635 -31.933825 35.5485 -31.93338 35.555565 -29.612425 64.355835
1591500000 -2.4324071 -118.25579 -31.885506 7.3796668 -31.885368 7.3962812 -29.746592 35.919937
1601000000 -2.4402828 -146.07433 -31.816765 -20.845415 -31.817524 -20.840748 -29.752996 10.063911
1610500000 -2.4801822 -174.12982 -31.740509 -49.181255 -31.741531 -49.165867 -29.821835 -13.240281
1620000000 -2.5159519 157.4631 -31.658714 -77.619263 -31.658312 -77.611473 -30.04493 -34.430981
1629500000 -2.5596781 128.79585 -31.579689 -106.26347 -31.579952 -106.24959 -30.449858 -53.860806
1639000000 -2.65575 99.635582 -31.52668 -135.05634 -31.525951 -135.04092 -30.995911 -71.612343
1648500000 -2.7201872 69.845253 -31.498177 -163.90463 -31.497839 -163.90178 -31.63278 -87.449867
1658000000 -2.7022421 40.200768 -31.499372 167.24077 -31.49926 167.25697 -32.285503 -100.99978
1667500000 -2.6993446 11.18062 -31.520237 138.49976 -31.520618 138.50659 -32.864231 -111.97905
1677000000 -2.7256799 -17.878908 -31.548456 109.86008 -31.549467 109.87215 -33.268505 -120.76719
1686500000 -2.6750648 -46.872719 -31.593662 81.315933 -31.592997 81.32296 -33.440231 -128.53421
1696000000 -2.5752366 -74.784836 -31.640482 53.018833 -31.640814 53.02705 -33.462055 -136.78697
1705500000 -2.5678339 -101.9266 -31.663036 24.888109 -31.66268 24.898232 -33.448154 -146.85258
1715000000 -2.6137943 -129.42329 -31.65476 -3.1651783 -31.655931 -3.1577766 -33.557358 -159.72797
1724500000 -2.5771053 -157.25998 -31.613445 -31.309177 -31.612665 -31.303106 -33.896469 -176.08702
1734000000 -2.5301309 175.26973 -31.566431 -59.62236 -31.567051 -59.618179 -34.463905 163.47774
1743500000 -2.5907443 147.89825 -31.521334 -87.951553 -31.523689 -87.941788 -35.121056 138.38765
1753000000 -2.6694818 119.82722 -31.456038 -116.32889 -31.457649 -116.33001 -35.599548 108.78964
1762500000 -2.6680679 91.148819 -31.378296 -145.00647 -31.380411 -144.99545 -35.648018 76.248993
1772000000 -2.6777053 62.518341 -31.341339 -173.91632 -31.342485 -173.90459 -35.215324 42.95282
1781500000 -2.7485433 34.067211 -31.336805 157.35542 -31.340126 157.36591 -34.415707 10.51516
1791000000 -2.764503 5.4830585 -31.31249 128.75871 -31.313499 128.77075 -33.3992 -20.393875
1800500000 -2.6999679 -23.149189 -31.274708 99.939034 -31.276878 99.954926 -32.288155 -49.259041
1810000000 -2.6621106 -51.254684 -31.281546 71.058159 -31.283703 71.080788 -31.246582 -75.933556
1819500000 -2.6652186 -78.639229 -31.301514 42.494461 -31.303158 42.516956 -30.418169 -100.50118
1829000000 -2.6350341 -105.68919 -31.262598 14.137343 -31.264292 14.16223 -29.950996 -123.52221
1838500000 -2.5784898 -132.7885 -31.170889 -14.58017 -31.171116 -14.554916 -29.950813 -145.85793
1848000000 -2.5847797 -159.93973 -31.096069 -43.647942 -31.096973 -43.613045 -30.52037 -168.39644
1857500000 -2.6490815 172.96234 -31.040514 -72.720863 -31.040209 -72.700737 -31.759682 167.46548
1867000000 -2.672559 145.73691 -30.947876 -101.90863 -30.947052 -101.88564 -33.754452 139.61279
1876500000 -2.6670809 118.14284 -30.842039 -131.73433 -30.839964 -131.7059 -36.345623 103.76015
1886000000 -2.7438884 90.119255 -30.81213 -162.15178 -30.811207 -162.13399 -38.321861 54.47942
1895500000 -2.8833244 61.66893 -30.881229 167.27705 -30.878704 167.2941 -37.635048 1.4951881
1905000000 -2.9482059 32.971928 -31.019043 136.68144 -31.016644 136.69226 -35.456383 -39.44051
1914500000 -2.9392185 4.36338 -31.242817 106.03802 -31.240519 106.0489 -33.417957 -70.653481
1924000000 -2.979773 -24.218451 -31.579655 75.525826 -31.577345 75.526199 -31.748272 -96.83297
1933500000 -3.0392537 -52.868114 -32.046558 45.656994 -32.046036 45.660934 -30.342382 -120.06022
1943000000 -2.9985399 -81.030533 -32.559387 16.840822 -32.557663 16.847479 -29.139997 -141.51862
1952500000 -2.9067917 -108.36575 -33.036251 -11.117621 -33.036499 -11.11528 -28.142902 -162.03929
1962000000 -2.8997781 -135.65668 -33.475338 -38.437683 -33.475273 -38.430984 -27.39381 177.49733
1971500000 -2.9524069 -163.40901 -33.84977 -65.177734 -33.849461 -65.175896 -26.928259 156.26025
1981000000 -2.9321637 168.90845 -34.120117 -91.375893 -34.118805 -91.363121 -26.75042 133.36349
1990500000 -2.8833163 141.52538 -34.251633 -117.5495 -34.250416 -117.54133 -26.786512 107.92295
2000000000 -2.9248302 113.77555 -34.280197 -144.13087 -34.280739 -144.11998 -26.850592 79.367004
