!Keysight Technologies,N5242B,MY48420967,A.15.65.19
!Date: Monday, December 19, 2022 16:01:10
!Correction: S11(C  2-Port  ) 
!S21(C  2-Port  ) 
!S12(C  2-Port  ) 
!S22(C  2-Port  ) 
!S2P File: Measurements: S11, S21, S12, S22:
# Hz S  dB   R 50
100000000 -1.4803009 40.655605 -45.902565 141.04047 -45.906868 141.03897 -22.460169 48.780453
109500000 -1.3643348 11.150421 -45.333523 112.07642 -45.331566 112.11068 -21.465075 23.1807
119000000 -1.2446359 -17.026562 -44.762627 83.527733 -44.762356 83.561234 -20.70923 -1.356473
128500000 -1.2015996 -45.091343 -44.174988 54.90976 -44.174961 54.955353 -20.149126 -25.309376
138000000 -1.2079794 -73.87664 -43.614876 26.069286 -43.614861 26.091019 -19.769976 -48.849174
147500000 -1.2401782 -102.78742 -43.113087 -2.8308766 -43.107979 -2.8004391 -19.591276 -72.166039
157000000 -1.3068496 -131.69496 -42.635605 -31.696962 -42.633427 -31.680378 -19.642477 -95.657791
166500000 -1.4100358 -161.32359 -42.170872 -60.759647 -42.170696 -60.743706 -19.93124 -120.02457
176000000 -1.5212715 168.50603 -41.776051 -89.925774 -41.773647 -89.913589 -20.399345 -146.13705
185500000 -1.606631 138.33713 -41.433537 -118.96333 -41.430031 -118.95107 -20.872555 -174.74104
195000000 -1.6561301 108.20549 -41.123878 -147.84889 -41.122299 -147.84099 -21.077522 154.42102
204500000 -1.6409824 78.441551 -40.834972 -176.49808 -40.834373 -176.49915 -20.820261 123.17701
214000000 -1.5808467 49.292721 -40.542774 154.96567 -40.537899 154.95975 -20.195524 93.703415
223500000 -1.5525775 20.445581 -40.261013 126.42689 -40.259136 126.42725 -19.471788 66.810028
233000000 -1.5213068 -8.2793436 -39.984913 98.124123 -39.98093 98.144722 -18.864754 41.984608
242500000 -1.444368 -36.747784 -39.66478 69.824051 -39.661716 69.825493 -18.469748 18.278294
252000000 -1.4262416 -65.043533 -39.338867 41.293076 -39.333969 41.297176 -18.293261 -5.1192694
261500000 -1.5117588 -93.815331 -39.017857 12.583064 -39.014122 12.600123 -18.295429 -28.739315
271000000 -1.5981122 -123.47166 -38.713181 -16.326044 -38.710808 -16.322756 -18.42844 -52.802258
280500000 -1.6419426 -153.35344 -38.442013 -45.365028 -38.44133 -45.36578 -18.660877 -77.34787
290000000 -1.7271626 176.91788 -38.20311 -74.445663 -38.198578 -74.451317 -18.990141 -102.42361
299500000 -1.8697847 146.70543 -37.997643 -103.53745 -37.992886 -103.54642 -19.423779 -128.25967
309000000 -1.9355414 116.04033 -37.821003 -132.53543 -37.819599 -132.56392 -19.936289 -155.32901
318500000 -1.8948461 85.960953 -37.67424 -161.41504 -37.669529 -161.43198 -20.421303 175.89261
328000000 -1.8784957 56.845249 -37.534077 169.9489 -37.529823 169.94168 -20.692696 145.56982
337500000 -1.8979752 27.816401 -37.371883 141.46407 -37.370213 141.44814 -20.607445 114.99726
347000000 -1.8681366 -1.525327 -37.193115 112.8819 -37.192837 112.86894 -20.219664 85.878159
356500000 -1.8094856 -30.43042 -37.02977 84.296227 -37.025784 84.289833 -19.743637 59.062366
366000000 -1.8189698 -58.902878 -36.846546 55.729202 -36.845081 55.726776 -19.394606 34.247845
375500000 -1.9061298 -87.952713 -36.649422 27.028824 -36.646381 27.02335 -19.294405 10.563596
385000000 -1.9791842 -117.93609 -36.459538 -1.9423206 -36.456928 -1.9604161 -19.479136 -12.945535
394500000 -2.0250056 -148.16101 -36.313812 -31.104866 -36.313866 -31.124613 -19.924702 -37.095879
404000000 -2.1124165 -178.11426 -36.214287 -60.154964 -36.211983 -60.156303 -20.564405 -62.486828
413500000 -2.2127028 151.79424 -36.118866 -89.061363 -36.119568 -89.073135 -21.312105 -89.430679
423000000 -2.2567608 121.26315 -36.045132 -118.06313 -36.043621 -118.0831 -22.090235 -118.02659
432500000 -2.2459815 91.144424 -36.022575 -146.92358 -36.019405 -146.92937 -22.835222 -148.33363
442000000 -2.2119284 62.098476 -36.00264 -175.36102 -36.001835 -175.36658 -23.455887 179.4576
451500000 -2.1793251 33.554581 -35.944389 156.38164 -35.944771 156.36696 -23.77408 145.48709
461000000 -2.1475205 4.8991084 -35.869114 128.04099 -35.86779 128.02859 -23.601706 111.1179
470500000 -2.107336 -23.616936 -35.800983 99.71907 -35.800995 99.708939 -22.977474 78.642502
480000000 -2.0828357 -51.63126 -35.713356 71.547386 -35.714958 71.526039 -22.188599 49.375774
489500000 -2.1066539 -79.68792 -35.584309 43.30283 -35.58427 43.28978 -21.537167 22.990812
499000000 -2.1682901 -108.51566 -35.437576 14.70646 -35.437702 14.69183 -21.202421 -1.7016698
508500000 -2.2256265 -137.85684 -35.326626 -14.225501 -35.328396 -14.221631 -21.24935 -26.099083
518000000 -2.2680373 -167.06335 -35.271431 -43.178574 -35.273685 -43.177109 -21.649712 -51.579041
527500000 -2.3179519 163.72598 -35.253284 -71.958946 -35.253998 -71.960861 -22.281815 -79.365395
537000000 -2.3714716 134.2294 -35.252327 -100.60826 -35.254768 -100.60663 -22.890043 -110.1128
546500000 -2.3846757 104.90217 -35.271465 -129.039 -35.271866 -129.04468 -23.177109 -143.15271
556000000 -2.3439848 76.246933 -35.281723 -157.19841 -35.284485 -157.20065 -23.01742 -176.51651
565500000 -2.2892869 48.18803 -35.26968 174.79285 -35.269669 174.77998 -22.539309 151.43433
575000000 -2.2522705 20.431746 -35.237949 146.81584 -35.238125 146.80135 -21.933687 120.99097
584500000 -2.2273057 -7.2037921 -35.185833 118.91922 -35.188244 118.89455 -21.289434 91.833733
594000000 -2.1957998 -34.814869 -35.109776 90.999672 -35.11364 90.970749 -20.629313 63.828392
603500000 -2.1780028 -62.448025 -35.015053 62.958122 -35.020668 62.943615 -19.978586 37.121967
613000000 -2.2178578 -90.159561 -34.918198 34.844818 -34.923008 34.849403 -19.406658 11.771219
622500000 -2.2930973 -118.36165 -34.796062 6.6338415 -34.801598 6.6508803 -19.002163 -12.452513
632000000 -2.3596783 -147.41357 -34.678974 -21.895397 -34.682938 -21.874254 -18.835842 -36.102543
641500000 -2.4050355 -176.75311 -34.605804 -50.556274 -34.606964 -50.537273 -18.934868 -59.950314
651000000 -2.4570529 154.17702 -34.558956 -79.094078 -34.560905 -79.079269 -19.270803 -84.878082
660500000 -2.5178561 125.09428 -34.511211 -107.57378 -34.514618 -107.5659 -19.736982 -111.58501
670000000 -2.5358615 95.648949 -34.476955 -136.09612 -34.47921 -136.08997 -20.149096 -140.32309
679500000 -2.4930601 66.542679 -34.477932 -164.53188 -34.479259 -164.53137 -20.32531 -170.4064
689000000 -2.4426327 38.528584 -34.479488 167.40308 -34.482056 167.41187 -20.207201 159.56923
698500000 -2.4265201 10.97826 -34.430149 139.50632 -34.433186 139.50284 -19.899345 130.70863
708000000 -2.4194107 -17.141203 -34.347389 111.36922 -34.349506 111.36903 -19.553297 103.2144
717500000 -2.3968127 -45.443268 -34.286938 83.082634 -34.28875 83.086884 -19.261467 76.737686
727000000 -2.3977113 -73.072708 -34.22617 54.999294 -34.228359 55.001373 -19.049147 50.880611
736500000 -2.4728374 -100.87476 -34.110996 26.819551 -34.11425 26.822264 -18.909876 25.46261
746000000 -2.5862117 -130.10141 -33.996174 -1.8102411 -33.998005 -1.8074446 -18.844744 0.49135852
755500000 -2.6393805 -159.9603 -33.932816 -30.603493 -33.93615 -30.596878 -18.886541 -24.007053
765000000 -2.6683848 170.81796 -33.897003 -59.232929 -33.900684 -59.231758 -19.088753 -48.188168
774500000 -2.7665255 141.55222 -33.857563 -87.8741 -33.860538 -87.87355 -19.502588 -72.49192
784000000 -2.8430407 111.29154 -33.839458 -116.68021 -33.8424 -116.68086 -20.144239 -97.601738
793500000 -2.7982223 81.234596 -33.880047 -145.41649 -33.884388 -145.41489 -20.967569 -124.34268
803000000 -2.7296717 52.74313 -33.937981 -173.68629 -33.941414 -173.68729 -21.834099 -153.4071
812500000 -2.7183495 24.810644 -33.953053 158.2373 -33.956264 158.23424 -22.522923 175.26994
822000000 -2.7027545 -3.6045294 -33.948845 130.04539 -33.95253 130.04822 -22.856377 142.90311
831500000 -2.6361079 -31.729273 -33.955746 101.90443 -33.960247 101.90354 -22.85261 111.21301
841000000 -2.603142 -59.137009 -33.945541 73.878281 -33.949615 73.876511 -22.688852 81.098793
850500000 -2.6543698 -86.674088 -33.911842 45.839874 -33.915623 45.831741 -22.533619 52.456829
860000000 -2.7092669 -114.92314 -33.856644 17.648176 -33.860199 17.648722 -22.471258 24.760286
869500000 -2.7448828 -143.59723 -33.81414 -10.767398 -33.817448 -10.769625 -22.524088 -2.4228315
879000000 -2.8076754 -172.3373 -33.799202 -39.188976 -33.804764 -39.193581 -22.706846 -29.333836
888500000 -2.8672118 158.70888 -33.787838 -67.599564 -33.792267 -67.600739 -23.051964 -56.194695
898000000 -2.8997538 129.49802 -33.792446 -96.100609 -33.797028 -96.094704 -23.612888 -83.49501
907500000 -2.9140179 100.35178 -33.828213 -124.54002 -33.832726 -124.54444 -24.415682 -112.18566
917000000 -2.8882973 71.508926 -33.884254 -152.80794 -33.888336 -152.8116 -25.377874 -143.66341
926500000 -2.819499 43.33519 -33.945591 179.14819 -33.949558 179.14735 -26.191593 -179.13173
936000000 -2.7470076 15.939686 -33.985485 151.33083 -33.990021 151.3212 -26.358418 142.41095
945500000 -2.7041137 -11.211389 -34.000763 123.55299 -34.006725 123.54337 -25.694347 104.98362
955000000 -2.672328 -38.372616 -34.003624 95.802383 -34.009293 95.78936 -24.58692 71.562302
964500000 -2.635133 -65.31102 -33.988712 68.091652 -33.995213 68.078354 -23.489872 42.003239
974000000 -2.63908 -92.070702 -33.950542 40.374546 -33.957413 40.375523 -22.605864 14.915777
983500000 -2.7005281 -119.16659 -33.888908 12.586967 -33.896072 12.581112 -21.977663 -10.899464
993000000 -2.7604828 -147.06232 -33.806782 -15.442213 -33.814014 -15.428289 -21.579359 -36.218159
1002500000 -2.8001208 -175.49605 -33.7472 -43.713783 -33.75349 -43.707188 -21.377398 -61.453564
1012000000 -2.8471031 156.23062 -33.715206 -71.909622 -33.721119 -71.89344 -21.346153 -86.897026
1021500000 -2.9012187 127.8974 -33.668346 -100.08752 -33.673222 -100.07489 -21.476542 -112.83739
1031000000 -2.9443326 98.864708 -33.631493 -128.48488 -33.636917 -128.47653 -21.744413 -139.70418
1040500000 -2.9275129 69.723907 -33.647964 -156.88107 -33.653267 -156.87503 -22.08223 -167.9951
1050000000 -2.8584702 41.654224 -33.688999 175.1002 -33.694317 175.10228 -22.354445 162.03256
1059500000 -2.8094451 14.516857 -33.689754 147.35471 -33.694759 147.35272 -22.390825 130.83665
1069000000 -2.7931099 -12.95882 -33.650272 119.44464 -33.655182 119.44978 -22.098213 99.723648
1078500000 -2.7702787 -40.77494 -33.636337 91.415657 -33.640732 91.419395 -21.554125 70.073227
1088000000 -2.7329304 -67.714798 -33.629059 63.726402 -33.634415 63.719463 -20.938972 42.47427
1097500000 -2.741745 -94.172821 -33.545212 36.112209 -33.550358 36.109863 -20.41172 16.697365
1107000000 -2.8308604 -121.72951 -33.424999 8.0664978 -33.429039 8.057004 -20.061178 -7.8502207
1116500000 -2.9175594 -150.41583 -33.340275 -20.296669 -33.345978 -20.299398 -19.919945 -31.775146
1126000000 -2.956419 -178.9301 -33.282822 -48.560024 -33.288441 -48.562706 -19.985844 -55.584278
1135500000 -3.017669 152.78105 -33.200489 -76.827789 -33.206131 -76.83461 -20.248016 -79.621147
1145000000 -3.1184959 123.47131 -33.110554 -105.46328 -33.114666 -105.46223 -20.690914 -104.18512
1154500000 -3.1866283 93.250214 -33.096596 -134.33969 -33.101837 -134.34344 -21.306269 -129.59845
1164000000 -3.1662002 63.788044 -33.137146 -162.82117 -33.143066 -162.82382 -22.072813 -156.30511
1173500000 -3.1086278 35.362648 -33.148548 168.96548 -33.152992 168.95529 -22.927841 175.12938
1183000000 -3.091953 6.9108453 -33.147118 140.63078 -33.153408 140.62875 -23.727205 144.2394
1192500000 -3.0792496 -21.663206 -33.179737 112.33553 -33.18388 112.32526 -24.245548 111.30989
1202000000 -3.0180461 -49.48719 -33.214222 84.34877 -33.220463 84.342346 -24.316158 77.904472
1211500000 -2.9725354 -76.490471 -33.199421 56.524467 -33.205605 56.518188 -24.008745 46.061283
1221000000 -3.0153925 -103.82573 -33.150204 28.478617 -33.155983 28.464941 -23.571672 16.749903
1230500000 -3.1060553 -132.05872 -33.115776 0.22856241 -33.121284 0.22057396 -23.238432 -10.326537
1240000000 -3.1485374 -160.44852 -33.092194 -27.93734 -33.096916 -27.949965 -23.142815 -36.006855
1249500000 -3.167659 171.29466 -33.040684 -56.191635 -33.045574 -56.200607 -23.344183 -61.189499
1259000000 -3.246604 142.52525 -32.999813 -84.701836 -33.005722 -84.720825 -23.853748 -86.732292
1268500000 -3.3347657 113.09539 -32.998299 -113.31826 -33.00383 -113.32178 -24.661764 -113.49338
1278000000 -3.3489594 83.61364 -33.025299 -141.82399 -33.031502 -141.82964 -25.715168 -142.50711
1287500000 -3.3159051 54.524723 -33.073612 -170.24551 -33.079453 -170.25632 -26.869726 -175.02986
1297000000 -3.2687192 25.919535 -33.138565 161.50739 -33.143848 161.49361 -27.773634 148.04352
1306500000 -3.2095377 -2.0922589 -33.206181 133.4628 -33.212303 133.45859 -27.919323 108.16227
1316000000 -3.1488283 -29.615448 -33.257236 105.57913 -33.263649 105.5658 -27.150887 69.648506
1325500000 -3.0920842 -56.901493 -33.296429 77.755722 -33.303558 77.743362 -25.903748 35.66217
1335000000 -3.0434568 -83.734001 -33.326584 50.056343 -33.33334 50.041328 -24.658472 6.0405703
1344500000 -3.0362282 -110.14478 -33.321705 22.459517 -33.328026 22.442698 -23.657658 -20.610586
1354000000 -3.0877016 -137.06189 -33.276203 -5.2585692 -33.283939 -5.2765212 -22.970671 -45.607109
1363500000 -3.1364048 -164.8248 -33.228703 -33.211411 -33.23661 -33.237404 -22.605419 -69.962166
1373000000 -3.13904 167.52971 -33.193939 -61.145172 -33.202099 -61.166584 -22.534828 -94.433899
1382500000 -3.1725142 140.15428 -33.13633 -89.128761 -33.144211 -89.140633 -22.718235 -119.67921
1392000000 -3.2804487 111.85407 -33.080639 -117.3725 -33.089081 -117.38442 -23.080328 -146.23039
1401500000 -3.3377876 82.605087 -33.067543 -145.73615 -33.076096 -145.74077 -23.508427 -174.53374
1411000000 -3.2792952 53.952568 -33.083839 -173.9167 -33.092491 -173.91551 -23.85232 155.31021
1420500000 -3.2371585 26.301319 -33.094856 158.04823 -33.102371 158.06262 -23.965561 123.89712
1430000000 -3.2532313 -1.4942521 -33.09515 130.04935 -33.10149 130.05231 -23.767147 92.42897
1439500000 -3.218112 -29.610268 -33.11026 102.05428 -33.116478 102.05806 -23.312363 62.084877
1449000000 -3.1111407 -56.720173 -33.131866 74.32518 -33.13665 74.33416 -22.746325 33.469955
1458500000 -3.0498245 -82.738678 -33.101696 46.777691 -33.107803 46.78426 -22.208702 6.5844316
1468000000 -3.1016557 -109.20811 -33.03138 19.056145 -33.036736 19.061079 -21.794346 -18.935835
1477500000 -3.1723344 -136.71173 -32.959358 -8.8348045 -32.964077 -8.8361425 -21.552176 -43.571053
1487000000 -3.1697621 -164.20105 -32.889999 -36.729527 -32.893967 -36.729134 -21.503204 -67.720421
1496500000 -3.1883967 168.74489 -32.792561 -64.646339 -32.796505 -64.664024 -21.65185 -91.788956
1506000000 -3.3109694 141.01164 -32.67754 -92.824203 -32.68256 -92.832329 -21.99918 -116.09197
1515500000 -3.4291174 111.9576 -32.58305 -121.27005 -32.587425 -121.27765 -22.536768 -140.99081
1525000000 -3.4469419 82.755737 -32.525196 -149.76953 -32.53054 -149.77541 -23.251671 -166.90071
1534500000 -3.4537928 54.173695 -32.474499 -178.19179 -32.480099 -178.20282 -24.105131 165.65753
1544000000 -3.5144081 25.295193 -32.433987 153.29269 -32.439304 153.2834 -24.9977 136.14276
1553500000 -3.5257089 -3.996182 -32.426865 124.78977 -32.431423 124.78215 -25.751194 104.38689
1563000000 -3.4415452 -32.447632 -32.432888 96.512444 -32.439873 96.501183 -26.163355 71.244202
1572500000 -3.3839138 -59.934582 -32.419777 68.404373 -32.42601 68.396034 -26.171419 38.510284
1582000000 -3.4016168 -87.419388 -32.388039 40.297577 -32.394901 40.285271 -25.940094 7.6663642
1591500000 -3.4190955 -115.11176 -32.34108 12.180684 -32.347878 12.182409 -25.708195 -21.007828
1601000000 -3.4341857 -142.75043 -32.276543 -15.982857 -32.282726 -15.987465 -25.649368 -48.128071
1610500000 -3.4891992 -170.5927 -32.201622 -44.232323 -32.209236 -44.242981 -25.838118 -74.572433
1620000000 -3.5461404 161.16054 -32.121788 -72.601189 -32.127319 -72.60804 -26.282875 -101.15565
1629500000 -3.6088719 132.68741 -32.044189 -101.12056 -32.050785 -101.12753 -26.955553 -128.53471
1639000000 -3.725338 103.72264 -31.981958 -129.80215 -31.987707 -129.80435 -27.820259 -157.18568
1648500000 -3.8123195 73.989433 -31.942003 -158.56116 -31.948238 -158.57266 -28.840544 172.32698
1658000000 -3.7978814 44.332134 -31.929674 172.65002 -31.935064 172.64398 -29.961353 139.12372
1667500000 -3.7862048 15.336169 -31.935604 143.95384 -31.941221 143.94353 -30.950846 101.92867
1677000000 -3.8109608 -13.728799 -31.951035 115.33505 -31.958687 115.32838 -31.297775 60.959869
1686500000 -3.7489471 -42.820896 -31.979162 86.826263 -31.985109 86.816002 -30.617168 20.346378
1696000000 -3.6228638 -70.78907 -32.008812 58.494152 -32.016026 58.483803 -29.293549 -15.416526
1705500000 -3.5996616 -97.872375 -32.020256 30.304682 -32.025391 30.303749 -27.953547 -45.954041
1715000000 -3.6509664 -125.33266 -32.003288 2.1921661 -32.009754 2.1812291 -26.934505 -73.066582
1724500000 -3.6206362 -153.19273 -31.955149 -26.013849 -31.961447 -26.020603 -26.317711 -98.543816
1734000000 -3.5711327 179.37131 -31.902418 -54.383869 -31.909554 -54.396667 -26.081261 -123.67963
1743500000 -3.6397352 152.0937 -31.853512 -82.777985 -31.861837 -82.782021 -26.152536 -149.38307
1753000000 -3.7428572 124.06232 -31.782095 -111.22292 -31.789337 -111.24091 -26.429609 -176.19446
1762500000 -3.7620192 95.344925 -31.700909 -139.97563 -31.709444 -139.97522 -26.814734 155.78598
1772000000 -3.7773235 66.673645 -31.653669 -168.968 -31.660892 -168.96736 -27.233368 126.65224
1781500000 -3.8527861 38.15472 -31.640335 162.14714 -31.649382 162.14658 -27.649082 96.525688
1791000000 -3.8792787 9.4263763 -31.609814 133.32619 -31.617289 133.32707 -28.012442 65.289024
1800500000 -3.8132727 -19.372353 -31.580782 104.23528 -31.588757 104.24199 -28.200146 33.093288
1810000000 -3.7573757 -47.60957 -31.604422 75.050247 -31.612383 75.063423 -28.072098 0.74794114
1819500000 -3.7451241 -75.091431 -31.657434 46.188965 -31.665195 46.195805 -27.596411 -30.205679
1829000000 -3.7125752 -102.23444 -31.671556 17.464521 -31.678284 17.481783 -26.929913 -58.62167
1838500000 -3.6601264 -129.3822 -31.659712 -11.474143 -31.665436 -11.45925 -26.289557 -84.453705
1848000000 -3.6708863 -156.49332 -31.673714 -40.616924 -31.680853 -40.598965 -25.834404 -108.47331
1857500000 -3.7483728 176.46034 -31.705387 -69.683952 -31.711489 -69.673187 -25.651865 -131.76782
1867000000 -3.80003 149.27621 -31.713329 -98.810905 -31.719639 -98.797523 -25.779108 -155.37694
1876500000 -3.8251426 121.81192 -31.723686 -128.41971 -31.727936 -128.40448 -26.214617 179.89099
1886000000 -3.9307096 94.017296 -31.809149 -158.42616 -31.814735 -158.41183 -26.900194 153.34932
1895500000 -4.1017141 65.788773 -32.004169 171.5582 -32.008827 171.56718 -27.747099 124.51143
1905000000 -4.1896005 37.252441 -32.277798 141.86267 -32.282055 141.86395 -28.627216 92.956482
1914500000 -4.1837468 8.8330889 -32.608109 112.5584 -32.613148 112.56768 -29.361843 58.518105
1924000000 -4.2047949 -19.490566 -33.011044 83.741653 -33.015274 83.736969 -29.719709 21.421701
1933500000 -4.2328029 -48.018322 -33.45174 55.925213 -33.457516 55.921478 -29.457355 -16.766859
1943000000 -4.1490679 -76.210503 -33.813255 29.181793 -33.817455 29.181444 -28.576761 -53.396461
1952500000 -4.0111127 -103.55306 -34.031528 2.8724682 -34.038872 2.8698568 -27.376154 -86.516556
1962000000 -3.9743936 -130.78198 -34.12727 -23.571455 -34.133926 -23.571257 -26.221792 -116.12126
1971500000 -4.0139031 -158.50677 -34.165379 -50.222984 -34.171024 -50.223637 -25.334499 -143.24452
1981000000 -3.993166 173.75713 -34.133053 -77.001045 -34.139385 -76.999924 -24.808151 -169.16628
1990500000 -3.9479818 146.42297 -34.028954 -104.2206 -34.035362 -104.21182 -24.653273 164.92087
2000000000 -4.0062695 118.8682 -33.901337 -132.05386 -33.908783 -132.04259 -24.818327 137.92744
