!Keysight Technologies,N5242B,MY48420967,A.15.65.19
!Date: Monday, December 19, 2022 10:52:17
!Correction: S11(C  2-Port  ) 
!S21(C  2-Port  ) 
!S12(C  2-Port  ) 
!S22(C  2-Port  ) 
!S2P File: Measurements: S11, S21, S12, S22:
# Hz S  dB   R 50
100000000 -1.3401074 40.891308 -108.32822 159.30081 -111.50916 130.04514 -0.96905118 60.730663
109500000 -1.2193965 11.477352 -110.01501 148.08662 -109.41747 147.53056 -0.91384864 33.36602
119000000 -1.090185 -16.678267 -112.37563 103.10599 -111.51242 133.01878 -0.85161453 6.1292806
128500000 -1.0405405 -44.735893 -108.17596 79.159492 -115.1613 80.08577 -0.78928012 -21.056122
138000000 -1.0365447 -73.540627 -108.60384 65.571228 -111.82761 93.390884 -0.73374289 -48.250751
147500000 -1.0683979 -102.4778 -105.5806 58.275681 -112.23342 17.159611 -0.69576448 -75.545792
157000000 -1.1279267 -131.46895 -113.95455 10.52112 -108.42173 26.285725 -0.69010526 -103.05705
166500000 -1.23089 -161.15451 -108.51521 -10.649153 -106.05713 -19.976564 -0.72783655 -130.89319
176000000 -1.3394132 168.58713 -107.81586 -34.746346 -105.24438 -53.355473 -0.80891979 -159.06956
185500000 -1.4265109 138.35814 -107.40652 -71.617882 -106.80457 -66.456276 -0.91666234 172.51794
195000000 -1.4804211 108.17177 -105.94775 -110.72112 -105.43772 -94.037437 -1.020137 144.10345
204500000 -1.4688629 78.364723 -104.34064 -129.66208 -105.54137 -112.67836 -1.0875541 115.955
214000000 -1.4119815 49.186165 -101.97545 -141.61746 -104.55759 -166.39122 -1.1032277 88.237137
223500000 -1.3869275 20.305788 -105.86944 -172.40083 -105.23583 178.43713 -1.0734571 60.960144
233000000 -1.3583124 -8.4204693 -103.90752 147.23633 -104.73502 159.78767 -1.0198593 33.974758
242500000 -1.2799767 -36.906704 -103.51938 114.01552 -102.01299 129.72961 -0.96740842 7.0699773
252000000 -1.2612393 -65.196564 -99.759125 93.17791 -103.32413 88.405144 -0.9316234 -19.937874
261500000 -1.3418766 -93.988937 -103.77767 76.69442 -102.64964 70.934662 -0.91748685 -47.155373
271000000 -1.4217457 -123.63562 -100.97599 31.885597 -104.87903 22.279922 -0.92137581 -74.60939
280500000 -1.4588017 -153.48175 -101.9747 14.51413 -100.56352 8.6580315 -0.9414717 -102.29752
290000000 -1.5384223 176.7874 -101.45653 -18.174433 -102.46555 -25.910091 -0.98050845 -130.21796
299500000 -1.6728278 146.58894 -102.26537 -37.299641 -100.2683 -42.385639 -1.0435141 -158.35594
309000000 -1.728928 115.97285 -98.700691 -65.93528 -100.10365 -61.400055 -1.1283425 173.34888
318500000 -1.6848887 85.952156 -98.73362 -105.82008 -98.906647 -110.4927 -1.2188622 145.0284
328000000 -1.6636889 56.845181 -100.37053 -118.11957 -99.220123 -135.32153 -1.2877669 116.87251
337500000 -1.6742733 27.836388 -99.280869 -164.25005 -97.824829 -163.50499 -1.3122089 89.030899
347000000 -1.6352037 -1.4565358 -97.484276 169.49898 -98.611771 173.23294 -1.2895316 61.554192
356500000 -1.5692556 -30.34552 -97.462151 148.13586 -97.454353 141.45363 -1.237608 34.361294
366000000 -1.5692976 -58.833214 -97.064766 122.77016 -97.101845 122.99532 -1.1856776 7.254436
375500000 -1.6410946 -87.890373 -97.065758 86.794876 -96.449699 95.28981 -1.1582913 -19.997143
385000000 -1.700321 -117.88045 -96.299255 58.654694 -96.25592 55.053577 -1.167411 -47.57526
394500000 -1.7362903 -148.11844 -96.442116 28.99361 -96.1819 32.888412 -1.2084061 -75.54303
404000000 -1.8140411 -178.11255 -96.596375 -1.2015762 -96.534805 5.1736436 -1.2664577 -103.85831
413500000 -1.9064045 151.74559 -95.10582 -28.714081 -94.861649 -24.094545 -1.3297576 -132.41879
423000000 -1.9423745 121.19759 -94.548447 -52.376545 -95.807327 -60.782078 -1.3917121 -161.13315
432500000 -1.9290782 91.046692 -94.644669 -87.233978 -94.847061 -91.467285 -1.4545954 170.09085
442000000 -1.8969706 61.947651 -95.241074 -114.28374 -94.574898 -113.24879 -1.5175028 141.33563
451500000 -1.8602687 33.340176 -93.901917 -143.74129 -95.557671 -147.29553 -1.5701216 112.71479
461000000 -1.8216419 4.6415167 -94.612083 -166.55968 -95.707123 -177.47791 -1.5965443 84.365707
470500000 -1.7780457 -23.912922 -94.847504 165.36566 -95.378235 157.63484 -1.5872797 56.371525
480000000 -1.7499633 -52.000332 -94.188873 138.44824 -93.996567 139.1936 -1.5495193 28.716473
489500000 -1.7631068 -80.119705 -92.837898 111.89331 -93.636635 112.11222 -1.5044893 1.2584102
499000000 -1.8112509 -108.9798 -92.780441 87.631966 -92.754303 86.284576 -1.4792964 -26.232372
508500000 -1.8608154 -138.34032 -90.936165 53.491192 -90.281013 53.789906 -1.4924308 -53.979439
518000000 -1.8928419 -167.56787 -90.490883 11.821974 -90.195145 14.374721 -1.546144 -82.093231
527500000 -1.9312236 163.19234 -90.749054 -23.879698 -91.054794 -20.291534 -1.6212674 -110.53142
537000000 -1.9802814 133.6949 -92.023247 -45.855892 -91.582733 -52.448639 -1.6921749 -139.14394
546500000 -1.993405 104.37675 -91.784798 -84.560089 -91.421814 -81.253075 -1.7409425 -167.74646
556000000 -1.9537914 75.738586 -92.757942 -108.18356 -92.300697 -109.33396 -1.7668581 163.80667
565500000 -1.8995944 47.704536 -92.329376 -134.32094 -92.056999 -136.16473 -1.779052 135.57007
575000000 -1.8614399 19.952257 -93.25473 -163.13017 -92.510056 -163.20508 -1.7896358 107.53137
584500000 -1.8328564 -7.6851034 -92.376297 170.60913 -91.877007 170.24611 -1.8038275 79.713531
594000000 -1.7948821 -35.285309 -91.957062 143.11322 -91.760048 143.09875 -1.811749 52.201927
603500000 -1.7696799 -62.922695 -91.881241 116.23127 -92.111465 112.88265 -1.7964841 24.994802
613000000 -1.799464 -90.650528 -92.008995 85.387688 -91.381294 86.356789 -1.7639546 -2.0021365
622500000 -1.8598293 -118.86528 -91.121658 55.181152 -91.634537 59.410496 -1.7328565 -28.898664
632000000 -1.9130354 -147.90866 -91.110794 31.34148 -90.904518 29.912319 -1.7210759 -55.882114
641500000 -1.9481499 -177.22357 -91.923584 -7.5367098 -91.749512 -6.6257854 -1.743915 -83.155884
651000000 -1.9941235 153.71655 -92.539833 -30.308086 -91.661331 -26.116663 -1.8009497 -110.81713
660500000 -2.0488534 124.65241 -91.405312 -53.665344 -91.550064 -52.308285 -1.8768368 -138.81624
670000000 -2.0612104 95.238892 -91.733643 -79.859871 -91.521568 -80.474174 -1.9472533 -166.98251
679500000 -2.0198874 66.168106 -91.129349 -108.39465 -91.017258 -107.89995 -1.9918358 164.89313
689000000 -1.9738554 38.152073 -90.894424 -137.15828 -90.542007 -138.53755 -2.0067863 136.97482
698500000 -1.9542904 10.562499 -90.064919 -164.36508 -90.426888 -163.34343 -2.0034311 109.30669
708000000 -1.9363989 -17.581337 -89.864876 168.02252 -90.565498 164.56551 -1.9980925 81.85659
717500000 -1.9075462 -45.905201 -90.19149 139.11314 -90.248795 137.75986 -1.9991992 54.572193
727000000 -1.9035808 -73.606842 -89.483498 109.38517 -89.365852 110.103 -2.0051062 27.397539
736500000 -1.9611055 -101.51834 -88.984734 82.283539 -89.757141 82.032623 -2.0099607 0.28336498
746000000 -2.0514245 -130.81012 -89.325638 55.090748 -89.379974 51.927166 -2.0124443 -26.829609
755500000 -2.0922878 -160.70058 -89.342949 22.922234 -88.926613 24.143833 -2.0191941 -54.020836
765000000 -2.1162765 169.99103 -88.606232 -6.4420309 -88.840752 -4.3231888 -2.0418327 -81.415901
774500000 -2.2020555 140.64122 -88.517181 -32.261906 -88.851898 -30.320395 -2.0893192 -109.13591
784000000 -2.2661037 110.36906 -89.099968 -62.339607 -88.724739 -61.769691 -2.1603458 -137.23621
793500000 -2.2271206 80.310707 -88.714165 -93.589462 -88.422119 -91.002663 -2.2413907 -165.66833
803000000 -2.169615 51.770393 -88.159973 -121.79832 -88.556992 -118.89523 -2.3123326 165.70746
812500000 -2.1574745 23.766022 -88.273834 -150.76974 -88.278458 -150.51964 -2.3594501 137.08829
822000000 -2.1385267 -4.6886244 -88.352425 -178.36717 -88.195274 -179.61423 -2.3813343 108.63441
831500000 -2.0741103 -32.86319 -88.246262 153.51213 -88.121246 151.63808 -2.3881884 80.423981
841000000 -2.0423079 -60.378723 -88.387169 125.82813 -88.496857 123.71844 -2.3919826 52.443192
850500000 -2.0842447 -88.027184 -88.357765 98.637436 -88.124306 97.514107 -2.3990316 24.623968
860000000 -2.1240304 -116.36281 -87.574158 72.167503 -87.517853 71.296249 -2.4109473 -3.1239083
869500000 -2.15066 -145.12233 -86.863754 38.02314 -86.884659 40.666119 -2.4251196 -30.881783
879000000 -2.2068405 -173.95035 -87.01796 9.3637466 -87.535736 8.6129494 -2.4421263 -58.719254
888500000 -2.2572663 157.03214 -87.274307 -19.270445 -87.180336 -17.158804 -2.4667201 -86.714088
898000000 -2.2838488 127.79617 -87.003883 -48.593849 -86.70858 -48.022106 -2.5068693 -114.94506
907500000 -2.2999294 98.641556 -86.767914 -79.273727 -87.085083 -76.808243 -2.5653799 -143.44728
917000000 -2.2806981 69.808014 -86.960663 -106.49435 -86.792717 -107.72331 -2.6346366 -172.19009
926500000 -2.2199898 41.65984 -87.208252 -136.87302 -86.834213 -137.92996 -2.6981425 158.91977
936000000 -2.1558003 14.272847 -86.611557 -166.04222 -86.977234 -164.62077 -2.7412219 130.03554
945500000 -2.1172829 -12.893686 -86.842674 165.9572 -86.772568 164.43866 -2.7591288 101.33457
955000000 -2.085587 -40.070251 -87.408279 136.05685 -87.336525 134.7451 -2.7568479 72.959999
964500000 -2.0475309 -67.013351 -87.252052 107.51928 -87.16349 108.07005 -2.7422779 44.968643
974000000 -2.0462637 -93.802574 -86.957306 79.422585 -87.028938 80.582024 -2.7227712 17.311739
983500000 -2.0954537 -120.95047 -86.820419 55.195499 -86.993042 53.169903 -2.7057838 -10.132357
993000000 -2.1387622 -148.86057 -86.964989 25.266804 -87.011101 24.30757 -2.6970887 -37.473221
1002500000 -2.1657443 -177.27521 -86.603355 -5.3765292 -86.540047 -6.2872009 -2.6973412 -64.792114
1012000000 -2.2054715 154.47519 -86.264496 -33.144451 -86.349869 -31.532816 -2.7078981 -92.185509
1021500000 -2.2485321 126.16139 -86.614296 -61.393257 -86.499969 -62.873299 -2.7327857 -119.72766
1031000000 -2.2820311 97.180244 -86.505417 -92.047409 -86.366714 -91.415504 -2.7763081 -147.46613
1040500000 -2.2666118 68.147293 -86.402634 -118.89044 -86.560593 -116.44146 -2.8341169 -175.40164
1050000000 -2.2079434 40.154343 -86.411926 -148.29997 -86.354538 -147.17436 -2.893517 156.50732
1059500000 -2.1652901 13.033545 -86.589119 -178.23738 -86.50087 -175.4911 -2.9398313 128.35759
1069000000 -2.1441145 -14.431905 -86.549797 154.36249 -86.542938 155.62589 -2.9629061 100.30086
1078500000 -2.1194043 -42.229633 -86.276306 128.46967 -86.325027 127.61218 -2.9605131 72.491066
1088000000 -2.0866969 -69.177681 -86.234032 101.80955 -86.034767 102.12312 -2.9399455 45.0159
1097500000 -2.0863757 -95.719147 -86.099876 74.37558 -86.19558 71.165535 -2.9134393 17.875557
1107000000 -2.1511655 -123.37886 -85.919838 45.004757 -85.408554 45.375866 -2.8921998 -9.0149956
1116500000 -2.2176995 -152.10454 -85.508789 17.418257 -85.615952 16.609936 -2.8828492 -35.788792
1126000000 -2.247771 179.33138 -85.350121 -10.097696 -85.104172 -11.428807 -2.8885517 -62.604443
1135500000 -2.2943382 150.9348 -85.095528 -40.376457 -85.099815 -39.052589 -2.9113493 -89.591988
1145000000 -2.3710256 121.53892 -84.690605 -68.833694 -84.900322 -69.608795 -2.9525847 -116.83385
1154500000 -2.4302762 91.315536 -84.321785 -98.709656 -84.39843 -98.50528 -3.0128367 -144.36877
1164000000 -2.4191358 61.866398 -84.395439 -127.73484 -84.582924 -127.68533 -3.0875375 -172.19618
1173500000 -2.3682911 33.3871 -84.203339 -158.43248 -84.260216 -158.87199 -3.1680348 159.70889
1183000000 -2.3525271 4.8742099 -84.343994 171.22707 -84.094864 173.56114 -3.2420754 131.42163
1192500000 -2.3451073 -23.73667 -84.096466 145.17365 -84.151245 146.09872 -3.2970843 103.05958
1202000000 -2.2960143 -51.631172 -84.248695 116.69025 -84.117165 116.91742 -3.3244982 74.770607
1211500000 -2.254101 -78.759483 -83.909744 89.226715 -83.958374 87.159088 -3.3255103 46.678001
1221000000 -2.285094 -106.26192 -83.222801 59.754158 -83.380295 59.607975 -3.3108494 18.842817
1230500000 -2.3626189 -134.63573 -83.129868 31.849907 -83.109566 30.632036 -3.2942848 -8.7496777
1240000000 -2.3969049 -163.12839 -82.980835 1.6227633 -82.77182 0.12461456 -3.2885504 -36.196053
1249500000 -2.4052038 168.47887 -82.519699 -29.522205 -82.326042 -29.492136 -3.3005319 -63.642658
1259000000 -2.4688814 139.56616 -82.330986 -57.38113 -82.072357 -58.352718 -3.333904 -91.240616
1268500000 -2.5448737 110.07291 -81.865265 -89.172775 -81.835205 -90.414658 -3.3880682 -119.1079
1278000000 -2.5576582 80.59082 -81.6633 -123.05329 -81.543472 -122.88776 -3.4597235 -147.29448
1287500000 -2.5300515 51.523766 -81.894203 -154.36856 -81.85743 -154.04564 -3.5423505 -175.78781
1297000000 -2.4922183 22.962595 -81.739098 177.11192 -81.763962 178.57854 -3.6242199 155.4913
1306500000 -2.4468241 -5.009985 -81.640503 146.94859 -81.76915 147.25229 -3.6899738 126.65843
1316000000 -2.3986216 -32.521286 -81.451828 113.71345 -81.694626 113.81853 -3.7274475 97.832962
1325500000 -2.3494883 -59.793335 -81.279617 83.321465 -81.308327 83.33754 -3.7329366 69.142502
1335000000 -2.3077731 -86.618996 -82.059624 46.884418 -81.93737 47.162045 -3.7129526 40.711395
1344500000 -2.3025484 -113.08487 -81.787498 21.690325 -81.844902 22.248209 -3.677218 12.621638
1354000000 -2.3420305 -140.08026 -82.367287 -16.620798 -82.35144 -17.409346 -3.638057 -15.126168
1363500000 -2.3742187 -167.85092 -83.916733 -41.402184 -84.105072 -41.860439 -3.6075137 -42.622108
1373000000 -2.3702919 164.52597 -83.829201 -65.782112 -83.687553 -65.989929 -3.5974083 -69.9897
1382500000 -2.3939898 137.10178 -83.703072 -95.128693 -83.673233 -94.588295 -3.6121452 -97.353943
1392000000 -2.4803278 108.77098 -84.280487 -128.30855 -84.570763 -127.89305 -3.647094 -124.83727
1401500000 -2.5228298 79.649025 -85.141937 -142.7038 -85.117538 -142.78722 -3.6956813 -152.54663
1411000000 -2.4712222 51.150761 -84.148041 -162.92502 -83.909157 -163.08342 -3.7527592 179.49463
1420500000 -2.4385743 23.57177 -82.152306 162.63916 -82.240471 164.28204 -3.8100851 151.36771
1430000000 -2.4522052 -4.1428404 -81.840111 123.40059 -81.992615 124.61452 -3.8533576 123.2113
1439500000 -2.4209909 -32.114197 -82.700623 101.85044 -82.897499 100.01358 -3.8708813 95.137154
1449000000 -2.3311009 -59.116074 -81.687805 70.941895 -81.639267 70.460228 -3.8623121 67.221825
1458500000 -2.2764449 -85.147057 -80.835861 35.297192 -80.816086 33.889015 -3.8357518 39.52589
1468000000 -2.3156705 -111.66934 -80.588791 -3.5895817 -80.781448 -5.459784 -3.8020115 12.083378
1477500000 -2.3685203 -139.16086 -81.984528 -36.153824 -81.779388 -35.315029 -3.7703435 -15.120253
1487000000 -2.3574512 -166.63867 -81.386864 -77.099083 -81.492584 -76.590866 -3.7485905 -42.140194
1496500000 -2.3651261 166.23285 -82.829521 -108.96022 -82.853127 -107.85925 -3.7425694 -69.049324
1506000000 -2.4593973 138.39418 -84.377213 -142.56276 -83.994743 -144.51657 -3.7550955 -95.923111
1515500000 -2.5487392 109.32263 -87.720093 -170.15712 -87.402924 -168.96587 -3.7855611 -122.86243
1525000000 -2.5576127 80.151993 -86.571449 171.68047 -86.347054 171.95139 -3.8314886 -149.95866
1534500000 -2.5613194 51.534321 -87.7948 140.19252 -87.807167 137.89751 -3.8905253 -177.29129
1544000000 -2.6102121 22.625031 -89.071327 112.08888 -89.10833 112.66187 -3.9589188 155.11349
1553500000 -2.6193185 -6.6112852 -91.410347 90.69088 -91.805771 93.094566 -4.0271626 127.30607
1563000000 -2.5519147 -35.037796 -91.889557 77.910851 -92.114098 85.290215 -4.0825953 99.381432
1572500000 -2.5055938 -62.609791 -90.077965 65.678726 -90.619766 64.765907 -4.1151013 71.449051
1582000000 -2.5195909 -90.200378 -89.774612 39.291225 -90.373589 38.582291 -4.1237416 43.604183
1591500000 -2.5321031 -117.9725 -89.392166 17.007515 -89.623993 18.536963 -4.1159663 15.894311
1601000000 -2.5414264 -145.75262 -88.305107 -9.6863632 -88.598274 -8.2672777 -4.1053448 -11.686749
1610500000 -2.5831096 -173.77116 -87.724266 -40.796638 -87.950378 -42.540184 -4.1054125 -39.175091
1620000000 -2.6211705 157.84911 -88.576881 -65.645897 -88.342407 -66.68 -4.1223869 -66.614594
1629500000 -2.6675105 129.20807 -88.03167 -88.449875 -87.714905 -87.267708 -4.1555285 -94.04718
1639000000 -2.7662461 100.06387 -87.07003 -115.27369 -87.00174 -114.5406 -4.1984897 -121.52538
1648500000 -2.8333132 70.268944 -86.272133 -141.16174 -86.186363 -142.20525 -4.2473316 -149.10909
1658000000 -2.8161166 40.609394 -85.797333 -172.00546 -85.619759 -172.49542 -4.302814 -176.85371
1667500000 -2.8130531 11.568744 -85.320557 160.18965 -85.217468 161.59395 -4.3676462 155.19188
1677000000 -2.839819 -17.521236 -84.600716 126.16328 -84.97097 126.67584 -4.4399638 127.00906
1686500000 -2.7880671 -46.555843 -85.818031 96.726517 -85.632675 95.393379 -4.5117302 98.614853
1696000000 -2.6860816 -74.50528 -86.296623 72.64502 -86.762917 74.252731 -4.5700717 70.087746
1705500000 -2.6777048 -101.67796 -85.891327 52.048634 -85.981888 51.414574 -4.603354 41.555519
1715000000 -2.7244427 -129.21146 -84.91378 28.026993 -85.074142 28.012499 -4.6067114 13.143918
1724500000 -2.6884463 -157.08748 -84.323296 3.1072912 -84.070724 0.66597509 -4.5865974 -15.072693
1734000000 -2.6415081 175.40973 -83.441803 -28.272055 -83.192657 -28.723551 -4.5592566 -43.088711
1743500000 -2.7033834 148.01035 -83.030914 -56.725475 -82.874176 -56.2458 -4.5412436 -70.942345
1753000000 -2.7843769 119.90688 -82.26194 -83.544289 -82.310013 -85.862312 -4.5421839 -98.683907
1762500000 -2.7843902 91.196533 -81.636063 -113.18027 -81.489693 -113.76075 -4.5604825 -126.35667
1772000000 -2.7943251 62.54295 -80.857765 -144.21167 -80.766418 -144.56013 -4.5881376 -153.99802
1781500000 -2.8650367 34.071918 -80.27655 -176.63177 -80.401939 -176.42947 -4.6188335 178.34589
1791000000 -2.88097 5.4669123 -80.343002 154.09138 -80.238365 153.08688 -4.6532063 150.62222
1800500000 -2.815382 -23.177034 -79.878052 123.98252 -79.797874 123.45395 -4.6953044 122.78964
1810000000 -2.775589 -51.281006 -79.806488 91.704979 -79.86348 91.641052 -4.7441545 94.832588
1819500000 -2.7772412 -78.656548 -81.033516 64.282906 -81.107681 63.872597 -4.7905774 66.75914
1829000000 -2.7465541 -105.69727 -79.780396 52.587635 -79.731026 51.373623 -4.8213301 38.617516
1838500000 -2.6906717 -132.7785 -77.040062 19.5942 -77.108704 19.609846 -4.8264203 10.513811
1848000000 -2.698354 -159.89944 -76.209892 -20.533905 -76.278816 -20.397255 -4.8043599 -17.429174
1857500000 -2.7643704 173.03398 -76.645767 -51.241024 -76.810799 -51.509609 -4.7639213 -45.121613
1867000000 -2.7907472 145.84053 -75.871506 -79.121849 -75.767769 -79.495094 -4.721118 -72.552025
1876500000 -2.7886171 118.29367 -74.594009 -112.70111 -74.573639 -112.76609 -4.6931133 -99.776939
1886000000 -2.868551 90.327278 -73.788513 -147.35596 -73.80423 -147.1357 -4.6902847 -126.87453
1895500000 -3.0101302 61.932087 -73.060509 174.85117 -73.0177 174.69487 -4.7119055 -153.91444
1905000000 -3.0754414 33.285046 -72.691711 134.56288 -72.623238 134.54759 -4.7493358 179.04166
1914500000 -3.064863 4.7259164 -73.172356 91.732552 -73.204308 92.020439 -4.7935386 151.92944
1924000000 -3.1018791 -23.813179 -74.242302 59.01326 -74.22438 59.235363 -4.8425789 124.68177
1933500000 -3.1567569 -52.44278 -75.848602 17.826269 -75.778465 17.463751 -4.9008083 97.254517
1943000000 -3.1111019 -80.60112 -78.460991 -8.9796524 -78.456123 -8.6765242 -4.9683824 69.619614
1952500000 -3.0149777 -107.94039 -78.399811 -25.930071 -78.634453 -25.648899 -5.0383797 41.771698
1962000000 -3.0058484 -135.23796 -79.345688 -56.678551 -79.5308 -58.10936 -5.0963287 13.747688
1971500000 -3.0588958 -163.00439 -79.260475 -73.514397 -79.38797 -74.73896 -5.1284442 -14.357748
1981000000 -3.0410471 169.28984 -78.56739 -103.50226 -78.723717 -102.9623 -5.1293144 -42.40099
1990500000 -2.9955957 141.89224 -78.271065 -129.81114 -78.49395 -130.38274 -5.1059542 -70.254677
2000000000 -3.0419977 114.13608 -78.025925 -157.33282 -78.04393 -157.82999 -5.0765891 -97.861824
