!Keysight Technologies,N5242B,MY48420967,A.15.65.19
!Date: Monday, December 19, 2022 08:56:08
!Correction: S11(C  2-Port  ) 
!S21(C  2-Port  ) 
!S12(C  2-Port  ) 
!S22(C  2-Port  ) 
!S2P File: Measurements: S11, S21, S12, S22:
# Hz S  dB   R 50
100000000 -1.28978 40.847157 -110.13815 149.15483 -113.10146 166.20511 -0.95266545 60.800522
109500000 -1.1703745 11.462934 -114.22314 169.35204 -109.81615 166.8775 -0.89490789 33.451485
119000000 -1.0393275 -16.680792 -115.82309 151.63747 -108.64618 157.80324 -0.83057135 6.2266192
128500000 -0.98982161 -44.721359 -111.33304 56.648857 -114.16035 134.48112 -0.76748198 -20.945152
138000000 -0.98591739 -73.510948 -112.28302 76.53508 -108.35897 74.973022 -0.71155137 -48.121712
147500000 -1.0156087 -102.43807 -107.79944 71.516296 -107.06555 44.705837 -0.67240852 -75.401215
157000000 -1.075807 -131.4211 -109.15318 8.5218773 -107.41434 32.820374 -0.66505212 -102.90407
166500000 -1.1785464 -161.09396 -107.92377 -17.25668 -108.44812 -0.19554342 -0.7014308 -130.73398
176000000 -1.2883126 168.64551 -104.77168 -16.736521 -107.7583 -41.983139 -0.78147 -158.89925
185500000 -1.3762687 138.42665 -107.24821 -47.788322 -105.44651 -63.296654 -0.88860148 172.70233
195000000 -1.4333737 108.24488 -105.04604 -89.578552 -106.67032 -94.981728 -0.9923141 144.29958
204500000 -1.4249462 78.433167 -103.29911 -125.80881 -104.76166 -120.00917 -1.0612453 116.15855
214000000 -1.3696842 49.246899 -103.61687 -134.67505 -104.31595 -166.55438 -1.0784279 88.446419
223500000 -1.3486075 20.367823 -102.63858 -174.92523 -104.603 178.91077 -1.0497109 61.173176
233000000 -1.3214132 -8.3694601 -102.71805 145.34996 -104.0982 159.2744 -0.9966132 34.188717
242500000 -1.2449038 -36.870926 -102.86833 122.13078 -102.18716 130.69324 -0.94501406 7.2861118
252000000 -1.227389 -65.161873 -100.55413 99.861237 -100.64901 115.46513 -0.91045004 -19.713408
261500000 -1.3085014 -93.965401 -102.08353 79.616638 -100.9411 74.062798 -0.89715326 -46.920673
271000000 -1.3885765 -123.62427 -102.70026 36.758236 -102.96744 45.323708 -0.9018144 -74.370216
280500000 -1.4247091 -153.46635 -101.14816 14.978754 -104.76871 16.373875 -0.92311239 -102.05915
290000000 -1.5047656 176.79785 -99.480614 -17.21409 -99.138969 -16.858526 -0.96371555 -129.97816
299500000 -1.6382881 146.59697 -100.27096 -31.470125 -98.82164 -34.227081 -1.0276706 -158.10947
309000000 -1.6921661 115.99307 -101.02702 -74.579857 -100.50877 -81.547272 -1.1130168 173.60036
318500000 -1.6481262 85.982529 -97.723366 -92.230576 -98.417778 -101.56595 -1.2048039 145.2811
328000000 -1.6258153 56.8797 -98.153259 -128.78629 -97.752808 -132.51004 -1.2760561 117.12581
337500000 -1.6339102 27.87888 -97.77652 -157.79921 -97.331581 -159.07338 -1.3027658 89.287254
347000000 -1.5932928 -1.3904761 -97.908806 175.96428 -98.272873 176.31891 -1.2814126 61.81292
356500000 -1.5256841 -30.275955 -96.134674 150.7139 -96.961922 147.82253 -1.2304786 34.619106
366000000 -1.523708 -58.75951 -96.776321 120.06295 -96.335846 122.42183 -1.1796536 7.5153203
375500000 -1.5919306 -87.79837 -96.042572 86.876785 -95.378677 98.099785 -1.1534474 -19.726269
385000000 -1.6496311 -117.78182 -95.432533 54.217667 -95.917953 57.068333 -1.1632138 -47.293026
394500000 -1.6841269 -148.00842 -95.435081 28.213697 -96.050011 31.360268 -1.2050554 -75.252815
404000000 -1.7597051 -177.99364 -95.292824 1.6203294 -94.828545 0.39283717 -1.2647307 -103.56164
413500000 -1.8528948 151.8685 -95.448662 -26.44179 -95.535744 -23.930267 -1.3295653 -132.11133
423000000 -1.8884825 121.32839 -93.971786 -53.465061 -95.072899 -56.061424 -1.3923067 -160.81403
432500000 -1.875332 91.180977 -94.727386 -82.299034 -95.487511 -87.578316 -1.4560035 170.41728
442000000 -1.8460137 62.083687 -94.793625 -113.64592 -94.096893 -114.12473 -1.5208222 141.66499
451500000 -1.8100545 33.467724 -93.01088 -145.48914 -94.796486 -142.03677 -1.575917 113.04893
461000000 -1.7712463 4.7646475 -93.621689 -170.07541 -94.132599 -173.37437 -1.6045693 84.705551
470500000 -1.7285271 -23.788082 -94.262253 159.74208 -93.735695 162.3047 -1.5966396 56.713928
480000000 -1.7015096 -51.892467 -93.961929 137.49522 -93.919991 137.94049 -1.560169 29.059395
489500000 -1.7135645 -80.026222 -93.616837 110.44289 -93.402473 111.46178 -1.5166842 1.6056546
499000000 -1.7603502 -108.89935 -92.464714 83.811485 -93.329048 82.081741 -1.4930583 -25.875738
508500000 -1.8130141 -138.285 -92.437103 55.329651 -91.526573 54.580429 -1.5076855 -53.611767
518000000 -1.850203 -167.52112 -91.000824 26.313406 -90.818886 27.01185 -1.5631876 -81.7155
527500000 -1.8899481 163.27107 -90.737587 -8.846859 -90.420456 -7.8427424 -1.6402062 -110.1442
537000000 -1.9371048 133.79759 -90.669563 -40.988884 -90.562622 -39.40773 -1.7127097 -138.75015
546500000 -1.9461372 104.46987 -90.504532 -73.905769 -90.606689 -73.409988 -1.7628769 -167.35097
556000000 -1.9046422 75.814659 -90.903343 -107.07182 -91.221947 -106.52498 -1.7907441 164.20219
565500000 -1.8504579 47.771587 -90.885391 -130.72346 -91.255455 -136.052 -1.8050009 135.9675
575000000 -1.812068 20.001556 -91.808945 -161.80795 -91.899452 -162.2469 -1.8172848 107.92931
584500000 -1.7822766 -7.6456838 -91.399521 174.7224 -91.062698 173.8342 -1.8331939 80.108742
594000000 -1.7432181 -35.245811 -91.121063 142.99564 -91.594711 141.17157 -1.8429677 52.59536
603500000 -1.7174143 -62.893509 -91.199059 119.62633 -91.054649 116.72502 -1.8292887 25.389093
613000000 -1.7449431 -90.62709 -91.084145 89.336243 -91.249062 89.346764 -1.7982717 -1.6055236
622500000 -1.8023983 -118.8409 -90.754997 55.96949 -90.79908 58.574139 -1.7690345 -28.494968
632000000 -1.8546025 -147.87958 -90.454185 32.616558 -90.344635 32.942982 -1.7592016 -55.468006
641500000 -1.8870463 -177.18896 -91.510727 -6.8694029 -90.932663 -2.4193556 -1.7840949 -82.729263
651000000 -1.9310811 153.75739 -91.737297 -25.725077 -91.116211 -25.554184 -1.8431505 -110.37592
660500000 -1.9852087 124.70966 -90.711876 -53.340572 -90.28904 -47.440575 -1.9212019 -138.36388
670000000 -1.9959135 95.30587 -91.269409 -80.848213 -91.534714 -79.633385 -1.9939092 -166.52365
679500000 -1.9539571 66.25042 -90.408485 -104.35578 -90.373833 -105.76167 -2.0411832 165.35786
689000000 -1.9081531 38.251175 -89.68119 -135.71539 -90.259293 -133.36581 -2.0587149 137.44672
698500000 -1.8883321 10.669301 -89.44976 -162.00681 -89.993416 -163.59378 -2.0572844 109.78526
708000000 -1.8679365 -17.460238 -89.939407 168.89098 -89.863518 170.44609 -2.0538638 82.338905
717500000 -1.8378694 -45.766342 -89.795296 141.55518 -89.694672 139.98087 -2.0572829 55.060635
727000000 -1.8338671 -73.457581 -89.263191 110.45965 -89.199417 109.82532 -2.0657713 27.896849
736500000 -1.8881302 -101.36499 -88.745361 85.195023 -89.03479 84.931679 -2.0730209 0.79662955
746000000 -1.9754812 -130.6407 -88.806465 56.331146 -88.650589 55.729137 -2.0780337 -26.302444
755500000 -2.0158334 -160.51501 -88.685799 25.267441 -88.656677 26.054768 -2.0880697 -53.477409
765000000 -2.0394607 170.16856 -88.818443 -4.817441 -88.437416 -2.2730827 -2.1144826 -80.850746
774500000 -2.1243136 140.82004 -88.027145 -29.66967 -88.53125 -30.751421 -2.1657581 -108.54478
784000000 -2.1881812 110.55252 -88.161514 -59.852081 -88.210579 -60.048805 -2.2404146 -136.62099
793500000 -2.1518626 80.478767 -88.10482 -88.950249 -87.975578 -89.301575 -2.3254764 -165.03537
803000000 -2.0961719 51.920231 -88.002914 -119.08551 -88.112457 -115.27801 -2.4009862 166.35275
812500000 -2.0846605 23.89554 -87.786987 -146.81223 -88.228691 -147.5414 -2.4522343 137.74326
822000000 -2.0671008 -4.5827394 -87.826042 -176.53687 -87.792229 -177.33295 -2.4775584 109.2945
831500000 -2.0026879 -32.784298 -87.919708 154.12801 -88.053581 153.64792 -2.4874401 81.086098
841000000 -1.9712646 -60.332947 -87.57283 128.64622 -87.878731 127.75443 -2.4942951 53.109089
850500000 -2.0132968 -88.012505 -87.798203 101.63879 -87.910713 100.09615 -2.5044563 25.296463
860000000 -2.0509388 -116.38336 -87.297615 74.883873 -87.478088 74.609528 -2.5195239 -2.4445765
869500000 -2.076359 -145.17131 -86.522957 41.410275 -86.568932 44.31905 -2.5375276 -30.195396
879000000 -2.1324668 -174.02617 -86.746132 13.947752 -86.92189 11.828293 -2.5588732 -58.023026
888500000 -2.1819601 156.92303 -86.983376 -14.964999 -87.072495 -16.403866 -2.5876112 -86.003967
898000000 -2.2071717 127.66776 -86.608765 -46.238361 -86.229897 -44.193726 -2.6316009 -114.2214
907500000 -2.2233648 98.501122 -86.443291 -77.809006 -86.722618 -74.008888 -2.6941319 -142.71429
917000000 -2.205385 69.656631 -86.659348 -104.29672 -86.555717 -102.80902 -2.7680523 -171.45242
926500000 -2.1443987 41.503368 -86.846054 -133.80174 -86.962044 -134.88501 -2.8357553 159.65744
936000000 -2.0808549 14.116133 -86.683487 -163.97372 -86.331947 -162.83891 -2.881856 130.76596
945500000 -2.0429678 -13.048271 -86.533958 169.11731 -86.607613 168.51851 -2.9019098 102.05152
955000000 -2.0099936 -40.225521 -87.265244 140.6642 -87.015785 138.13205 -2.9011414 73.661087
964500000 -1.9713531 -67.159325 -86.999786 110.2373 -86.813087 112.3062 -2.8875642 45.657887
974000000 -1.9691707 -93.937134 -86.629654 84.218025 -86.720146 84.774307 -2.868762 17.993347
983500000 -2.0161862 -121.08124 -86.421417 57.415321 -86.584991 56.478611 -2.8528497 -9.4543848
993000000 -2.056622 -148.97104 -86.380608 30.124607 -86.789383 28.545074 -2.8459544 -36.794464
1002500000 -2.0819414 -177.36021 -86.311157 -0.37169087 -86.345406 0.37681216 -2.848525 -64.105965
1012000000 -2.1210232 154.41084 -86.29567 -27.681782 -86.158424 -26.400236 -2.8611848 -91.487122
1021500000 -2.1617124 126.12185 -86.241631 -56.351467 -86.597382 -57.67482 -2.8883216 -119.01749
1031000000 -2.1941314 97.171539 -86.545677 -87.078072 -86.261009 -86.124413 -2.9349098 -146.74394
1040500000 -2.1797001 68.172417 -86.286354 -116.08675 -86.373047 -111.43426 -2.996408 -174.66621
1050000000 -2.1216207 40.198559 -86.106514 -141.56189 -86.006844 -142.9996 -3.0590203 157.25517
1059500000 -2.0801942 13.097115 -86.341354 -169.93262 -86.140793 -171.2243 -3.107574 129.10945
1069000000 -2.0587087 -14.346166 -86.394341 160.49059 -86.082275 161.80937 -3.1324117 101.05109
1078500000 -2.0333707 -42.13657 -86.330963 131.62314 -85.965759 135.29132 -3.1316319 73.237633
1088000000 -2.0014207 -69.075203 -85.971451 106.92562 -86.129189 106.0214 -3.1121173 45.762577
1097500000 -1.9998473 -95.610268 -86.045364 77.480225 -85.749397 77.969666 -3.0865557 18.626318
1107000000 -2.0615432 -123.27381 -85.697578 51.390224 -85.753029 49.570572 -3.0670445 -8.2542744
1116500000 -2.1257303 -151.99583 -85.43058 21.794746 -85.37793 21.688036 -3.0604503 -35.011086
1126000000 -2.155365 179.43933 -85.187752 -6.0031934 -85.189537 -6.1359711 -3.0695584 -61.802982
1135500000 -2.2009192 151.02788 -85.049736 -34.898247 -84.925705 -34.387367 -3.0965164 -88.763031
1145000000 -2.2748878 121.61333 -84.608231 -64.498901 -84.535683 -63.170959 -3.1430447 -115.97608
1154500000 -2.3341286 91.381332 -84.372688 -94.606575 -84.298271 -94.785675 -3.2096908 -143.48138
1164000000 -2.3253787 61.915714 -84.391953 -123.43722 -84.622368 -122.5751 -3.2915456 -171.27945
1173500000 -2.2759011 33.400143 -84.251373 -153.69861 -84.13343 -152.55217 -3.3786438 160.65041
1183000000 -2.2609432 4.8615789 -84.241905 178.12003 -84.21508 177.80609 -3.4585471 132.37492
1192500000 -2.2540751 -23.775639 -84.202293 149.22334 -84.241447 148.43137 -3.5190294 104.01478
1202000000 -2.2071037 -51.709991 -84.389313 120.94752 -84.176392 120.94643 -3.5517273 75.7239
1211500000 -2.1657381 -78.873024 -84.17807 92.933418 -84.008057 92.655685 -3.5570297 47.629318
1221000000 -2.1946566 -106.41354 -83.444458 64.2519 -83.686264 64.673851 -3.5458941 19.792814
1230500000 -2.2709992 -134.82797 -83.373085 36.435818 -83.183586 36.8242 -3.5330834 -7.798686
1240000000 -2.3041193 -163.3475 -83.43261 5.2084289 -83.384918 5.05901 -3.5317013 -35.236839
1249500000 -2.3106279 168.22952 -82.951614 -24.164776 -82.881554 -24.026766 -3.5484352 -62.667068
1259000000 -2.3727067 139.28304 -82.383934 -53.290009 -82.43454 -52.997753 -3.5875916 -90.243469
1268500000 -2.4467447 109.77128 -82.279999 -83.631134 -82.112015 -84.43438 -3.6489513 -118.08534
1278000000 -2.4588318 80.287071 -82.069275 -116.90256 -82.073242 -116.80887 -3.7288353 -146.25096
1287500000 -2.4318383 51.219398 -82.13018 -149.1963 -82.327263 -147.7507 -3.8194032 -174.73186
1297000000 -2.3949575 22.661263 -82.225418 -177.85246 -82.11705 -177.39607 -3.9082932 156.54805
1306500000 -2.3502777 -5.2980642 -82.2994 152.60249 -82.289597 153.37178 -3.9798424 127.70495
1316000000 -2.3031101 -32.798237 -81.650505 117.03178 -81.919891 117.37691 -4.0212464 98.860832
1325500000 -2.2547915 -60.055893 -82.075348 89.605362 -82.184906 90.054115 -4.0289345 70.14817
1335000000 -2.212862 -86.866173 -82.374802 52.484818 -82.403053 52.592106 -4.0101528 41.693005
1344500000 -2.2071297 -113.31865 -83.702835 31.374887 -83.514404 31.395245 -3.9746785 13.584054
1354000000 -2.2446191 -140.29749 -83.808395 -9.7545338 -83.656059 -9.2375612 -3.9355054 -14.178502
1363500000 -2.2741187 -168.04515 -85.683441 -34.53088 -85.842239 -36.281052 -3.9047377 -41.678112
1373000000 -2.2690704 164.36252 -85.888542 -54.209827 -85.791595 -54.385345 -3.894644 -69.040588
1382500000 -2.2909186 136.96124 -85.733521 -78.563118 -85.618355 -78.448105 -3.910764 -96.392784
1392000000 -2.3744919 108.65217 -85.178535 -106.51815 -85.337425 -105.76729 -3.9492486 -123.85793
1401500000 -2.4156759 79.574715 -85.351097 -127.63819 -85.31308 -126.97446 -4.002646 -151.54778
1411000000 -2.3651967 51.112167 -84.485947 -149.52718 -84.385986 -149.24464 -4.0643954 -179.49702
1420500000 -2.3341885 23.556448 -83.213554 179.01678 -83.208733 179.19025 -4.1251416 152.37357
1430000000 -2.3474967 -4.130826 -82.242287 143.71375 -82.468376 143.58981 -4.1708584 124.20706
1439500000 -2.3175001 -32.077705 -82.834381 115.06466 -82.985672 115.96723 -4.1894202 96.122101
1449000000 -2.2302234 -59.062592 -82.23661 82.716888 -82.343132 82.835724 -4.1803761 68.197083
1458500000 -2.1758645 -85.090836 -81.764618 47.02396 -81.864082 47.737335 -4.1533995 40.493458
1468000000 -2.213486 -111.61221 -81.864197 9.7107134 -82.259514 9.8450413 -4.119936 13.047654
1477500000 -2.2641892 -139.09798 -84.242638 -17.977764 -84.483444 -17.948301 -4.0885005 -14.152569
1487000000 -2.2520978 -166.58337 -82.340752 -46.422031 -82.275032 -45.21524 -4.0666466 -41.164787
1496500000 -2.2590609 166.27783 -84.066635 -82.169922 -84.070518 -83.493851 -4.0607615 -68.057991
1506000000 -2.3496912 138.41905 -84.931534 -106.64667 -84.726028 -108.20599 -4.0749397 -94.910316
1515500000 -2.4364903 109.3272 -85.702988 -135.30449 -85.578781 -136.18428 -4.1097031 -121.81796
1525000000 -2.4450669 80.139847 -85.714851 -154.80824 -85.564323 -153.31572 -4.1619205 -148.87617
1534500000 -2.4488492 51.489975 -85.130913 177.75529 -85.342766 177.89528 -4.2286482 -176.17484
1544000000 -2.4972615 22.544628 -84.391518 151.00717 -84.363426 149.58565 -4.3046737 156.25381
1553500000 -2.5067711 -6.7204552 -84.353455 114.32616 -84.359039 113.95724 -4.380178 128.4604
1563000000 -2.4419537 -35.178246 -84.887512 82.999023 -85.08075 81.378532 -4.4418883 100.54576
1572500000 -2.3964496 -62.791031 -85.299782 52.23027 -85.448463 51.905285 -4.4796576 72.623009
1582000000 -2.4102597 -90.426987 -86.320786 17.920677 -86.326775 16.179609 -4.4934769 44.787498
1591500000 -2.4221425 -118.23056 -88.190018 -9.0924292 -87.969467 -6.0365782 -4.4912438 17.088074
1601000000 -2.4293413 -146.04956 -89.167076 -29.968586 -89.557899 -27.704952 -4.4857073 -10.481771
1610500000 -2.4694185 -174.10788 -89.719383 -49.043339 -89.90712 -49.11301 -4.489831 -37.957684
1620000000 -2.5049927 157.49237 -90.35022 -65.250282 -90.368454 -66.345078 -4.5110359 -65.379776
1629500000 -2.5477448 128.82327 -89.692719 -83.17421 -89.664452 -82.368515 -4.5496507 -92.78688
1639000000 -2.6441426 99.660774 -88.24794 -104.47193 -88.235764 -105.36704 -4.5994587 -120.23294
1648500000 -2.7083418 69.8769 -87.146393 -130.34723 -87.242836 -132.97385 -4.6568036 -147.78444
1658000000 -2.6899171 40.230728 -86.491623 -159.33047 -86.488297 -159.02313 -4.7224889 -175.50116
1667500000 -2.6874809 11.208881 -85.921051 170.1423 -85.536308 171.28882 -4.7983108 156.56551
1677000000 -2.7139447 -17.847971 -85.083649 139.19109 -85.141083 139.4881 -4.8809423 128.39377
1686500000 -2.6634955 -46.845699 -85.954819 109.52692 -85.935875 108.01537 -4.9613171 100.00385
1696000000 -2.5639529 -74.760506 -86.719292 88.201706 -86.380402 89.422112 -5.0269003 71.472183
1705500000 -2.5565388 -101.90263 -85.645142 65.014587 -85.704742 67.952118 -5.0667949 42.927238
1715000000 -2.6026397 -129.40102 -84.591286 41.704327 -84.769821 41.216106 -5.0758286 14.495708
1724500000 -2.5658219 -157.24187 -83.399078 13.878412 -83.487625 13.859881 -5.0592093 -13.74486
1734000000 -2.5184965 175.28728 -82.884628 -17.196766 -82.588791 -17.136473 -5.0331664 -41.781349
1743500000 -2.5789969 147.91635 -82.420921 -45.168491 -82.270226 -45.090557 -5.0156713 -69.645027
1753000000 -2.6578255 119.83992 -81.415611 -73.59153 -81.424362 -74.6371 -5.0173655 -97.382507
1762500000 -2.6556747 91.161514 -80.708252 -102.58259 -80.594177 -104.06243 -5.0372691 -125.04192
1772000000 -2.665055 62.531128 -80.177979 -135.08798 -79.899483 -135.09666 -5.0678682 -152.66963
1781500000 -2.7363472 34.078819 -79.479546 -167.75826 -79.407516 -167.60585 -5.1035376 179.6824
1791000000 -2.7517123 5.4936619 -79.574539 161.45406 -79.592651 160.81052 -5.1438951 151.96165
1800500000 -2.6872523 -23.137735 -79.330566 132.46278 -79.343056 131.55756 -5.1912293 124.13034
1810000000 -2.64991 -51.241489 -79.038483 101.85876 -79.155212 101.58754 -5.244102 96.172882
1819500000 -2.6526878 -78.631096 -79.923134 73.923546 -80.068275 74.713905 -5.2940269 68.097275
1829000000 -2.6226935 -105.67879 -78.78273 58.187721 -78.844498 57.822697 -5.3281078 39.947975
1838500000 -2.5660005 -132.77245 -76.672325 27.309633 -76.621613 27.074594 -5.3356118 11.826647
1848000000 -2.5720112 -159.93077 -75.338013 -9.2653399 -75.379639 -8.7442913 -5.3144217 -16.14147
1857500000 -2.6361697 172.97318 -75.040871 -43.950363 -75.083153 -44.135452 -5.2729402 -43.855705
1867000000 -2.6590445 145.75316 -74.695747 -75.162445 -74.701012 -75.492203 -5.22785 -71.290535
1876500000 -2.6534474 118.15494 -73.794266 -107.76466 -73.789116 -107.18092 -5.1970773 -98.50267
1886000000 -2.729517 90.130211 -72.962746 -141.832 -73.073227 -141.37881 -5.1925197 -125.57236
1895500000 -2.8684659 61.683174 -72.334106 -179.06111 -72.332275 -179.36589 -5.2153044 -152.57822
1905000000 -2.9341762 32.986362 -72.020966 141.98589 -71.96431 141.65773 -5.2573767 -179.5876
1914500000 -2.9250755 4.3773065 -72.312874 101.69664 -72.339638 101.88851 -5.3083944 153.33015
1924000000 -2.9660521 -24.199244 -72.822998 68.685379 -72.816216 68.904701 -5.3645034 126.10929
1933500000 -3.0275979 -52.842171 -73.726883 25.70985 -73.7481 25.628599 -5.4302211 98.70816
1943000000 -2.987915 -81.002747 -75.79628 -5.1993818 -75.845985 -4.808042 -5.5065641 71.104889
1952500000 -2.896019 -108.32519 -76.309319 -27.688797 -76.3433 -28.298723 -5.5863757 43.285751
1962000000 -2.8893607 -135.60023 -77.254402 -61.212059 -77.325043 -61.464954 -5.6541214 15.279402
1971500000 -2.942323 -163.3465 -78.016281 -79.302483 -77.884521 -79.727425 -5.6945758 -12.826872
1981000000 -2.9199831 168.97983 -77.309334 -107.91 -77.420387 -108.67824 -5.701479 -40.885983
1990500000 -2.8694322 141.60756 -77.402245 -136.74062 -77.46225 -137.11311 -5.6808481 -68.754204
2000000000 -2.9102795 113.86338 -77.587021 -164.35892 -77.510567 -164.59599 -5.6522274 -96.354431
