!Keysight Technologies,N5242B,MY48420967,A.15.65.19
!Date: Monday, December 19, 2022 09:39:11
!Correction: S11(C  2-Port  ) 
!S21(C  2-Port  ) 
!S12(C  2-Port  ) 
!S22(C  2-Port  ) 
!S2P File: Measurements: S11, S21, S12, S22:
# Hz S  dB   R 50
100000000 -1.290888 40.85379 -105.70276 153.65472 -112.89098 129.90302 -0.95270669 60.793888
109500000 -1.1706998 11.464149 -110.45399 165.24554 -110.12179 153.57687 -0.89587057 33.44289
119000000 -1.0410514 -16.67712 -116.25073 138.37889 -112.381 156.06369 -0.83208257 6.2187519
128500000 -0.99081367 -44.718216 -111.59708 98.295395 -114.05783 131.23761 -0.76864421 -20.953676
138000000 -0.98647386 -73.513115 -109.06043 61.399063 -112.92602 65.865906 -0.71216738 -48.134686
147500000 -1.0171229 -102.4363 -111.82309 56.061802 -108.88873 34.375301 -0.67300725 -75.417328
157000000 -1.0770637 -131.42265 -111.10387 30.160206 -113.11403 32.376347 -0.66607225 -102.91909
166500000 -1.1795938 -161.09752 -106.72512 -3.8759058 -111.65872 -5.244514 -0.70260745 -130.74663
176000000 -1.2894205 168.64542 -105.04821 -35.578056 -106.99774 -40.407963 -0.7828052 -158.91295
185500000 -1.377908 138.42189 -108.59261 -55.491005 -106.81754 -73.771698 -0.89008224 172.68459
195000000 -1.4344192 108.23778 -108.2857 -105.74034 -104.97479 -103.06801 -0.99379581 144.27937
204500000 -1.4259641 78.426941 -106.55028 -117.88999 -103.84254 -120.19774 -1.062235 116.1375
214000000 -1.3714623 49.242069 -102.87624 -152.77376 -104.01195 -147.06294 -1.0791945 88.424835
223500000 -1.3496007 20.356842 -103.33574 -158.06488 -103.04378 -168.71284 -1.0504905 61.151188
233000000 -1.3225584 -8.3801918 -103.68352 148.64159 -100.66915 167.58678 -0.99769968 34.168449
242500000 -1.2461904 -36.877342 -102.50786 124.94005 -103.38466 121.54753 -0.94608319 7.2661433
252000000 -1.2284822 -65.17646 -104.00385 111.23311 -101.83833 94.099297 -0.91123289 -19.736666
261500000 -1.3096746 -93.977875 -102.25347 69.944786 -100.72259 87.491043 -0.89782768 -46.948174
271000000 -1.3895482 -123.63381 -103.37922 43.496696 -103.47588 65.975693 -0.90251505 -74.398117
280500000 -1.4262277 -153.48195 -98.822418 13.890911 -100.14391 27.090837 -0.92351806 -102.0844
290000000 -1.5058361 176.78473 -101.06516 0.62942052 -99.659836 -12.819286 -0.96357661 -130.0025
299500000 -1.6392742 146.58548 -101.81602 -36.543167 -100.06006 -24.848646 -1.0274794 -158.13646
309000000 -1.6939788 115.97869 -99.701866 -80.00193 -100.66215 -68.658607 -1.1131707 173.5712
318500000 -1.649286 85.966705 -97.21225 -88.239891 -98.458809 -110.23334 -1.2049272 145.25314
328000000 -1.6270682 56.867771 -98.959717 -125.47679 -99.133339 -131.39667 -1.275479 117.09802
337500000 -1.6355139 27.868465 -97.662552 -156.16998 -97.530525 -155.1342 -1.3016534 89.258377
347000000 -1.5948066 -1.4079616 -96.9067 175.41954 -98.637794 176.99995 -1.2803397 61.783295
356500000 -1.527266 -30.288622 -96.136833 149.31674 -97.412598 140.09554 -1.2294623 34.591599
366000000 -1.525206 -58.769012 -97.474693 119.61574 -96.774872 114.82162 -1.178425 7.4881687
375500000 -1.5941482 -87.813103 -96.836052 90.555573 -95.845619 91.130005 -1.1519076 -19.756092
385000000 -1.6514224 -117.79134 -95.082985 57.244083 -96.368599 60.745987 -1.1616265 -47.326004
394500000 -1.6858946 -148.01941 -96.712357 37.131504 -95.019455 34.726055 -1.2033437 -75.285126
404000000 -1.7624345 -178.00502 -95.698372 7.7435446 -94.372314 5.9563394 -1.2624536 -103.59242
413500000 -1.8546362 151.86179 -95.555321 -26.658533 -95.680367 -21.825848 -1.3268702 -132.14359
423000000 -1.8906226 121.32174 -95.435226 -58.545547 -94.604752 -56.862186 -1.3898247 -160.84932
432500000 -1.8783042 91.174301 -94.281372 -82.501503 -93.815926 -90.197823 -1.453738 170.38191
442000000 -1.8479853 62.075977 -93.905441 -115.61697 -93.600975 -114.45432 -1.5181967 141.63138
451500000 -1.8121297 33.464584 -94.285454 -144.43419 -93.438889 -140.28287 -1.5725995 113.01485
461000000 -1.7737952 4.7628903 -93.95929 -169.04474 -94.589851 -173.11177 -1.6007957 84.669502
470500000 -1.7308702 -23.794987 -94.81073 166.83063 -94.470093 158.85725 -1.5929787 56.677525
480000000 -1.7031918 -51.894646 -93.385048 133.85246 -93.298912 143.0827 -1.5566068 29.02482
489500000 -1.7155648 -80.027077 -92.612045 109.41494 -93.582375 114.55052 -1.5128406 1.5715176
499000000 -1.7627981 -108.90231 -92.606766 84.13282 -93.103012 83.275108 -1.4888738 -25.912205
508500000 -1.8142995 -138.28673 -92.141273 50.83585 -91.607742 55.309456 -1.5031868 -53.650398
518000000 -1.8513205 -167.52187 -91.619461 19.217619 -90.790901 25.101746 -1.558266 -81.755585
527500000 -1.8906606 163.26729 -90.200912 -9.6989603 -90.363029 -11.760275 -1.6349649 -110.18559
537000000 -1.9367963 133.78291 -91.387581 -43.302681 -90.999023 -42.617569 -1.7073361 -138.79291
546500000 -1.9470575 104.45269 -90.57885 -74.558121 -90.547256 -72.409019 -1.757543 -167.39308
556000000 -1.906588 75.797615 -91.222321 -106.47021 -91.505585 -105.51534 -1.7851431 164.16017
565500000 -1.8522809 47.751411 -91.080505 -129.7607 -91.382683 -131.47719 -1.7990158 135.92447
575000000 -1.8138796 19.98571 -92.183754 -161.9613 -91.865196 -163.75851 -1.8111272 107.88528
584500000 -1.7844888 -7.6608281 -91.502968 171.0287 -91.201691 174.74751 -1.8267776 80.066254
594000000 -1.7455281 -35.265831 -91.195961 144.91486 -91.740929 144.30553 -1.8361536 52.55286
603500000 -1.7192903 -62.910496 -90.976318 118.91547 -90.977394 116.19733 -1.8224031 25.345335
613000000 -1.7471101 -90.643173 -90.95871 85.990677 -91.33799 89.28437 -1.7912719 -1.6497319
622500000 -1.805006 -118.85782 -90.621536 57.441708 -90.915184 62.208221 -1.7617338 -28.541065
632000000 -1.8562156 -147.89656 -90.404419 30.785378 -90.806801 32.57885 -1.7515264 -55.516289
641500000 -1.8894154 -177.20735 -91.25428 -3.3700409 -90.868515 -3.2350497 -1.7761208 -82.779831
651000000 -1.9337276 153.74042 -91.913551 -30.303886 -91.172081 -23.937801 -1.8349421 -110.4286
660500000 -1.9872274 124.68927 -91.101105 -49.827106 -90.744774 -46.603851 -1.9129264 -138.41786
670000000 -1.9983898 95.288872 -91.181854 -76.127892 -91.097702 -78.248886 -1.9853634 -166.57689
679500000 -1.9567728 66.23423 -90.949417 -103.78513 -90.496933 -108.54147 -2.032176 165.30392
689000000 -1.9107322 38.23238 -90.1045 -135.54332 -90.260681 -137.40256 -2.0492153 137.3904
698500000 -1.8906174 10.655328 -89.738937 -164.34119 -90.38987 -165.79628 -2.0477612 109.72749
708000000 -1.8708376 -17.472816 -89.743629 172.15648 -90.164589 169.28566 -2.0441444 82.282806
717500000 -1.8409445 -45.781322 -89.817108 140.92186 -89.446243 140.54518 -2.0472083 55.004883
727000000 -1.836344 -73.472046 -89.532578 112.47404 -89.060051 109.57191 -2.0551763 27.83938
736500000 -1.8912368 -101.3737 -89.154045 83.394737 -89.369949 82.824394 -2.0622096 0.73615181
746000000 -1.978822 -130.65054 -88.752594 57.523811 -88.803978 56.633503 -2.067075 -26.363728
755500000 -2.0189342 -160.52818 -88.828217 24.169525 -88.519875 25.573402 -2.0766342 -53.539261
765000000 -2.0427072 170.16298 -88.669678 -3.022085 -88.324104 -0.77658558 -2.1022573 -80.915192
774500000 -2.1276481 140.81314 -88.223831 -29.575836 -88.204498 -30.636227 -2.1529794 -108.61328
784000000 -2.1918294 110.54297 -88.311974 -58.630222 -87.892586 -59.261242 -2.2273631 -136.69249
793500000 -2.1550567 80.473801 -88.133171 -91.040901 -88.026375 -90.25605 -2.3119462 -165.10764
803000000 -2.0995893 51.913315 -88.094589 -118.08528 -87.754654 -116.0595 -2.3866408 166.27982
812500000 -2.0882788 23.888399 -88.037918 -146.38213 -87.941635 -145.81721 -2.4372983 137.66853
822000000 -2.0700808 -4.5886545 -88.042213 -176.36794 -87.809547 -177.19072 -2.4622812 109.21942
831500000 -2.0063648 -32.791302 -88.120819 153.26907 -87.73687 152.8493 -2.4718697 81.011246
841000000 -1.97486 -60.339287 -87.864357 125.87913 -87.765198 127.60373 -2.4782073 53.033913
850500000 -2.0163624 -88.021049 -87.820442 101.28909 -87.71701 98.755859 -2.4881172 25.219574
860000000 -2.0547829 -116.38918 -87.585533 75.779396 -87.229759 74.348663 -2.5028949 -2.5224757
869500000 -2.0803535 -145.17964 -86.429512 40.880344 -86.503426 41.736286 -2.5203433 -30.27342
879000000 -2.1360242 -174.03752 -86.776276 12.312945 -86.903297 13.241724 -2.5409937 -58.102173
888500000 -2.1855671 156.9157 -86.965279 -14.577806 -87.04747 -15.947823 -2.5691872 -86.086296
898000000 -2.2113531 127.65797 -86.601891 -45.644333 -86.435219 -45.767822 -2.6129031 -114.30637
907500000 -2.2272828 98.489082 -86.498466 -76.314301 -86.352448 -74.161522 -2.6750586 -142.79987
917000000 -2.2087734 69.645363 -86.430107 -104.469 -86.687828 -104.26993 -2.7481973 -171.53778
926500000 -2.148402 41.492477 -86.725014 -135.94591 -86.524055 -135.15454 -2.8151851 159.57088
936000000 -2.084687 14.104462 -86.468887 -163.65741 -86.686043 -164.28711 -2.8609767 130.67931
945500000 -2.0462129 -13.06142 -86.644806 167.12074 -86.654327 167.83757 -2.8808708 101.96689
955000000 -2.0138593 -40.234428 -87.287079 141.00047 -87.126282 138.44342 -2.8798754 73.578712
964500000 -1.9751222 -67.169464 -87.082245 110.69627 -87.070221 109.78619 -2.866092 45.575806
974000000 -1.9727488 -93.949463 -86.659798 84.55043 -86.88073 83.863953 -2.8473127 17.910868
983500000 -2.0197864 -121.08749 -86.892097 57.308281 -86.901268 54.821461 -2.8313229 -9.5365763
993000000 -2.0604486 -148.97937 -86.829338 28.367842 -86.534294 27.005484 -2.8240795 -36.876892
1002500000 -2.0856941 -177.37057 -86.551361 -1.71845 -86.521416 -1.6326387 -2.8261135 -64.190964
1012000000 -2.1242659 154.4032 -86.42131 -31.184315 -86.542931 -28.345413 -2.8387253 -91.575432
1021500000 -2.1655505 126.11466 -86.527382 -58.185223 -86.356956 -56.888378 -2.8657849 -119.10663
1031000000 -2.1978304 97.164131 -86.390747 -86.008751 -86.385063 -85.379623 -2.9118736 -146.83345
1040500000 -2.1829579 68.162888 -86.369278 -116.30898 -86.50029 -114.97932 -2.9726505 -174.75706
1050000000 -2.1255374 40.192986 -86.131561 -144.08067 -86.067612 -141.53343 -3.0346537 157.1609
1059500000 -2.0836158 13.091702 -86.277878 -170.45435 -86.289093 -171.81026 -3.0831418 129.01436
1069000000 -2.062005 -14.354145 -86.582542 159.50945 -86.587563 159.11406 -3.1079121 100.95727
1078500000 -2.0372536 -42.139046 -86.067093 132.02858 -86.039368 132.56625 -3.1069045 73.145576
1088000000 -2.0050869 -69.078163 -86.261559 107.187 -85.95211 105.5235 -3.0872345 45.669926
1097500000 -2.0034862 -95.61483 -85.930275 78.237793 -85.732491 76.595467 -3.0615053 18.533432
1107000000 -2.065377 -123.27276 -85.745415 48.763523 -85.672417 48.18037 -3.0417397 -8.3478069
1116500000 -2.1300409 -151.99591 -85.323456 20.467279 -85.329727 20.805655 -3.0348368 -35.106956
1126000000 -2.1595714 179.43703 -85.329376 -6.5020943 -85.588219 -8.3134699 -3.0436008 -61.902203
1135500000 -2.2048724 151.02827 -85.264328 -35.229485 -85.065987 -34.547592 -3.0702193 -88.865822
1145000000 -2.2795455 121.61705 -84.597763 -65.831375 -84.803154 -64.771194 -3.1160598 -116.08173
1154500000 -2.3388295 91.380272 -84.323456 -93.842812 -84.369843 -93.921326 -3.1815004 -143.59026
1164000000 -2.3298104 61.911732 -84.550377 -123.92612 -84.424706 -124.27487 -3.2621555 -171.39302
1173500000 -2.2804775 33.401867 -84.384094 -153.23605 -84.23439 -152.24255 -3.3484888 160.5332
1183000000 -2.2653766 4.8591132 -84.27993 176.0143 -84.022675 176.71202 -3.4279718 132.2569
1192500000 -2.2588401 -23.782269 -84.100632 148.86063 -84.269012 149.84578 -3.4879177 103.89832
1202000000 -2.2114396 -51.710693 -84.189003 119.75727 -83.975754 120.449 -3.5198267 75.60778
1211500000 -2.1699111 -78.877281 -84.045868 92.107857 -83.890083 92.23539 -3.5245433 47.511742
1221000000 -2.1995456 -106.41982 -83.604912 63.415314 -83.566292 63.009689 -3.5129864 19.674358
1230500000 -2.2756181 -134.83119 -83.296326 34.859615 -83.111557 34.995625 -3.499783 -7.9160337
1240000000 -2.3087645 -163.35387 -83.259842 5.4909329 -83.163361 4.8321128 -3.4977875 -35.35437
1249500000 -2.3157048 168.22169 -82.700043 -25.412094 -82.719597 -25.055771 -3.5141573 -62.787144
1259000000 -2.3775511 139.27759 -82.417549 -54.265884 -82.521599 -54.442249 -3.5527105 -90.367485
1268500000 -2.4518631 109.76571 -82.200226 -85.04364 -82.207954 -84.735977 -3.6131573 -118.21371
1278000000 -2.4640961 80.278107 -82.170616 -117.78873 -82.208946 -118.12214 -3.6917069 -146.38235
1287500000 -2.4367523 51.211143 -82.393417 -149.81421 -82.424812 -148.31615 -3.7810621 -174.86484
1297000000 -2.3997982 22.654615 -82.120056 -177.46121 -82.169052 -178.08385 -3.8690121 156.41589
1306500000 -2.3552918 -5.3063302 -82.127121 151.24728 -82.225151 152.72302 -3.9399631 127.575
1316000000 -2.307848 -32.805168 -81.698502 115.92529 -81.703903 116.65679 -3.9811623 98.732384
1325500000 -2.2592247 -60.062 -82.083282 88.090446 -82.057106 88.878479 -3.9887471 70.021736
1335000000 -2.2177267 -86.871414 -82.39669 49.779724 -82.193619 51.734257 -3.9696279 41.56897
1344500000 -2.2117665 -113.32176 -83.431473 30.047504 -83.288208 30.416748 -3.9338074 13.462301
1354000000 -2.2491477 -140.29939 -83.481308 -11.715288 -83.407623 -10.732163 -3.8944349 -14.298162
1363500000 -2.2791674 -168.04509 -85.44136 -36.213966 -85.241547 -34.720345 -3.8639164 -41.796356
1373000000 -2.2739158 164.3615 -85.501434 -55.688694 -85.571793 -58.260197 -3.8542471 -69.159241
1382500000 -2.295788 136.96202 -85.500343 -81.235352 -85.264214 -82.459267 -3.8703699 -96.513557
1392000000 -2.3794024 108.65876 -85.088707 -109.42332 -85.249695 -109.18873 -3.9082677 -123.98386
1401500000 -2.4208374 79.577087 -85.261658 -128.90814 -85.398361 -127.98301 -3.9606934 -151.67863
1411000000 -2.3702803 51.115829 -84.600838 -151.72572 -84.743027 -151.15701 -4.0215049 -179.62866
1420500000 -2.3387644 23.562807 -83.140289 176.27745 -83.204559 177.77754 -4.081708 152.24426
1430000000 -2.3524489 -4.1258316 -82.32531 140.96695 -82.632111 142.02304 -4.1272216 124.08126
1439500000 -2.3223734 -32.072525 -82.965027 113.87476 -82.910851 114.35611 -4.1460414 95.9963
1449000000 -2.2347023 -59.057796 -82.074005 81.822983 -82.064316 82.199966 -4.137495 68.070488
1458500000 -2.1805105 -85.084686 -81.639473 46.511982 -81.823395 47.982925 -4.1104445 40.366837
1468000000 -2.2181041 -111.60623 -82.008034 9.365283 -82.049614 8.4667711 -4.0764337 12.921235
1477500000 -2.2690501 -139.09366 -84.052872 -18.262039 -84.080864 -19.468664 -4.0445313 -14.279721
1487000000 -2.2573459 -166.57678 -82.150818 -49.506405 -81.864502 -48.188469 -4.0227861 -41.29192
1496500000 -2.2639551 166.28157 -83.751694 -85.103844 -83.80912 -84.623138 -4.01754 -68.186264
1506000000 -2.3551376 138.42165 -84.552711 -109.4528 -84.208015 -109.83985 -4.0320854 -95.040611
1515500000 -2.442229 109.33189 -85.296707 -139.79407 -85.201004 -138.80846 -4.0661988 -121.95344
1525000000 -2.4508753 80.140152 -85.286644 -157.79045 -85.159416 -157.54895 -4.1172094 -149.01955
1534500000 -2.4547522 51.488533 -84.84185 172.01198 -84.999138 171.16808 -4.182478 -176.32318
1544000000 -2.503206 22.543055 -84.174896 142.67677 -84.34269 141.22966 -4.2574778 156.105
1553500000 -2.5129335 -6.7241373 -84.699806 105.6879 -84.664948 106.54483 -4.3322363 128.31396
1563000000 -2.4477224 -35.183933 -85.379333 73.220619 -85.963829 73.606789 -4.3933964 100.40005
1572500000 -2.4023786 -62.796993 -86.326622 47.6427 -86.712349 46.044079 -4.4308734 72.474342
1582000000 -2.416177 -90.430901 -87.7575 13.30788 -87.489716 13.4306 -4.4440079 44.634892
1591500000 -2.4277763 -118.23941 -89.610268 -10.528645 -89.680122 -7.5723715 -4.4404912 16.932243
1601000000 -2.4356015 -146.05765 -89.984818 -28.760601 -90.355461 -26.761427 -4.4338937 -10.639113
1610500000 -2.4753864 -174.11229 -89.954567 -43.047142 -89.949226 -47.600964 -4.4374285 -38.114597
1620000000 -2.5110078 157.48155 -90.209656 -65.110245 -90.144859 -66.284637 -4.4586129 -65.536125
1629500000 -2.5545309 128.81497 -89.580505 -81.813026 -89.251579 -81.317879 -4.4969792 -92.946083
1639000000 -2.6504204 99.655144 -87.983208 -105.51416 -88.167107 -106.06502 -4.546176 -120.3997
1648500000 -2.7148869 69.865868 -87.163574 -131.72954 -87.312523 -132.4409 -4.6022978 -147.95842
1658000000 -2.6968529 40.222225 -86.423744 -158.71292 -86.154694 -160.9734 -4.6662202 -175.67987
1667500000 -2.693917 11.201225 -85.79409 169.57281 -85.562248 169.47292 -4.7401996 156.38675
1677000000 -2.7203979 -17.857784 -85.010399 139.47884 -85.105042 138.21332 -4.8215556 128.21661
1686500000 -2.6698549 -46.851776 -85.70118 106.89604 -85.943665 107.05965 -4.9013758 99.827667
1696000000 -2.5701573 -74.76506 -86.773331 84.616905 -86.588303 84.7015 -4.9665785 71.295883
1705500000 -2.562814 -101.90697 -85.727921 61.927555 -85.81012 63.900887 -5.0057058 42.748692
1715000000 -2.6087892 -129.40387 -84.76918 39.376842 -84.932877 38.520077 -5.0134068 14.317146
1724500000 -2.5720539 -157.2413 -83.636238 12.480544 -83.939545 11.71009 -4.9958196 -13.919212
1734000000 -2.5249543 175.28854 -83.020935 -17.62924 -82.869202 -17.362204 -4.9694977 -41.949833
1743500000 -2.585597 147.91696 -82.5784 -47.886131 -82.452682 -45.658428 -4.9523096 -69.808411
1753000000 -2.6642609 119.84406 -81.743118 -74.38932 -81.711273 -75.405251 -4.9545531 -97.546585
1762500000 -2.6625926 91.165787 -81.021973 -104.46668 -80.906311 -105.28517 -4.9745359 -125.21146
1772000000 -2.6722505 62.535362 -80.307281 -136.30132 -80.176033 -136.62167 -5.0046606 -152.8457
1781500000 -2.7431629 34.083389 -79.750229 -168.06232 -79.749634 -168.9765 -5.0391173 179.50436
1791000000 -2.7590559 5.4977612 -79.770409 159.94162 -79.86615 159.62387 -5.0780468 151.786
1800500000 -2.6944826 -23.133776 -79.551903 131.22281 -79.497925 131.35123 -5.1244936 123.95731
1810000000 -2.6566772 -51.240139 -79.480591 100.08093 -79.47496 100.35815 -5.1772833 96.001625
1819500000 -2.6598525 -78.626167 -80.262619 72.835999 -80.254166 72.708794 -5.2275395 67.9245
1829000000 -2.629673 -105.67598 -79.138611 57.380344 -79.147575 57.582394 -5.2613144 39.772545
1838500000 -2.5730364 -132.77534 -77.009186 26.340984 -76.945526 26.188921 -5.2681589 11.650025
1848000000 -2.5792356 -159.92821 -75.754585 -9.4318438 -75.767334 -9.1790018 -5.2461019 -16.315479
1857500000 -2.643388 172.97459 -75.340767 -43.417023 -75.462532 -43.666344 -5.204422 -44.023373
1867000000 -2.6667995 145.74881 -74.888145 -74.503654 -74.856155 -75.139359 -5.1598921 -71.455284
1876500000 -2.6611302 118.15409 -74.070236 -107.97251 -74.024956 -107.87669 -5.1301236 -98.6679
1886000000 -2.7376096 90.128746 -73.239731 -142.06424 -73.231529 -142.02129 -5.1264629 -125.74362
1895500000 -2.8770239 61.679428 -72.556587 -179.28114 -72.491516 -179.46828 -5.1490722 -152.75751
1905000000 -2.9421241 32.981842 -72.197182 141.55815 -72.114769 141.61229 -5.1899519 -179.77405
1914500000 -2.9332523 4.3721857 -72.527985 100.85378 -72.500542 101.46437 -5.2394099 153.1404
1924000000 -2.9740944 -24.207973 -72.987251 68.18763 -72.993507 67.924576 -5.294632 125.91914
1933500000 -3.0343013 -52.854733 -73.987755 25.240282 -73.976028 25.219097 -5.3598742 98.51815
1943000000 -2.9940898 -81.014496 -76.235031 -6.1889324 -76.208229 -6.0113897 -5.4356966 70.91156
1952500000 -2.9025376 -108.34467 -76.862877 -28.371088 -76.806305 -28.386263 -5.5142837 43.084675
1962000000 -2.8955441 -135.62888 -77.745567 -61.374149 -77.825531 -61.70966 -5.5804892 15.070384
1971500000 -2.9480157 -163.37695 -78.325455 -77.950157 -78.244301 -77.773483 -5.6194549 -13.037131
1981000000 -2.9272926 168.94525 -77.751762 -106.23537 -77.77388 -106.69663 -5.6249709 -41.090782
1990500000 -2.8778217 141.56781 -77.65361 -135.12215 -77.67318 -135.15581 -5.6039748 -68.951553
2000000000 -2.9186172 113.82076 -77.671402 -162.73801 -77.642403 -163.12326 -5.5756779 -96.550453
