!Keysight Technologies,N5242B,MY48420967,A.15.65.19
!Date: Monday, December 19, 2022 14:04:30
!Correction: S11(C  2-Port  ) 
!S21(C  2-Port  ) 
!S12(C  2-Port  ) 
!S22(C  2-Port  ) 
!S2P File: Measurements: S11, S21, S12, S22:
# Hz S  dB   R 50
100000000 -1.4868279 40.705238 -109.43478 163.17677 -113.36891 144.40945 -1.0915897 60.278847
109500000 -1.3676522 11.237522 -109.96963 158.66701 -111.78747 145.655 -1.0467046 32.816048
119000000 -1.2445339 -16.908606 -116.89247 114.43166 -113.45441 163.11859 -0.99380553 5.4997339
128500000 -1.1987437 -44.94524 -110.59818 61.247578 -113.54371 105.65633 -0.93918532 -21.749063
138000000 -1.2020864 -73.707787 -107.67172 67.421921 -114.03064 72.933929 -0.89051467 -48.991043
147500000 -1.2321271 -102.60693 -109.13857 49.966938 -111.30678 30.907997 -0.85955131 -76.312027
157000000 -1.2959998 -131.50471 -113.40134 -9.4545755 -110.48042 16.13413 -0.86061066 -103.82378
166500000 -1.3973957 -161.13052 -110.19984 -21.738459 -108.48051 -19.715647 -0.90369743 -131.64143
176000000 -1.5066373 168.69508 -107.67242 -52.847176 -111.50232 -53.825939 -0.988002 -159.78943
185500000 -1.5903907 138.52007 -108.00439 -55.025986 -106.77391 -66.466011 -1.0964681 171.83177
195000000 -1.638754 108.3791 -107.10522 -110.12666 -106.05933 -117.67778 -1.1976818 143.45699
204500000 -1.6226141 78.604073 -104.45863 -131.28546 -105.00581 -136.33006 -1.260272 115.35081
214000000 -1.5610819 49.445019 -103.20741 -148.25876 -105.09945 -154.02602 -1.2704301 87.674767
223500000 -1.5313236 20.589664 -103.97557 -171.66412 -104.34772 166.68829 -1.2358842 60.437988
233000000 -1.4988778 -8.1423826 -106.62915 129.98541 -105.37601 141.07886 -1.1790617 33.491394
242500000 -1.4196601 -36.616497 -103.4671 116.33073 -103.22676 115.40024 -1.1244402 6.6178346
252000000 -1.399331 -64.91346 -99.458321 100.69713 -103.34072 84.258667 -1.0876452 -20.370415
261500000 -1.4817291 -93.686531 -107.70857 56.953259 -103.67252 74.084587 -1.0737826 -47.578671
271000000 -1.5649031 -123.34035 -101.87876 20.765368 -103.45112 50.097477 -1.0792025 -75.028801
280500000 -1.6053728 -153.21562 -104.11526 -4.369483 -101.9031 9.9442282 -1.1007899 -102.71872
290000000 -1.6870271 177.05663 -104.55524 -16.294327 -101.25336 -18.847586 -1.1415355 -130.65312
299500000 -1.826005 146.8479 -101.04078 -30.22636 -102.55478 -34.951069 -1.2069713 -158.81674
309000000 -1.8876899 116.19331 -99.311951 -89.285164 -100.23474 -83.613426 -1.2942641 172.85483
318500000 -1.8444494 86.123383 -101.42357 -105.19076 -100.82164 -118.05176 -1.3859102 144.49535
328000000 -1.8248546 57.009476 -99.646652 -128.85957 -98.938606 -134.07077 -1.4544616 116.29068
337500000 -1.8403846 27.983719 -99.922119 -177.30679 -100.61185 -168.22878 -1.4784919 88.394516
347000000 -1.8065193 -1.3483735 -97.343781 169.60344 -99.248093 169.70982 -1.4564463 60.864868
356500000 -1.7442813 -30.250294 -97.358513 141.65312 -98.269272 140.29881 -1.406482 33.624092
366000000 -1.7493398 -58.726799 -99.627869 108.96716 -99.017715 112.49924 -1.3576735 6.4713554
375500000 -1.8308786 -87.776329 -97.382568 76.608879 -97.010231 85.544609 -1.335162 -20.828125
385000000 -1.8985487 -117.75711 -96.642548 50.964508 -96.918037 59.175064 -1.3502439 -48.451042
394500000 -1.939952 -147.98483 -97.061295 27.616199 -96.812302 28.668459 -1.3972964 -76.454918
404000000 -2.0236027 -177.94633 -98.352661 -3.1465595 -96.551872 -3.6432729 -1.4601461 -104.79952
413500000 -2.1202905 151.95351 -96.509918 -31.58522 -96.046097 -25.756092 -1.5271299 -133.38382
423000000 -2.1614332 121.41817 -96.296791 -59.195938 -95.529999 -63.403061 -1.5921712 -162.11078
432500000 -2.149097 91.289162 -96.979843 -89.270805 -95.422829 -93.407974 -1.6567479 169.11757
442000000 -2.1148403 62.226185 -96.55233 -118.03336 -95.398575 -118.16846 -1.718981 140.38037
451500000 -2.0804408 33.662273 -95.242203 -150.31218 -95.592926 -150.16212 -1.7688918 111.78365
461000000 -2.046031 4.9906325 -96.016808 -171.99751 -96.658119 -178.50204 -1.7921079 83.462646
470500000 -2.0040009 -23.542002 -96.4823 158.09995 -95.679703 159.7438 -1.7803408 55.504604
480000000 -1.9776325 -51.581871 -94.779968 133.55832 -94.547661 134.28618 -1.7408366 27.892094
489500000 -1.9975947 -79.664314 -93.901299 105.62048 -94.356689 110.13089 -1.6953394 0.47774619
499000000 -2.0542178 -108.50906 -93.611839 79.660744 -93.087296 77.372467 -1.671291 -26.971802
508500000 -2.1078744 -137.86433 -92.160164 49.422974 -91.775429 49.033279 -1.6869973 -54.68005
518000000 -2.1466391 -167.09116 -91.055588 6.734386 -91.557129 8.2468519 -1.7433383 -82.759109
527500000 -2.1933601 163.67813 -92.472862 -27.690563 -92.705338 -27.435114 -1.8203502 -111.16972
537000000 -2.2449715 134.17233 -92.81485 -55.615265 -92.933426 -52.544922 -1.8919915 -139.76216
546500000 -2.2577834 104.84117 -93.107109 -83.117691 -92.927307 -81.372406 -1.9402001 -168.34767
556000000 -2.2171566 76.184395 -92.965858 -111.97851 -93.674026 -109.23125 -1.9643567 163.22052
565500000 -2.162215 48.124634 -92.876884 -138.01926 -92.5047 -142.2437 -1.9740602 134.99538
575000000 -2.1243846 20.366018 -93.99823 -168.33986 -93.250824 -165.42354 -1.9823974 106.96634
584500000 -2.0977573 -7.2706203 -93.111794 165.98732 -92.926262 168.51529 -1.9941747 79.155991
594000000 -2.0639989 -34.879379 -92.449097 140.15953 -92.863739 138.52193 -1.9994407 51.644772
603500000 -2.043396 -62.512749 -92.784019 112.93418 -92.485664 112.67045 -1.9823759 24.433649
613000000 -2.0794616 -90.227051 -92.507988 81.724571 -92.06221 82.547569 -1.9486668 -2.567553
622500000 -2.1495049 -118.42804 -92.109001 50.947598 -92.411491 53.779667 -1.9174559 -29.468824
632000000 -2.2109499 -147.47177 -91.434174 21.082758 -91.613556 22.162691 -1.9069031 -56.458752
641500000 -2.2529016 -176.80183 -93.453499 -4.8254743 -93.323952 -4.4815283 -1.9319264 -83.740173
651000000 -2.3026891 154.13562 -93.57769 -32.504848 -93.233368 -26.843241 -1.9914248 -111.41315
660500000 -2.3611233 125.06284 -92.033508 -58.560307 -91.965279 -54.844574 -2.0692649 -139.42874
670000000 -2.377388 95.63121 -92.399567 -81.32399 -92.521797 -85.69664 -2.1394532 -167.61285
679500000 -2.3350329 66.536163 -92.454826 -113.10935 -91.578094 -111.42438 -2.181936 164.24355
689000000 -2.2858734 38.520046 -91.339546 -141.83395 -91.633156 -140.04219 -2.1937797 136.30725
698500000 -2.2683706 10.960141 -91.372635 -169.51138 -91.213409 -167.08867 -2.1874666 108.62667
708000000 -2.2575788 -17.165613 -91.133156 167.7112 -91.272224 161.45898 -2.1795681 81.169296
717500000 -2.2327921 -45.476574 -91.297462 135.34938 -90.824364 133.89059 -2.1783571 53.877743
727000000 -2.2317719 -73.128654 -90.433136 104.98414 -90.13707 105.51468 -2.1823819 26.690325
736500000 -2.3008864 -100.96268 -90.409462 78.722473 -90.485619 77.909836 -2.1862113 -0.4392328
746000000 -2.4066093 -130.21048 -90.297676 50.031757 -90.628326 49.519394 -2.1884258 -27.565948
755500000 -2.4557335 -160.08247 -90.084435 20.130207 -90.041527 20.189854 -2.1952732 -54.770206
765000000 -2.4829526 170.66745 -89.958794 -11.002507 -89.901108 -9.0517216 -2.2185752 -82.181389
774500000 -2.5770528 141.37154 -89.780151 -36.108784 -89.853653 -36.034195 -2.26759 -109.92022
784000000 -2.6501179 111.10091 -89.970367 -66.145355 -89.556801 -66.438583 -2.3403831 -138.04074
793500000 -2.6073692 81.036674 -89.569664 -99.400047 -89.251503 -97.913109 -2.4221263 -166.49312
803000000 -2.5426507 52.520718 -89.075294 -124.33708 -89.50695 -125.46246 -2.4919116 164.86229
812500000 -2.5315721 24.557133 -89.374451 -153.11862 -89.294823 -154.2648 -2.5364649 136.2256
822000000 -2.5149226 -3.8798878 -89.854904 178.13994 -89.376602 175.16196 -2.5550137 107.76209
831500000 -2.4491675 -32.028603 -89.379196 148.37593 -89.209953 147.54166 -2.5584309 79.549423
841000000 -2.4166529 -59.476429 -89.293655 122.60014 -89.126129 122.07008 -2.5588868 51.572327
850500000 -2.4649971 -87.05677 -89.458275 96.80188 -89.457413 94.845909 -2.5633926 23.758196
860000000 -2.5151651 -115.34067 -88.7183 68.145157 -88.371933 66.227348 -2.5734155 -3.9814868
869500000 -2.5475559 -144.04552 -87.990883 35.923691 -87.961411 36.615959 -2.5863013 -31.728851
879000000 -2.6079292 -172.81534 -87.993401 8.2618265 -88.390358 9.409791 -2.6021857 -59.551704
888500000 -2.6646969 158.20795 -87.975143 -22.842216 -88.119759 -22.410069 -2.6261866 -87.529396
898000000 -2.6951866 128.98697 -87.193802 -53.43475 -87.319328 -53.736488 -2.6664233 -115.73745
907500000 -2.7097044 99.839874 -87.366211 -83.227547 -87.586723 -80.873886 -2.7246215 -144.2094
917000000 -2.6860619 71.002747 -87.635986 -111.28117 -87.910393 -113.31446 -2.7924452 -172.9171
926500000 -2.620362 42.837219 -88.070915 -143.20296 -87.599594 -141.02592 -2.8533759 158.22922
936000000 -2.5505242 15.444799 -87.41095 -172.4157 -87.618317 -170.78276 -2.8933549 129.38589
945500000 -2.5089412 -11.707757 -87.518433 157.41455 -87.653877 159.61304 -2.9076378 100.73318
955000000 -2.4774377 -38.86816 -88.45562 132.75078 -88.258911 131.323 -2.9010799 72.410225
964500000 -2.4401631 -65.806747 -88.218666 102.60648 -87.85421 102.64452 -2.8824425 44.470573
974000000 -2.4425077 -92.574913 -87.793144 75.566635 -87.78096 77.042816 -2.8598063 16.862137
983500000 -2.499913 -119.6813 -87.757103 50.301765 -87.833496 48.131241 -2.8406274 -10.534816
993000000 -2.5541551 -147.57822 -87.714203 21.438076 -87.59063 20.653065 -2.8302858 -37.833809
1002500000 -2.5898461 -176.00383 -87.539978 -7.4794602 -87.438156 -10.341601 -2.8296053 -65.119324
1012000000 -2.634424 155.73463 -87.336609 -37.151962 -86.89476 -36.593376 -2.8402505 -92.485542
1021500000 -2.6850083 127.41116 -86.981934 -64.430466 -87.436394 -65.599991 -2.8657348 -120.00511
1031000000 -2.7249372 98.399956 -87.409935 -94.90052 -87.420692 -94.87944 -2.9094415 -147.72806
1040500000 -2.7088001 69.293694 -86.849831 -124.39117 -87.137756 -122.22319 -2.9667053 -175.65941
1050000000 -2.6437471 41.249035 -87.071785 -151.70059 -86.91523 -151.51363 -3.0253978 156.24196
1059500000 -2.5967016 14.119175 -87.441429 177.95778 -87.464478 -179.59993 -3.070744 128.07654
1069000000 -2.578896 -13.351866 -87.4776 152.22079 -87.502167 151.6163 -3.0917671 100.00004
1078500000 -2.555949 -41.161598 -86.675781 124.21042 -86.661003 123.61573 -3.0863581 72.166443
1088000000 -2.5202134 -68.104317 -86.868797 96.700333 -86.737923 96.752899 -3.0623388 44.666359
1097500000 -2.5259137 -94.587914 -86.627693 70.004089 -86.781487 69.277855 -3.0325155 17.499941
1107000000 -2.6071138 -122.1746 -86.37442 42.283501 -86.364784 41.442596 -3.0084398 -9.4153299
1116500000 -2.6873021 -150.87386 -85.990295 12.14938 -85.9813 12.271983 -2.9968932 -36.216549
1126000000 -2.723186 -179.40388 -85.915512 -13.89929 -85.548729 -13.026854 -3.0009229 -63.062401
1135500000 -2.7795155 152.27393 -85.694618 -44.273232 -85.700043 -43.426388 -3.0226262 -90.080528
1145000000 -2.8725672 122.93589 -85.203186 -73.589241 -85.266411 -74.17717 -3.062573 -117.35216
1154500000 -2.9375315 92.710533 -84.884026 -102.53999 -85.262894 -102.64245 -3.1207542 -144.91673
1164000000 -2.9201276 63.250843 -85.002731 -133.16356 -84.792221 -132.97314 -3.193104 -172.77542
1173500000 -2.8651381 34.805309 -84.763687 -163.69563 -84.874413 -162.97229 -3.2708328 159.1019
1183000000 -2.8487275 6.3260245 -84.664856 167.65182 -85.176369 168.11978 -3.3415332 130.79192
1192500000 -2.8377357 -22.266657 -84.609604 140.59068 -84.607582 140.46758 -3.3920348 102.41483
1202000000 -2.780643 -50.115238 -84.97274 113.56584 -84.598648 111.13349 -3.413641 74.116661
1211500000 -2.7365086 -77.166885 -84.323341 83.789581 -84.323189 82.946022 -3.4084749 46.021824
1221000000 -2.7759435 -104.56552 -83.910896 54.844963 -83.794762 55.521809 -3.3879433 18.196108
1230500000 -2.8620682 -132.84921 -83.608284 27.78146 -83.553787 26.780432 -3.366045 -9.3773136
1240000000 -2.9018857 -161.27876 -83.278755 -3.0249951 -83.509354 -2.6533909 -3.3553863 -36.799553
1249500000 -2.9177723 170.41156 -83.018204 -33.344193 -83.005829 -33.408516 -3.363162 -64.219765
1259000000 -2.9918575 141.58626 -82.508278 -62.222759 -82.385513 -63.609894 -3.3928242 -91.790497
1268500000 -3.0755949 112.12793 -81.978889 -94.402054 -81.906746 -95.255775 -3.4431288 -119.62543
1278000000 -3.0891883 82.641228 -82.086357 -128.38115 -82.249176 -128.13139 -3.5105653 -147.77536
1287500000 -3.0579891 53.552429 -82.251953 -158.65628 -82.306145 -157.95398 -3.5889204 -176.22617
1297000000 -3.0139985 24.954969 -82.125702 172.74577 -82.359238 172.29076 -3.6666608 155.10107
1306500000 -2.9591632 -3.0475857 -82.04435 142.42886 -81.905319 143.01674 -3.7285018 126.31925
1316000000 -2.9022629 -30.567207 -81.748352 110.02491 -81.838814 109.70042 -3.7623079 97.544907
1325500000 -2.8485515 -57.851089 -81.673576 79.07206 -81.720428 77.555923 -3.7643173 68.906319
1335000000 -2.8025045 -84.684601 -81.658386 48.480129 -81.623657 47.172535 -3.7406528 40.526855
1344500000 -2.7955961 -111.11021 -81.653572 10.53882 -81.65136 10.891822 -3.7017791 12.491463
1354000000 -2.8430991 -138.04736 -83.490707 -21.825132 -83.569656 -21.467239 -3.6596222 -15.203757
1363500000 -2.8868906 -165.8096 -83.954948 -42.892197 -83.998764 -43.554852 -3.6273839 -42.650696
1373000000 -2.8872204 166.5562 -83.774536 -67.420448 -83.468575 -68.656563 -3.616349 -69.971741
1382500000 -2.917217 139.17506 -83.739983 -101.39615 -83.582779 -101.34545 -3.6302404 -97.294144
1392000000 -3.0180297 110.87722 -85.571259 -126.55353 -85.265205 -127.18166 -3.6637712 -124.74194
1401500000 -3.0704508 81.6754 -84.067215 -141.12094 -84.213074 -142.92415 -3.7111132 -152.42039
1411000000 -3.0140774 53.083092 -82.526382 -169.83101 -82.388344 -169.30264 -3.7674708 179.65053
1420500000 -2.9750936 25.46917 -81.603966 150.78667 -81.687393 150.26987 -3.8244464 151.55249
1430000000 -2.9906175 -2.2898719 -82.363266 121.91806 -82.602768 122.88699 -3.867595 123.41643
1439500000 -2.9570162 -30.352005 -81.73481 95.867561 -81.675774 96.177498 -3.8857038 95.350487
1449000000 -2.8557925 -57.41972 -80.799789 61.78297 -80.794907 62.360947 -3.8771827 67.43589
1458500000 -2.7972121 -83.434563 -80.08046 24.805073 -80.128693 25.195223 -3.8499634 39.734985
1468000000 -2.8453598 -109.91516 -80.209846 -14.869881 -80.3666 -15.981864 -3.8146794 12.283955
1477500000 -2.9103737 -137.40948 -81.121681 -48.261414 -81.019699 -47.157249 -3.7813656 -14.932591
1487000000 -2.9053662 -164.88811 -82.068108 -86.30986 -82.048317 -83.653801 -3.7584262 -41.968605
1496500000 -2.9206007 168.0386 -83.037971 -119.06883 -83.108536 -117.79369 -3.7520733 -68.897804
1506000000 -3.0342779 140.27161 -85.235527 -151.68927 -85.003967 -152.18848 -3.7637157 -95.798264
1515500000 -3.1431956 111.21253 -87.34507 -168.27081 -87.190048 -167.96335 -3.7921999 -122.77309
1525000000 -3.1582062 82.019043 -86.656151 160.51952 -86.916412 160.96558 -3.8354025 -149.91003
1534500000 -3.164155 53.421429 -88.666794 134.48976 -88.540276 130.89296 -3.891407 -177.28619
1544000000 -3.2214258 24.524963 -90.37632 111.82481 -90.523376 112.69851 -3.9566827 155.07698
1553500000 -3.2321355 -4.7595024 -90.980675 98.850899 -91.144005 101.00268 -4.0219793 127.22615
1563000000 -3.1532724 -33.214317 -89.951065 81.542267 -90.383659 79.211655 -4.0741324 99.253677
1572500000 -3.0998445 -60.741207 -89.020584 57.163509 -89.364693 57.009243 -4.102634 71.270836
1582000000 -3.1170337 -88.277283 -89.375488 31.775682 -89.312668 33.364925 -4.1058669 43.376789
1591500000 -3.1326993 -116.01382 -88.873558 7.6654401 -88.717674 7.874691 -4.0917153 15.624338
1601000000 -3.1456974 -143.71101 -87.504341 -20.252794 -87.744186 -17.713089 -4.0744662 -11.989169
1610500000 -3.1966512 -171.62387 -87.718315 -45.590256 -87.832596 -46.819756 -4.0681891 -39.501015
1620000000 -3.2478547 160.06458 -87.796333 -70.974602 -87.539566 -70.613503 -4.0795145 -66.958603
1629500000 -3.3049037 131.5211 -87.241508 -94.801682 -86.917847 -93.940666 -4.1066146 -94.405113
1639000000 -3.4145131 102.48687 -86.558647 -122.59957 -86.335854 -122.72444 -4.1427135 -121.89411
1648500000 -3.4949117 72.71917 -85.879684 -149.07568 -85.614441 -149.73283 -4.183661 -149.4828
1658000000 -3.4790432 43.049423 -85.3936 -177.65121 -85.070595 -177.11449 -4.2306705 -177.22017
1667500000 -3.4688826 14.033047 -84.41256 150.23204 -84.502403 149.87199 -4.2870965 154.84755
1677000000 -3.4936371 -15.042564 -84.469734 117.0776 -84.973083 116.42499 -4.35149 126.6964
1686500000 -3.4347444 -44.115818 -85.536209 89.180862 -85.689201 88.480637 -4.4163361 98.339783
1696000000 -3.3162007 -72.077782 -85.867538 66.187645 -85.841476 67.832359 -4.4683132 69.855667
1705500000 -3.2976232 -99.186913 -85.400467 44.140724 -85.622726 45.249744 -4.4952149 41.372543
1715000000 -3.3471963 -126.66649 -84.796982 17.747557 -84.747429 19.135439 -4.492084 13.017655
1724500000 -3.3148558 -154.52673 -83.732468 -5.799315 -83.931343 -6.9787073 -4.4663367 -15.134613
1734000000 -3.2661831 178.02092 -83.440765 -38.022053 -83.404648 -37.137249 -4.434813 -43.0811
1743500000 -3.3324306 150.71297 -82.867805 -64.135208 -82.791771 -63.418472 -4.4136763 -70.865463
1753000000 -3.427716 122.66808 -82.189369 -91.941643 -82.145248 -92.95787 -4.412065 -98.542992
1762500000 -3.4402759 93.962402 -81.570816 -120.48966 -81.351723 -121.35543 -4.4277005 -126.15797
1772000000 -3.4535296 65.309776 -80.932053 -151.33131 -80.698204 -151.22203 -4.4522357 -153.74254
1781500000 -3.5269015 36.820236 -80.299126 177.65062 -80.408577 179.30052 -4.4794436 178.66281
1791000000 -3.5497227 8.1469173 -80.157532 149.9034 -80.211067 148.69594 -4.5105143 151.0036
1800500000 -3.4837351 -20.587093 -79.674957 116.72849 -79.588295 116.51154 -4.550281 123.23331
1810000000 -3.433064 -48.769459 -80.249435 84.902847 -80.203568 85.447304 -4.5982871 95.32917
1819500000 -3.4259005 -76.2015 -81.241371 68.99498 -81.128105 67.240311 -4.6452637 67.299164
1829000000 -3.3944726 -103.29933 -78.551369 48.460308 -78.733406 46.904442 -4.676897 39.192127
1838500000 -3.3412459 -130.41856 -76.769539 10.101929 -76.833984 9.9756594 -4.6823888 11.112292
1848000000 -3.3511548 -157.52287 -76.82296 -25.550272 -76.794876 -25.192898 -4.6611476 -16.816254
1857500000 -3.4252024 175.43166 -76.343697 -51.603111 -76.436111 -51.464165 -4.6220961 -44.504353
1867000000 -3.4696395 148.24748 -75.211761 -81.991241 -75.154282 -82.389343 -4.5813684 -71.939392
1876500000 -3.4862595 120.75881 -73.971115 -117.25726 -73.862175 -117.46429 -4.5549631 -99.180679
1886000000 -3.5835485 92.907829 -73.194176 -152.88905 -73.186554 -152.03587 -4.5527763 -126.30658
1895500000 -3.7466011 64.618126 -72.471489 168.59064 -72.419701 168.81125 -4.5735273 -153.38223
1905000000 -3.8299532 36.034283 -72.124069 126.56033 -72.012505 126.6077 -4.6087141 179.5365
1914500000 -3.8252625 7.5533638 -73.348694 82.623573 -73.305405 83.302055 -4.6499395 152.38689
1924000000 -3.8560801 -20.841909 -74.445351 47.757618 -74.442978 47.884789 -4.6963797 125.1018
1933500000 -3.8979366 -49.399689 -76.345215 15.575541 -76.315376 15.144469 -4.7517633 97.632721
1943000000 -3.8293812 -77.568375 -78.913811 -16.052536 -78.821449 -15.618573 -4.8163862 69.950485
1952500000 -3.7060003 -104.90054 -78.787308 -28.969902 -78.918175 -29.037914 -4.8820939 42.048275
1962000000 -3.6774495 -132.15106 -79.849152 -52.064404 -79.990356 -51.872299 -4.9350767 13.968278
1971500000 -3.7208455 -159.89651 -78.647202 -75.073708 -78.659447 -75.533371 -4.9622669 -14.186758
1981000000 -3.700506 172.35631 -78.341263 -103.38328 -78.237045 -102.96116 -4.9583039 -42.271324
1990500000 -3.6544311 144.9776 -77.788383 -130.67546 -77.872398 -130.79935 -4.9304748 -70.166031
2000000000 -3.7083719 117.33023 -77.005196 -157.79906 -76.988457 -158.52141 -4.8966584 -97.820389
