!Keysight Technologies,N5242B,MY48420967,A.15.65.19
!Date: Monday, December 19, 2022 16:06:10
!Correction: S11(C  2-Port  ) 
!S21(C  2-Port  ) 
!S12(C  2-Port  ) 
!S22(C  2-Port  ) 
!S2P File: Measurements: S11, S21, S12, S22:
# Hz S  dB   R 50
100000000 -1.479926 40.655132 -109.07182 148.06168 -111.33841 114.9716 -1.1410245 60.128868
109500000 -1.3639942 11.148654 -110.1607 157.62943 -112.70643 146.77231 -1.0994517 32.626026
119000000 -1.2443825 -17.028173 -112.71314 111.07464 -112.96066 114.89864 -1.0497376 5.2760019
128500000 -1.2014245 -45.092686 -110.82877 69.758896 -115.693 132.16399 -0.99785763 -21.999214
138000000 -1.2078071 -73.87851 -112.49366 46.279362 -111.33319 28.161388 -0.95174909 -49.260082
147500000 -1.2401993 -102.78934 -108.64098 32.107479 -107.13323 12.439717 -0.92324334 -76.590721
157000000 -1.3069419 -131.69659 -113.92835 10.654848 -114.83093 4.4745879 -0.92678243 -104.1032
166500000 -1.4102224 -161.32477 -110.76094 -26.431284 -109.52583 -14.051206 -0.97223341 -131.91457
176000000 -1.5215794 168.50458 -106.20204 -38.352684 -106.99683 -46.928524 -1.0584335 -160.05321
185500000 -1.6070679 138.33545 -105.89801 -58.999283 -105.94121 -69.571625 -1.1681144 171.57813
195000000 -1.656701 108.20365 -106.27135 -103.15878 -105.19186 -104.45596 -1.2695798 143.21365
204500000 -1.6416634 78.439461 -106.30234 -131.26321 -107.91005 -122.86704 -1.3315471 115.11747
214000000 -1.5815914 49.290604 -107.02434 -143.48758 -105.00951 -168.93266 -1.3406308 87.451447
223500000 -1.5535158 20.443197 -104.9616 -179.97459 -104.05344 -179.26602 -1.3054837 60.224094
233000000 -1.5223453 -8.2821093 -105.80639 147.17973 -104.05224 147.41191 -1.2485926 33.287132
242500000 -1.4455001 -36.75074 -104.10452 125.42931 -104.21415 119.3891 -1.1945677 6.4215345
252000000 -1.4275216 -65.046188 -101.84218 70.85524 -101.99928 109.93353 -1.1588393 -20.56255
261500000 -1.5131718 -93.81797 -104.19547 52.537083 -102.04003 61.698322 -1.1466048 -47.768993
271000000 -1.5996976 -123.47498 -102.84996 27.891537 -102.3567 39.673321 -1.1537675 -75.218132
280500000 -1.6436986 -153.3568 -101.8932 0.090462431 -102.23853 6.3594341 -1.1772054 -102.90692
290000000 -1.7290481 176.91435 -103.28281 -12.635507 -99.944557 -22.973499 -1.219839 -130.84183
299500000 -1.8718281 146.70239 -102.79999 -55.774151 -102.22352 -54.761581 -1.2871907 -159.00948
309000000 -1.9377798 116.0368 -100.22146 -87.45945 -100.65601 -92.155075 -1.376312 172.65559
318500000 -1.8971561 85.957779 -98.618858 -100.37265 -99.627266 -104.26987 -1.4693313 144.28616
328000000 -1.8809276 56.842926 -99.678268 -121.87347 -99.238441 -143.75784 -1.5385208 116.06699
337500000 -1.9004605 27.814013 -99.079872 -166.37193 -97.840576 -168.09648 -1.5629565 88.154121
347000000 -1.8707901 -1.5266434 -97.652939 169.67902 -98.375443 173.02914 -1.5416639 60.606277
356500000 -1.8122944 -30.430733 -98.673431 140.33821 -97.575394 142.26782 -1.4930171 33.348675
366000000 -1.8219049 -58.902386 -98.322533 118.49223 -97.605385 114.77696 -1.4462239 6.1793847
375500000 -1.9092968 -87.951897 -97.262642 85.162308 -96.839592 97.851265 -1.4264947 -21.136061
385000000 -1.982511 -117.93404 -97.53157 54.514912 -97.236534 52.389381 -1.4449975 -48.774715
394500000 -2.0285149 -148.15863 -96.680756 31.579725 -97.040924 24.10004 -1.4954326 -76.792198
404000000 -2.1160865 -178.11134 -96.538445 -2.3764987 -96.59996 0.22776422 -1.5613737 -105.14776
413500000 -2.2164652 151.79744 -96.730133 -38.823521 -96.929543 -27.269957 -1.6309072 -133.73903
423000000 -2.2606599 121.2663 -96.079536 -59.000378 -96.852135 -63.634819 -1.6981286 -162.46693
432500000 -2.2499781 91.147278 -96.195145 -90.1782 -95.626701 -95.538956 -1.7643132 168.76637
442000000 -2.2158828 62.101002 -95.742287 -121.756 -95.260765 -121.95309 -1.8273019 140.0399
451500000 -2.1834431 33.55698 -95.84314 -151.80678 -94.723976 -148.62004 -1.8772368 111.45766
461000000 -2.1517913 4.9018197 -96.058075 -174.86891 -96.159599 -178.85603 -1.9002352 83.153717
470500000 -2.1116285 -23.614317 -95.819847 162.11038 -95.159218 158.69182 -1.8884157 55.215252
480000000 -2.0873618 -51.627533 -94.755775 131.72629 -94.26078 134.28844 -1.8494254 27.626129
489500000 -2.1112618 -79.684357 -93.999596 104.36135 -94.257095 108.26145 -1.8053383 0.23615994
499000000 -2.1731274 -108.51192 -94.471107 75.052887 -93.095818 80.387444 -1.7835629 -27.188274
508500000 -2.2306569 -137.85327 -92.882172 46.91457 -92.679054 49.425781 -1.8021067 -54.872669
518000000 -2.2731769 -167.05977 -91.961525 3.9357769 -92.196007 9.8336983 -1.8614682 -82.930008
527500000 -2.3232474 163.72986 -92.215416 -27.021475 -92.256203 -23.882751 -1.9411241 -111.32316
537000000 -2.3768055 134.23257 -93.043251 -50.964428 -92.270386 -56.848232 -2.0147715 -139.90273
546500000 -2.3901083 104.90552 -93.36705 -84.741653 -92.930061 -85.41861 -2.0641377 -168.47766
556000000 -2.3494151 76.250107 -92.968468 -112.20029 -93.353798 -110.10395 -2.0888381 163.09915
565500000 -2.2947855 48.191177 -93.567741 -138.84763 -93.283157 -143.38107 -2.0986264 134.88179
575000000 -2.2578034 20.435497 -93.908234 -164.8042 -93.924652 -168.35298 -2.1067607 106.85958
584500000 -2.2329342 -7.2000532 -92.983368 167.32288 -93.265259 171.07443 -2.118314 79.05529
594000000 -2.2015901 -34.810181 -92.628952 141.67647 -92.805946 140.06563 -2.1233144 51.549034
603500000 -2.1838682 -62.442329 -92.994568 112.55225 -92.425797 112.45723 -2.1061461 24.341919
613000000 -2.2239411 -90.15303 -92.789627 81.930626 -92.391991 80.579865 -2.0729649 -2.6550786
622500000 -2.2993877 -118.35429 -92.230904 52.547031 -92.290733 55.487625 -2.0430048 -29.551859
632000000 -2.3661811 -147.40556 -91.996696 20.290487 -92.319336 19.722013 -2.0346024 -56.536755
641500000 -2.411674 -176.74507 -93.110718 -6.1560998 -93.204239 -4.1707549 -2.0623074 -83.814842
651000000 -2.4637821 154.18521 -92.687691 -27.947348 -93.169754 -26.856424 -2.1245353 -111.48814
660500000 -2.5247006 125.10233 -91.97834 -62.768639 -92.563034 -56.873158 -2.2049837 -139.50836
670000000 -2.5428646 95.657082 -92.099869 -82.11393 -92.655685 -80.333328 -2.2767479 -167.70337
679500000 -2.4999881 66.550751 -92.360474 -110.40447 -91.678146 -113.59842 -2.3200238 164.13835
689000000 -2.4495485 38.536953 -91.432037 -144.62621 -91.459885 -141.32486 -2.3320467 136.18491
698500000 -2.4335394 10.9872 -91.492157 -169.12526 -91.765327 -170.17731 -2.3256896 108.48787
708000000 -2.4265518 -17.132135 -91.380928 164.90459 -91.559364 162.90211 -2.3178174 81.015099
717500000 -2.4041119 -45.433315 -91.350502 133.82513 -91.01413 134.32693 -2.3168292 53.708321
727000000 -2.4050336 -73.061089 -90.723015 107.35683 -90.854927 106.3511 -2.3213911 26.506506
736500000 -2.4803398 -100.86131 -90.629395 78.611786 -90.848145 80.021667 -2.3265021 -0.63820654
746000000 -2.5941389 -130.08717 -90.493248 48.942318 -90.137383 48.391144 -2.3303571 -27.778069
755500000 -2.6474612 -159.94557 -90.914742 17.301836 -89.936241 20.694571 -2.3396361 -54.99398
765000000 -2.676496 170.83311 -89.760986 -10.707543 -90.067802 -8.4459877 -2.365958 -82.415306
774500000 -2.7747228 141.56813 -89.683044 -37.737629 -90.167725 -37.940018 -2.4184849 -110.16318
784000000 -2.8514543 111.30683 -89.868111 -69.26207 -89.72184 -65.341789 -2.4946847 -138.29025
793500000 -2.8064594 81.249496 -89.52668 -99.295822 -89.88884 -97.205757 -2.5791793 -166.74783
803000000 -2.7377653 52.757774 -89.385376 -126.45948 -89.217773 -124.84389 -2.6506824 164.60367
812500000 -2.7265189 24.826183 -89.609512 -154.0524 -90.029228 -154.11902 -2.695982 135.96584
822000000 -2.7109098 -3.5888119 -89.793861 177.13768 -89.445694 175.31654 -2.7147629 107.50499
831500000 -2.6442502 -31.713778 -89.435211 146.66219 -89.34182 148.10295 -2.718076 79.301857
841000000 -2.6112859 -59.120644 -89.261948 125.14327 -89.248856 121.37234 -2.7185609 51.338524
850500000 -2.6626103 -86.656624 -89.527618 96.233475 -89.436325 92.51548 -2.7234869 23.542595
860000000 -2.7177386 -114.90565 -88.458069 67.502777 -88.444267 65.170647 -2.7343271 -4.176074
869500000 -2.7535448 -143.57924 -88.417274 34.58905 -88.574715 36.715927 -2.7486022 -31.89834
879000000 -2.8162954 -172.31897 -88.168388 8.2614908 -88.074036 9.9157581 -2.7663963 -59.693012
888500000 -2.876065 158.72716 -87.636971 -21.826609 -87.730202 -22.335482 -2.7928569 -87.639282
898000000 -2.9086049 129.51581 -87.639091 -55.724308 -87.861336 -54.172134 -2.8357544 -115.81367
907500000 -2.9228427 100.36838 -87.717155 -85.254089 -87.748688 -82.20887 -2.8964796 -144.24916
917000000 -2.8969798 71.524849 -87.852211 -112.26355 -88.037079 -110.56453 -2.966238 -172.9205
926500000 -2.8280451 43.350494 -87.941093 -143.0612 -87.868721 -143.32986 -3.0281866 158.26122
936000000 -2.7554879 15.954793 -87.966759 -172.69218 -87.795006 -171.51379 -3.068152 129.45198
945500000 -2.71259 -11.196566 -87.979652 159.65204 -88.232811 157.87158 -3.0815856 100.83195
955000000 -2.6807597 -38.356659 -88.179993 130.07521 -88.328934 130.09941 -3.0738518 72.540192
964500000 -2.6436882 -65.294235 -88.354828 103.04246 -88.105797 100.93872 -3.0540013 44.631889
974000000 -2.6476948 -92.053444 -88.149292 76.08963 -87.868973 76.809845 -3.0305507 17.054285
983500000 -2.7093155 -119.14772 -87.623695 48.692566 -87.886742 49.130096 -3.0111573 -10.312222
993000000 -2.7695601 -147.04308 -87.845001 20.60483 -87.780258 21.959505 -3.0012453 -37.58263
1002500000 -2.8093863 -175.47615 -87.357582 -9.159276 -87.615768 -8.493084 -3.0017664 -64.841896
1012000000 -2.8564594 156.25185 -87.470726 -38.744312 -87.344147 -36.539505 -3.0143242 -92.185463
1021500000 -2.9107533 127.91864 -87.183311 -64.731659 -87.469261 -66.79528 -3.042105 -119.68607
1031000000 -2.9540844 98.886101 -87.395409 -95.933372 -87.470161 -94.313652 -3.0883341 -147.39558
1040500000 -2.9371848 69.744301 -87.073387 -125.25354 -87.394867 -124.6503 -3.1480446 -175.32217
1050000000 -2.8680079 41.674446 -87.152969 -153.79536 -87.338905 -150.64198 -3.2087982 156.57405
1059500000 -2.818959 14.536591 -87.638962 179.97766 -87.83474 178.62225 -3.2554448 128.39485
1069000000 -2.8027971 -12.9382 -87.33165 151.28566 -87.308258 151.68005 -3.2767398 100.29698
1078500000 -2.7799141 -40.754017 -87.014931 122.13143 -87.120468 121.65608 -3.2707345 72.437576
1088000000 -2.7426026 -67.693375 -86.787933 97.137207 -87.243744 94.25444 -3.2455297 44.910847
1097500000 -2.7515693 -94.150124 -86.954185 68.570885 -86.946869 67.995834 -3.2146919 17.720348
1107000000 -2.8409693 -121.70466 -86.740196 39.470402 -86.365616 40.752064 -3.1901515 -9.2156553
1116500000 -2.9280031 -150.39063 -86.061966 11.434835 -86.128304 10.225923 -3.1789961 -36.035942
1126000000 -2.9669909 -178.905 -86.007523 -14.642577 -86.091377 -17.461628 -3.1845226 -62.898518
1135500000 -3.0284297 152.80727 -86.018486 -44.968147 -85.768837 -45.569981 -3.2084582 -89.931587
1145000000 -3.1295891 123.49874 -85.291183 -74.882797 -85.402451 -74.0448 -3.250947 -117.21647
1154500000 -3.1978688 93.27623 -84.921593 -104.38995 -85.090652 -103.83622 -3.3118415 -144.7934
1164000000 -3.1772664 63.81308 -85.205589 -133.70476 -85.237923 -134.07735 -3.3865867 -172.66405
1173500000 -3.1196134 35.387779 -85.039291 -164.50566 -85.183701 -166.11813 -3.4665949 159.20081
1183000000 -3.102869 6.9363933 -85.000999 166.05769 -84.926598 165.75519 -3.538753 130.8792
1192500000 -3.0900695 -21.63863 -84.911369 137.70776 -84.818535 140.0058 -3.5894189 102.49268
1202000000 -3.0287766 -49.461769 -84.805206 111.58873 -84.983032 111.48105 -3.610065 74.189072
1211500000 -2.983243 -76.463799 -84.518669 81.751289 -84.621796 81.628456 -3.6030309 46.096607
1221000000 -3.0262902 -103.79762 -84.16153 53.989059 -83.988792 52.595997 -3.5803325 18.282745
1230500000 -3.1170397 -132.02916 -83.94342 25.175831 -83.869797 24.220564 -3.5567231 -9.266901
1240000000 -3.1596892 -160.41849 -83.674782 -4.7917743 -83.528038 -5.6875038 -3.5452933 -36.65377
1249500000 -3.1789043 171.32533 -83.106651 -34.899487 -83.062508 -35.082264 -3.5532792 -64.030647
1259000000 -3.2580211 142.55641 -82.623619 -64.867828 -82.651306 -65.368538 -3.5840578 -91.550354
1268500000 -3.3463309 113.12671 -82.481384 -98.34536 -82.442726 -98.463867 -3.6359665 -119.32854
1278000000 -3.3605638 83.64357 -82.567116 -132.67163 -82.624229 -130.37683 -3.7051885 -147.41588
1287500000 -3.3273499 54.553284 -82.547409 -161.21733 -82.448898 -159.52736 -3.785233 -175.80257
1297000000 -3.2800109 25.94751 -82.334373 170.7005 -82.58828 169.70128 -3.8644464 155.58783
1306500000 -3.2206757 -2.0655031 -82.278275 138.24077 -82.164177 139.31288 -3.9275584 126.86481
1316000000 -3.1598063 -29.58934 -81.899437 106.25431 -81.794449 106.87527 -3.9621458 98.143852
1325500000 -3.1029243 -56.874447 -81.548981 72.955681 -81.566414 72.796127 -3.9642413 69.552605
1335000000 -3.0542328 -83.707771 -81.643433 37.730457 -81.58596 38.25808 -3.9399064 41.217636
1344500000 -3.0469053 -110.11743 -82.474129 -2.2329443 -82.541252 -1.353572 -3.8997314 13.226387
1354000000 -3.0986028 -137.03348 -84.475189 -29.688982 -84.479996 -30.508335 -3.8563824 -14.426437
1363500000 -3.1474707 -164.79561 -85.29995 -53.149208 -85.165413 -55.4548 -3.8237188 -41.829105
1373000000 -3.1501698 167.55896 -86.020668 -78.808304 -85.884071 -77.697998 -3.8132701 -69.105865
1382500000 -3.1838012 140.1846 -86.951248 -100.83315 -86.621613 -98.6269 -3.8285484 -96.38694
1392000000 -3.2920611 111.88519 -86.348091 -115.3448 -86.520317 -114.21281 -3.8643305 -123.79956
1401500000 -3.3495164 82.634903 -84.475418 -142.01953 -84.722656 -142.12238 -3.9146149 -151.44739
1411000000 -3.2909114 53.981457 -83.747314 -176.00026 -83.715988 -175.8154 -3.9741137 -179.3553
1420500000 -3.2486789 26.33078 -83.495018 151.31334 -83.693939 151.2179 -4.0337949 152.55609
1430000000 -3.2648735 -1.4653919 -82.825623 120.33875 -82.801262 119.04186 -4.0797334 124.41489
1439500000 -3.22967 -29.582121 -82.643326 87.073517 -82.430229 87.639809 -4.0998144 96.332207
1449000000 -3.122401 -56.692657 -82.159088 50.414955 -82.389526 51.311947 -4.0923829 68.390945
1458500000 -3.0611467 -82.710052 -82.599709 11.525583 -82.558411 10.813814 -4.0650048 40.659309
1468000000 -3.1130753 -109.17802 -84.717888 -26.278728 -84.4897 -28.050951 -4.0286016 13.175417
1477500000 -3.1839695 -136.68115 -86.208969 -46.148422 -85.931175 -45.784664 -3.9941747 -14.072964
1487000000 -3.1816704 -164.16972 -86.653412 -78.714706 -86.498741 -78.617783 -3.9706228 -41.138065
1496500000 -3.200429 168.7771 -87.905067 -104.7723 -87.990898 -103.04369 -3.9642916 -68.094788
1506000000 -3.3233187 141.04488 -89.575653 -125.54609 -89.140488 -126.94684 -3.9766502 -95.020927
1515500000 -3.4418895 111.99143 -89.250473 -143.01518 -88.893288 -143.63707 -4.0065289 -122.02054
1525000000 -3.4598475 82.788818 -89.743797 -172.41405 -89.342606 -170.75313 -4.0513597 -149.18219
1534500000 -3.4667525 54.206402 -90.167618 167.85925 -89.827988 169.43535 -4.1093974 -176.58322
1544000000 -3.5274429 25.327755 -89.288315 149.24586 -89.382423 147.89714 -4.1768155 155.75426
1553500000 -3.5387046 -3.9645522 -88.614525 124.96856 -88.948776 125.57699 -4.2439528 127.87452
1563000000 -3.4544213 -32.41716 -87.384102 91.383392 -87.728325 94.332069 -4.2971811 99.870651
1572500000 -3.3966048 -59.903759 -87.728561 66.950546 -88.06073 67.386742 -4.3256497 71.854454
1582000000 -3.4143627 -87.387383 -87.587341 42.905823 -87.657494 41.610699 -4.3276157 43.930683
1591500000 -3.4319706 -115.07892 -87.378792 14.675415 -87.130974 14.852477 -4.3112421 16.159073
1601000000 -3.4471283 -142.71671 -86.856339 -16.299023 -87.035309 -16.252394 -4.2913966 -11.460737
1610500000 -3.5023096 -170.55742 -86.902367 -40.727997 -86.880539 -42.450153 -4.2828307 -38.967091
1620000000 -3.5595164 161.19688 -86.588402 -64.973869 -86.460579 -67.588654 -4.2922664 -66.407967
1629500000 -3.6224647 132.72522 -86.19178 -92.971321 -86.197571 -93.973213 -4.3181553 -93.830154
1639000000 -3.7391648 103.76163 -85.762321 -120.55329 -85.508553 -121.29166 -4.3531857 -121.28728
1648500000 -3.8263724 74.028427 -84.819878 -148.32553 -84.840134 -149.83257 -4.3933444 -148.83429
1658000000 -3.8119454 44.37006 -84.475189 -179.8427 -84.235352 -179.72549 -4.4397702 -176.51889
1667500000 -3.8001482 15.373596 -84.349365 146.94472 -84.328583 148.16066 -4.4959617 155.61189
1677000000 -3.8248758 -13.691988 -84.666725 117.90557 -84.996193 115.72582 -4.5608764 127.52991
1686500000 -3.7627096 -42.785397 -85.499336 91.906868 -85.519096 90.276237 -4.6265087 99.242371
1696000000 -3.6362691 -70.754303 -85.337914 68.330902 -85.475952 70.599869 -4.6794295 70.82354
1705500000 -3.6129441 -97.836769 -84.93515 44.201057 -84.995605 44.365891 -4.706449 42.402016
1715000000 -3.6643004 -125.29653 -84.23838 20.018719 -84.482201 19.27276 -4.7027726 14.10733
1724500000 -3.633992 -153.15724 -83.695137 -8.1193686 -83.614037 -9.1659412 -4.6760678 -13.981377
1734000000 -3.5844519 179.40678 -83.297501 -37.984493 -83.079544 -37.544052 -4.6435161 -41.858891
1743500000 -3.6532369 152.13089 -82.651825 -65.495712 -82.699844 -63.099644 -4.6219134 -69.572548
1753000000 -3.7566457 124.09966 -82.004036 -91.56636 -82.115883 -92.160294 -4.620461 -97.18187
1762500000 -3.775995 95.381554 -81.612511 -121.25755 -81.327682 -121.05447 -4.6369343 -124.73347
1772000000 -3.7912815 66.710411 -80.847107 -151.29469 -80.813377 -151.24985 -4.6628351 -152.25845
1781500000 -3.866852 38.190842 -80.377731 177.72691 -80.387054 178.73587 -4.6918745 -179.79689
1791000000 -3.8934114 9.461051 -80.185257 148.34253 -80.104523 147.37253 -4.7252512 152.59926
1800500000 -3.8273678 -19.33889 -80.139763 115.48921 -79.831566 115.30275 -4.7682099 124.87877
1810000000 -3.7712405 -47.577114 -80.614929 85.808319 -80.648849 85.71003 -4.8206015 97.012482
1819500000 -3.758714 -75.059723 -80.71138 70.41983 -80.9487 70.536919 -4.8725467 69.002815
1829000000 -3.7261353 -102.20368 -78.438469 45.938343 -78.475777 45.011833 -4.9088469 40.896469
1838500000 -3.6738162 -129.35107 -77.33905 9.0501146 -77.230431 9.8135128 -4.9178553 12.798758
1848000000 -3.6845593 -156.46086 -76.99897 -22.641712 -77.083717 -22.12261 -4.8986745 -15.160521
1857500000 -3.7621112 176.49338 -76.097557 -51.189636 -76.291237 -50.818905 -4.8605928 -42.883057
1867000000 -3.81406 149.30998 -74.968353 -81.710289 -74.95739 -82.120598 -4.8202133 -70.352966
1876500000 -3.8394012 121.84694 -73.915291 -117.32764 -73.841454 -117.80923 -4.793961 -97.628571
1886000000 -3.9451916 94.054428 -72.972343 -152.76147 -73.074455 -152.56818 -4.7919335 -124.78932
1895500000 -4.1166019 65.828178 -72.226067 168.16508 -72.222977 167.70642 -4.81322 -151.90102
1905000000 -4.2046189 37.292213 -72.02597 124.39617 -71.90612 124.28051 -4.8492198 -179.01826
1914500000 -4.1987324 8.874301 -73.549225 82.91658 -73.577019 83.471809 -4.8917499 153.79863
1924000000 -4.2193604 -19.447266 -74.513428 48.87458 -74.480133 47.814632 -4.9399633 126.4843
1933500000 -4.2470384 -47.975391 -75.785011 13.235088 -75.787842 13.502099 -4.9978151 98.987076
1943000000 -4.1627131 -76.169075 -78.905861 -17.119541 -78.857567 -17.090557 -5.0649767 71.275414
1952500000 -4.0242634 -103.51423 -78.68969 -34.499599 -78.863205 -35.163216 -5.1330566 43.337299
1962000000 -3.9873381 -130.74323 -79.562691 -55.426674 -79.741676 -56.321083 -5.18747 15.216497
1971500000 -4.0269437 -158.46896 -79.157501 -80.180206 -79.228615 -80.798882 -5.2145514 -12.979701
1981000000 -4.0062504 173.79416 -78.787956 -107.48425 -78.796341 -106.84147 -5.2089152 -41.099934
1990500000 -3.9612095 146.46091 -78.291557 -131.84196 -78.380547 -131.46545 -5.1778483 -69.020767
2000000000 -4.0196705 118.90798 -77.074585 -159.06717 -77.05513 -159.60779 -5.1402073 -96.687637
