!Keysight Technologies,N5242B,MY48420967,A.15.65.19
!Date: Monday, December 19, 2022 10:08:14
!Correction: S11(C  2-Port  ) 
!S21(C  2-Port  ) 
!S12(C  2-Port  ) 
!S22(C  2-Port  ) 
!S2P File: Measurements: S11, S21, S12, S22:
# Hz S  dB   R 50
100000000 -1.2930936 40.858696 -106.50191 158.3765 -115.58932 157.01463 -0.95365906 60.788696
109500000 -1.1727618 11.468458 -109.10833 170.13173 -110.13146 153.49614 -0.89705616 33.4366
119000000 -1.0431883 -16.673616 -114.21199 126.8749 -106.6889 143.18561 -0.83344787 6.2117343
128500000 -0.99287558 -44.716774 -110.46431 73.769318 -110.77412 100.42388 -0.76997703 -20.961943
138000000 -0.98842967 -73.512444 -105.58712 59.874035 -112.27766 92.788277 -0.71343297 -48.144691
147500000 -1.0192095 -102.436 -112.64512 66.320114 -109.19702 29.787392 -0.67431015 -75.428726
157000000 -1.079154 -131.42366 -113.58769 -6.3180022 -105.97192 17.225592 -0.66744518 -102.93092
166500000 -1.1816525 -161.10013 -107.39307 -9.3298349 -108.21765 -14.409267 -0.70414877 -130.75894
176000000 -1.2914906 168.64229 -106.13586 -25.608599 -105.90973 -40.523663 -0.7843951 -158.92676
185500000 -1.3801461 138.4167 -106.50082 -62.731976 -106.54976 -75.695206 -0.89176595 172.66905
195000000 -1.4365541 108.23042 -106.66452 -98.287567 -105.27264 -90.930756 -0.99545968 144.26196
204500000 -1.4280294 78.419296 -103.77193 -126.5229 -106.6635 -126.97053 -1.063748 116.11915
214000000 -1.3736248 49.233105 -104.38783 -150.73386 -103.7378 -157.20598 -1.0805149 88.405594
223500000 -1.3515564 20.345415 -103.54 -172.81276 -102.87876 -170.24101 -1.051737 61.131702
233000000 -1.3245058 -8.39112 -102.88429 149.21584 -102.4761 157.22012 -0.99891406 34.148636
242500000 -1.2483127 -36.88887 -102.64766 125.57346 -101.81367 124.06375 -0.94727522 7.2460222
252000000 -1.2305217 -65.189331 -101.61534 95.136902 -99.785919 80.252861 -0.91226113 -19.758001
261500000 -1.3117292 -93.991615 -101.47037 61.805309 -100.56702 69.451057 -0.89872223 -46.970989
271000000 -1.3916929 -123.64725 -101.5157 24.30761 -102.94992 55.091751 -0.90335894 -74.421944
280500000 -1.4285192 -153.49666 -99.230713 11.690205 -100.25269 18.341908 -0.92416364 -102.10803
290000000 -1.5080556 176.76926 -101.99432 -5.115622 -101.9229 -20.984011 -0.96411502 -130.02594
299500000 -1.6414644 146.57076 -99.068184 -40.279934 -100.82042 -51.024769 -1.0278987 -158.16119
309000000 -1.6964434 115.96357 -99.335091 -79.999718 -100.00434 -68.986519 -1.1135458 173.54628
318500000 -1.6515621 85.95034 -97.784561 -91.414703 -98.493591 -105.78284 -1.2051332 145.22736
328000000 -1.6293375 56.852558 -98.79277 -128.99814 -98.928131 -136.10747 -1.2753612 117.07227
337500000 -1.6379817 27.853285 -98.090858 -152.0134 -96.830009 -161.9572 -1.3012534 89.232567
347000000 -1.5973486 -1.4248226 -97.455353 169.94604 -97.386024 174.39476 -1.2797484 61.757637
356500000 -1.529686 -30.304361 -97.3218 148.38908 -97.07132 147.70123 -1.228743 34.566196
366000000 -1.5277746 -58.784153 -96.5923 120.60841 -96.527946 114.6892 -1.1775011 7.4628963
375500000 -1.596941 -87.82856 -96.392792 87.004333 -96.615509 89.187149 -1.1508368 -19.782547
385000000 -1.6542695 -117.80633 -95.145355 63.29697 -96.857521 63.571739 -1.1604124 -47.353592
394500000 -1.6888747 -148.03302 -96.830353 38.153149 -95.457359 35.637688 -1.2019366 -75.312866
404000000 -1.7655468 -178.01765 -95.863274 -0.2163045 -95.082298 3.3498089 -1.260807 -103.62051
413500000 -1.8577055 151.84946 -94.904411 -24.494871 -95.160812 -19.649595 -1.3250161 -132.17236
423000000 -1.8937619 121.31073 -94.445267 -58.367027 -94.799248 -58.713726 -1.3878243 -160.87881
432500000 -1.8813887 91.16452 -94.555504 -86.861153 -93.85437 -89.588295 -1.4517056 170.3515
442000000 -1.8508713 62.06657 -94.644386 -115.75977 -94.13459 -118.52063 -1.5158701 141.60078
451500000 -1.81493 33.45657 -93.951904 -143.83238 -94.734558 -140.79871 -1.569941 112.98403
461000000 -1.776641 4.7546744 -94.284058 -172.75156 -93.629791 -172.75046 -1.5978011 84.638313
470500000 -1.7335507 -23.80401 -94.344849 159.69258 -94.248466 157.01672 -1.5898476 56.646633
480000000 -1.7056375 -51.90189 -94.05381 132.85829 -94.945595 142.13799 -1.5533108 28.993624
489500000 -1.7180321 -80.033661 -92.769974 110.74487 -93.313766 112.26519 -1.509387 1.539485
499000000 -1.7653311 -108.90986 -92.947021 85.968536 -93.217545 83.455307 -1.4851593 -25.945349
508500000 -1.8164203 -138.29352 -92.292473 51.848076 -91.573265 57.569138 -1.4992082 -53.685143
518000000 -1.8529304 -167.5274 -90.834518 20.120871 -90.948441 22.758133 -1.5539815 -81.791527
527500000 -1.8916312 163.25574 -90.490036 -12.895537 -90.35527 -11.696035 -1.6304064 -110.22247
537000000 -1.937876 133.7632 -91.258614 -43.011749 -91.034645 -46.235687 -1.7026067 -138.83052
546500000 -1.9489912 104.43042 -90.811417 -78.236526 -90.873283 -77.61615 -1.7526892 -167.43161
556000000 -1.9090803 75.775749 -91.255959 -106.6906 -91.683044 -105.81664 -1.780092 164.12126
565500000 -1.8549072 47.729061 -91.161163 -132.54774 -91.411484 -134.20622 -1.7936515 135.88446
575000000 -1.8165194 19.964415 -92.716377 -163.16319 -91.770622 -165.6879 -1.8055042 107.84492
584500000 -1.7872838 -7.6823025 -92.06929 170.80875 -91.292175 173.14304 -1.8210312 80.026031
594000000 -1.748436 -35.288517 -91.124748 144.32802 -90.935112 141.06139 -1.830237 52.512733
603500000 -1.7221637 -62.933212 -91.158875 119.54527 -91.368607 116.76534 -1.8163538 25.304842
613000000 -1.7502546 -90.666122 -90.967636 87.389717 -90.994904 86.078392 -1.7850553 -1.6909438
622500000 -1.8083482 -118.88237 -90.612244 55.453297 -90.855278 59.296242 -1.7553068 -28.583778
632000000 -1.8594805 -147.92256 -89.800117 30.89142 -90.780937 33.114227 -1.7448139 -55.560326
641500000 -1.892828 -177.23256 -92.011215 -4.2668476 -91.387558 -5.1494384 -1.7690707 -82.824905
651000000 -1.9373422 153.71504 -91.838249 -27.530516 -91.668175 -24.0994 -1.8276166 -110.47536
660500000 -1.9907972 124.66293 -90.77491 -53.039726 -90.498032 -48.994114 -1.9052547 -138.46545
670000000 -2.0019763 95.263863 -91.254097 -77.384743 -91.352669 -80.972946 -1.9775296 -166.62546
679500000 -1.9604455 66.208992 -90.757065 -102.71656 -90.623596 -108.61095 -2.0239885 165.25481
689000000 -1.9143615 38.207466 -90.756248 -134.47668 -90.278709 -134.61005 -2.0407758 137.34035
698500000 -1.8941082 10.631866 -89.474678 -162.39072 -90.272163 -163.53716 -2.0389986 109.67677
708000000 -1.8746053 -17.495874 -90.224655 170.12958 -90.429726 168.24698 -2.0351591 82.231537
717500000 -1.8448049 -45.804138 -89.895996 141.54774 -89.910294 141.44603 -2.0379887 54.953255
727000000 -1.8400069 -73.493507 -89.391312 110.44995 -88.932526 111.23432 -2.0457556 27.786785
736500000 -1.8951153 -101.3936 -89.130096 85.220741 -89.116234 86.091888 -2.0524602 0.6823715
746000000 -1.9830067 -130.67027 -88.616135 56.938896 -88.879913 56.244987 -2.0570028 -26.419102
755500000 -2.0230601 -160.548 -88.577171 24.902933 -88.35173 27.630781 -2.0660071 -53.596355
765000000 -2.0468204 170.14551 -88.632469 -4.3542266 -88.447342 -1.8935198 -2.0911658 -80.974602
774500000 -2.1318896 140.79677 -88.490143 -30.614016 -88.49144 -31.7859 -2.1413224 -108.67554
784000000 -2.196044 110.5261 -88.427284 -61.309212 -88.16172 -59.7705 -2.2152407 -136.75661
793500000 -2.1591377 80.457817 -88.372444 -91.11245 -88.00193 -89.337257 -2.2993927 -165.17392
803000000 -2.1036639 51.898941 -88.213493 -120.69966 -87.916794 -117.21159 -2.3735089 166.21254
812500000 -2.0923636 23.874401 -88.095322 -148.04761 -88.017998 -148.42085 -2.4236796 137.60033
822000000 -2.0741596 -4.6027222 -88.299515 -176.8627 -87.934746 -178.31595 -2.4482241 109.15014
831500000 -2.0104725 -32.804756 -87.715111 154.16837 -87.831795 152.23961 -2.4574687 80.942337
841000000 -1.9790417 -60.353012 -87.927963 127.5311 -88.070396 127.77299 -2.4635041 52.964806
850500000 -2.0205064 -88.034149 -88.098656 100.00983 -87.908272 99.053482 -2.4729757 25.149748
860000000 -2.0590959 -116.40216 -87.642242 73.650002 -87.507347 73.891228 -2.4874117 -2.5936942
869500000 -2.084933 -145.19392 -86.617081 42.621849 -86.736633 43.781967 -2.5044217 -30.345715
879000000 -2.1404634 -174.0526 -86.878418 11.384717 -87.139397 12.914818 -2.5244858 -58.175934
888500000 -2.1901112 156.90042 -87.083061 -15.504562 -86.941109 -15.446821 -2.5521359 -86.16153
898000000 -2.2160854 127.64211 -86.69104 -47.067772 -86.506683 -46.497509 -2.5953767 -114.38314
907500000 -2.2319937 98.471024 -86.589157 -77.02739 -86.55426 -73.683029 -2.6570885 -142.87808
917000000 -2.2133043 69.627708 -86.544472 -104.11609 -86.65493 -104.47153 -2.7296534 -171.61719
926500000 -2.1530027 41.474663 -87.002594 -135.33157 -86.6539 -135.33278 -2.7960658 159.49176
936000000 -2.0892582 14.085473 -86.684418 -162.87932 -86.613914 -164.01939 -2.8415256 130.59991
945500000 -2.0507748 -13.081091 -86.541733 167.93283 -86.610458 168.43358 -2.8611557 101.88889
955000000 -2.0184054 -40.253914 -87.162277 138.85542 -87.189224 137.90987 -2.8600287 73.50222
964500000 -1.9797726 -67.189629 -87.273033 111.09322 -86.615837 110.33804 -2.846113 45.50069
974000000 -1.9774055 -93.970161 -87.019722 84.120079 -86.778114 83.098915 -2.8273199 17.835798
983500000 -2.0245166 -121.10806 -86.57151 57.032154 -86.829376 56.660404 -2.8112473 -9.6116076
993000000 -2.0653546 -149.00031 -86.61837 29.242199 -86.681114 27.270006 -2.8037755 -36.95248
1002500000 -2.0905955 -177.39261 -86.365517 -2.8908999 -86.325279 -0.65068078 -2.8054628 -64.267654
1012000000 -2.129106 154.38148 -86.179985 -29.926512 -86.515648 -30.421837 -2.8177884 -91.653725
1021500000 -2.1705015 126.09348 -86.270226 -56.927418 -86.453537 -57.466076 -2.8445888 -119.18655
1031000000 -2.2028399 97.142303 -86.186386 -87.566994 -86.234657 -86.618546 -2.8903296 -146.91475
1040500000 -2.1878564 68.140915 -86.478691 -114.5581 -86.418251 -113.58568 -2.9505441 -174.84039
1050000000 -2.1303606 40.172848 -86.238785 -145.13861 -86.519875 -141.10353 -3.012131 157.07655
1059500000 -2.088352 13.072555 -86.127708 -171.84068 -86.395264 -171.71701 -3.060343 128.92958
1069000000 -2.0667291 -14.373344 -86.481277 158.11115 -86.281944 158.82761 -3.0849588 100.87292
1078500000 -2.0420613 -42.157101 -86.292374 132.27361 -86.343002 132.52213 -3.083787 73.061371
1088000000 -2.0098059 -69.094833 -85.83654 107.6003 -86.224365 103.82315 -3.0640442 45.586582
1097500000 -2.0082262 -95.630547 -85.86528 77.532166 -85.935516 77.444077 -3.0382423 18.44927
1107000000 -2.0703306 -123.28739 -85.775856 48.886734 -85.634354 48.924969 -3.0182304 -8.4333048
1116500000 -2.1351717 -152.00999 -85.539642 20.905745 -85.285271 20.825445 -3.0109053 -35.194241
1126000000 -2.1646066 179.42279 -85.258659 -6.6459799 -85.073914 -7.9561315 -3.0192797 -61.992668
1135500000 -2.2099528 151.01569 -85.152458 -35.820755 -84.985283 -36.067093 -3.0453207 -88.959076
1145000000 -2.2849166 121.60587 -84.623131 -65.656807 -84.597466 -64.977226 -3.0905426 -116.17836
1154500000 -2.3442504 91.367622 -84.305519 -95.572327 -84.47097 -94.858025 -3.1552541 -143.68993
1164000000 -2.3350632 61.899498 -84.461426 -123.67309 -84.548927 -123.34043 -3.234971 -171.49657
1173500000 -2.2856321 33.391258 -84.253204 -155.34248 -84.453819 -155.4729 -3.3203912 160.42665
1183000000 -2.2705886 4.8477039 -84.336716 176.61235 -84.483818 177.37117 -3.3991609 132.14949
1192500000 -2.2641282 -23.793961 -84.193329 148.14774 -84.272217 147.13982 -3.4584408 103.79067
1202000000 -2.2165589 -51.722321 -84.213638 119.83788 -84.284523 121.02802 -3.4897943 75.50045
1211500000 -2.1751306 -78.888382 -83.918396 91.434586 -83.937294 90.843956 -3.4939771 47.404339
1221000000 -2.204922 -106.43176 -83.532227 63.294819 -83.73941 62.939537 -3.4820733 19.567219
1230500000 -2.2811341 -134.84415 -83.305321 35.391006 -83.053734 33.385971 -3.4683373 -8.0236473
1240000000 -2.3143833 -163.3671 -83.225945 4.5644073 -83.063309 4.568634 -3.465884 -35.463314
1249500000 -2.3213894 168.20735 -82.940796 -24.921711 -82.999992 -25.639753 -3.4816341 -62.89793
1259000000 -2.383435 139.26279 -82.590889 -54.010319 -82.442902 -53.006084 -3.5194695 -90.481071
1268500000 -2.4578538 109.74997 -82.14241 -84.799423 -82.137199 -85.142456 -3.5790594 -118.33006
1278000000 -2.4700539 80.260933 -82.061577 -118.59232 -82.089439 -117.44186 -3.6566167 -146.50175
1287500000 -2.4426608 51.193066 -82.251732 -148.61435 -82.2295 -148.90723 -3.7450457 -174.98581
1297000000 -2.4055912 22.636396 -81.95575 -179.11804 -81.917114 -177.29701 -3.8321383 156.29408
1306500000 -2.3610637 -5.3252273 -82.044601 151.67717 -82.246414 152.80193 -3.90237 127.4542
1316000000 -2.3135324 -32.824574 -81.712326 115.918 -81.687325 116.49916 -3.9430449 98.614281
1325500000 -2.264827 -60.081017 -81.881294 87.518005 -82.250542 87.914375 -3.9504876 69.906151
1335000000 -2.2233362 -86.889908 -82.223778 50.559715 -82.188934 50.443203 -3.931258 41.455719
1344500000 -2.2174058 -113.34057 -83.077148 30.218868 -83.013878 29.713976 -3.8954873 13.351155
1354000000 -2.2548628 -140.31798 -83.243309 -11.325052 -83.311707 -11.342068 -3.8561728 -14.407975
1363500000 -2.2850752 -168.06378 -85.053078 -36.819473 -85.025299 -37.676041 -3.8256216 -41.906528
1373000000 -2.2798615 164.34238 -85.269554 -56.22298 -85.154793 -58.25338 -3.8159204 -69.270302
1382500000 -2.3017368 136.94382 -85.16716 -83.171394 -85.011223 -82.57637 -3.8318729 -96.62632
1392000000 -2.3854969 108.64109 -85.104637 -111.50377 -84.995499 -109.69757 -3.8693576 -124.09846
1401500000 -2.4269831 79.558929 -85.27552 -129.62218 -85.141174 -132.19327 -3.9211571 -151.79597
1411000000 -2.3764069 51.097553 -84.492798 -152.18636 -84.137619 -151.09781 -3.9813931 -179.74796
1420500000 -2.3446965 23.545946 -82.898445 176.82721 -82.863266 178.92355 -4.0411797 152.12538
1430000000 -2.358403 -4.1427264 -81.846809 141.17451 -82.269806 140.19881 -4.0863857 123.96318
1439500000 -2.3283632 -32.0886 -82.576668 111.75143 -82.454796 113.63864 -4.1050448 95.88002
1449000000 -2.2404656 -59.073608 -81.72126 80.29406 -81.716438 81.740402 -4.0965261 67.955376
1458500000 -2.1862998 -85.099037 -81.19043 43.960884 -81.223335 43.977371 -4.0696883 40.25259
1468000000 -2.2239885 -111.61894 -81.442963 6.8562374 -81.504082 6.6902299 -4.0356631 12.8071
1477500000 -2.2752466 -139.10654 -83.399414 -20.458597 -83.387032 -21.56559 -4.0037761 -14.394298
1487000000 -2.2634647 -166.58994 -81.382851 -52.942062 -81.329659 -50.809593 -3.9820788 -41.408028
1496500000 -2.2702026 166.26944 -83.055687 -88.425232 -82.904877 -90.064522 -3.9767501 -68.304253
1506000000 -2.3616495 138.41057 -83.954872 -117.78409 -83.665092 -117.84291 -3.9909768 -95.161224
1515500000 -2.4489596 109.32012 -85.412109 -149.80301 -85.109146 -148.19887 -4.0246143 -122.0773
1525000000 -2.4575968 80.127312 -85.463478 -165.62955 -85.151833 -164.78043 -4.0748062 -149.14784
1534500000 -2.4614677 51.475761 -84.85112 163.37474 -84.89138 163.35387 -4.1392651 -176.45578
1544000000 -2.510114 22.529842 -84.513321 132.19374 -84.565758 131.05031 -4.2132964 155.97006
1553500000 -2.5198388 -6.738349 -85.567268 95.158981 -85.472267 94.031799 -4.2871008 128.17751
1563000000 -2.454324 -35.199036 -86.926804 62.361282 -87.424316 65.164261 -4.3473868 100.26218
1572500000 -2.4088647 -62.812088 -88.474289 41.527752 -88.634727 38.795654 -4.3841696 72.335831
1582000000 -2.4227357 -90.446556 -89.750053 11.715196 -89.459488 8.186161 -4.396575 44.494976
1591500000 -2.4344702 -118.25616 -91.939285 -3.5108795 -91.86409 -4.5984602 -4.3924704 16.790833
1601000000 -2.4424651 -146.07539 -91.792053 -15.940499 -91.683868 -13.180038 -4.3852496 -10.782084
1610500000 -2.4822543 -174.13112 -91.016373 -31.439024 -90.4729 -34.116032 -4.3884611 -38.259232
1620000000 -2.518049 157.46147 -90.004929 -55.572037 -89.921188 -55.763798 -4.4092064 -65.683304
1629500000 -2.561847 128.7941 -88.957581 -78.561836 -88.577179 -74.847557 -4.446825 -93.096428
1639000000 -2.6578126 99.633278 -87.665154 -103.0603 -87.431969 -104.57733 -4.4952035 -120.55347
1648500000 -2.7222803 69.842079 -86.886719 -131.5601 -86.755508 -131.57004 -4.5503001 -148.11632
1658000000 -2.704355 40.197475 -86.176331 -159.77591 -86.103348 -159.45435 -4.6129732 -175.84108
1667500000 -2.7014201 11.176102 -85.425995 169.32973 -85.354996 170.37642 -4.6856799 156.22293
1677000000 -2.7278004 -17.884348 -84.572166 137.07678 -84.751999 137.31477 -4.7657294 128.05138
1686500000 -2.677151 -46.878551 -85.456245 105.23283 -85.440689 102.57617 -4.8444424 99.661583
1696000000 -2.5773396 -74.790482 -86.532356 81.474213 -86.464958 81.663528 -4.9088182 71.129906
1705500000 -2.5699253 -101.93221 -86.038254 58.598183 -85.844269 62.058422 -4.9470758 42.585262
1715000000 -2.6159124 -129.42921 -84.72216 38.068748 -85.000862 37.94796 -4.9541526 14.156075
1724500000 -2.5792828 -157.26566 -83.906921 9.6235476 -83.782928 10.587795 -4.9362059 -14.078046
1734000000 -2.5322945 175.26381 -82.988495 -20.642511 -82.9048 -19.987959 -4.9098721 -42.105755
1743500000 -2.5929933 147.89258 -82.539879 -49.314663 -82.634087 -48.751297 -4.8926301 -69.963959
1753000000 -2.671819 119.82143 -81.88726 -77.234406 -81.85453 -77.516663 -4.8946528 -97.70256
1762500000 -2.6704025 91.142952 -81.282379 -105.67091 -81.158707 -107.82132 -4.9143524 -125.36932
1772000000 -2.6800807 62.512783 -80.455208 -138.39688 -80.335381 -137.65057 -4.9442067 -153.00523
1781500000 -2.750932 34.061588 -79.990402 -171.10077 -79.878616 -169.62901 -4.978096 179.34393
1791000000 -2.7668974 5.4768538 -80.148994 159.08594 -80.085052 158.06114 -5.0163035 151.62492
1800500000 -2.7023323 -23.155542 -79.882607 129.68242 -79.774521 130.80565 -5.0621233 123.79617
1810000000 -2.664531 -51.261009 -79.681007 99.218605 -79.631004 99.859398 -5.1144667 95.839867
1819500000 -2.6676645 -78.644974 -80.342995 71.334442 -80.583405 70.902718 -5.1641588 67.76265
1829000000 -2.6374466 -105.69489 -79.443085 56.771328 -79.568443 56.740444 -5.1975174 39.611362
1838500000 -2.5809867 -132.79399 -77.332886 26.488455 -77.264038 27.388186 -5.2039747 11.490532
1848000000 -2.5872457 -159.94504 -75.775574 -9.2125187 -75.809708 -8.8582067 -5.1819925 -16.472107
1857500000 -2.6516943 172.95757 -75.375847 -44.861649 -75.348488 -45.397049 -5.1406512 -44.178078
1867000000 -2.6751957 145.73181 -75.018364 -75.78093 -75.004478 -76.513176 -5.0964975 -71.608292
1876500000 -2.6697884 118.13809 -74.147659 -108.97279 -74.126709 -108.61496 -5.0669355 -98.822433
1886000000 -2.7466846 90.114273 -73.344833 -143.35431 -73.393105 -142.49728 -5.063343 -125.90195
1895500000 -2.8861098 61.664677 -72.649353 179.60696 -72.674957 179.43248 -5.085835 -152.91982
1905000000 -2.9510758 32.967766 -72.341835 140.79538 -72.201859 140.79977 -5.1261506 -179.94089
1914500000 -2.9421344 4.3581533 -72.57843 99.595284 -72.56852 99.635849 -5.1747718 152.96947
1924000000 -2.9825792 -24.224302 -73.162323 66.349556 -73.151604 65.827942 -5.229104 125.74482
1933500000 -3.0419853 -52.87421 -74.194984 22.678631 -74.165199 22.640419 -5.2934136 98.339516
1943000000 -3.0012267 -81.03685 -76.547089 -8.7491941 -76.495293 -8.4402533 -5.3681183 70.729057
1952500000 -2.9094667 -108.37321 -77.324638 -30.240158 -77.423386 -29.836428 -5.4453559 42.898163
1962000000 -2.9023211 -135.6653 -78.655533 -63.002323 -78.669441 -64.465553 -5.5104194 14.88254
1971500000 -2.95508 -163.41821 -79.10128 -75.846573 -79.124748 -76.018211 -5.5483437 -13.224941
1981000000 -2.9349668 168.89851 -78.149658 -104.35925 -78.100044 -103.16925 -5.5532808 -41.275711
1990500000 -2.886229 141.51503 -77.823563 -132.15752 -77.872665 -132.41805 -5.5320048 -69.135201
2000000000 -2.9278638 113.76419 -77.866516 -160.29311 -77.817818 -160.64398 -5.5035968 -96.735016
