!Keysight Technologies,N5242B,MY48420967,A.15.65.19
!Date: Thursday, December 22, 2022 14:16:36
!Correction: S11(C  2-Port  ) 
!S21(C  2-Port  ) 
!S12(C  2-Port  ) 
!S22(C  2-Port  ) 
!S2P File: Measurements: S11, S21, S12, S22:
# Hz S  dB   R 50
100000000 -1.4822589 40.63588 -107.3968 148.80283 -113.1535 127.3391 -1.1750158 60.237644
109500000 -1.3799893 11.079118 -109.31186 139.50314 -114.52 125.2663 -1.1244637 32.703934
119000000 -1.2412148 -17.220984 -120.94744 136.54022 -112.16164 136.57787 -1.0682807 5.3081841
128500000 -1.2080809 -45.303162 -107.87774 62.223209 -111.98313 131.20453 -1.0219852 -21.977236
138000000 -1.2225683 -74.088539 -111.2007 53.416622 -116.9465 67.405151 -0.98535222 -49.19677
147500000 -1.2488686 -103.11329 -109.14861 51.59045 -110.74863 53.012508 -0.95979047 -76.511719
157000000 -1.3190756 -131.96779 -115.58881 27.466888 -108.71706 6.2347875 -0.96269768 -104.07497
166500000 -1.4264746 -161.65279 -106.69308 -15.709459 -114.06413 -2.851505 -1.0080217 -131.94348
176000000 -1.5411413 168.08853 -108.31358 -48.387211 -106.35654 -59.066814 -1.0912137 -160.07312
185500000 -1.6181105 138.0218 -106.07484 -61.52179 -107.74854 -81.095261 -1.1934441 171.60791
195000000 -1.6784568 107.86918 -106.70638 -100.62009 -107.33883 -108.13065 -1.2932191 143.27452
204500000 -1.664464 77.99749 -103.9139 -131.76901 -106.01621 -133.04597 -1.3652868 115.19506
214000000 -1.588034 48.838181 -104.47589 -150.28525 -104.60989 -161.95216 -1.3833077 87.549431
223500000 -1.5727746 20.125957 -106.76395 -173.66492 -104.21608 175.4137 -1.3469785 60.3209
233000000 -1.5453532 -8.6135073 -105.7028 140.71626 -104.26621 155.90593 -1.2806255 33.32761
242500000 -1.4641109 -37.200275 -101.68018 118.30706 -103.84493 121.86559 -1.2216487 6.4092431
252000000 -1.4486436 -65.411552 -102.27672 93.558105 -103.21251 91.497429 -1.1880908 -20.548735
261500000 -1.5402683 -94.209656 -103.03365 53.234825 -102.34892 73.53907 -1.1776519 -47.677235
271000000 -1.6349925 -123.89085 -105.32547 25.469109 -106.05151 59.768406 -1.1870234 -75.09156
280500000 -1.6713377 -153.71144 -101.19685 0.57884848 -101.0481 3.6805584 -1.2180389 -102.80543
290000000 -1.7695496 176.44623 -101.93231 2.2344875 -99.956779 -42.849258 -1.2679732 -130.75835
299500000 -1.9164279 146.20506 -102.45255 -59.820354 -103.20956 -37.529755 -1.33088 -158.92079
309000000 -1.9692782 115.58803 -99.853218 -69.722153 -101.2228 -83.713226 -1.4085931 172.73166
318500000 -1.9461899 85.506699 -98.377159 -96.136536 -101.13304 -112.77555 -1.4995815 144.34775
328000000 -1.9287336 56.287239 -99.210625 -121.66946 -98.318687 -135.07489 -1.5793986 116.1768
337500000 -1.9402628 27.200817 -99.469994 -156.37308 -98.007507 -159.34186 -1.6121049 88.351463
347000000 -1.9201521 -2.0093343 -97.921608 174.21501 -98.229431 168.97256 -1.5885394 60.829086
356500000 -1.8664937 -30.968706 -97.004677 147.83325 -98.381912 132.88319 -1.5355197 33.500923
366000000 -1.8793858 -59.475471 -97.347923 118.41337 -97.045967 109.52462 -1.4901531 6.2627058
375500000 -1.9646753 -88.439682 -97.501907 84.437378 -97.104202 84.897552 -1.4725878 -21.036551
385000000 -2.0538106 -118.51384 -95.883652 56.538754 -97.987923 55.179039 -1.4892381 -48.612545
394500000 -2.1022255 -148.73776 -96.825821 34.333939 -96.767052 24.658161 -1.5409112 -76.59536
404000000 -2.1786039 -178.65709 -96.773254 -8.3067675 -96.399399 -7.0708108 -1.6164572 -104.93963
413500000 -2.3011565 151.22501 -95.14402 -36.596943 -96.013229 -33.34449 -1.6936744 -133.5154
423000000 -2.3405066 120.70484 -95.882622 -64.51693 -96.559799 -61.769901 -1.7561682 -162.25748
432500000 -2.319 90.593117 -96.910667 -80.334053 -96.425018 -89.277382 -1.8134956 168.91046
442000000 -2.3021472 61.569477 -96.102524 -122.73838 -95.63356 -121.00845 -1.8775125 140.14075
451500000 -2.2654114 32.915844 -95.55703 -145.00165 -96.109634 -150.61034 -1.9361445 111.61469
461000000 -2.2249649 4.2603192 -96.047539 -176.35614 -95.996513 -177.22397 -1.9632521 83.413322
470500000 -2.1905501 -24.094519 -95.986313 157.80591 -95.420403 157.14923 -1.9488436 55.506004
480000000 -2.1783948 -52.163513 -94.20266 134.92455 -94.731308 137.4556 -1.9082375 27.853001
489500000 -2.2015228 -80.277458 -93.932045 105.46535 -94.262192 103.62315 -1.8660879 0.38875037
499000000 -2.2587399 -109.08646 -93.832352 79.04776 -92.728447 76.652382 -1.8454328 -27.053061
508500000 -2.3335748 -138.46454 -92.58094 43.01918 -92.466263 47.359089 -1.863221 -54.699368
518000000 -2.3738744 -167.68835 -91.793488 7.1412606 -92.152695 11.066431 -1.9253997 -82.687721
527500000 -2.419863 163.10057 -93.009087 -26.105242 -92.825768 -22.161297 -2.0103874 -111.00995
537000000 -2.488142 133.62483 -93.510048 -50.230968 -92.32856 -50.750561 -2.0860589 -139.56909
546500000 -2.4931061 104.25208 -93.392059 -84.571877 -92.847626 -80.198547 -2.1336107 -168.20438
556000000 -2.4466996 75.592125 -92.807854 -109.49677 -93.503609 -108.91878 -2.1569514 163.29315
565500000 -2.4005637 47.555851 -93.812164 -135.46643 -93.428368 -137.02806 -2.1653152 135.06548
575000000 -2.3611007 19.694403 -93.861542 -163.66599 -93.28933 -164.72182 -2.1697967 107.09265
584500000 -2.3261333 -7.893939 -92.463875 167.20961 -92.372978 167.21585 -2.1838326 79.337631
594000000 -2.2978127 -35.362167 -92.707336 141.8511 -92.359695 137.14293 -2.1977587 51.891827
603500000 -2.2967706 -63.054504 -92.814926 112.18198 -92.502869 112.16575 -2.182126 24.699043
613000000 -2.3352871 -90.8144 -92.495926 82.691055 -92.252968 84.815117 -2.1473925 -2.3650222
622500000 -2.4051862 -119.00114 -91.978699 51.082756 -92.327301 54.417324 -2.1168256 -29.315289
632000000 -2.49946 -148.07425 -92.242455 19.742996 -93.559967 19.006464 -2.1073163 -56.284389
641500000 -2.5407698 -177.43282 -93.118919 3.5189469 -93.079544 1.5687798 -2.1353469 -83.469803
651000000 -2.583951 153.49319 -92.518913 -27.75082 -92.447662 -25.767076 -2.1987209 -111.03287
660500000 -2.6582069 124.50122 -92.339539 -60.200603 -92.556717 -59.058582 -2.2801003 -139.01758
670000000 -2.6752224 94.993813 -92.257248 -83.693947 -92.606636 -84.730446 -2.3553314 -167.28206
679500000 -2.6265936 65.855011 -92.147736 -111.74751 -91.848648 -112.67332 -2.4027994 164.46855
689000000 -2.5800378 37.854752 -91.965897 -143.66628 -91.485672 -141.57791 -2.4126556 136.49239
698500000 -2.5681667 10.213862 -91.234932 -165.99934 -91.441277 -170.09882 -2.3977919 108.84155
708000000 -2.549489 -17.898813 -91.73909 164.6553 -91.406624 162.66463 -2.3855629 81.435249
717500000 -2.5309484 -46.080666 -91.086105 134.88455 -90.572754 131.81503 -2.3910124 54.185722
727000000 -2.5494082 -73.681358 -91.044838 105.20448 -90.682838 105.88483 -2.4052832 27.006563
736500000 -2.6205754 -101.59337 -90.086166 78.81852 -90.549446 78.655121 -2.4124756 -0.18557683
746000000 -2.7364399 -130.82671 -90.213448 49.916023 -90.392906 48.256939 -2.4123225 -27.434074
755500000 -2.7995775 -160.63501 -90.432861 19.972815 -89.94136 19.756588 -2.419909 -54.718372
765000000 -2.8289428 170.06233 -89.451225 -8.1755695 -89.751465 -6.7899523 -2.4486954 -82.07946
774500000 -2.9252343 140.86066 -89.313354 -37.240353 -89.757744 -35.275967 -2.503134 -109.68705
784000000 -3.0038514 110.65652 -89.974243 -66.525368 -89.828133 -68.469109 -2.5814259 -137.73605
793500000 -2.965749 80.512085 -89.53569 -99.135147 -89.468727 -96.890343 -2.6726155 -166.24852
803000000 -2.8859267 52.056587 -89.506432 -125.12739 -89.376564 -125.2073 -2.7521367 164.98331
812500000 -2.8723068 24.145716 -89.816559 -154.5941 -89.84211 -155.14868 -2.7971234 136.26857
822000000 -2.8673961 -4.2844715 -90.19223 173.87488 -89.64782 177.1162 -2.807292 107.82009
831500000 -2.7855513 -32.365082 -89.928825 149.14987 -89.181587 147.90417 -2.8048034 79.700691
841000000 -2.7552776 -59.699673 -89.383804 123.327 -89.276825 121.64086 -2.8093479 51.843582
850500000 -2.8245919 -87.196419 -88.984909 97.158791 -89.106575 97.289513 -2.8230817 24.099354
860000000 -2.8711746 -115.52454 -88.40226 65.146736 -88.148491 64.307678 -2.8394058 -3.6761014
869500000 -2.9047139 -144.17448 -88.048279 37.678452 -88.360008 36.895687 -2.8542705 -31.516806
879000000 -2.9810076 -172.85899 -87.997536 8.0728102 -88.272446 8.5387335 -2.8686233 -59.363113
888500000 -3.0439575 158.09738 -88.01033 -23.528143 -87.479996 -23.778355 -2.8883417 -87.225464
898000000 -3.0652158 128.91638 -87.839409 -56.431175 -87.589813 -53.795906 -2.926101 -115.2487
907500000 -3.083312 99.855362 -87.634995 -85.38855 -87.873001 -83.238052 -2.9915776 -143.58794
917000000 -3.0692666 70.968529 -88.052246 -114.13472 -88.426994 -111.2017 -3.0753717 -172.26581
926500000 -2.9879749 42.693394 -88.037949 -141.97342 -88.206467 -141.27505 -3.1468625 158.84224
936000000 -2.9124932 15.249833 -88.048325 -172.38651 -87.888603 -169.30914 -3.1810334 129.95616
945500000 -2.87132 -11.89861 -88.387642 160.08794 -88.468719 160.54332 -3.1810284 101.3221
955000000 -2.828074 -39.088089 -88.528725 132.82678 -88.581421 130.73404 -3.1679604 73.123665
964500000 -2.79684 -65.942764 -88.378624 104.76756 -88.096497 104.55221 -3.1536191 45.379276
974000000 -2.8099089 -92.669815 -88.258881 77.447975 -88.158112 75.494347 -3.1384387 17.903521
983500000 -2.8741639 -119.93113 -88.011658 50.780704 -87.993866 50.34906 -3.1255577 -9.5125332
993000000 -2.9339168 -147.83195 -87.892723 22.161207 -87.877998 20.636187 -3.1189466 -36.903934
1002500000 -2.9814498 -176.22525 -87.555084 -9.0519705 -87.288948 -8.1062288 -3.1146662 -64.203804
1012000000 -3.0412259 155.45976 -87.35453 -35.845848 -87.441071 -35.896858 -3.1136627 -91.461021
1021500000 -3.0850856 127.15202 -87.682823 -64.891975 -87.559135 -66.26664 -3.1328902 -118.81989
1031000000 -3.1337607 98.164139 -87.570747 -92.574448 -87.708488 -93.993202 -3.1877682 -146.41916
1040500000 -3.1301007 69.023293 -87.296471 -124.01065 -87.341187 -124.03737 -3.266788 -174.31383
1050000000 -3.047384 40.840816 -87.414406 -152.2731 -87.374893 -150.04147 -3.3381004 157.51913
1059500000 -2.9957201 13.681628 -87.558647 -177.76704 -87.704407 -179.11508 -3.3772573 129.2189
1069000000 -2.9810929 -13.75837 -87.310028 151.95952 -87.462204 153.09401 -3.3833199 101.0474
1078500000 -2.9538615 -41.641647 -86.989166 123.71889 -87.022026 124.70525 -3.3688395 73.247055
1088000000 -2.9174292 -68.515106 -87.089462 97.104851 -87.030312 96.092918 -3.3468573 45.866325
1097500000 -2.9290793 -94.917122 -86.707718 70.118057 -86.913864 68.378471 -3.3268948 18.764551
1107000000 -3.0251293 -122.56481 -86.6642 39.296513 -86.629478 38.416161 -3.3138359 -8.2297373
1116500000 -3.110395 -151.24829 -86.348633 11.929775 -86.202324 10.854683 -3.3062069 -35.199497
1126000000 -3.1559618 -179.71202 -86.297974 -17.118738 -86.224297 -15.774906 -3.3018093 -62.178162
1135500000 -3.2292025 151.98438 -85.651001 -44.188271 -86.106606 -44.661823 -3.3091218 -89.212875
1145000000 -3.3241682 122.6264 -85.436447 -74.152855 -85.45488 -75.699821 -3.3452046 -116.3856
1154500000 -3.3967896 92.466286 -85.209396 -104.75592 -85.1017 -102.34785 -3.4185255 -143.80208
1164000000 -3.3799369 63.067734 -85.047737 -132.68042 -85.18795 -131.56383 -3.5141907 -171.57423
1173500000 -3.3152916 34.554161 -85.058182 -165.16931 -84.867966 -163.11719 -3.6050358 160.23483
1183000000 -3.2998707 6.1342063 -84.991005 167.77686 -84.927811 167.99901 -3.6716027 131.73366
1192500000 -3.283916 -22.411139 -84.934219 138.04442 -85.045067 139.11732 -3.7088668 103.21385
1202000000 -3.2225711 -50.322601 -84.800331 109.74216 -84.740723 112.14275 -3.7199132 74.966011
1211500000 -3.1744871 -77.215889 -84.772522 81.30072 -84.6222 82.044189 -3.7124636 47.071495
1221000000 -3.2133825 -104.44424 -84.104546 53.342503 -84.094635 54.177296 -3.6983197 19.408804
1230500000 -3.3165939 -132.73811 -83.837837 24.153053 -83.789658 23.645763 -3.6872518 -8.165699
1240000000 -3.3615232 -161.13522 -83.624504 -6.5223446 -83.6129 -5.3181953 -3.6821489 -35.709057
1249500000 -3.3776171 170.64491 -83.145981 -35.067852 -83.22007 -36.011799 -3.6823504 -63.220425
1259000000 -3.4635615 141.87218 -82.664528 -65.966003 -82.623138 -66.415886 -3.6960182 -90.727989
1268500000 -3.550971 112.46491 -82.544357 -100.75668 -82.623192 -101.18302 -3.7373946 -118.33132
1278000000 -3.5631511 83.071838 -82.904503 -132.22185 -82.92498 -131.64743 -3.813556 -146.1825
1287500000 -3.5375919 53.990421 -82.428131 -160.35733 -82.374886 -159.8103 -3.9136152 -174.4272
1297000000 -3.4928958 25.289902 -82.206375 169.12297 -82.382774 169.75543 -4.0099969 156.923
1306500000 -3.4235063 -2.7831163 -82.202202 136.85153 -82.126671 136.6321 -4.0736794 128.04608
1316000000 -3.3600643 -30.347141 -81.807922 104.79076 -81.697014 105.37752 -4.0923939 99.230766
1325500000 -3.3047924 -57.649647 -81.418655 69.458801 -81.434578 69.73835 -4.077045 70.715157
1335000000 -3.2492571 -84.488586 -81.863907 31.072226 -81.988533 31.954058 -4.0508709 42.578411
1344500000 -3.2439249 -110.91894 -83.502823 -4.0271449 -83.468262 -3.4786627 -4.0271688 14.761906
1354000000 -3.2989922 -137.88753 -84.925735 -30.457911 -84.648712 -31.340845 -4.0035267 -12.864668
1363500000 -3.3485961 -165.71913 -85.66143 -56.510983 -85.777817 -56.022507 -3.975256 -40.401253
1373000000 -3.3553252 166.66844 -87.233253 -79.146584 -86.801369 -78.502151 -3.9514313 -67.849922
1382500000 -3.3892448 139.2702 -87.023567 -97.48056 -86.726303 -96.063492 -3.9485416 -95.1605
1392000000 -3.5063138 110.87906 -85.434814 -117.36101 -85.32515 -118.07061 -3.9758153 -122.38449
1401500000 -3.5654418 81.667671 -84.244972 -149.08578 -83.795433 -147.49834 -4.0334606 -149.74713
1411000000 -3.5017407 52.999382 -83.869789 176.77374 -83.903297 177.14153 -4.1132178 -177.48807
1420500000 -3.4667568 25.321903 -83.621239 144.47975 -83.457382 145.57887 -4.1942048 154.35725
1430000000 -3.4808209 -2.4784758 -83.114677 111.35428 -83.157303 111.54773 -4.2464337 126.01333
1439500000 -3.4471645 -30.700447 -82.990494 75.277924 -83.100731 76.146439 -4.2514973 97.786575
1449000000 -3.3416119 -57.857029 -83.456253 34.815228 -83.458267 35.342846 -4.221108 69.874176
1458500000 -3.2712498 -83.88784 -85.349693 -3.1039636 -85.445259 -4.6595216 -4.1859131 42.304157
1468000000 -3.3281982 -110.37699 -87.38549 -26.165817 -87.420166 -25.301897 -4.1661768 14.981783
1477500000 -3.4006879 -137.90442 -88.09536 -54.524117 -87.752991 -54.893333 -4.1566572 -12.230401
1487000000 -3.3962147 -165.43495 -89.455467 -79.182091 -89.807663 -76.713745 -4.1413765 -39.439419
1496500000 -3.42099 167.58615 -91.085701 -96.823639 -91.6129 -97.998894 -4.119525 -66.633423
1506000000 -3.5456328 139.87651 -91.033813 -113.80799 -90.887192 -116.7888 -4.1081915 -93.702232
1515500000 -3.6731267 110.78419 -90.515526 -141.55031 -90.299057 -140.46844 -4.1253943 -120.60591
1525000000 -3.6921558 81.643036 -91.571762 -164.79001 -91.076622 -162.33089 -4.1756334 -147.5002
1534500000 -3.697489 53.094807 -90.905022 179.76555 -90.75309 -179.21262 -4.2525811 -174.69655
1544000000 -3.7625778 24.225067 -89.671288 159.53496 -89.613953 158.51837 -4.3420715 157.59843
1553500000 -3.7731757 -5.0922771 -88.924217 129.08269 -88.74292 128.7339 -4.420073 129.47672
1563000000 -3.6904891 -33.569622 -88.552048 100.10292 -89.486626 102.6922 -4.4629469 101.24894
1572500000 -3.6267607 -61.036724 -87.756065 74.177177 -88.690605 73.943977 -4.4675288 73.206741
1582000000 -3.6455135 -88.53083 -87.580391 46.157173 -87.492401 46.26741 -4.4545612 45.451706
1591500000 -3.6694806 -116.18729 -87.691811 15.599066 -87.287575 17.417086 -4.4474101 17.89543
1601000000 -3.6741471 -143.85161 -87.534302 -11.377636 -87.583778 -9.5282869 -4.4521227 -9.6371479
1610500000 -3.7366278 -171.69916 -86.828423 -34.764038 -87.308113 -35.263824 -4.4600282 -37.262508
1620000000 -3.8013616 160.20757 -87.076103 -61.432941 -86.800903 -62.041737 -4.4628501 -64.939857
1629500000 -3.8587067 131.74434 -86.329437 -90.912598 -86.019653 -88.218643 -4.4649386 -92.507904
1639000000 -3.9885893 102.80876 -85.570045 -116.27631 -85.382332 -117.5276 -4.4776931 -119.86798
1648500000 -4.0803142 73.221085 -84.959991 -145.83083 -84.841087 -148.12534 -4.5129561 -147.12801
1658000000 -4.0629978 43.552505 -84.645744 -177.98181 -84.59108 179.31696 -4.575912 -174.55168
1667500000 -4.0565715 14.571517 -84.883514 148.63754 -84.685341 148.72224 -4.6588111 157.63037
1677000000 -4.0841308 -14.479224 -85.631416 120.49577 -85.764427 122.14375 -4.7394285 129.39133
1686500000 -4.0243416 -43.681602 -85.537941 99.025078 -85.740143 98.038338 -4.7959232 100.91458
1696000000 -3.8897994 -71.681358 -85.581657 73.727463 -85.345299 74.087929 -4.8238978 72.467834
1705500000 -3.8631284 -98.710411 -84.463196 46.602478 -84.956268 48.719585 -4.835072 44.236965
1715000000 -3.9216979 -126.21284 -84.02877 20.359282 -84.302338 21.212126 -4.8399029 16.223652
1724500000 -3.8890667 -154.20343 -83.660866 -5.9261341 -83.690712 -7.0686235 -4.8379774 -11.709726
1734000000 -3.8354478 178.36934 -83.174133 -36.797363 -83.13961 -34.705059 -4.8245983 -39.678814
1743500000 -3.9096513 151.10603 -82.376129 -63.563557 -82.62838 -63.769161 -4.8013544 -67.630852
1753000000 -4.0190005 122.97842 -81.945961 -92.845459 -81.83725 -92.979324 -4.7793527 -95.381882
1762500000 -4.0299816 94.303825 -81.584648 -122.45826 -81.329659 -122.7962 -4.7714114 -122.81501
1772000000 -4.0526409 65.719345 -81.177071 -152.76395 -80.916962 -152.08678 -4.7886724 -150.02969
1781500000 -4.1471448 37.162766 -80.696777 177.01648 -80.621391 177.72894 -4.8353758 -177.28503
1791000000 -4.163455 8.3113565 -80.371796 147.41187 -80.35923 147.13597 -4.9039226 155.18579
1800500000 -4.1011205 -20.560251 -80.612129 116.0943 -80.623283 116.64162 -4.97332 127.32533
1810000000 -4.0576897 -48.838573 -81.171272 93.331787 -81.031364 94.113602 -5.0228233 99.258827
1819500000 -4.0295701 -76.476448 -79.621094 72.521675 -79.74321 73.561371 -5.0480652 71.172256
1829000000 -3.9937117 -103.62171 -78.055534 40.55146 -78.064384 41.301609 -5.0620275 43.194424
1838500000 -3.9513228 -130.7195 -77.368011 8.2962847 -77.347626 8.8506107 -5.075645 15.338015
1848000000 -3.9645901 -158.02641 -76.683403 -23.290356 -76.648331 -22.013607 -5.0846853 -12.468776
1857500000 -4.0385132 174.90973 -75.739616 -52.787445 -75.841072 -53.164745 -5.0743694 -40.270145
1867000000 -4.0903792 147.85397 -74.629791 -85.822029 -74.535202 -85.561104 -5.0383801 -67.993698
1876500000 -4.1289725 120.31402 -73.643234 -123.32177 -73.597397 -122.97903 -4.9898248 -95.492043
1886000000 -4.2296753 92.53318 -72.821434 -160.79916 -72.810715 -160.13931 -4.9575739 -122.67076
1895500000 -4.3904285 64.514473 -72.616684 157.5295 -72.604881 157.59686 -4.9662905 -149.5889
1905000000 -4.4874234 36.085262 -73.560547 114.27664 -73.495766 114.85126 -5.0191135 -176.45625
1914500000 -4.4692903 7.6642065 -75.076859 82.10498 -75.057816 82.631042 -5.0947585 156.4628
1924000000 -4.4741502 -20.601351 -76.022614 51.039711 -75.976357 50.891121 -5.1658998 128.99617
1933500000 -4.507225 -49.14323 -77.207237 18.903606 -76.950546 19.351761 -5.2198176 101.18927
1943000000 -4.4125428 -77.535835 -78.003143 -1.8897059 -78.078621 -2.1519413 -5.2629814 73.258446
1952500000 -4.2502923 -104.91699 -77.541229 -33.106125 -77.603783 -32.643822 -5.3079143 45.380417
1962000000 -4.2196288 -132.12247 -78.41198 -63.501968 -78.570267 -63.98597 -5.3579226 17.531416
1971500000 -4.2750292 -160.00929 -78.993637 -88.97052 -78.979866 -89.474976 -5.4041004 -10.450394
1981000000 -4.2306166 172.22845 -79.142487 -112.98331 -79.099251 -113.50471 -5.4288006 -38.625954
1990500000 -4.1818299 145.03999 -78.281349 -137.44818 -78.255844 -137.59189 -5.4152265 -66.824043
2000000000 -4.2685914 117.55374 -77.287102 -169.26624 -77.321945 -169.62662 -5.3648281 -94.754913
