!Keysight Technologies,N5242B,MY48420967,A.15.65.19
!Date: Monday, December 19, 2022 11:39:51
!Correction: S11(C  2-Port  ) 
!S21(C  2-Port  ) 
!S12(C  2-Port  ) 
!S22(C  2-Port  ) 
!S2P File: Measurements: S11, S21, S12, S22:
# Hz S  dB   R 50
100000000 -1.3758373 40.907898 -108.95943 147.77994 -114.20567 145.32541 -0.98759383 60.655346
109500000 -1.2547359 11.479684 -112.88058 161.53384 -114.67079 155.11971 -0.93440717 33.274239
119000000 -1.1259302 -16.680183 -117.3743 144.92596 -110.78884 139.63649 -0.87404782 6.023241
128500000 -1.076463 -44.742039 -111.84005 75.853416 -109.99852 84.014282 -0.81325585 -21.17473
138000000 -1.0727966 -73.546066 -107.86338 73.591454 -111.73701 58.933517 -0.75911647 -48.380386
147500000 -1.1047639 -102.48951 -110.75879 78.022476 -107.61354 17.864414 -0.72254598 -75.683754
157000000 -1.1639467 -131.47433 -110.69721 27.41411 -112.07691 15.082441 -0.71825397 -103.19987
166500000 -1.2667099 -161.16173 -108.819 -26.628395 -108.35364 -18.412657 -0.75701469 -131.03777
176000000 -1.3742166 168.58588 -105.92154 -34.810184 -109.07293 -75.22361 -0.83865339 -159.21344
185500000 -1.4600903 138.35847 -104.92387 -48.169289 -106.44417 -77.093208 -0.94640666 172.37617
195000000 -1.5122348 108.17477 -106.50231 -102.09408 -106.08135 -99.534637 -1.0491861 143.96613
204500000 -1.4986928 78.371498 -105.63812 -130.88603 -107.16663 -130.11684 -1.1154559 115.82358
214000000 -1.440106 49.196442 -104.61372 -154.24284 -106.0785 -151.07277 -1.1297529 88.112251
223500000 -1.4130909 20.3207 -104.7039 174.51062 -103.76611 174.96365 -1.0987388 60.842258
233000000 -1.3835106 -8.4040432 -106.90527 149.13791 -103.44969 168.76904 -1.0441567 33.863811
242500000 -1.3038638 -36.886688 -102.58562 116.56046 -105.60232 132.91394 -0.99090314 6.9644775
252000000 -1.2845917 -65.176353 -102.94562 84.433846 -100.60294 97.438759 -0.95450646 -20.039398
261500000 -1.3649862 -93.967331 -105.12063 82.987518 -102.49986 87.854645 -0.93995762 -47.254353
271000000 -1.4450189 -123.61613 -104.12316 39.036285 -102.62577 50.867683 -0.94368565 -74.707344
280500000 -1.4824567 -153.4666 -101.03604 18.055244 -101.36194 18.342905 -0.96352136 -102.39553
290000000 -1.5619044 176.79967 -101.47559 -6.6022167 -99.376808 -18.973991 -1.0025461 -130.319
299500000 -1.6969022 146.59639 -103.79132 -47.550114 -101.70737 -40.279007 -1.0657446 -158.46198
309000000 -1.7530649 115.97076 -99.325577 -72.242821 -99.410851 -72.131195 -1.1507225 173.23653
318500000 -1.7088747 85.941925 -99.621574 -104.72752 -99.882431 -108.80914 -1.2411489 144.90916
328000000 -1.687476 56.82872 -98.536667 -117.65405 -98.556122 -139.56433 -1.3097292 116.74489
337500000 -1.6983854 27.81311 -98.401077 -160.45949 -98.794609 -171.22827 -1.3338661 88.893753
347000000 -1.6594445 -1.4899061 -97.775719 172.73088 -98.288109 175.72206 -1.3110881 61.408764
356500000 -1.5939112 -30.382889 -98.076355 146.9285 -96.808235 142.08997 -1.2592522 34.206623
366000000 -1.594653 -58.874687 -98.135345 117.07126 -97.222252 117.70808 -1.2076139 7.0911322
375500000 -1.6677079 -87.937256 -96.790062 88.970924 -97.07634 92.135849 -1.180887 -20.169708
385000000 -1.7280569 -117.92954 -95.828468 61.682659 -96.860359 62.77084 -1.1906784 -47.756931
394500000 -1.764876 -148.17099 -96.186432 36.371819 -96.284691 31.89698 -1.2323911 -75.732315
404000000 -1.8438537 -178.16428 -95.861855 -4.5750761 -96.559052 5.6567087 -1.2909441 -104.05355
413500000 -1.9366345 151.69435 -95.133469 -29.495398 -96.588211 -24.343922 -1.3546445 -132.61911
423000000 -1.9733694 121.14635 -95.20665 -58.465008 -97.076157 -61.01535 -1.4168092 -161.33652
432500000 -1.9604098 90.996964 -95.785492 -85.29068 -94.825523 -88.944649 -1.4797349 169.88702
442000000 -1.9280834 61.900974 -95.35891 -115.12267 -95.172714 -115.73771 -1.5422306 141.13356
451500000 -1.8917453 33.296417 -94.440231 -147.98587 -95.310326 -147.39322 -1.5941058 112.51591
461000000 -1.8537321 4.6001244 -94.159019 -168.91545 -94.365868 -179.65854 -1.6197299 84.171013
470500000 -1.8104854 -23.953333 -95.629143 164.71381 -95.709183 159.09825 -1.6098044 56.182392
480000000 -1.782846 -52.037239 -93.754883 142.00833 -93.895393 144.73126 -1.5713708 28.533613
489500000 -1.7971191 -80.154968 -93.348076 109.31384 -93.374069 112.60657 -1.5259391 1.0807809
499000000 -1.8465185 -109.01537 -93.165482 85.984116 -92.966293 86.069466 -1.5005505 -26.405537
508500000 -1.8963276 -138.3757 -90.742241 51.086678 -90.800735 55.379436 -1.5136276 -54.149254
518000000 -1.9284377 -167.61047 -90.389709 8.256772 -90.12999 13.239163 -1.5672888 -82.260849
527500000 -1.9683511 163.14319 -91.125648 -24.636171 -91.056839 -24.056269 -1.6422516 -110.6973
537000000 -2.0179408 133.64333 -91.826462 -48.427204 -92.232964 -53.709335 -1.7128375 -139.30907
546500000 -2.0309937 104.32298 -92.745613 -81.379166 -92.083817 -82.082542 -1.761098 -167.91124
556000000 -1.9910325 75.681664 -92.585205 -112.98885 -92.729721 -110.00875 -1.7864319 163.64175
565500000 -1.9364607 47.645344 -92.03344 -131.57234 -92.602386 -141.59778 -1.7979481 135.40501
575000000 -1.8983687 19.892096 -93.10022 -164.48396 -93.120544 -166.58105 -1.807932 107.36536
584500000 -1.8699846 -7.7466683 -92.109932 169.93275 -91.849258 172.14153 -1.8215895 79.546661
594000000 -1.832423 -35.34906 -91.973824 143.3611 -92.111168 142.79916 -1.8289049 52.033245
603500000 -1.8077986 -62.984612 -91.458649 113.99841 -91.714561 113.01441 -1.8131113 24.823536
613000000 -1.8385599 -90.711159 -91.842125 84.42646 -91.78727 85.412949 -1.7801516 -2.1767936
622500000 -1.9002988 -118.92618 -91.377953 52.796604 -92.027969 55.201576 -1.7487856 -29.077362
632000000 -1.9542977 -147.96918 -91.012688 28.921316 -91.147438 30.186943 -1.7368382 -56.065666
641500000 -1.9903824 -177.28409 -92.4646 -8.0831108 -92.405487 -5.4914312 -1.7597116 -83.345184
651000000 -2.0369036 153.65793 -92.797501 -31.330605 -92.258034 -25.757523 -1.8166299 -111.01167
660500000 -2.0919735 124.59334 -91.303551 -53.493362 -91.574165 -50.086876 -1.8924477 -139.0157
670000000 -2.1047232 95.180084 -92.268669 -81.270935 -92.015587 -83.213226 -1.9622779 -167.18652
679500000 -2.0633109 66.109467 -91.645729 -107.26863 -91.217232 -111.5094 -2.006103 164.68588
689000000 -2.0168741 38.094593 -90.855675 -139.14473 -90.779938 -140.33542 -2.0202026 136.76491
698500000 -1.997812 10.507324 -90.867714 -167.52869 -90.801376 -166.11279 -2.0160933 109.0956
708000000 -1.9809071 -17.637373 -90.638657 165.3008 -90.700233 164.30614 -2.0101144 81.644676
717500000 -1.952702 -45.962063 -90.252373 136.80797 -90.012276 135.24637 -2.010443 54.359131
727000000 -1.9494758 -73.661873 -89.643959 106.59926 -89.789169 107.61398 -2.0155542 27.181953
736500000 -2.0089064 -101.57198 -89.665932 83.47718 -89.669022 82.742226 -2.0198033 0.06490355
746000000 -2.1012478 -130.86694 -89.507133 52.839661 -89.589645 50.544418 -2.0216591 -27.0513
755500000 -2.1431482 -160.76105 -89.444984 22.716587 -89.392624 23.366674 -2.0278425 -54.246552
765000000 -2.1676488 169.93251 -88.919304 -6.7274327 -89.388344 -3.1576886 -2.0499473 -81.647156
774500000 -2.2545352 140.58208 -89.03994 -34.602764 -89.004601 -34.12841 -2.0969489 -109.37404
784000000 -2.3192637 110.30691 -89.079002 -64.386917 -88.983673 -67.740639 -2.1674173 -137.48123
793500000 -2.2793853 80.249664 -88.90033 -94.469101 -88.750664 -94.127045 -2.2477357 -165.91972
803000000 -2.2209287 51.713375 -88.752228 -122.21777 -88.490547 -120.93226 -2.3177309 165.4505
812500000 -2.2087319 23.715544 -88.477364 -148.9505 -88.497116 -151.72789 -2.3637226 136.82771
822000000 -2.1897285 -4.7332292 -88.680901 -178.90605 -88.556259 177.39587 -2.3844941 108.37147
831500000 -2.1252549 -32.901054 -88.737389 149.69006 -88.196014 150.23003 -2.3903437 80.159279
841000000 -2.093586 -60.406132 -88.630135 124.76444 -88.763588 122.56181 -2.3931606 52.177826
850500000 -2.1363003 -88.044357 -88.530365 98.693649 -88.41555 96.274536 -2.3993771 24.357077
860000000 -2.1775208 -116.37144 -87.943779 73.721558 -88.071823 72.060471 -2.4104428 -3.3922195
869500000 -2.2051301 -145.12361 -87.196693 39.532673 -87.052612 40.864361 -2.4237828 -31.151588
879000000 -2.2618878 -173.94444 -87.287399 8.8471889 -87.250481 8.3090277 -2.4398167 -58.990337
888500000 -2.3130386 157.04369 -87.356361 -19.000441 -87.058876 -17.767742 -2.4636049 -86.987488
898000000 -2.3401599 127.8102 -86.658684 -50.128136 -86.933495 -48.916885 -2.5030649 -115.21976
907500000 -2.355911 98.656601 -86.710144 -79.674026 -87.056847 -79.248787 -2.5608516 -143.72243
917000000 -2.336041 69.822464 -87.041695 -109.69525 -87.115997 -110.16585 -2.6292074 -172.4639
926500000 -2.2745736 41.673237 -87.172615 -139.30475 -86.898079 -140.15999 -2.6915832 158.64871
936000000 -2.2096128 14.285607 -86.962494 -169.18004 -86.974693 -167.07298 -2.7336884 129.7693
945500000 -2.1707911 -12.881308 -86.964088 163.88052 -86.549652 163.8615 -2.7507017 101.07517
955000000 -2.1392829 -40.05838 -87.444603 133.93547 -87.423485 133.41321 -2.747607 72.708153
964500000 -2.1013758 -67.003494 -87.268761 107.16241 -87.470963 105.04804 -2.7323802 44.72448
974000000 -2.1008 -93.792839 -87.084335 78.906792 -87.044983 77.693542 -2.7123711 17.073994
983500000 -2.1513424 -120.94096 -87.02317 52.576496 -87.114174 51.242641 -2.6948183 -10.364916
993000000 -2.1962113 -148.85616 -86.899612 23.448597 -86.922775 23.611933 -2.6856122 -37.702671
1002500000 -2.2243195 -177.27493 -86.572701 -6.1750321 -86.682411 -6.7468476 -2.6852999 -65.019981
1012000000 -2.2645402 154.47275 -86.666275 -34.375069 -86.451736 -33.868282 -2.695437 -92.413063
1021500000 -2.3088112 126.15353 -86.811249 -62.395657 -86.984543 -62.5704 -2.7198799 -119.95581
1031000000 -2.3430169 97.16674 -86.715286 -93.700081 -86.658615 -91.269623 -2.7629216 -147.69601
1040500000 -2.3271155 68.127159 -86.872475 -122.93462 -86.699348 -118.73787 -2.8200707 -175.63423
1050000000 -2.2676187 40.131268 -86.46302 -148.76862 -86.660095 -148.52196 -2.8787735 156.27176
1059500000 -2.2246332 13.009764 -86.732101 -177.41231 -86.663635 -177.10497 -2.9244368 128.11926
1069000000 -2.2038937 -14.457327 -86.865143 154.23889 -86.667252 154.50394 -2.9467707 100.06093
1078500000 -2.17945 -42.253769 -86.522591 127.94166 -86.527969 126.9548 -2.9437084 72.249649
1088000000 -2.1465263 -69.200562 -86.263321 99.891586 -86.218987 99.614662 -2.9224608 44.772671
1097500000 -2.1474106 -95.738327 -85.986977 73.302856 -85.755142 73.202454 -2.8953791 17.630159
1107000000 -2.2145433 -123.39293 -85.854225 43.506706 -86.007225 43.455906 -2.8734996 -9.2638559
1116500000 -2.2829549 -152.11897 -85.476006 16.082907 -85.292755 14.372265 -2.8634338 -36.0438
1126000000 -2.3139043 179.31853 -85.327774 -11.571846 -85.237518 -14.15049 -2.868309 -62.866638
1135500000 -2.3617408 150.92715 -85.124008 -41.471077 -85.120644 -41.017544 -2.8901992 -89.86235
1145000000 -2.4405348 121.53367 -84.716896 -71.252968 -84.800491 -70.499817 -2.9303162 -117.1128
1154500000 -2.5002286 91.308685 -84.514519 -101.19059 -84.770615 -100.20418 -2.9891963 -144.65613
1164000000 -2.4879162 61.859554 -84.623055 -131.12839 -84.490738 -129.28752 -3.0625184 -172.49252
1173500000 -2.4363728 33.384815 -84.551025 -159.84433 -84.380356 -159.55754 -3.1414204 159.40614
1183000000 -2.4203279 4.8767724 -84.396912 171.68617 -84.215187 172.27943 -3.2138982 131.11388
1192500000 -2.4122512 -23.731245 -84.285904 142.38106 -84.021034 143.09439 -3.2672186 102.74986
1202000000 -2.3621213 -51.617496 -84.260918 114.85801 -84.161423 114.32752 -3.2929809 74.461212
1211500000 -2.320039 -78.738022 -84.012611 86.73558 -84.117416 85.883316 -3.2924619 46.369781
1221000000 -2.3522708 -106.22968 -83.53038 57.726547 -83.572479 58.837204 -3.2763946 18.537159
1230500000 -2.4309325 -134.59488 -83.270912 30.128109 -83.247681 29.514208 -3.2585678 -9.053956
1240000000 -2.4660127 -163.08276 -83.049683 -0.70666683 -82.827248 -1.7591147 -3.2515121 -36.499546
1249500000 -2.4753501 168.53148 -82.640274 -30.270712 -82.556717 -31.235945 -3.2621298 -63.946739
1259000000 -2.5402703 139.62837 -82.292458 -58.677895 -82.087875 -59.86837 -3.293968 -91.547279
1268500000 -2.6170835 110.13875 -81.694 -91.292015 -81.54364 -90.243645 -3.3463583 -119.41664
1278000000 -2.6299438 80.655998 -81.565079 -125.90942 -81.6912 -125.4175 -3.416177 -147.60559
1287500000 -2.6013944 51.588943 -81.881516 -155.44432 -81.82399 -154.4091 -3.4970276 -176.09998
1297000000 -2.5625932 23.028379 -81.542877 176.10472 -81.817657 175.72093 -3.5770886 155.18178
1306500000 -2.5161421 -4.9453363 -81.643562 145.35344 -81.366409 146.07686 -3.6412697 126.35302
1316000000 -2.4669585 -32.456764 -81.511627 112.50417 -81.537643 113.94937 -3.6773965 97.533409
1325500000 -2.4173005 -59.727921 -81.062592 80.970268 -81.259201 80.716965 -3.681911 68.850647
1335000000 -2.3752098 -86.553131 -81.992989 47.382156 -82.138016 46.900379 -3.6611822 40.427555
1344500000 -2.3703072 -113.0174 -81.548141 19.432117 -81.524017 19.427752 -3.6250973 12.346044
1354000000 -2.4112346 -140.01077 -82.30558 -20.147558 -82.397026 -20.04262 -3.5856342 -15.39586
1363500000 -2.4449506 -167.78441 -83.800049 -42.561916 -83.592102 -44.55051 -3.5547566 -42.887299
1373000000 -2.4417388 164.58838 -83.699898 -68.403816 -83.51886 -68.764359 -3.5445387 -70.252983
1382500000 -2.4667563 137.16403 -83.632225 -99.04834 -83.385414 -98.252525 -3.5588162 -97.617317
1392000000 -2.5550342 108.83054 -84.300278 -132.20724 -84.387711 -132.00854 -3.5929735 -125.10124
1401500000 -2.5983553 79.696251 -84.922722 -143.44565 -84.825157 -144.58293 -3.6405985 -152.81221
1411000000 -2.5459228 51.187935 -83.686951 -165.67447 -83.507843 -165.72702 -3.6967897 179.22807
1420500000 -2.512537 23.60486 -81.655685 159.17236 -81.743668 158.91405 -3.7533147 151.10312
1430000000 -2.5264704 -4.1152205 -81.679146 119.38091 -82.000053 118.63099 -3.7960341 122.94995
1439500000 -2.4944732 -32.095177 -82.540802 97.608383 -82.631783 96.734123 -3.8132071 94.878838
1449000000 -2.4031281 -59.100338 -81.349724 66.257515 -81.284447 67.146835 -3.8044093 66.966751
1458500000 -2.3485427 -85.128845 -80.388687 30.698528 -80.436913 29.935675 -3.7777364 39.273483
1468000000 -2.3891947 -111.64828 -80.347023 -9.9891748 -80.305893 -10.652117 -3.7438796 11.83294
1477500000 -2.4436867 -139.14157 -81.613869 -45.605209 -81.640686 -43.502525 -3.7120109 -15.370295
1487000000 -2.4334981 -166.61952 -81.937462 -85.810738 -81.812378 -85.774963 -3.6899092 -42.391865
1496500000 -2.4426355 166.25545 -83.314613 -117.80999 -83.262794 -118.48286 -3.6837618 -69.3041
1506000000 -2.5395455 138.41953 -85.450554 -151.20644 -85.157341 -151.82462 -3.6956644 -96.183868
1515500000 -2.6311572 109.34589 -88.907059 -173.67686 -88.80365 -171.68935 -3.7251778 -123.13104
1525000000 -2.6408627 80.171188 -87.971077 167.91756 -87.605278 168.08557 -3.7697771 -150.23592
1534500000 -2.6449068 51.55331 -89.469711 138.75314 -89.36763 139.58875 -3.8272038 -177.57823
1544000000 -2.6945047 22.643238 -90.924995 117.53834 -90.762306 117.07659 -3.8938034 154.81837
1553500000 -2.7034626 -6.5977969 -92.224174 103.3211 -91.850487 105.93406 -3.9604821 127.0035
1563000000 -2.6345656 -35.026344 -91.334343 87.845802 -91.748627 90.965996 -4.0143051 99.07296
1572500000 -2.5874321 -62.592819 -89.458969 68.64875 -90.173073 68.34137 -4.0453362 71.13575
1582000000 -2.6018305 -90.176987 -89.101418 41.012848 -89.418495 41.064949 -4.0524011 43.285381
1591500000 -2.6147711 -117.94634 -88.908562 16.947424 -88.632935 16.627535 -4.043118 15.570723
1601000000 -2.6250196 -145.72017 -87.516121 -13.278963 -87.689781 -11.415742 -4.031105 -12.015739
1610500000 -2.6678622 -173.7305 -87.557869 -42.608841 -87.785507 -42.765759 -4.0297017 -39.509991
1620000000 -2.7074344 157.89478 -87.845734 -63.05846 -87.952194 -67.136703 -4.045197 -66.955978
1629500000 -2.7554972 129.26268 -87.319229 -88.507332 -87.087936 -90.515816 -4.0767059 -94.396973
1639000000 -2.8557229 100.12743 -86.239677 -117.01502 -86.295151 -117.13625 -4.1176767 -121.88329
1648500000 -2.9239252 70.332802 -85.829849 -146.12508 -85.711472 -145.86098 -4.1640692 -149.47595
1658000000 -2.9064209 40.675972 -85.617317 -173.36618 -85.170906 -174.09016 -4.2169609 -177.22813
1667500000 -2.90238 11.641134 -85.048637 155.46832 -85.027229 157.35873 -4.2790174 154.81218
1677000000 -2.9287713 -17.446194 -84.379631 122.84217 -84.513527 122.63805 -4.3485355 126.62505
1686500000 -2.87555 -46.480312 -85.465508 92.268517 -85.614632 90.279778 -4.4177022 98.230988
1696000000 -2.771564 -74.425064 -86.358109 71.61972 -86.192001 71.184128 -4.4736738 69.706337
1705500000 -2.7623591 -101.58805 -85.482964 47.515549 -85.679802 50.745747 -4.5048704 41.180038
1715000000 -2.8096349 -129.11719 -84.630417 25.459126 -85.002388 24.247522 -4.5064583 12.776986
1724500000 -2.7740245 -156.99281 -83.88533 -1.086675 -83.966721 -2.3919046 -4.4850817 -15.430314
1734000000 -2.7273109 175.5098 -83.182205 -31.626432 -83.110069 -32.385197 -4.456883 -43.436836
1743500000 -2.7902565 148.11674 -82.789841 -60.559532 -82.876205 -59.561546 -4.4382792 -71.283157
1753000000 -2.8731966 120.01335 -82.09803 -88.040863 -82.395576 -88.404861 -4.4387264 -99.01918
1762500000 -2.874702 91.298714 -81.427277 -116.24605 -81.394951 -117.25623 -4.4562135 -126.68771
1772000000 -2.8852446 62.642624 -80.761894 -148.05797 -80.706337 -147.62009 -4.4829435 -154.32492
1781500000 -2.9562907 34.164959 -80.234947 -179.16223 -80.240936 -179.27808 -4.5124726 178.02362
1791000000 -2.9726572 5.5480742 -80.249527 151.24138 -80.238342 150.28059 -4.5454726 150.30472
1800500000 -2.9068093 -23.106392 -79.841812 121.01501 -79.743896 120.39742 -4.5863676 122.47674
1810000000 -2.8656683 -51.217243 -79.686218 87.585236 -79.861603 88.649879 -4.6341391 94.523682
1819500000 -2.8663723 -78.598412 -80.904823 61.486496 -81.136139 62.607552 -4.6797595 66.454292
1829000000 -2.835624 -105.64573 -79.613121 50.222301 -79.577644 49.299969 -4.7098627 38.318947
1838500000 -2.7802687 -132.73167 -77.117851 16.567053 -77.169418 16.364979 -4.7143245 10.221827
1848000000 -2.7890913 -159.85074 -76.462128 -23.409935 -76.453011 -22.066216 -4.6922994 -17.71546
1857500000 -2.8566484 173.08322 -76.848793 -53.059334 -76.858871 -52.980907 -4.6524868 -45.40377
1867000000 -2.8854361 145.8885 -75.652122 -80.121819 -75.700981 -79.643524 -4.6104298 -72.832748
1876500000 -2.8860288 118.34843 -74.408173 -114.38028 -74.326561 -114.14403 -4.5829101 -100.06077
1886000000 -2.9689288 90.394913 -73.500168 -149.879 -73.555519 -149.84825 -4.580308 -127.16508
1895500000 -3.1132295 62.009361 -72.848839 171.78856 -72.866661 171.42819 -4.6016278 -154.2137
1905000000 -3.1800644 33.369114 -72.632492 131.43387 -72.622025 131.03134 -4.6380606 178.73305
1914500000 -3.1696811 4.8219495 -73.195358 88.184372 -73.216599 88.612511 -4.6807046 151.61079
1924000000 -3.2060077 -23.700085 -74.304955 55.434742 -74.251389 56.030788 -4.7282138 124.35262
1933500000 -3.2585135 -52.322903 -76.22171 14.600123 -76.0578 15.23741 -4.7845011 96.913986
1943000000 -3.2093031 -80.479248 -78.736015 -9.9644184 -78.700523 -9.5956717 -4.8501291 69.267525
1952500000 -3.1098261 -107.81467 -78.422462 -25.538168 -78.581947 -25.408195 -4.9178753 41.409073
1962000000 -3.098546 -135.10966 -79.320038 -57.27832 -79.513115 -58.218967 -4.9734855 13.377592
1971500000 -3.1502023 -162.87743 -79.017647 -76.949173 -79.046074 -77.49276 -5.0034947 -14.731304
1981000000 -3.1313171 169.40822 -78.679382 -106.25368 -78.757286 -105.98396 -5.0027561 -42.775303
1990500000 -3.0857968 142.0067 -78.47377 -131.94643 -78.622299 -132.22569 -4.9783282 -70.63092
2000000000 -3.1334162 114.25189 -78.221497 -158.67969 -78.140213 -158.46851 -4.9482498 -98.244118
