!Keysight Technologies,N5242B,MY48420967,A.15.65.19
!Date: Monday, December 19, 2022 09:36:41
!Correction: S11(C  2-Port  ) 
!S21(C  2-Port  ) 
!S12(C  2-Port  ) 
!S22(C  2-Port  ) 
!S2P File: Measurements: S11, S21, S12, S22:
# Hz S  dB   R 50
100000000 -1.2910573 40.853573 -115.34457 -92.450531 -110.91266 -17.08201 -5.4232721 -110.79829
109500000 -1.1709558 11.464622 -110.22452 -98.652252 -109.30377 -74.55336 -5.6035857 -139.12193
119000000 -1.0411708 -16.676876 -107.37585 -108.34643 -109.28568 -127.50098 -5.7806602 -167.72983
128500000 -0.99098313 -44.718033 -108.8092 -150.45059 -106.22913 -146.64117 -5.9385614 163.44704
138000000 -0.98668146 -73.512459 -107.99342 173.97824 -107.25128 166.80089 -6.0608549 134.48151
147500000 -1.0171802 -102.43624 -104.3527 140.96089 -106.23131 151.22913 -6.1360989 105.49091
157000000 -1.0771466 -131.42247 -104.12989 138.40028 -104.87773 119.55182 -6.1486554 76.670227
166500000 -1.1797018 -161.09702 -105.41212 99.701736 -101.48132 88.849716 -6.0934343 48.242947
176000000 -1.289454 168.64555 -102.18179 55.392403 -103.80414 63.257088 -5.9965892 20.337574
185500000 -1.3779656 138.42238 -100.49709 27.830242 -101.17599 23.285593 -5.9040298 -7.1034636
195000000 -1.4344764 108.23828 -101.32352 2.3182974 -99.006424 1.5061115 -5.8537955 -34.323776
204500000 -1.4259613 78.427544 -100.87952 -27.186451 -100.03708 -25.872799 -5.8718972 -61.672607
214000000 -1.3713846 49.242535 -98.482208 -56.251965 -100.12588 -58.275208 -5.9647951 -89.462761
223500000 -1.3495607 20.357845 -98.642616 -87.382195 -98.709991 -90.477821 -6.1047578 -117.8363
233000000 -1.3225025 -8.379405 -98.24926 -116.06624 -97.710747 -117.95631 -6.2415309 -146.72845
242500000 -1.2462332 -36.877022 -98.005836 -145.46783 -98.213074 -144.00377 -6.3377447 -175.89438
252000000 -1.2283638 -65.175362 -96.117378 -176.03873 -98.472099 -178.20865 -6.3743081 154.96729
261500000 -1.3096365 -93.977127 -95.430466 152.20221 -95.722298 147.57469 -6.3565903 126.07153
271000000 -1.389443 -123.63357 -95.532455 119.00769 -93.605202 126.61417 -6.3033786 97.500671
280500000 -1.4260681 -153.48097 -94.211311 94.823868 -94.715576 92.807838 -6.2315798 69.244484
290000000 -1.5057197 176.78548 -92.951904 67.574348 -93.94838 66.399002 -6.1445789 41.28651
299500000 -1.6391474 146.58626 -92.964668 38.867073 -93.180687 33.081524 -6.0449185 13.623567
309000000 -1.6938194 115.97947 -93.271553 13.243297 -92.695656 13.261563 -5.9504566 -13.781168
318500000 -1.649085 85.967216 -92.174225 -17.50284 -92.319473 -14.752078 -5.8839355 -41.052402
328000000 -1.6269131 56.868259 -92.243813 -44.119572 -91.930832 -46.587914 -5.8660126 -68.408508
337500000 -1.635341 27.868921 -92.176773 -78.78363 -91.226997 -80.075005 -5.910686 -96.086128
347000000 -1.5945988 -1.407667 -91.435196 -106.5276 -91.001129 -101.82716 -6.0028043 -124.24171
356500000 -1.5270416 -30.288294 -90.451691 -131.66484 -90.837784 -128.1367 -6.0966783 -152.85434
366000000 -1.5249228 -58.769016 -90.109451 -160.29471 -89.845993 -159.33069 -6.1439023 178.30714
375500000 -1.5938096 -87.812477 -90.542969 170.99316 -89.993607 171.78552 -6.1222577 149.59045
385000000 -1.6511838 -117.79154 -89.086411 140.27219 -89.799248 140.5912 -6.0396252 121.29539
394500000 -1.6855775 -148.01982 -88.571175 113.61081 -89.015228 113.79933 -5.9237537 93.53347
404000000 -1.7620308 -178.00487 -88.247437 87.11203 -88.832825 85.038017 -5.8102837 66.221275
413500000 -1.8543565 151.86206 -88.274338 59.214859 -88.109924 60.318768 -5.7207637 39.191856
423000000 -1.8902894 121.32163 -87.690033 31.642948 -87.899345 29.168135 -5.6541467 12.314095
432500000 -1.8778479 91.17469 -87.139526 3.3487949 -87.694969 2.2753186 -5.6063852 -14.499105
442000000 -1.8476335 62.076435 -87.075569 -24.113911 -86.791878 -24.240419 -5.5810962 -41.316227
451500000 -1.8118212 33.464291 -86.470375 -53.240383 -86.341774 -50.80785 -5.5859537 -68.22728
461000000 -1.7733544 4.7630873 -85.89193 -77.956039 -86.196831 -78.369019 -5.6304383 -95.376358
470500000 -1.7304071 -23.794834 -85.418678 -105.80463 -85.418747 -106.24234 -5.7177706 -122.91187
480000000 -1.7028519 -51.894516 -84.794449 -133.18591 -84.292404 -132.00003 -5.8270497 -150.90245
489500000 -1.7151072 -80.026817 -83.954475 -161.15526 -83.959457 -158.53337 -5.9189067 -179.25317
499000000 -1.7623039 -108.90221 -82.87941 173.26595 -82.954887 171.90631 -5.9577379 152.30859
508500000 -1.8138285 -138.28647 -81.889511 144.04237 -81.760139 143.2942 -5.9307051 124.11506
518000000 -1.8508912 -167.52176 -80.476433 111.25631 -80.459442 111.82835 -5.8545599 96.390633
527500000 -1.8901906 163.26717 -79.550934 75.76561 -79.545815 76.302811 -5.7682414 69.137924
537000000 -1.9363612 133.78351 -78.895256 36.346272 -78.876144 36.344334 -5.7126851 42.171848
546500000 -1.9465834 104.45283 -79.417526 -0.003719585 -79.363472 -0.72465724 -5.7036457 15.259169
556000000 -1.9060705 75.798111 -79.987656 -32.893097 -79.885643 -33.016945 -5.7335439 -11.796244
565500000 -1.8517714 47.751846 -80.788353 -61.7472 -80.899483 -60.476051 -5.7888632 -39.086578
575000000 -1.8134226 19.986179 -81.083054 -88.485069 -81.159805 -89.358253 -5.8571186 -66.617325
584500000 -1.7840083 -7.6606154 -81.650024 -115.77792 -81.407967 -115.90468 -5.9298272 -94.38356
594000000 -1.7450655 -35.265293 -81.418961 -143.45802 -81.51651 -143.55849 -6.0140495 -122.44905
603500000 -1.7187765 -62.910305 -81.453552 -170.22519 -81.681236 -169.68787 -6.1166048 -150.86969
613000000 -1.7465509 -90.642868 -81.589394 164.09186 -81.526329 163.76047 -6.2175822 -179.64391
622500000 -1.8044153 -118.85782 -81.459335 134.7874 -81.207436 136.73563 -6.2843757 151.32153
632000000 -1.8556647 -147.89685 -81.146957 108.77859 -81.300682 109.29723 -6.2921872 122.28433
641500000 -1.8888004 -177.20697 -80.963692 83.206856 -81.063576 83.384613 -6.2365708 93.573189
651000000 -1.9331018 153.74057 -80.542747 55.601387 -80.488205 55.365883 -6.1372838 65.393738
660500000 -1.9866421 124.68956 -80.248238 25.063091 -80.241562 26.200411 -6.0337095 37.714001
670000000 -1.9977658 95.289459 -80.135262 -3.0269346 -80.099617 -2.8683581 -5.9658227 10.310347
679500000 -1.9560831 66.234276 -80.062889 -30.300863 -79.942596 -31.047503 -5.9481349 -17.096313
689000000 -1.9100888 38.232826 -79.876923 -58.412148 -79.841118 -59.328022 -5.975359 -44.738449
698500000 -1.8899274 10.655296 -79.627647 -87.396866 -79.538399 -87.545166 -6.0278096 -72.719826
708000000 -1.8701741 -17.47304 -79.388741 -114.68982 -79.472099 -113.98647 -6.0779953 -101.01056
717500000 -1.8402445 -45.781422 -79.294739 -142.50089 -79.187721 -143.24588 -6.1072578 -129.51878
727000000 -1.8357123 -73.471939 -79.196693 -171.13028 -79.026733 -170.4415 -6.1169519 -158.14932
736500000 -1.8904498 -101.37399 -78.810051 160.62617 -78.920174 161.9238 -6.1123657 173.16656
746000000 -1.9780035 -130.65054 -78.67907 133.97009 -78.630714 133.81729 -6.0886679 144.4955
755500000 -2.0182176 -160.52757 -78.573997 104.10982 -78.575539 104.94296 -6.0375094 115.93385
765000000 -2.0419023 170.16263 -78.480675 75.616241 -78.359756 76.226151 -5.9541788 87.630997
774500000 -2.1268733 140.81258 -78.207199 47.511139 -78.32193 48.660069 -5.841104 59.736481
784000000 -2.1909313 110.54294 -78.077141 20.10824 -78.165985 19.929314 -5.715292 32.309437
793500000 -2.1542168 80.473267 -78.055832 -7.3308301 -78.016769 -8.5040722 -5.6043134 5.2653971
803000000 -2.0988379 51.913124 -77.882042 -35.648788 -77.776772 -35.842125 -5.5304189 -21.58626
812500000 -2.0874693 23.888226 -77.597931 -63.966854 -77.705467 -64.367874 -5.5005827 -48.466682
822000000 -2.0693667 -4.5888453 -77.628288 -91.642036 -77.596458 -92.209221 -5.5083013 -75.555771
831500000 -2.0055518 -32.791592 -77.457283 -119.98589 -77.476456 -120.37343 -5.5368633 -102.93937
841000000 -1.9740895 -60.339748 -77.226593 -147.13338 -77.284775 -147.47984 -5.5650582 -130.59549
850500000 -2.0155938 -88.021065 -77.085098 -175.32321 -77.102615 -174.88298 -5.5806961 -158.43349
860000000 -2.0539155 -116.38935 -76.937744 156.64815 -76.921288 156.64879 -5.5827556 173.65353
869500000 -2.0795138 -145.17992 -76.78157 128.25124 -76.774597 128.29457 -5.5721278 145.75415
879000000 -2.1351995 -174.03735 -76.607834 99.43811 -76.634018 100.21415 -5.5490346 117.93491
888500000 -2.1847222 156.91522 -76.497528 71.350639 -76.563309 71.943718 -5.5132937 90.264923
898000000 -2.2104576 127.65826 -76.593712 43.449642 -76.557205 43.471367 -5.4615712 62.828854
907500000 -2.2264581 98.488937 -76.419151 15.704683 -76.485718 15.603808 -5.3952417 35.683823
917000000 -2.2079701 69.645584 -76.366463 -11.716405 -76.412415 -11.759659 -5.3281617 8.8165464
926500000 -2.1475699 41.492542 -76.339645 -38.927414 -76.284195 -39.509182 -5.281507 -17.862356
936000000 -2.0838947 14.104506 -76.236404 -66.714905 -76.173172 -66.910561 -5.269228 -44.498783
945500000 -2.0455391 -13.060921 -76.11116 -93.919189 -76.022255 -93.571602 -5.2944937 -71.26725
955000000 -2.0130599 -40.234749 -75.858826 -120.36659 -75.815979 -120.47409 -5.3520312 -98.328918
964500000 -1.9743493 -67.169647 -75.652626 -147.5844 -75.671288 -148.06258 -5.4301319 -125.78356
974000000 -1.9719827 -93.949669 -75.435463 -175.0647 -75.384819 -175.44769 -5.5137553 -153.6189
983500000 -2.0190306 -121.08823 -75.151489 156.82512 -75.209953 156.521 -5.5882807 178.26134
993000000 -2.0596108 -148.97939 -74.96756 130.03749 -74.946693 130.12071 -5.644011 149.9689
1002500000 -2.0847969 -177.37071 -74.680389 102.23029 -74.63855 102.66206 -5.6779447 121.60369
1012000000 -2.1234238 154.40263 -74.293533 73.512619 -74.271004 74.297668 -5.6907277 93.272118
1021500000 -2.164613 126.11439 -74.040657 44.406025 -74.055565 44.870609 -5.6801867 65.072174
1031000000 -2.1969347 97.16349 -73.942673 16.278162 -73.823868 16.388166 -5.6452065 37.087818
1040500000 -2.1820965 68.162636 -73.814507 -12.497893 -73.843239 -12.961948 -5.5944963 9.3552876
1050000000 -2.124651 40.192429 -73.751457 -40.50523 -73.798241 -40.485714 -5.5481615 -18.152395
1059500000 -2.0828094 13.09135 -73.532387 -67.87191 -73.562653 -68.070137 -5.5253544 -45.536373
1069000000 -2.0612485 -14.354221 -73.379097 -95.444061 -73.381607 -95.599068 -5.5366812 -72.963692
1078500000 -2.0363905 -42.139671 -73.191048 -123.27295 -73.179596 -123.12662 -5.5839911 -100.62809
1088000000 -2.0042782 -69.078712 -72.94944 -151.45264 -72.922409 -151.28848 -5.6593032 -128.67697
1097500000 -2.0026367 -95.614975 -72.682877 -179.37245 -72.73629 -179.4198 -5.7409959 -157.15477
1107000000 -2.0644886 -123.2739 -72.481552 152.17422 -72.435425 152.09726 -5.8048797 174.00826
1116500000 -2.1290674 -151.99658 -72.266365 123.46413 -72.230057 123.62494 -5.8356729 144.9834
1126000000 -2.1586118 179.43671 -72.089027 94.732338 -72.04409 95.050232 -5.8287821 115.98003
1135500000 -2.2038829 151.02776 -71.920135 66.279221 -71.992332 66.991638 -5.7860827 87.178795
1145000000 -2.2785103 121.61607 -71.778358 37.709015 -71.76915 37.842911 -5.7134628 58.694229
1154500000 -2.3377519 91.379715 -71.62175 8.6571074 -71.623375 8.7584486 -5.6197963 30.571405
1164000000 -2.3287778 61.911343 -71.644432 -19.883553 -71.629898 -19.865747 -5.51612 2.810096
1173500000 -2.2794378 33.401043 -71.556969 -47.812798 -71.4963 -47.891701 -5.4173698 -24.641283
1183000000 -2.2643118 4.8587809 -71.549278 -75.872902 -71.513893 -76.283676 -5.3386164 -51.873009
1192500000 -2.2578001 -23.782578 -71.357323 -104.00901 -71.351547 -103.95436 -5.2912335 -79.027199
1202000000 -2.2104366 -51.711567 -71.22184 -131.89169 -71.232323 -132.08728 -5.2801671 -106.25965
1211500000 -2.1689968 -78.877769 -71.121178 -159.69725 -71.09655 -159.66229 -5.3014336 -133.70874
1221000000 -2.1984825 -106.42011 -70.962479 172.34587 -70.935493 172.38901 -5.3403063 -161.45122
1230500000 -2.2746003 -134.83186 -70.709373 143.84908 -70.717926 144.39304 -5.3762083 170.52319
1240000000 -2.3077674 -163.35428 -70.549156 115.89801 -70.591522 115.60806 -5.3922443 142.31406
1249500000 -2.3145702 168.22112 -70.45475 86.965004 -70.429352 87.0672 -5.3805914 114.09293
1259000000 -2.3764739 139.27696 -70.288284 57.481297 -70.299591 57.680019 -5.3384376 86.038132
1268500000 -2.450757 109.76517 -70.246094 29.153816 -70.292374 29.211508 -5.270771 58.277817
1278000000 -2.4630046 80.278046 -70.293571 1.0084823 -70.258766 1.2500663 -5.1886129 30.859375
1287500000 -2.4357839 51.210648 -70.309067 -27.237276 -70.277771 -26.938854 -5.1037912 3.7569716
1297000000 -2.3987901 22.654457 -70.245087 -54.788147 -70.186584 -54.819344 -5.0277605 -23.107819
1306500000 -2.3542559 -5.3064952 -70.217674 -81.895325 -70.176231 -81.821136 -4.973774 -49.840355
1316000000 -2.3068867 -32.80542 -70.041885 -108.53474 -70.034332 -108.65635 -4.9525204 -76.555229
1325500000 -2.2583451 -60.062225 -69.764992 -137.20251 -69.735344 -137.17978 -4.9666476 -103.36052
1335000000 -2.2167335 -86.871742 -69.600082 -165.3033 -69.592468 -165.47881 -5.0109191 -130.39098
1344500000 -2.2107892 -113.32247 -69.46048 166.95848 -69.505463 166.7962 -5.0775089 -157.74516
1354000000 -2.2482119 -140.30005 -69.243874 139.47775 -69.225815 139.36588 -5.1530037 174.53786
1363500000 -2.2781508 -168.04576 -68.940254 110.0618 -68.954613 110.61734 -5.2210879 146.5098
1373000000 -2.2729442 164.36067 -68.735512 81.3862 -68.726654 81.362556 -5.2659631 118.28638
1382500000 -2.2947927 136.96149 -68.613556 51.951553 -68.601021 51.772747 -5.2790608 90.013695
1392000000 -2.3784354 108.65722 -68.793671 21.766785 -68.81562 21.79878 -5.2621088 61.852512
1401500000 -2.4198222 79.576347 -68.790092 -3.4290047 -68.841347 -2.9880176 -5.2223082 33.921455
1411000000 -2.3692894 51.114735 -68.45092 -30.666904 -68.481339 -30.706383 -5.1747336 6.258698
1420500000 -2.3377869 23.561405 -68.192184 -60.19389 -68.174927 -60.415115 -5.1298313 -21.192505
1430000000 -2.3514318 -4.1270871 -68.164772 -89.860855 -68.169205 -89.730255 -5.1002231 -48.558784
1439500000 -2.3213727 -32.073322 -68.093658 -117.7319 -68.108932 -117.5349 -5.098803 -75.970825
1449000000 -2.2337155 -59.059288 -67.932877 -145.7648 -67.896767 -146.11191 -5.1292539 -103.52614
1458500000 -2.1795752 -85.086098 -67.723839 -174.51637 -67.708542 -174.5305 -5.1835585 -131.30177
1468000000 -2.2170393 -111.6068 -67.585136 155.90518 -67.566841 155.96899 -5.2498693 -159.35541
1477500000 -2.2680678 -139.09467 -67.496902 127.09386 -67.501793 126.4537 -5.3157716 172.2998
1487000000 -2.2562394 -166.57788 -67.51474 96.498291 -67.456619 96.290771 -5.369627 143.70407
1496500000 -2.2628086 166.28055 -67.57193 69.427094 -67.564278 69.427422 -5.4004822 114.93588
1506000000 -2.353971 138.42137 -67.401039 39.302109 -67.422966 39.518162 -5.4036965 86.102966
1515500000 -2.4410343 109.33105 -67.727043 10.438408 -67.734291 10.514084 -5.3790612 57.344631
1525000000 -2.4496284 80.13913 -67.262085 -16.554642 -67.297005 -16.676201 -5.3269529 28.766619
1534500000 -2.4535434 51.487686 -67.379066 -48.051151 -67.373451 -47.905479 -5.2605047 0.46934158
1544000000 -2.5020213 22.541918 -67.479469 -79.256157 -67.498604 -79.137779 -5.1869755 -27.523788
1553500000 -2.5117772 -6.7252522 -68.159798 -109.39079 -68.188843 -109.41335 -5.1192808 -55.266178
1563000000 -2.4465277 -35.184505 -69.022537 -136.26331 -68.953453 -135.98332 -5.0687456 -82.877609
1572500000 -2.4011245 -62.797642 -69.438026 -159.84378 -69.451401 -159.65454 -5.0445175 -110.48933
1582000000 -2.4149044 -90.431931 -69.639694 175.41368 -69.657669 175.62657 -5.045434 -138.19855
1591500000 -2.4266107 -118.24004 -69.63205 153.01457 -69.60041 152.62415 -5.0620074 -166.05527
1601000000 -2.4343064 -146.05823 -69.266205 128.7881 -69.194267 128.65047 -5.0799756 165.93712
1610500000 -2.4741278 -174.11346 -68.777939 102.84618 -68.766518 102.87244 -5.0856814 137.82205
1620000000 -2.5096633 157.4814 -68.369812 76.16024 -68.41185 75.943901 -5.0723777 109.65588
1629500000 -2.5531392 128.81473 -67.953186 49.552177 -67.97673 49.257122 -5.0408611 81.50457
1639000000 -2.6490591 99.654259 -67.552055 21.924343 -67.520615 21.90354 -4.9985127 53.414089
1648500000 -2.7134936 69.865807 -67.157768 -6.6097455 -67.153069 -6.4576797 -4.9496984 25.448345
1658000000 -2.695421 40.221508 -66.855629 -34.900837 -66.904678 -34.937088 -4.894752 -2.3384995
1667500000 -2.6925647 11.200653 -66.608658 -63.374321 -66.60405 -63.403881 -4.832984 -29.911373
1677000000 -2.7190664 -17.858408 -66.436859 -91.603256 -66.448975 -91.466698 -4.7685699 -57.25745
1686500000 -2.6685154 -46.852276 -66.188667 -119.62592 -66.226318 -119.44718 -4.7084274 -84.415848
1696000000 -2.5688784 -74.765877 -65.914787 -147.80316 -65.913544 -147.6729 -4.6635456 -111.46645
1705500000 -2.5615299 -101.90775 -65.703323 -175.98146 -65.678001 -176.045 -4.6428518 -138.5255
1715000000 -2.6074674 -129.40468 -65.382553 155.7594 -65.354149 155.84523 -4.649981 -165.69992
1724500000 -2.5707595 -157.24197 -65.091431 126.99318 -65.104446 126.83249 -4.6798167 166.94563
1734000000 -2.5237327 175.28722 -64.855347 98.096687 -64.85331 97.950752 -4.7181273 139.39963
1743500000 -2.5843019 147.91528 -64.66333 69.449364 -64.62912 69.364006 -4.7483177 111.68944
1753000000 -2.662967 119.84261 -64.387245 40.713921 -64.378105 40.91737 -4.7602563 83.859863
1762500000 -2.6612701 91.164383 -64.102791 11.755493 -64.118584 11.637752 -4.7551374 55.951935
1772000000 -2.6708727 62.533936 -63.932816 -17.818176 -63.926174 -17.945543 -4.7404709 28.010435
1781500000 -2.7418544 34.081829 -63.821941 -47.001846 -63.795311 -46.907532 -4.7221489 0.086659521
1791000000 -2.7577002 5.4966369 -63.673477 -75.444572 -63.686466 -75.208763 -4.7002106 -27.764767
1800500000 -2.6931551 -23.13603 -63.429806 -104.05135 -63.447639 -103.94957 -4.6712294 -55.504154
1810000000 -2.6554527 -51.241558 -63.231033 -133.02019 -63.238621 -132.9285 -4.6356044 -83.118057
1819500000 -2.6585999 -78.627785 -63.080917 -161.4859 -63.059177 -161.42902 -4.6014285 -110.61627
1829000000 -2.6285055 -105.67773 -62.710312 170.19833 -62.716721 170.36089 -4.5802565 -138.04707
1838500000 -2.571795 -132.77721 -62.245304 141.25403 -62.254147 141.25792 -4.5820546 -165.50273
1848000000 -2.5780351 -159.92993 -61.743309 110.10502 -61.726242 110.15335 -4.6101489 166.90239
1857500000 -2.6422048 172.97287 -61.449184 78.540527 -61.442039 78.598167 -4.6580853 139.07054
1867000000 -2.6655073 145.74788 -61.336014 46.989792 -61.343903 46.911549 -4.7105169 110.96947
1876500000 -2.659806 118.1521 -61.294224 15.971279 -61.266483 15.971783 -4.7501612 82.635818
1886000000 -2.7363608 90.127663 -61.192692 -15.006629 -61.161915 -15.013586 -4.7641768 54.14996
1895500000 -2.8756745 61.677948 -61.096779 -46.483143 -61.103569 -46.40691 -4.7509108 25.594072
1905000000 -2.9408038 32.980473 -61.147438 -78.260132 -61.15387 -78.242188 -4.7196779 -2.9571888
1914500000 -2.9318774 4.3713388 -61.261059 -109.41238 -61.238586 -109.4193 -4.6819282 -31.425089
1924000000 -2.9727931 -24.208855 -61.268333 -142.31609 -61.246521 -142.3718 -4.6412187 -59.737499
1933500000 -3.0330558 -52.855392 -61.600883 -174.57568 -61.638119 -174.40236 -4.5942121 -87.847954
1943000000 -2.9928362 -81.014595 -62.113895 153.49757 -62.113102 153.40144 -4.5395083 -115.74113
1952500000 -2.9012535 -108.34457 -62.723881 121.80413 -62.706818 121.93832 -4.4853263 -143.43277
1962000000 -2.8942342 -135.62877 -63.659176 91.284798 -63.652359 91.445763 -4.4439816 -170.97282
1971500000 -2.9467986 -163.37706 -64.461258 64.878601 -64.467522 64.719421 -4.4270802 161.54491
1981000000 -2.9259543 168.94554 -65.021957 38.409679 -65.018021 38.252953 -4.4381757 133.9879
1990500000 -2.8764997 141.56799 -65.497414 12.43059 -65.477959 12.609464 -4.4704733 106.24469
2000000000 -2.9172645 113.82101 -65.660522 -12.607761 -65.664528 -12.467625 -4.5069222 78.263237
