!Keysight Technologies,N5242B,MY48420967,A.15.65.19
!Date: Monday, December 19, 2022 10:05:44
!Correction: S11(C  2-Port  ) 
!S21(C  2-Port  ) 
!S12(C  2-Port  ) 
!S22(C  2-Port  ) 
!S2P File: Measurements: S11, S21, S12, S22:
# Hz S  dB   R 50
100000000 -1.2929838 40.858017 -112.82803 -44.112946 -108.74724 -27.140005 -5.2926064 -110.87311
109500000 -1.1726482 11.467696 -109.29907 -104.58726 -108.68993 -72.609848 -5.4704709 -139.19781
119000000 -1.0430517 -16.67417 -109.20357 -119.02264 -110.90858 -116.69455 -5.6447911 -167.80067
128500000 -0.99273765 -44.717152 -107.48045 -125.96513 -108.26912 -140.56969 -5.8007221 163.38718
138000000 -0.98832047 -73.512962 -106.98805 170.42612 -105.21129 179.12926 -5.9224682 134.43765
147500000 -1.0190471 -102.4367 -105.82196 160.54053 -106.10614 143.87076 -5.9976106 105.46574
157000000 -1.0789698 -131.424 -103.33444 131.89891 -103.61395 118.67139 -6.0107594 76.66349
166500000 -1.1814603 -161.10066 -103.21461 105.89171 -102.43062 92.461655 -5.9573607 48.251247
176000000 -1.2913145 168.6416 -101.80677 61.074276 -103.85551 50.342716 -5.8628035 20.354723
185500000 -1.379927 138.41666 -100.52815 26.007122 -102.24055 26.209347 -5.7710657 -7.0833721
195000000 -1.4363141 108.23042 -100.81177 1.7335098 -99.739532 0.17044772 -5.7207098 -34.30666
204500000 -1.4277791 78.419151 -100.67025 -31.187044 -100.75854 -26.825928 -5.738008 -61.663025
214000000 -1.373281 49.233364 -99.073441 -59.951092 -99.505341 -50.423759 -5.8288698 -89.458893
223500000 -1.3512706 20.346075 -97.910011 -91.765816 -98.554619 -89.51059 -5.9662795 -117.83132
233000000 -1.3242667 -8.3907471 -97.832855 -114.7648 -97.734459 -114.29799 -6.1017394 -146.71564
242500000 -1.2479718 -36.888432 -97.486008 -150.25754 -97.474617 -144.47534 -6.1976247 -175.86671
252000000 -1.2302316 -65.188889 -96.464264 -171.04906 -96.55294 -175.964 -6.2351456 155.01292
261500000 -1.3113965 -93.990814 -96.490356 163.18034 -97.191368 155.66301 -6.2195354 126.1341
271000000 -1.3913052 -123.64696 -96.550636 134.05077 -94.274666 133.23 -6.1692052 97.574455
280500000 -1.4281139 -153.49641 -94.03476 98.785408 -93.753166 98.518837 -6.0999365 69.32502
290000000 -1.5076449 176.7699 -93.364883 80.401733 -93.357956 70.248619 -6.0153666 41.372566
299500000 -1.6411066 146.5717 -92.612045 39.521103 -92.459862 37.946945 -5.9182696 13.712293
309000000 -1.6959274 115.96359 -91.993874 8.4135962 -92.701218 8.9883423 -5.8252435 -13.694225
318500000 -1.6511502 85.95063 -91.366547 -20.326744 -93.183777 -16.801218 -5.7591562 -40.969334
328000000 -1.6288968 56.85273 -92.074051 -48.679668 -91.648903 -47.191868 -5.7414703 -68.332001
337500000 -1.6375778 27.853157 -91.760788 -72.417435 -91.035645 -75.197449 -5.7854486 -96.015846
347000000 -1.5968558 -1.4249606 -91.063957 -104.33317 -90.696548 -100.22532 -5.8763471 -124.1722
356500000 -1.529199 -30.304501 -90.498451 -133.34476 -90.640717 -129.93066 -5.9698906 -152.78001
366000000 -1.5272561 -58.78373 -90.052422 -160.90074 -89.845215 -161.25041 -6.0185409 178.39232
375500000 -1.5964105 -87.828217 -89.885101 168.28984 -89.418419 174.08621 -5.9992499 149.68742
385000000 -1.6536899 -117.80612 -88.930565 140.52596 -89.827759 144.127 -5.919507 121.40119
394500000 -1.6883028 -148.03346 -88.603088 111.85054 -88.974152 113.37849 -5.8068457 93.64119
404000000 -1.7649529 -178.01839 -88.389458 86.73658 -88.486298 84.310966 -5.6959801 66.327042
413500000 -1.8570114 151.84967 -88.690346 59.022228 -87.659492 59.391308 -5.6080017 39.293621
423000000 -1.8930545 121.311 -87.786652 28.91296 -87.843185 32.043865 -5.5424862 12.411716
432500000 -1.8807491 91.163803 -87.303284 2.9951427 -87.514313 2.4250069 -5.4956374 -14.406148
442000000 -1.8501884 62.066471 -86.748337 -23.075073 -86.894157 -26.00597 -5.4702444 -41.228336
451500000 -1.8142704 33.456413 -86.262367 -49.767204 -86.156738 -50.430828 -5.4742956 -68.145012
461000000 -1.776 4.7547431 -85.799454 -79.22731 -85.739487 -77.182419 -5.5176215 -95.298592
470500000 -1.7328365 -23.80397 -85.024498 -103.60406 -85.257599 -104.41598 -5.6032209 -122.83833
480000000 -1.7049999 -51.902161 -84.623634 -131.18056 -84.187294 -132.45854 -5.7108355 -150.82777
489500000 -1.7173989 -80.033859 -83.675468 -160.57051 -83.625328 -159.00934 -5.8020072 -179.17252
499000000 -1.764567 -108.9101 -82.542534 172.56081 -82.558189 172.75824 -5.8412938 152.39848
508500000 -1.81574 -138.29375 -81.353912 142.36836 -81.324669 142.94888 -5.8153887 124.21275
518000000 -1.8522393 -167.52759 -80.110847 109.13842 -79.993523 108.68851 -5.7408791 96.491127
527500000 -1.8910195 163.25537 -79.124931 71.332825 -79.138657 71.700485 -5.6562099 69.235313
537000000 -1.9371877 133.7634 -79.08773 33.227299 -78.971031 32.257595 -5.6009173 42.263351
546500000 -1.9482979 104.43075 -79.792122 -3.4543746 -79.825165 -2.4008207 -5.591095 15.344073
556000000 -1.9082668 75.776405 -80.444252 -33.499325 -80.344421 -34.177292 -5.6201992 -11.716606
565500000 -1.85412 47.730194 -81.045525 -61.866489 -81.146378 -60.979015 -5.6744514 -39.010075
575000000 -1.8157812 19.965086 -81.306602 -88.071671 -81.354462 -88.628418 -5.7411313 -66.541367
584500000 -1.7865702 -7.6821156 -81.64048 -116.34216 -81.524467 -115.5424 -5.8120871 -94.307411
594000000 -1.7476231 -35.288239 -81.597816 -143.11469 -81.583084 -142.52209 -5.8945427 -122.37234
603500000 -1.7214329 -62.932716 -81.510353 -169.31439 -81.718391 -169.0083 -5.9950924 -150.78931
613000000 -1.7494068 -90.665878 -81.66256 163.72575 -81.441917 163.53029 -6.0948853 -179.55591
622500000 -1.8074543 -118.8819 -81.489555 135.73737 -81.38987 136.71033 -6.1619925 151.4211
632000000 -1.8586302 -147.92216 -81.169106 107.91201 -81.143661 109.53814 -6.1712985 122.39712
641500000 -1.891935 -177.23233 -80.940941 83.479012 -80.914978 83.28199 -6.1177382 93.696159
651000000 -1.9364898 153.71506 -80.612015 55.89901 -80.487152 55.483753 -6.0209322 65.521141
660500000 -1.989876 124.66352 -80.256401 25.37821 -80.219376 24.921791 -5.919136 37.839947
670000000 -2.001024 95.264107 -80.025917 -2.0363245 -80.014748 -2.1724551 -5.8520236 10.432576
679500000 -1.9595419 66.209518 -80.098488 -29.849611 -80.007454 -30.572941 -5.8345528 -16.977831
689000000 -1.9134134 38.208199 -79.774208 -59.094967 -79.820076 -58.266495 -5.8615475 -44.622356
698500000 -1.8931433 10.63218 -79.520508 -87.858543 -79.455132 -87.133911 -5.9136639 -72.602226
708000000 -1.8736496 -17.495325 -79.3825 -114.93613 -79.535782 -114.6591 -5.9632425 -100.88843
717500000 -1.8437781 -45.803917 -79.297493 -142.54781 -79.335464 -143.05359 -5.9925981 -129.39073
727000000 -1.8390588 -73.493515 -79.196823 -170.27948 -78.960213 -170.11223 -6.0029559 -158.01501
736500000 -1.8940673 -101.39346 -78.887711 160.61127 -78.907173 162.22147 -5.9992833 173.30771
746000000 -1.9818532 -130.67012 -78.566406 133.02837 -78.690147 133.73579 -5.9772801 144.64273
755500000 -2.0219634 -160.54819 -78.585304 104.37162 -78.566948 104.40021 -5.9285984 116.08559
765000000 -2.0456226 170.14536 -78.455772 75.595337 -78.401108 76.076576 -5.8479619 87.786049
774500000 -2.1307561 140.79659 -78.183121 48.566601 -78.246758 49.097332 -5.737783 59.891933
784000000 -2.194876 110.52576 -78.120476 19.740551 -78.03183 20.380884 -5.6145792 32.461411
793500000 -2.1579642 80.457642 -78.12114 -8.2743444 -77.969185 -8.0946865 -5.5054932 5.4105649
803000000 -2.102546 51.899136 -77.915443 -36.03577 -77.789513 -36.012913 -5.4325614 -21.447811
812500000 -2.0912776 23.874138 -77.64463 -64.211441 -77.684402 -64.123268 -5.4033804 -48.335163
822000000 -2.0730751 -4.6027803 -77.556625 -91.399979 -77.678673 -92.681198 -5.4112301 -75.428802
831500000 -2.0093985 -32.804897 -77.465248 -119.72543 -77.511497 -119.34861 -5.4395795 -102.81438
841000000 -1.9779146 -60.35347 -77.223145 -147.66708 -77.254677 -147.31325 -5.4675932 -130.47078
850500000 -2.0193682 -88.034508 -77.060135 -174.53221 -77.082954 -174.67258 -5.48349 -158.30769
860000000 -2.0579307 -116.40278 -76.94725 157.2468 -76.853325 156.77824 -5.4859796 173.78009
869500000 -2.0837483 -145.19461 -76.755867 128.226 -76.750977 128.25711 -5.4762659 145.88062
879000000 -2.1393332 -174.0531 -76.56797 100.05524 -76.630867 100.30283 -5.4546537 118.06131
888500000 -2.1889744 156.90004 -76.435524 71.892868 -76.514854 71.743622 -5.4201989 90.391228
898000000 -2.2148712 127.64201 -76.50737 43.415802 -76.474609 43.174496 -5.3698273 62.954079
907500000 -2.2307799 98.471397 -76.460144 15.033982 -76.35807 15.415481 -5.3046885 35.805622
917000000 -2.2121322 69.627861 -76.276115 -11.825091 -76.322624 -12.199498 -5.2386804 8.9338837
926500000 -2.1518912 41.474804 -76.292206 -38.722305 -76.287712 -39.285244 -5.1923909 -17.750366
936000000 -2.0881519 14.085414 -76.191635 -66.508667 -76.121429 -66.932213 -5.1797915 -44.392773
945500000 -2.0496457 -13.080817 -76.023865 -93.590919 -76.006271 -93.727539 -5.2043366 -71.16642
955000000 -2.0172734 -40.253551 -75.77964 -120.51156 -75.766899 -120.606 -5.2607136 -98.232376
964500000 -1.978704 -67.189331 -75.606178 -147.47815 -75.612915 -147.98146 -5.3372688 -125.68796
974000000 -1.9762907 -93.970093 -75.416145 -175.16637 -75.392487 -175.23218 -5.4193907 -153.52246
983500000 -2.0234189 -121.10789 -75.169601 156.93416 -75.153442 157.31346 -5.4928489 178.36011
993000000 -2.0641959 -148.99998 -74.90255 129.47765 -74.922394 129.9402 -5.5482001 150.07097
1002500000 -2.0894315 -177.39244 -74.579514 102.07066 -74.654839 102.4366 -5.5822248 121.70993
1012000000 -2.1279235 154.3817 -74.226471 73.593376 -74.284225 73.578438 -5.5953555 93.382446
1021500000 -2.1693969 126.09383 -73.968521 44.204514 -74.004066 44.483913 -5.5853791 65.185936
1031000000 -2.2015469 97.14283 -73.903038 16.232113 -73.868286 16.160122 -5.5511661 37.204056
1040500000 -2.1866891 68.140953 -73.828163 -12.573309 -73.790802 -12.600934 -5.5014539 9.4716606
1050000000 -2.1292129 40.173126 -73.713509 -40.657436 -73.715523 -40.539852 -5.4556279 -18.03739
1059500000 -2.087204 13.07266 -73.543266 -67.867172 -73.517441 -67.829422 -5.4326301 -45.423313
1069000000 -2.0655944 -14.373638 -73.373177 -95.314461 -73.478874 -95.468208 -5.4434695 -72.853287
1078500000 -2.0408382 -42.15694 -73.168938 -123.39654 -73.189217 -123.76695 -5.4900837 -100.51949
1088000000 -2.0086923 -69.09491 -72.937851 -151.50258 -72.923943 -151.35594 -5.564199 -128.56641
1097500000 -2.007019 -95.630661 -72.627129 -179.4062 -72.66748 -179.41988 -5.6448107 -157.03946
1107000000 -2.0691004 -123.28796 -72.459419 152.21243 -72.520256 151.60001 -5.7084751 174.1302
1116500000 -2.1338282 -152.01024 -72.301941 123.35016 -72.206978 123.44772 -5.7398467 145.11218
1126000000 -2.163336 179.4222 -72.045998 94.721069 -72.092125 94.718468 -5.7343221 116.11557
1135500000 -2.2086627 151.0154 -71.879501 66.504829 -71.873192 66.734421 -5.6934781 87.31987
1145000000 -2.2835083 121.60529 -71.747307 37.600693 -71.708374 38.130501 -5.6228557 58.838097
1154500000 -2.3428221 91.367241 -71.643394 8.3570004 -71.64238 7.9937186 -5.5314927 30.716038
1164000000 -2.3336821 61.898994 -71.572914 -19.8636 -71.576309 -19.87392 -5.430088 2.95293
1173500000 -2.2842684 33.390919 -71.533058 -47.643066 -71.48687 -47.76775 -5.3330655 -24.502197
1183000000 -2.269238 4.8474641 -71.427811 -76.074699 -71.394241 -75.956978 -5.2555327 -51.739239
1192500000 -2.2628412 -23.794464 -71.309052 -103.94244 -71.306084 -103.94731 -5.2087679 -78.899628
1202000000 -2.2153003 -51.722466 -71.218948 -131.668 -71.228409 -132.01672 -5.1980977 -106.13625
1211500000 -2.1737695 -78.888634 -71.072807 -159.64616 -71.069092 -159.69971 -5.2193933 -133.58824
1221000000 -2.2035711 -106.43217 -70.911346 171.8819 -70.992325 172.18623 -5.2583528 -161.33086
1230500000 -2.279809 -134.84409 -70.615654 144.11217 -70.63485 143.89346 -5.2946076 170.64372
1240000000 -2.3130281 -163.36774 -70.537094 115.6942 -70.522743 115.3458 -5.3115458 142.43498
1249500000 -2.3200409 168.20691 -70.390793 87.035973 -70.368317 87.051109 -5.3007817 114.21559
1259000000 -2.3820343 139.26251 -70.254776 57.639877 -70.179001 57.876648 -5.260118 86.161133
1268500000 -2.4564359 109.74968 -70.19751 29.009604 -70.222649 29.468168 -5.19419 58.399551
1278000000 -2.4686904 80.260826 -70.219711 0.66143781 -70.22683 0.99574685 -5.1137643 30.978596
1287500000 -2.4412823 51.192974 -70.257896 -27.259209 -70.211472 -26.976614 -5.0303683 3.8721726
1297000000 -2.404237 22.636566 -70.174065 -54.934849 -70.207993 -55.028793 -4.9553809 -22.997995
1306500000 -2.3596849 -5.325211 -70.1278 -82.096024 -70.140144 -81.906509 -4.9018016 -49.736702
1316000000 -2.312222 -32.824348 -69.946327 -108.77126 -69.964424 -108.65649 -4.8805881 -76.457611
1325500000 -2.2635996 -60.080536 -69.689072 -137.47256 -69.675423 -137.38319 -4.8943138 -103.2674
1335000000 -2.2220948 -86.890099 -69.518646 -165.61412 -69.532875 -165.82463 -4.9379168 -130.30133
1344500000 -2.2161436 -113.34067 -69.406364 166.53737 -69.422058 166.62492 -5.0036559 -157.65692
1354000000 -2.2536118 -140.31812 -69.187607 139.00737 -69.116287 138.93286 -5.0785694 174.62523
1363500000 -2.2837391 -168.06348 -68.841454 109.74385 -68.822754 109.77516 -5.1461973 146.59799
1373000000 -2.2785337 164.34235 -68.641747 80.714798 -68.695076 80.742493 -5.1908493 118.37634
1382500000 -2.3004313 136.94386 -68.533241 51.471779 -68.5737 51.490784 -5.2040906 90.106369
1392000000 -2.3841639 108.64084 -68.754784 21.040236 -68.713074 21.113386 -5.1878057 61.94878
1401500000 -2.4256146 79.558907 -68.770752 -3.9579239 -68.751259 -3.6390352 -5.1487241 34.018658
1411000000 -2.3750505 51.097271 -68.363075 -31.175341 -68.387939 -31.168213 -5.101934 6.3547769
1420500000 -2.343421 23.545958 -68.070244 -60.583424 -68.022072 -60.31913 -5.0575705 -21.099583
1430000000 -2.3570161 -4.1428261 -67.96785 -90.48246 -67.962601 -90.308105 -5.028192 -48.469692
1439500000 -2.3270288 -32.088985 -67.974258 -118.75813 -67.950089 -119.11539 -5.0264869 -75.885345
1449000000 -2.2391572 -59.073967 -67.793083 -147.23393 -67.767365 -147.27718 -5.0563302 -103.44212
1458500000 -2.1849666 -85.099426 -67.601906 -176.20978 -67.596466 -176.12794 -5.110003 -131.21844
1468000000 -2.2226558 -111.61976 -67.488731 154.11501 -67.45668 154.01288 -5.1761231 -159.2713
1477500000 -2.2739198 -139.10754 -67.380043 124.7355 -67.383301 124.49986 -5.2422285 172.38559
1487000000 -2.2620242 -166.59082 -67.430382 93.658653 -67.414619 93.415817 -5.296185 143.79448
1496500000 -2.2687275 166.26843 -67.65168 66.300148 -67.633995 66.64225 -5.3273973 115.02924
1506000000 -2.3601837 138.40974 -67.58448 36.418926 -67.593155 36.480572 -5.3316612 86.20195
1515500000 -2.4474339 109.31973 -68.043587 8.3001404 -68.039925 8.1988754 -5.3079877 57.45504
1525000000 -2.4560285 80.12645 -67.447899 -18.936274 -67.455505 -18.988642 -5.2571325 28.878113
1534500000 -2.459887 51.475376 -67.655098 -50.846169 -67.684311 -50.78141 -5.1925559 0.58556271
1544000000 -2.5085032 22.529604 -67.991425 -82.941048 -67.99559 -82.759911 -5.1206365 -27.405098
1553500000 -2.5182338 -6.7384009 -69.046768 -111.59708 -69.059814 -111.78966 -5.0535913 -55.143463
1563000000 -2.4527369 -35.199097 -69.954147 -135.3553 -69.952347 -135.55023 -5.0025845 -82.755478
1572500000 -2.4072893 -62.812454 -70.165504 -156.81491 -70.132545 -156.79189 -4.9778967 -110.37057
1582000000 -2.4211171 -90.446808 -70.156219 179.59419 -70.134407 179.69527 -4.97858 -138.08403
1591500000 -2.4328313 -118.2565 -69.793327 157.16876 -69.816071 156.79781 -4.9954557 -165.9458
1601000000 -2.4407861 -146.07565 -69.20192 131.99281 -69.214279 131.90808 -5.0140166 166.04222
1610500000 -2.4806056 -174.13109 -68.66272 105.23372 -68.658989 105.30841 -5.020669 137.92349
1620000000 -2.516351 157.46118 -68.228096 77.700623 -68.257111 77.693283 -5.0083671 109.7565
1629500000 -2.5601025 128.79401 -67.795967 50.656681 -67.791824 50.590237 -4.9777532 81.603806
1639000000 -2.6560321 99.632721 -67.389938 22.196255 -67.349846 22.373312 -4.9365301 53.512287
1648500000 -2.7205021 69.841988 -67.02681 -6.3383417 -67.033508 -6.0245557 -4.8891649 25.544878
1658000000 -2.7025721 40.197735 -66.735306 -34.892155 -66.749481 -34.833347 -4.8357239 -2.2443936
1667500000 -2.6996691 11.17623 -66.539413 -63.646667 -66.52877 -63.705666 -4.7754369 -29.82094
1677000000 -2.7260673 -17.884165 -66.397263 -91.969879 -66.367607 -91.732826 -4.7122388 -57.171547
1686500000 -2.6754429 -46.878128 -66.148949 -119.91975 -66.168861 -119.83989 -4.652904 -84.334129
1696000000 -2.5756741 -74.790169 -65.902237 -148.04327 -65.898811 -147.99112 -4.6085916 -111.38795
1705500000 -2.5682576 -101.93212 -65.695755 -176.34132 -65.661026 -176.32182 -4.5884595 -138.4505
1715000000 -2.6142423 -129.42873 -65.38855 155.31873 -65.38176 155.3065 -4.5959673 -165.62767
1724500000 -2.5776823 -157.26544 -65.109489 126.66899 -65.140205 126.5588 -4.62609 167.01556
1734000000 -2.5306356 175.26387 -64.862679 97.934364 -64.846428 97.723076 -4.6645136 139.46709
1743500000 -2.5912981 147.89268 -64.701408 69.295586 -64.65522 69.126984 -4.6948404 111.75483
1753000000 -2.6701221 119.82143 -64.427612 40.568172 -64.417496 40.633324 -4.7069435 83.924873
1762500000 -2.6687078 91.143051 -64.138252 11.550183 -64.163696 11.523619 -4.7021341 56.017994
1772000000 -2.6783619 62.512775 -63.954113 -17.945961 -63.960239 -18.163307 -4.6878357 28.077108
1781500000 -2.7492385 34.061401 -63.862976 -47.084908 -63.857143 -46.978951 -4.6701274 0.15247861
1791000000 -2.7652471 5.4768801 -63.715748 -75.586098 -63.710331 -75.334709 -4.6490173 -27.700855
1800500000 -2.7006547 -23.155825 -63.480419 -104.15088 -63.490677 -104.22943 -4.6207333 -55.44281
1810000000 -2.6628306 -51.261501 -63.302559 -133.21899 -63.293026 -133.16904 -4.585475 -83.05896
1819500000 -2.6659985 -78.64537 -63.13089 -161.78113 -63.144653 -161.57622 -4.551424 -110.55907
1829000000 -2.635812 -105.69575 -62.751965 170.00987 -62.761963 170.27231 -4.5305762 -137.99135
1838500000 -2.5792978 -132.79494 -62.319309 141.12611 -62.309673 141.05215 -4.5325742 -165.44797
1848000000 -2.5856276 -159.94579 -61.778767 109.80454 -61.764004 109.84693 -4.5608382 166.95572
1857500000 -2.6500559 172.9565 -61.564987 78.037209 -61.555553 78.181671 -4.6086712 139.12177
1867000000 -2.6734879 145.73091 -61.462753 46.843182 -61.457336 46.851669 -4.6611123 111.01934
1876500000 -2.6680532 118.13672 -61.415043 15.981812 -61.38657 15.856483 -4.7006564 82.686409
1886000000 -2.7449596 90.113304 -61.305851 -15.200308 -61.297768 -15.118027 -4.7148075 54.20248
1895500000 -2.8843694 61.662861 -61.251045 -46.579494 -61.244781 -46.45274 -4.7020926 25.648809
1905000000 -2.9492712 32.966129 -61.302834 -78.23513 -61.310654 -78.229073 -4.6717386 -2.9007785
1914500000 -2.9403851 4.3570166 -61.428837 -109.11559 -61.429867 -109.06222 -4.635006 -31.368912
1924000000 -2.9808943 -24.225271 -61.443596 -142.03238 -61.427647 -141.75873 -4.5952053 -59.682529
1933500000 -3.0402734 -52.875092 -61.775108 -173.96295 -61.800163 -173.78351 -4.548933 -87.794868
1943000000 -2.9995685 -81.036812 -62.269352 154.50604 -62.286095 154.33629 -4.4950881 -115.68915
1952500000 -2.907871 -108.37304 -62.86705 123.08504 -62.84568 123.00365 -4.4417777 -143.38179
1962000000 -2.9007735 -135.66457 -63.735352 92.514694 -63.76532 92.80304 -4.4012656 -170.92276
1971500000 -2.9534302 -163.41687 -64.531548 66.005295 -64.561951 66.061447 -4.3850222 161.593
1981000000 -2.9332564 168.90057 -65.13736 40.016766 -65.111267 39.904781 -4.3966346 134.03372
1990500000 -2.8844202 141.51747 -65.569962 14.42084 -65.519058 14.398488 -4.4293652 106.28795
2000000000 -2.9259858 113.76633 -65.639198 -10.626165 -65.612427 -10.571116 -4.4661093 78.306396
