!Keysight Technologies,N5242B,MY48420967,A.15.65.19
!Date: Monday, December 19, 2022 14:02:00
!Correction: S11(C  2-Port  ) 
!S21(C  2-Port  ) 
!S12(C  2-Port  ) 
!S22(C  2-Port  ) 
!S2P File: Measurements: S11, S21, S12, S22:
# Hz S  dB   R 50
100000000 -1.4866424 40.704506 -120.21861 -165.68309 -110.58537 -61.653618 -3.4463911 -112.66473
109500000 -1.3674376 11.237298 -105.79887 -112.61169 -109.6809 -104.58041 -3.5918777 -140.91711
119000000 -1.2442436 -16.908672 -109.2046 -118.10016 -106.82632 -118.82502 -3.7379761 -169.38248
128500000 -1.1984531 -44.945423 -105.7595 -149.29594 -105.51503 -155.73047 -3.8761473 162.00302
138000000 -1.2017304 -73.707863 -106.52547 173.26195 -107.83878 -178.7944 -3.9945252 133.30255
147500000 -1.2316861 -102.60735 -103.01986 138.36197 -106.52258 123.44448 -4.0774088 104.6093
157000000 -1.2955519 -131.50505 -103.41276 123.81664 -103.02793 102.51256 -4.1106458 76.074951
166500000 -1.396873 -161.13078 -102.9726 88.7005 -103.74834 82.989357 -4.0901093 47.873108
176000000 -1.5060182 168.69475 -102.12489 39.016033 -101.85779 55.834522 -4.0304494 20.093594
185500000 -1.5897135 138.52008 -99.879974 25.908264 -99.349159 17.736483 -3.9615657 -7.3323593
195000000 -1.638024 108.37936 -100.47901 -6.8919592 -99.939377 -9.2823172 -3.9193747 -34.63652
204500000 -1.621789 78.604889 -99.556435 -36.222591 -100.18095 -28.40089 -3.9315045 -62.124622
214000000 -1.5602313 49.446186 -98.734512 -54.972031 -98.441193 -63.974163 -4.0049253 -90.040649
223500000 -1.530369 20.591469 -98.70192 -95.511147 -97.740372 -92.132889 -4.1223764 -118.46586
233000000 -1.4978977 -8.1404772 -97.962425 -124.8569 -98.356232 -122.33127 -4.2480764 -147.30551
242500000 -1.4186907 -36.614052 -98.5056 -151.10489 -96.815979 -149.5585 -4.347537 -176.32329
252000000 -1.3982493 -64.911003 -95.553627 -173.12865 -96.673531 -176.95752 -4.4022746 154.73717
261500000 -1.4806201 -93.684517 -95.400734 155.9937 -96.073158 153.04633 -4.4149079 126.0379
271000000 -1.5637178 -123.33848 -95.375404 122.78051 -94.15406 130.2655 -4.3980327 97.630005
280500000 -1.6041087 -153.21381 -93.505882 83.539925 -95.038612 97.144318 -4.3617873 69.506721
290000000 -1.6857656 177.05832 -93.368462 62.849552 -94.689934 63.009041 -4.3088608 41.657902
299500000 -1.8245783 146.84915 -93.101761 35.118114 -93.398132 35.152206 -4.2407451 14.071566
309000000 -1.8862197 116.19418 -92.599525 9.5267067 -92.26709 8.9095592 -4.1676717 -13.300572
318500000 -1.8429502 86.124229 -92.283798 -20.423494 -92.379143 -19.184839 -4.1099725 -40.585094
328000000 -1.8233192 57.010101 -90.897011 -49.086124 -91.390373 -52.740765 -4.0920501 -67.981796
337500000 -1.8387887 27.984207 -91.269653 -82.235092 -90.904144 -75.374443 -4.127316 -95.685234
347000000 -1.8048468 -1.3476396 -90.835899 -108.39935 -90.68145 -105.89682 -4.2065597 -123.80509
356500000 -1.7425452 -30.249975 -90.579651 -134.63277 -90.886444 -136.46587 -4.2981548 -152.29837
366000000 -1.7474291 -58.72633 -89.948639 -163.88916 -90.513878 -163.83662 -4.3620396 179.05257
375500000 -1.8288985 -87.776718 -89.8069 164.56946 -89.215248 168.51558 -4.3723783 150.54247
385000000 -1.8965431 -117.75718 -89.507446 134.49741 -88.979889 141.16035 -4.3303142 122.40872
394500000 -1.937855 -147.98534 -88.902924 112.3625 -88.915764 112.7602 -4.2582202 94.726959
404000000 -2.021476 -177.9473 -88.623055 85.202583 -88.605492 84.959404 -4.1825676 67.428406
413500000 -2.1180408 151.95222 -88.393593 56.397209 -88.237206 57.477203 -4.1199546 40.374847
423000000 -2.1591067 121.41711 -87.814056 29.809555 -87.753555 26.102215 -4.0727787 13.448777
432500000 -2.1468425 91.288284 -87.256187 3.1686807 -87.553299 1.4381113 -4.0382862 -13.434254
442000000 -2.1125331 62.224854 -87.24408 -24.612345 -86.760902 -26.283117 -4.0167503 -40.338058
451500000 -2.0781837 33.660717 -86.351631 -52.810646 -86.443108 -52.083614 -4.0164413 -67.349503
461000000 -2.0436425 4.9894047 -85.970795 -80.835068 -85.854156 -79.260742 -4.0493507 -94.603462
470500000 -2.0015562 -23.543308 -85.239265 -105.96657 -85.060059 -106.477 -4.1201153 -122.22419
480000000 -1.9750965 -51.583893 -84.265282 -131.3743 -83.952698 -129.62502 -4.2149539 -150.24854
489500000 -1.9950311 -79.666283 -82.951355 -158.90349 -82.783501 -157.3725 -4.3034873 -178.5688
499000000 -2.0515118 -108.51112 -81.09169 171.27655 -81.057556 171.57626 -4.3519673 153.0686
508500000 -2.1051657 -137.86644 -79.506676 133.5047 -79.33625 133.31363 -4.3442063 124.94767
518000000 -2.1437674 -167.09355 -79.069641 89.216949 -79.149429 89.413994 -4.2922349 97.247665
527500000 -2.1904821 163.67567 -79.856827 52.296661 -80.103745 52.479984 -4.226666 69.958923
537000000 -2.2421093 134.1701 -81.096458 19.928982 -81.328606 18.656111 -4.1791859 42.918209
546500000 -2.2548332 104.83906 -82.111649 -6.9793611 -81.880264 -9.4734707 -4.1662059 15.9194
556000000 -2.2142837 76.182396 -82.601334 -36.201149 -82.399742 -35.679882 -4.1865878 -11.209204
565500000 -2.1593046 48.123432 -82.380852 -60.002155 -82.593048 -59.875214 -4.2277703 -38.542145
575000000 -2.1214914 20.364723 -82.320198 -86.45533 -82.328934 -87.631195 -4.2764878 -66.083878
584500000 -2.0947905 -7.2719059 -82.473633 -114.19654 -82.207001 -113.75893 -4.327095 -93.842651
594000000 -2.060957 -34.880306 -82.337944 -140.46614 -82.419853 -140.69797 -4.3877778 -121.88678
603500000 -2.0403004 -62.514313 -81.981567 -167.46509 -82.214386 -166.51085 -4.4678745 -150.25557
613000000 -2.0763357 -90.228409 -81.798553 164.82915 -81.922073 164.8434 -4.5549979 -178.92465
622500000 -2.1462495 -118.42966 -81.714127 137.25661 -81.568703 138.21764 -4.6226158 152.2007
632000000 -2.2077408 -147.47356 -81.447311 110.56581 -81.55407 112.02587 -4.6469126 123.34785
641500000 -2.2495608 -176.80406 -80.847038 83.518555 -81.083595 83.312584 -4.618567 94.798416
651000000 -2.2993116 154.13301 -80.61412 54.977161 -80.551994 54.938637 -4.5502863 66.721046
660500000 -2.3576999 125.06048 -80.720139 25.015018 -80.575912 26.123297 -4.472599 39.071144
670000000 -2.3738573 95.627853 -80.241486 -2.7920442 -80.467545 -2.4955688 -4.4185238 11.656405
679500000 -2.3315954 66.533073 -80.132919 -29.903618 -80.146629 -30.018797 -4.405313 -15.771329
689000000 -2.2823474 38.516945 -80.003159 -58.50885 -79.949448 -58.836781 -4.4316134 -43.412403
698500000 -2.2648878 10.956653 -79.929451 -87.131271 -79.913239 -86.683342 -4.4794822 -71.351044
708000000 -2.2540245 -17.169033 -79.558571 -114.52628 -79.763 -113.57206 -4.5268054 -99.563087
717500000 -2.2291636 -45.48037 -79.549438 -141.65695 -79.537766 -141.67702 -4.5604959 -127.97233
727000000 -2.2281432 -73.133064 -79.333755 -170.40245 -79.183182 -170.1757 -4.580976 -156.49788
736500000 -2.2971172 -100.96758 -78.900902 160.9693 -78.96286 162.51657 -4.5924835 174.92297
746000000 -2.4026027 -130.21565 -78.858841 133.14311 -78.822342 133.2657 -4.5934634 146.34943
755500000 -2.4517429 -160.08748 -78.703354 103.942 -78.581451 104.33214 -4.5764127 117.87366
765000000 -2.4788761 170.66159 -78.546036 75.917496 -78.596352 76.266037 -4.5327382 89.639572
774500000 -2.5729346 141.36557 -78.344658 47.81472 -78.461777 48.351692 -4.4604316 61.77969
784000000 -2.6458673 111.09554 -78.29229 20.429907 -78.208534 20.107166 -4.3720717 34.341679
793500000 -2.6031106 81.031441 -78.166634 -8.0413017 -78.089241 -8.6925259 -4.2900381 7.2495508
803000000 -2.5385129 52.515408 -78.103127 -36.599586 -77.992447 -36.783314 -4.2345028 -19.663956
812500000 -2.5274458 24.551338 -77.804962 -63.79681 -77.985123 -63.869934 -4.2150364 -46.603268
822000000 -2.5108025 -3.884939 -77.868416 -90.841896 -77.806847 -91.587616 -4.2274122 -73.731171
831500000 -2.4450328 -32.034248 -77.664818 -119.02273 -77.613998 -119.50006 -4.257319 -101.12571
841000000 -2.4126308 -59.482555 -77.425003 -146.52098 -77.421402 -146.82573 -4.2884674 -128.77199
850500000 -2.4608924 -87.062958 -77.141685 -174.22246 -77.219727 -174.49142 -4.3110499 -156.59145
860000000 -2.5109184 -115.34785 -77.079475 156.91222 -77.055733 156.43944 -4.3236399 175.5101
869500000 -2.5432189 -144.05254 -76.895721 127.91447 -76.842827 128.54285 -4.327776 147.61414
879000000 -2.6035268 -172.82249 -76.691879 100.047 -76.707748 100.79169 -4.3241601 119.78843
888500000 -2.6602187 158.20044 -76.710968 72.03344 -76.681557 72.698944 -4.3093085 92.105469
898000000 -2.6906946 128.97942 -76.674889 44.403244 -76.683434 44.795101 -4.2779756 64.643913
907500000 -2.7052081 99.832802 -76.557472 16.64625 -76.493004 16.886879 -4.2310195 37.449097
917000000 -2.6817038 70.995911 -76.496506 -10.729795 -76.433784 -10.34244 -4.1795712 10.508154
926500000 -2.6160746 42.83046 -76.326569 -37.825333 -76.335472 -37.601761 -4.1402841 -16.259283
936000000 -2.546315 15.438682 -76.30706 -64.90361 -76.254944 -65.273071 -4.1265335 -42.990223
945500000 -2.5047922 -11.714119 -76.041817 -92.330833 -76.000641 -92.409393 -4.1436639 -69.849327
955000000 -2.4732418 -38.874687 -75.737137 -119.33028 -75.863167 -119.72486 -4.1877794 -96.98526
964500000 -2.4358995 -65.813484 -75.606331 -146.20879 -75.706276 -146.78139 -4.2489676 -124.48703
974000000 -2.4383242 -92.581917 -75.365479 -174.5535 -75.336357 -174.45349 -4.3163509 -152.34428
983500000 -2.4956415 -119.68864 -75.197205 157.67003 -75.120949 158.06247 -4.378931 179.53293
993000000 -2.5498021 -147.58524 -74.770744 131.02327 -74.875427 131.25639 -4.4286494 151.25304
1002500000 -2.5854027 -176.01096 -74.453636 102.91943 -74.446144 103.06719 -4.4622064 122.9129
1012000000 -2.6299121 155.72693 -74.143196 73.359535 -74.087059 73.432106 -4.478569 94.615273
1021500000 -2.6803966 127.40366 -73.933464 44.641582 -74.024414 44.439327 -4.4745622 66.449883
1031000000 -2.7202661 98.392479 -73.801796 16.381121 -73.838371 16.717432 -4.448957 38.49445
1040500000 -2.7042325 69.286629 -73.772102 -11.799662 -73.73748 -12.081413 -4.4085102 10.778078
1050000000 -2.6391728 41.241909 -73.659668 -40.088589 -73.658714 -40.146385 -4.3679485 -16.725195
1059500000 -2.5922272 14.112256 -73.538017 -67.987228 -73.495705 -67.652771 -4.3438187 -44.112041
1069000000 -2.5744007 -13.359326 -73.254486 -94.614471 -73.35817 -95.042374 -4.3485756 -71.539047
1078500000 -2.5513725 -41.168781 -72.988609 -122.90264 -73.010048 -123.34173 -4.3855696 -99.181816
1088000000 -2.5156844 -68.11219 -72.836945 -151.1546 -72.795883 -151.51109 -4.4474578 -127.17045
1097500000 -2.5213635 -94.596191 -72.552757 -179.47203 -72.540802 -179.62094 -4.5179629 -155.54929
1107000000 -2.6023116 -122.18398 -72.310997 152.38712 -72.327431 152.20932 -4.5794859 175.74002
1116500000 -2.6823096 -150.88292 -72.126419 123.27924 -72.11377 123.23517 -4.6190319 146.85059
1126000000 -2.7181344 -179.41318 -71.903519 94.497147 -71.998428 94.633133 -4.6306314 117.97651
1135500000 -2.7743232 152.26431 -71.755577 66.102318 -71.80114 66.294937 -4.6138568 89.28476
1145000000 -2.8672245 122.92552 -71.615425 37.0919 -71.59893 37.140633 -4.5715489 60.878056
1154500000 -2.9321127 92.700768 -71.50264 7.9324203 -71.577896 8.1305542 -4.5100555 32.802345
1164000000 -2.9148135 63.241344 -71.440887 -20.374664 -71.461441 -20.265936 -4.4374132 5.0564642
1173500000 -2.8598213 34.795868 -71.434494 -48.312057 -71.34977 -48.445789 -4.3649664 -22.406366
1183000000 -2.8434308 6.3166275 -71.314278 -76.526611 -71.283768 -76.684265 -4.3056736 -49.670242
1192500000 -2.8324778 -22.27627 -71.163383 -104.85079 -71.171333 -105.11667 -4.2719331 -76.863449
1202000000 -2.7755046 -50.125122 -71.084686 -132.39919 -71.03083 -132.31308 -4.2701321 -104.12795
1211500000 -2.7313626 -77.177406 -70.925644 -160.3199 -70.898628 -160.61862 -4.2976418 -131.5927
1221000000 -2.7706981 -104.57661 -70.742615 171.39914 -70.692299 171.48877 -4.3425364 -159.33406
1230500000 -2.8567078 -132.86086 -70.459808 142.80014 -70.482826 143.20662 -4.3878822 172.64584
1240000000 -2.8964815 -161.29077 -70.303322 114.40948 -70.321808 114.26799 -4.4192066 144.4436
1249500000 -2.9123666 170.39923 -70.166367 85.815453 -70.194252 85.44838 -4.4263511 116.22417
1259000000 -2.9862373 141.57343 -70.085609 56.275139 -70.052856 56.656261 -4.407146 88.152977
1268500000 -3.0699704 112.11501 -70.000458 27.95709 -70.028572 27.935438 -4.3649697 60.352215
1278000000 -3.08358 82.628059 -69.990852 -0.3985205 -70.021973 -0.49723947 -4.3075175 32.872643
1287500000 -3.0524004 53.539764 -70.023453 -28.409771 -70.037857 -28.147058 -4.2430835 5.6922145
1297000000 -3.008538 24.941929 -69.935226 -56.216129 -69.924698 -55.974369 -4.1821861 -21.263693
1306500000 -2.9537909 -3.0599096 -69.709908 -83.481377 -69.766251 -83.801804 -4.1375432 -48.094658
1316000000 -2.8970439 -30.579226 -69.546173 -111.20311 -69.528923 -111.06654 -4.1197953 -74.896225
1325500000 -2.8433924 -57.863285 -69.318985 -139.90001 -69.332314 -139.99286 -4.1312337 -101.78943
1335000000 -2.7973728 -84.696861 -69.087303 -168.52515 -69.107414 -168.66354 -4.1712489 -128.88873
1344500000 -2.7904549 -111.12314 -68.915367 163.25011 -68.89518 163.01747 -4.231761 -156.29387
1354000000 -2.8380132 -138.06068 -68.574615 134.51395 -68.578285 134.25955 -4.3017039 175.95482
1363500000 -2.881593 -165.82294 -68.356453 104.14319 -68.382545 104.29385 -4.366313 147.90794
1373000000 -2.8818905 166.54317 -68.182716 73.213135 -68.194519 73.263412 -4.4112344 119.67921
1382500000 -2.911797 139.16185 -68.710968 41.894928 -68.690666 42.272812 -4.4282064 91.418465
1392000000 -3.0125313 110.86325 -69.266304 18.840883 -69.303505 18.668386 -4.4160724 63.260139
1401500000 -3.0648572 81.662346 -68.345528 -7.3698435 -68.374619 -7.2955093 -4.3868628 35.29818
1411000000 -3.0085213 53.070671 -67.758034 -38.709934 -67.756424 -38.776997 -4.3491511 7.6044278
1420500000 -2.9696069 25.45668 -67.982338 -71.84156 -67.963028 -71.543289 -4.3102326 -19.881525
1430000000 -2.9851475 -2.3018804 -68.246773 -98.459656 -68.250565 -98.381866 -4.2815785 -47.289654
1439500000 -2.9515686 -30.363132 -67.794067 -126.30428 -67.814255 -126.38284 -4.2779617 -74.740875
1449000000 -2.8504317 -57.430363 -67.422737 -157.71898 -67.42691 -157.94839 -4.303575 -102.31237
1458500000 -2.7919464 -83.445915 -67.314194 167.88489 -67.316216 167.89114 -4.3535905 -130.07954
1468000000 -2.8398342 -109.92657 -68.081436 132.22432 -68.074547 132.42188 -4.4174757 -158.08659
1477500000 -2.9048347 -137.4211 -69.275253 103.39227 -69.275902 103.54946 -4.4804564 173.64394
1487000000 -2.8996882 -164.89967 -70.007965 78.198395 -69.974075 77.665291 -4.5328341 145.13358
1496500000 -2.9148476 168.02679 -71.15789 48.844276 -71.116669 48.731762 -4.5661793 116.48186
1506000000 -3.0283151 140.25935 -72.344208 30.881208 -72.376503 30.858969 -4.571115 87.766098
1515500000 -3.1370809 111.2002 -71.099182 11.313872 -71.1623 11.246994 -4.5539894 59.078075
1525000000 -3.151942 82.007217 -71.672653 -20.596323 -71.643608 -20.455982 -4.5222111 30.582491
1534500000 -3.1578643 53.409401 -72.138733 -40.438385 -72.119637 -39.635571 -4.4727902 2.3578663
1544000000 -3.2150235 24.513157 -71.720467 -61.493771 -71.785492 -60.858398 -4.4149547 -25.593668
1553500000 -3.2257628 -4.7708535 -70.99379 -84.720444 -70.975723 -84.558701 -4.3596077 -53.322193
1563000000 -3.1469784 -33.225521 -70.224442 -110.88181 -70.207634 -111.10012 -4.3199425 -80.927498
1572500000 -3.0936203 -60.752827 -69.670982 -138.38992 -69.634186 -138.21565 -4.3054223 -108.52209
1582000000 -3.1107471 -88.289131 -69.151398 -165.99379 -69.174561 -166.19952 -4.3170118 -136.20515
1591500000 -3.1263649 -116.02596 -68.660507 166.1321 -68.637009 165.8002 -4.3464732 -164.03122
1601000000 -3.13925 -143.72356 -68.291367 137.48753 -68.288124 137.26915 -4.3796024 167.99709
1610500000 -3.190171 -171.63731 -67.97686 109.05145 -67.987526 109.0053 -4.4018593 139.91922
1620000000 -3.2412403 160.05066 -67.633072 81.347824 -67.673653 81.15976 -4.4050355 111.78785
1629500000 -3.2980764 131.50642 -67.260887 52.7505 -67.235939 52.643284 -4.3916802 83.650444
1639000000 -3.4075956 102.47105 -66.948921 23.833838 -66.944244 23.797709 -4.3693838 55.562675
1648500000 -3.4878817 72.703362 -66.674248 -5.4552183 -66.689735 -5.354279 -4.3425007 27.583744
1658000000 -3.4719992 43.034031 -66.479546 -34.442905 -66.50927 -34.306572 -4.3101168 -0.2354089
1667500000 -3.4619229 14.017762 -66.319992 -63.295925 -66.320648 -63.244225 -4.2700176 -27.859447
1677000000 -3.4866693 -15.057825 -66.165779 -91.471107 -66.190041 -91.332985 -4.2237077 -55.270214
1686500000 -3.4279125 -44.131016 -65.960297 -120.06174 -66.005493 -119.83512 -4.1780925 -82.494766
1696000000 -3.3094931 -72.092873 -65.771385 -148.09497 -65.792511 -148.3662 -4.144412 -109.60888
1705500000 -3.2910223 -99.202774 -65.574814 -176.58766 -65.544922 -176.66872 -4.133297 -136.72908
1715000000 -3.3406448 -126.68246 -65.330643 154.67125 -65.341599 154.66406 -4.1492796 -163.96304
1724500000 -3.3082416 -154.54271 -65.091888 126.27174 -65.086494 126.13928 -4.1868887 168.6235
1734000000 -3.2595716 178.00418 -64.862442 97.646736 -64.874695 97.28804 -4.2319894 141.01854
1743500000 -3.3258069 150.69595 -64.668861 68.945656 -64.64032 68.801292 -4.268765 113.25216
1753000000 -3.4209349 122.65058 -64.380203 40.067299 -64.376633 40.039951 -4.2876291 85.373505
1762500000 -3.4333966 93.94519 -64.096924 11.030813 -64.109413 10.784579 -4.2897911 57.421871
1772000000 -3.4465656 65.293106 -63.90221 -18.674334 -63.914825 -18.61425 -4.2831826 29.43409
1781500000 -3.5199738 36.803318 -63.770298 -47.759197 -63.755764 -47.778252 -4.2742424 1.4536992
1791000000 -3.5427811 8.1305342 -63.570885 -76.623146 -63.578033 -76.500984 -4.2621012 -26.463287
1800500000 -3.4767883 -20.602236 -63.342865 -105.57246 -63.376041 -105.59782 -4.2416096 -54.268147
1810000000 -3.4262116 -48.784546 -63.1469 -134.79294 -63.142319 -134.75909 -4.2120609 -81.939156
1819500000 -3.4191704 -76.216103 -62.882473 -163.71631 -62.871872 -163.56755 -4.182096 -109.48445
1829000000 -3.3877156 -103.31341 -62.47971 166.99164 -62.491413 167.20013 -4.1645637 -136.95285
1838500000 -3.3344886 -130.43239 -62.009346 136.72841 -62.011169 136.62064 -4.1697226 -164.43498
1848000000 -3.344378 -157.53746 -61.640446 104.40318 -61.643917 104.35182 -4.2000885 167.95474
1857500000 -3.4183927 175.41722 -61.560249 71.616356 -61.570274 71.656906 -4.2489996 140.11951
1867000000 -3.4627092 148.23309 -61.62558 40.279816 -61.641335 40.129448 -4.3024616 112.02708
1876500000 -3.4791064 120.74295 -61.662743 8.9695625 -61.675713 8.7549686 -4.3441978 83.725281
1886000000 -3.5762088 92.891548 -61.712975 -23.066593 -61.701229 -23.121277 -4.36201 55.288685
1895500000 -3.7391453 64.600792 -61.91346 -55.294807 -61.909481 -55.271488 -4.3557143 26.788143
1905000000 -3.8224177 36.017006 -62.341717 -86.927048 -62.351479 -87.080269 -4.3345432 -1.7108374
1914500000 -3.8176641 7.5352526 -62.571095 -116.74606 -62.600597 -116.78867 -4.3082871 -30.135584
1924000000 -3.8486524 -20.860744 -62.968925 -149.98042 -62.97707 -149.74187 -4.2789011 -58.40921
1933500000 -3.890655 -49.41885 -63.74432 178.77528 -63.743507 179.0071 -4.2423825 -86.481834
1943000000 -3.8223448 -77.58683 -64.725647 149.93335 -64.728485 149.80359 -4.1988425 -114.33434
1952500000 -3.6991537 -104.91895 -65.658623 122.1648 -65.692963 122.2995 -4.1560788 -141.97818
1962000000 -3.6706855 -132.16896 -66.532661 99.253998 -66.564316 99.372269 -4.1255784 -169.4682
1971500000 -3.7141254 -159.91418 -66.685844 76.464531 -66.728973 76.539719 -4.1185641 163.09419
1981000000 -3.6938221 172.33894 -66.654022 52.152493 -66.658485 52.171246 -4.1389256 135.57875
1990500000 -3.6475863 144.96001 -66.365311 26.687241 -66.348145 26.520533 -4.1802449 107.88347
2000000000 -3.7014394 117.3116 -66.070808 -1.3144968 -66.058807 -1.2477298 -4.2261806 79.961243
