!Keysight Technologies,N5242B,MY48420967,A.15.65.19
!Date: Monday, December 19, 2022 08:53:38
!Correction: S11(C  2-Port  ) 
!S21(C  2-Port  ) 
!S12(C  2-Port  ) 
!S22(C  2-Port  ) 
!S2P File: Measurements: S11, S21, S12, S22:
# Hz S  dB   R 50
100000000 -1.2900413 40.84679 -110.31321 -105.80695 -110.56335 -17.599987 -5.5632911 -110.72179
109500000 -1.1707158 11.463805 -112.58645 -120.17123 -115.45338 -89.769249 -5.7466626 -139.04416
119000000 -1.0394808 -16.680229 -113.1134 -85.368324 -110.02145 -138.37622 -5.927156 -167.65717
128500000 -0.99010479 -44.721218 -110.65692 -154.88258 -107.72293 -151.5694 -6.087019 163.50719
138000000 -0.98618209 -73.510071 -104.7552 174.49756 -106.91785 -173.84001 -6.2094669 134.52252
147500000 -1.0157107 -102.43817 -102.47237 144.25555 -105.05128 148.71635 -6.2845612 105.51094
157000000 -1.0759702 -131.4209 -104.973 142.18642 -104.24632 127.07332 -6.2967806 76.673111
166500000 -1.1787336 -161.09387 -101.83255 86.273262 -103.38257 93.482437 -6.2395177 48.232906
176000000 -1.288438 168.64568 -102.68869 48.625263 -102.54344 63.178417 -6.1403174 20.317987
185500000 -1.3763185 138.4272 -100.45039 28.039082 -101.48599 23.767199 -6.0469975 -7.1279707
195000000 -1.4334861 108.24522 -100.64533 2.6441443 -100.30442 0.51631165 -5.9967685 -34.34568
204500000 -1.4250346 78.433807 -100.48338 -31.67061 -98.956032 -25.210773 -6.0154128 -61.687618
214000000 -1.3697162 49.24744 -99.069183 -60.42387 -100.02718 -52.831215 -6.1103067 -89.471466
223500000 -1.3487986 20.368553 -97.801796 -92.420494 -98.767006 -91.461456 -6.253036 -117.84286
233000000 -1.3214984 -8.3688173 -99.284401 -121.83807 -97.222672 -117.97688 -6.3916545 -146.74266
242500000 -1.2449545 -36.871151 -98.24308 -148.08827 -97.078377 -147.15239 -6.4883528 -175.92506
252000000 -1.2274547 -65.161263 -96.156143 176.81223 -97.253517 -178.6217 -6.5239687 154.91414
261500000 -1.3085612 -93.965294 -96.589806 162.24626 -96.238899 153.0639 -6.5037613 125.99937
271000000 -1.388634 -123.6248 -94.655449 139.03484 -94.768044 130.33965 -6.4475012 97.415405
280500000 -1.4247195 -153.46552 -94.913361 100.41163 -93.983841 97.75988 -6.3728323 69.153427
290000000 -1.5047228 176.79782 -93.336098 68.3843 -93.883919 60.827103 -6.2830486 41.191963
299500000 -1.6382897 146.59769 -93.454803 40.569618 -93.272713 34.390842 -6.1809611 13.526183
309000000 -1.6920755 115.99421 -92.539261 11.90044 -93.169304 9.6317501 -6.0851378 -13.87812
318500000 -1.648082 85.983673 -92.169769 -21.755375 -93.338402 -17.736998 -6.0181632 -41.144718
328000000 -1.6257085 56.880703 -92.31646 -48.919418 -92.402817 -46.166145 -6.0000129 -68.493416
337500000 -1.6337842 27.879164 -91.946762 -74.933365 -91.116325 -73.103584 -6.0450945 -96.165451
347000000 -1.5932798 -1.3891908 -91.22261 -106.21345 -90.680779 -101.17434 -6.1387992 -124.31898
356500000 -1.5255936 -30.275455 -90.408569 -135.4838 -90.765686 -132.94333 -6.2329755 -152.93671
366000000 -1.5236201 -58.759338 -90.227234 -161.4288 -90.161804 -159.53975 -6.2787657 178.21402
375500000 -1.5917876 -87.797745 -89.998634 169.48778 -89.87101 172.1199 -6.2546134 149.48262
385000000 -1.6495062 -117.78182 -89.588249 140.29283 -89.393066 144.29471 -6.1689973 121.17758
394500000 -1.6839373 -148.00789 -88.681549 113.87653 -88.951271 113.3881 -6.0494452 93.414612
404000000 -1.7594054 -177.99316 -88.260323 85.463165 -88.8964 85.049339 -5.9328141 66.10688
413500000 -1.8526901 151.86902 -88.069313 57.019802 -88.157272 57.475163 -5.8416634 39.080978
423000000 -1.8882633 121.32917 -87.565475 29.675653 -87.618294 30.514669 -5.7740893 12.207397
432500000 -1.8750446 91.181366 -87.677254 2.1462505 -87.501671 -1.3287643 -5.7255902 -14.599931
442000000 -1.8458421 62.084522 -87.103172 -24.810596 -87.203758 -26.019047 -5.7001295 -41.410339
451500000 -1.8098649 33.468044 -86.564178 -53.923473 -86.57843 -52.251053 -5.7056994 -68.315804
461000000 -1.7709599 4.7649417 -85.876801 -79.708519 -86.11142 -76.468849 -5.7513185 -95.459961
470500000 -1.7283082 -23.787848 -85.585915 -106.61414 -85.426025 -105.94769 -5.8406811 -122.992
480000000 -1.7012239 -51.892162 -84.936272 -134.97192 -84.737144 -132.57242 -5.9518833 -150.98297
489500000 -1.713308 -80.026123 -84.088356 -161.90926 -84.000526 -158.0985 -6.0442939 -179.33963
499000000 -1.7600257 -108.89854 -83.045753 171.35675 -83.291122 172.88889 -6.0827036 152.21106
508500000 -1.8127285 -138.28473 -82.377693 143.96016 -82.358704 142.85753 -6.05443 124.00704
518000000 -1.8498697 -167.52086 -80.954849 113.0163 -81.007736 113.50243 -5.9764171 96.279984
527500000 -1.8896037 163.27138 -79.795486 79.363037 -79.830765 79.868256 -5.8880758 69.030609
537000000 -1.9367595 133.79854 -78.84108 41.840977 -78.921593 41.77063 -5.8322554 42.071014
546500000 -1.9458321 104.4709 -79.267677 3.3622968 -79.012131 2.5417843 -5.8242097 15.165815
556000000 -1.9042697 75.815514 -79.602303 -30.063454 -79.553711 -30.226521 -5.8550005 -11.883106
565500000 -1.8501345 47.772705 -80.393135 -60.490601 -80.395744 -60.813698 -5.9112177 -39.171085
575000000 -1.8117247 20.002254 -80.87574 -89.837929 -80.931831 -90.044647 -5.9812884 -66.702293
584500000 -1.7819203 -7.645081 -81.30648 -117.26304 -81.163834 -117.2298 -6.0559926 -94.468719
594000000 -1.7428651 -35.245308 -81.367599 -144.23677 -81.50631 -144.05304 -6.1424336 -122.53535
603500000 -1.7169918 -62.892715 -81.361336 -170.21111 -81.399063 -169.48778 -6.247313 -150.95932
613000000 -1.7445915 -90.626846 -81.323822 162.46771 -81.293472 163.05891 -6.3495116 -179.74112
622500000 -1.8019437 -118.84023 -81.213242 134.88568 -81.187927 135.62772 -6.4160128 151.21173
632000000 -1.8541819 -147.87877 -81.267632 107.37476 -81.212349 109.36558 -6.4221296 122.15978
641500000 -1.8866298 -177.18829 -80.864029 82.945274 -80.974724 83.292374 -6.3641996 93.437355
651000000 -1.9305946 153.75836 -80.596191 54.136646 -80.431915 55.027428 -6.2623324 65.252861
660500000 -1.9847677 124.71051 -80.261719 24.947941 -80.265816 25.49839 -6.1567101 37.574871
670000000 -1.9955148 95.30619 -80.089432 -3.1397903 -80.040337 -3.4299159 -6.0880818 10.175964
679500000 -1.9533924 66.250916 -79.958748 -30.403973 -80.057999 -31.85014 -6.0701475 -17.226181
689000000 -1.9076875 38.251904 -79.879356 -59.640152 -79.853668 -59.697021 -6.0972304 -44.866779
698500000 -1.8878727 10.669758 -79.707802 -87.568962 -79.495575 -87.118637 -6.1504631 -72.850441
708000000 -1.8674088 -17.460358 -79.459251 -115.03413 -79.509018 -114.72046 -6.2013483 -101.1452
717500000 -1.837364 -45.765903 -79.269463 -142.26796 -79.330788 -142.69878 -6.2302999 -129.65894
727000000 -1.8334056 -73.457176 -79.185257 -170.78229 -79.075554 -171.35846 -6.2391963 -158.297
736500000 -1.8875473 -101.3651 -78.981468 160.79333 -78.938438 161.00194 -6.2338977 173.01068
746000000 -1.9749223 -130.63998 -78.560951 132.7487 -78.603767 133.95821 -6.2084703 144.33359
755500000 -2.015219 -160.51431 -78.56041 103.9362 -78.505829 104.42012 -6.1544166 115.76826
765000000 -2.0389035 170.16898 -78.431343 75.44236 -78.4161 75.455727 -6.0677977 87.461639
774500000 -2.1237881 140.82065 -78.24987 47.226948 -78.221291 48.47015 -5.9518518 59.565987
784000000 -2.1874785 110.55333 -78.064095 19.768093 -78.153084 20.074144 -5.8234038 32.142624
793500000 -2.1512828 80.4786 -78.075394 -8.1772919 -78.058868 -8.4959984 -5.710381 5.1052866
803000000 -2.0955381 51.921246 -77.903656 -36.918354 -77.848991 -36.826912 -5.6350493 -21.737411
812500000 -2.0839996 23.896126 -77.672562 -64.488884 -77.723381 -64.331627 -5.6045694 -48.610985
822000000 -2.06652 -4.5818858 -77.586884 -91.62487 -77.601334 -92.743698 -5.6121907 -75.694901
831500000 -2.0020561 -32.783836 -77.527161 -119.76964 -77.511528 -120.3997 -5.6411066 -103.07494
841000000 -1.9706277 -60.33231 -77.280724 -147.85951 -77.255074 -147.65483 -5.6694055 -130.73065
850500000 -2.0126956 -88.011658 -77.038406 -175.01395 -77.12896 -175.13054 -5.6848817 -158.57002
860000000 -2.0502594 -116.38272 -76.915054 156.47253 -76.910194 156.54666 -5.6864109 173.51569
869500000 -2.0757124 -145.1702 -76.806213 127.37295 -76.767982 128.33743 -5.6747856 145.61731
879000000 -2.1317968 -174.02504 -76.598839 99.506287 -76.625572 100.16113 -5.650135 117.79857
888500000 -2.1813371 156.9236 -76.550064 71.252899 -76.529259 71.622177 -5.6128716 90.128517
898000000 -2.2064197 127.6692 -76.530731 42.925758 -76.436661 43.160538 -5.5600553 62.692722
907500000 -2.2226422 98.502357 -76.511696 15.102075 -76.370407 15.128007 -5.492475 35.550503
917000000 -2.2047596 69.657982 -76.33667 -12.011242 -76.389328 -11.732031 -5.424057 8.6888552
926500000 -2.1436694 41.504559 -76.37104 -39.177685 -76.357414 -39.597 -5.376862 -17.98481
936000000 -2.0802574 14.117241 -76.233345 -66.759697 -76.182846 -66.876633 -5.3650427 -44.616138
945500000 -2.0424645 -13.046901 -76.145592 -93.692642 -75.99649 -94.154243 -5.3912649 -71.377899
955000000 -2.0093648 -40.224789 -75.820549 -120.94149 -75.845711 -120.71395 -5.4499817 -98.43438
964500000 -1.9708461 -67.158432 -75.686317 -147.66571 -75.67627 -148.40414 -5.5297284 -125.88795
974000000 -1.96858 -93.936073 -75.462067 -175.49265 -75.411293 -175.36005 -5.6151996 -153.7252
983500000 -2.0156159 -121.08101 -75.206795 156.95164 -75.135818 157.02206 -5.6909637 178.15273
993000000 -2.0560343 -148.97003 -75.024994 129.62581 -74.979767 130.10077 -5.7469168 149.85712
1002500000 -2.0813076 -177.35896 -74.670128 101.80733 -74.673492 102.54863 -5.780633 121.48705
1012000000 -2.120522 154.41147 -74.377625 73.204201 -74.279495 73.243996 -5.7928929 93.150185
1021500000 -2.1610677 126.12283 -74.055412 44.514599 -74.104515 44.673317 -5.7821088 64.945908
1031000000 -2.1934664 97.172409 -73.933762 15.958729 -73.95652 15.91124 -5.7462511 36.959869
1040500000 -2.1791823 68.173653 -73.946663 -12.566503 -73.894028 -12.655102 -5.6942568 9.2273731
1050000000 -2.1209767 40.199669 -73.757469 -40.432713 -73.746132 -40.793949 -5.6472335 -18.280272
1059500000 -2.079577 13.097834 -73.612717 -68.003372 -73.593071 -68.107437 -5.6246586 -45.661938
1069000000 -2.0580363 -14.344969 -73.41185 -95.358673 -73.513512 -95.682915 -5.6366978 -73.085396
1078500000 -2.0326695 -42.136047 -73.268951 -123.60072 -73.205482 -123.54998 -5.6846914 -100.74721
1088000000 -2.0007799 -69.074356 -72.988373 -151.35403 -72.977409 -151.15999 -5.7610512 -128.79753
1097500000 -1.9992126 -95.6092 -72.727013 -179.37805 -72.751945 -179.23956 -5.8439727 -157.28102
1107000000 -2.0608256 -123.27351 -72.552582 152.23172 -72.507118 151.7213 -5.9080625 173.87553
1116500000 -2.1249499 -151.99525 -72.364227 123.26858 -72.362061 123.74364 -5.9382033 144.84317
1126000000 -2.1545262 179.44064 -72.150414 94.824463 -72.161407 94.784851 -5.9300017 115.83142
1135500000 -2.2002106 151.02853 -72.02282 66.782845 -71.943123 66.798813 -5.8855672 87.024483
1145000000 -2.2739997 121.6139 -71.749954 37.554535 -71.855629 37.657093 -5.8105869 58.536579
1154500000 -2.3333156 91.382385 -71.678436 8.4768715 -71.669823 9.098937 -5.714179 30.413681
1164000000 -2.3246121 61.916901 -71.639854 -19.972832 -71.651894 -19.681032 -5.6080489 2.6540153
1173500000 -2.2750902 33.400665 -71.613419 -47.788834 -71.631653 -47.627853 -5.5072989 -24.793524
1183000000 -2.2601364 4.8623199 -71.534554 -76.082161 -71.571846 -75.890198 -5.4275217 -52.01762
1192500000 -2.2532547 -23.773863 -71.401344 -104.01867 -71.413589 -104.12193 -5.3795781 -79.164841
1202000000 -2.2063417 -51.709518 -71.277229 -131.63147 -71.317123 -131.7652 -5.3680124 -106.39272
1211500000 -2.1650336 -78.872192 -71.155029 -159.57872 -71.081635 -159.577 -5.3888407 -133.84064
1221000000 -2.1938291 -106.412 -70.998055 172.38173 -71.018631 172.25758 -5.4278073 -161.58275
1230500000 -2.2701433 -134.82716 -70.769432 144.25983 -70.723022 144.18344 -5.4633756 170.39221
1240000000 -2.30335 -163.34592 -70.612762 115.77671 -70.615791 115.55547 -5.478488 142.18318
1249500000 -2.3097839 168.23151 -70.49482 86.612717 -70.456383 86.90892 -5.4658227 113.96024
1259000000 -2.3719108 139.28493 -70.394279 57.940029 -70.351685 58.123402 -5.4225445 85.902969
1268500000 -2.4459388 109.77308 -70.340881 29.500185 -70.308334 29.599903 -5.3528819 58.142654
1278000000 -2.4580336 80.289116 -70.357422 1.3574327 -70.377708 1.264545 -5.2686667 30.727043
1287500000 -2.4310522 51.221436 -70.368629 -26.858248 -70.372772 -26.412781 -5.1821532 3.6296248
1297000000 -2.3942251 22.662897 -70.282509 -54.531857 -70.315125 -54.495857 -5.1050267 -23.228558
1306500000 -2.3494322 -5.2969294 -70.252678 -81.738281 -70.27874 -81.736542 -5.0505366 -49.953224
1316000000 -2.3023787 -32.796764 -70.127464 -108.53088 -70.142036 -108.29196 -5.0294266 -76.662689
1325500000 -2.2541342 -60.054649 -69.825516 -136.90088 -69.803635 -137.21938 -5.0442524 -103.46471
1335000000 -2.2120917 -86.864967 -69.720276 -164.95653 -69.66571 -165.38971 -5.0891552 -130.49316
1344500000 -2.2064192 -113.31701 -69.629303 167.28049 -69.610901 167.00058 -5.1561432 -157.84457
1354000000 -2.2438838 -140.2957 -69.342094 140.02737 -69.350235 139.94832 -5.2321477 174.43909
1363500000 -2.2733653 -168.04404 -69.047333 110.83321 -68.985786 110.88063 -5.3008699 146.41135
1373000000 -2.268327 164.36411 -68.872871 82.079849 -68.878555 82.015984 -5.3465862 118.18682
1382500000 -2.2901425 136.96252 -68.729065 53.051228 -68.673813 53.050163 -5.3596725 89.910606
1392000000 -2.3737392 108.65277 -68.823639 22.823036 -68.853485 23.141928 -5.3419976 61.743626
1401500000 -2.4148555 79.575417 -68.870461 -3.0722635 -68.867317 -2.8092074 -5.3011136 33.809727
1411000000 -2.3643444 51.113731 -68.551178 -30.20606 -68.534904 -30.385275 -5.2523689 6.1492324
1420500000 -2.3334901 23.557432 -68.290092 -59.385605 -68.260986 -59.324162 -5.2067561 -21.296358
1430000000 -2.34672 -4.1298862 -68.250542 -88.876305 -68.240341 -88.730217 -5.1770415 -48.656906
1439500000 -2.316725 -32.076576 -68.20253 -117.04195 -68.213631 -116.69917 -5.1761823 -76.065483
1449000000 -2.2295668 -59.061337 -68.019264 -144.7755 -68.034775 -145.04982 -5.2077479 -103.62081
1458500000 -2.1750901 -85.090088 -67.855347 -173.47917 -67.82222 -173.172 -5.2627196 -131.39734
1468000000 -2.2127259 -111.61111 -67.745422 157.41277 -67.712128 157.35194 -5.3287916 -159.45189
1477500000 -2.2633896 -139.09677 -67.630943 129.1076 -67.617111 128.77756 -5.3942471 172.20107
1487000000 -2.2512815 -166.58214 -67.553764 98.865425 -67.495987 98.611633 -5.4479642 143.60313
1496500000 -2.2581618 166.27866 -67.645447 71.729141 -67.612518 71.771202 -5.4790325 114.83299
1506000000 -2.3487103 138.42009 -67.335365 42.343487 -67.384155 42.65815 -5.4816442 85.994644
1515500000 -2.4354692 109.32806 -67.482605 13.443878 -67.510941 13.322995 -5.455668 57.224182
1525000000 -2.4440513 80.141144 -67.141174 -13.987926 -67.118935 -13.850933 -5.4018188 28.640085
1534500000 -2.4478073 51.491219 -67.088722 -44.777237 -67.118744 -44.653069 -5.3328052 0.33934867
1544000000 -2.4962533 22.546091 -67.059105 -75.982368 -67.080536 -75.767853 -5.2572842 -27.651773
1553500000 -2.5056932 -6.7193375 -67.488037 -106.54682 -67.516396 -106.75737 -5.1886201 -55.394363
1563000000 -2.4409354 -35.176586 -68.147148 -135.65462 -68.11937 -135.18642 -5.138588 -83.007446
1572500000 -2.3954787 -62.7896 -68.626106 -161.45403 -68.64859 -160.96893 -5.1151118 -110.62139
1582000000 -2.4092181 -90.425957 -68.979271 172.34128 -68.974609 172.40094 -5.1164412 -138.33167
1591500000 -2.4211321 -118.22943 -69.261909 148.73781 -69.245628 148.42761 -5.1329103 -166.18579
1601000000 -2.4281869 -146.04779 -69.199448 124.86308 -69.157166 124.82634 -5.1499858 165.81375
1610500000 -2.4683909 -174.10675 -68.836792 99.902771 -68.88958 100.15739 -5.1548648 137.70695
1620000000 -2.5039721 157.49435 -68.47821 74.314018 -68.489532 74.301285 -5.1407704 109.54488
1629500000 -2.546561 128.82541 -68.086159 48.189491 -68.083389 48.125114 -5.1088381 81.394562
1639000000 -2.6431162 99.662384 -67.681305 20.636549 -67.681725 20.612127 -5.0655155 53.304024
1648500000 -2.7072423 69.879173 -67.316734 -7.0938115 -67.320427 -6.801333 -5.0149117 25.337526
1658000000 -2.6887226 40.23209 -66.983994 -35.194267 -66.998497 -35.224133 -4.9577127 -2.4469991
1667500000 -2.6863348 11.210728 -66.733269 -63.436741 -66.719406 -63.448257 -4.8938074 -30.013361
1677000000 -2.7128398 -17.846342 -66.517578 -91.570518 -66.493729 -91.327042 -4.8283396 -57.352097
1686500000 -2.6624203 -46.844376 -66.228821 -119.23891 -66.220757 -119.04334 -4.7677865 -84.504578
1696000000 -2.5628603 -74.759445 -65.908203 -147.20818 -65.907623 -147.38748 -4.7227311 -111.55354
1705500000 -2.5555241 -101.90122 -65.679543 -175.62 -65.655838 -175.72881 -4.7015347 -138.61214
1715000000 -2.6016302 -129.39958 -65.339088 156.02126 -65.338173 156.12466 -4.7077236 -165.78554
1724500000 -2.5647378 -157.24091 -65.050255 127.3025 -65.051048 127.23586 -4.7367482 166.86317
1734000000 -2.5174286 175.28899 -64.823601 98.573326 -64.795593 98.262581 -4.7748466 139.32227
1743500000 -2.5779357 147.91774 -64.597511 69.636215 -64.569511 69.647987 -4.8052559 111.61695
1753000000 -2.6566868 119.84078 -64.335121 41.128075 -64.329857 41.024239 -4.8173966 83.787994
1762500000 -2.6545799 91.162773 -64.055832 11.918117 -64.035713 11.816309 -4.8124042 55.875702
1772000000 -2.6639094 62.532433 -63.846939 -17.583878 -63.848969 -17.684362 -4.7972164 27.929358
1781500000 -2.7352931 34.07951 -63.77496 -46.88871 -63.762985 -46.623947 -4.7777619 0.0051500341
1791000000 -2.7506003 5.4943104 -63.604008 -75.228439 -63.603119 -75.101402 -4.7544661 -27.841064
1800500000 -2.6862276 -23.137072 -63.330742 -103.85728 -63.3964 -103.85374 -4.7248268 -55.57494
1810000000 -2.6488662 -51.240356 -63.16568 -132.93372 -63.160938 -132.92871 -4.6892085 -83.185181
1819500000 -2.6516619 -78.63031 -63.015202 -161.50905 -63.008888 -161.33772 -4.6554866 -110.6825
1829000000 -2.6217172 -105.67802 -62.617535 170.41177 -62.633331 170.56866 -4.6343036 -138.11366
1838500000 -2.5650423 -132.77138 -62.166447 141.32373 -62.185837 141.25978 -4.6354551 -165.57007
1848000000 -2.5709405 -159.92966 -61.635143 110.33826 -61.606895 110.33171 -4.6628151 166.83636
1857500000 -2.6351652 172.9745 -61.343227 78.588921 -61.334526 78.689438 -4.7103848 139.0085
1867000000 -2.6579969 145.75464 -61.206638 47.085678 -61.217934 46.999046 -4.7632456 110.91159
1876500000 -2.6523638 118.15598 -61.144379 16.094156 -61.13414 15.998196 -4.8033762 82.578667
1886000000 -2.7283986 90.131386 -61.040627 -15.103507 -61.029613 -15.103307 -4.8177114 54.088585
1895500000 -2.8673432 61.684334 -60.946911 -46.626728 -60.949589 -46.516781 -4.8038187 25.527224
1905000000 -2.9331198 32.987278 -60.968239 -78.425682 -60.966797 -78.532639 -4.7709723 -3.0267718
1914500000 -2.9239252 4.3784957 -61.051537 -109.83291 -61.053032 -109.8728 -4.7315726 -31.494484
1924000000 -2.9649143 -24.19779 -61.060883 -142.91757 -61.059155 -142.94215 -4.6899419 -59.802616
1933500000 -3.0265853 -52.840637 -61.401665 -175.3833 -61.420547 -175.32347 -4.64252 -87.907822
1943000000 -2.9869223 -81.00119 -61.9086 152.30984 -61.92495 152.23146 -4.5874095 -115.79888
1952500000 -2.8949769 -108.32337 -62.513531 120.45219 -62.501293 120.48486 -4.5322704 -143.49339
1962000000 -2.8883471 -135.59825 -63.452579 89.317848 -63.475533 89.544762 -4.4898047 -171.03671
1971500000 -2.9413073 -163.34511 -64.34407 62.461617 -64.353699 62.450867 -4.471889 161.48245
1981000000 -2.9188566 168.98155 -64.9711 35.979633 -64.973671 35.962669 -4.4820089 133.93234
1990500000 -2.8683717 141.60933 -65.541145 9.9284182 -65.505859 9.9091616 -4.5138388 106.19534
2000000000 -2.9092588 113.86539 -65.762688 -15.277202 -65.779053 -15.075188 -4.5503402 78.214912
