!Keysight Technologies,N5242B,MY48420967,A.15.65.19
!Date: Monday, December 19, 2022 10:49:47
!Correction: S11(C  2-Port  ) 
!S21(C  2-Port  ) 
!S12(C  2-Port  ) 
!S22(C  2-Port  ) 
!S2P File: Measurements: S11, S21, S12, S22:
# Hz S  dB   R 50
100000000 -1.3388177 40.888199 -116.15176 -129.37491 -112.17757 -14.767095 -4.4630566 -111.44489
109500000 -1.2181373 11.475005 -108.94943 -102.06667 -110.2305 -101.17342 -4.6259294 -139.76794
119000000 -1.0889252 -16.680136 -107.21849 -104.65527 -107.93498 -125.82172 -4.78543 -168.33669
128500000 -1.0393279 -44.738014 -108.04496 -152.95045 -105.59339 -148.75063 -4.9302721 162.91704
138000000 -1.0353397 -73.542412 -105.53092 -174.30652 -108.21729 -178.16273 -5.0475097 134.06268
147500000 -1.0671341 -102.47918 -103.2142 139.51938 -107.2113 142.23602 -5.1221795 105.20672
157000000 -1.1267347 -131.47075 -103.69102 131.56912 -103.35863 113.43477 -5.1401792 76.524055
166500000 -1.2296159 -161.15598 -101.41751 89.849411 -103.74189 92.21991 -5.0988841 48.210842
176000000 -1.3381776 168.5862 -101.5697 54.661274 -102.55917 60.513279 -5.0179172 20.37394
185500000 -1.4252765 138.35765 -100.90865 26.859064 -100.70235 30.401295 -4.9333358 -7.0495291
195000000 -1.479256 108.17142 -100.35474 -3.6481807 -100.16054 0.44077834 -4.8831706 -34.296745
204500000 -1.4677079 78.365051 -99.765213 -31.889082 -99.325455 -24.094841 -4.8948278 -61.696552
214000000 -1.4108099 49.186626 -98.384178 -65.284271 -98.980141 -63.03788 -4.9735527 -89.526649
223500000 -1.3858435 20.30653 -98.077751 -88.900978 -98.484337 -91.097519 -5.0978289 -117.89953
233000000 -1.3572043 -8.4193373 -97.995621 -117.10305 -97.796318 -115.25238 -5.2265921 -146.73831
242500000 -1.2789015 -36.905407 -97.995659 -148.01559 -97.450912 -138.13437 -5.3224359 -175.8063
252000000 -1.2601811 -65.194969 -96.525841 -177.3206 -96.940216 -176.84286 -5.3668766 155.17197
261500000 -1.3407662 -93.987236 -97.474602 159.6767 -95.535385 160.09192 -5.3646469 126.38291
271000000 -1.4205636 -123.63368 -96.179337 135.25377 -94.529343 129.57396 -5.3308797 97.893623
280500000 -1.4576584 -153.47884 -94.222244 98.921555 -95.144646 99.138161 -5.277524 69.697342
290000000 -1.5371801 176.78975 -93.702271 72.321159 -94.935959 63.510468 -5.2083998 41.780396
299500000 -1.6716949 146.59143 -93.142761 44.902504 -93.317123 36.155006 -5.1263223 14.134548
309000000 -1.7277132 115.97581 -93.940125 8.4783449 -92.660034 14.370689 -5.0437064 -13.277224
318500000 -1.6836798 85.955093 -92.758736 -16.607569 -93.085266 -15.704163 -4.9814939 -40.577957
328000000 -1.6624881 56.847954 -92.260178 -40.267895 -91.901993 -48.995525 -4.963901 -67.978554
337500000 -1.6731224 27.838818 -92.09079 -67.497871 -91.957542 -75.169838 -5.0036058 -95.692467
347000000 -1.6340587 -1.4538406 -91.624664 -107.42587 -91.590981 -99.556671 -5.0882998 -123.85035
356500000 -1.5680658 -30.343433 -90.826462 -130.14493 -90.765152 -131.78612 -5.1805773 -152.42
366000000 -1.5681887 -58.831985 -90.28228 -160.17778 -90.377586 -160.5118 -5.2362728 178.82153
375500000 -1.6399056 -87.888542 -89.879021 173.54228 -89.809738 174.49866 -5.2302251 150.1935
385000000 -1.6991777 -117.87894 -89.261993 143.34033 -89.472397 149.33092 -5.1667728 121.96558
394500000 -1.7351009 -148.11723 -88.53862 117.34373 -89.485687 115.67279 -5.0719471 94.230873
404000000 -1.8127761 -178.11099 -88.644081 91.1054 -88.583611 87.858398 -4.9758377 66.914337
413500000 -1.9051901 151.74707 -88.561035 60.982101 -88.272499 61.674423 -4.8971024 39.863735
423000000 -1.9411265 121.19987 -87.621727 32.17416 -87.337975 32.733284 -4.8379321 12.955633
432500000 -1.9278215 91.048706 -86.914207 7.1958828 -87.378853 5.2290511 -4.7948961 -13.894773
442000000 -1.895714 61.95013 -87.010475 -20.702688 -86.740601 -21.724384 -4.7684698 -40.752464
451500000 -1.8589836 33.342358 -86.472649 -48.448425 -86.21389 -45.109959 -4.767077 -67.709206
461000000 -1.8202773 4.6441746 -85.441856 -74.525345 -85.799744 -73.557411 -4.8025579 -94.903923
470500000 -1.7766281 -23.910183 -84.78315 -99.691673 -84.841713 -99.022209 -4.8784475 -122.47202
480000000 -1.748472 -51.997696 -83.868233 -124.92024 -83.74633 -124.13685 -4.9775438 -150.46407
489500000 -1.7615287 -80.116417 -82.548508 -152.64088 -82.368607 -152.11363 -5.0657125 -178.7811
499000000 -1.8095421 -108.9761 -80.789314 177.77615 -80.740036 179.28468 -5.1081014 152.83607
508500000 -1.8591231 -138.33687 -78.757751 142.30116 -78.748718 140.97797 -5.0901451 124.6936
518000000 -1.8911504 -167.56328 -77.682388 96.402428 -77.638969 96.08622 -5.0265212 96.989769
527500000 -1.9294477 163.19695 -78.567795 53.603016 -78.661102 53.7327 -4.9515505 69.721008
537000000 -1.9784456 133.70059 -79.866379 18.708355 -79.929314 18.280239 -4.8998032 42.716
546500000 -1.9914699 104.38232 -81.095718 -10.845806 -81.016876 -10.551455 -4.8878093 15.756839
556000000 -1.951882 75.743797 -81.615883 -36.462284 -81.577385 -37.061977 -4.9124498 -11.33852
565500000 -1.8976662 47.710617 -82.014565 -61.031578 -82.161774 -61.528168 -4.96031 -38.655346
575000000 -1.859552 19.957785 -82.14415 -87.297157 -82.149925 -87.706642 -5.0176983 -66.195976
584500000 -1.8308995 -7.6794868 -82.248016 -114.66699 -82.107903 -115.62756 -5.0785303 -93.963127
594000000 -1.7928859 -35.279686 -82.032433 -142.36972 -81.996246 -139.54965 -5.1502519 -122.0247
603500000 -1.7676611 -62.917381 -81.860153 -167.50749 -82.09642 -166.58728 -5.240541 -150.42528
613000000 -1.7973956 -90.645088 -81.918404 164.90526 -81.797829 164.63608 -5.3338971 -179.15007
622500000 -1.8576983 -118.85992 -81.637917 138.39281 -81.533409 137.71559 -5.4012299 151.89214
632000000 -1.9108845 -147.90323 -81.420097 110.59262 -81.492058 111.54474 -5.4178648 122.94287
641500000 -1.9459184 -177.21849 -81.011436 85.293694 -81.154533 85.154327 -5.3764548 94.305687
651000000 -1.9918453 153.72118 -80.693123 57.201267 -80.600288 56.78017 -5.2938113 66.165016
660500000 -2.0466549 124.65725 -80.296249 26.359028 -80.278168 26.288691 -5.2036533 38.484474
670000000 -2.0588872 95.243706 -80.200058 -1.1284271 -80.097252 -1.5560433 -5.1420832 11.057969
679500000 -2.0176656 66.172447 -80.148064 -29.104761 -80.112534 -29.631256 -5.1256056 -16.376957
689000000 -1.9716225 38.1567 -80.016708 -58.081333 -79.850075 -57.429527 -5.1512694 -44.034447
698500000 -1.9520679 10.566731 -79.59082 -86.287834 -79.597961 -85.452705 -5.1997666 -72.006638
708000000 -1.9341313 -17.577766 -79.538849 -113.11958 -79.586433 -112.76858 -5.2463484 -100.26534
717500000 -1.9052283 -45.901371 -79.337143 -140.93904 -79.463402 -141.15364 -5.2764869 -128.73145
727000000 -1.9012966 -73.60347 -79.102768 -169.4465 -79.062569 -169.67928 -5.2904596 -157.31636
736500000 -1.958673 -101.51489 -78.738411 161.85576 -78.765007 162.98625 -5.2926264 174.0457
746000000 -2.0489235 -130.80652 -78.562752 134.1487 -78.608116 134.59622 -5.280653 145.418
755500000 -2.0897648 -160.69705 -78.606178 104.97997 -78.456711 105.22591 -5.2464647 116.89396
765000000 -2.1136339 169.99446 -78.369606 76.614891 -78.346535 77.507515 -5.1827502 88.6203
774500000 -2.199378 140.64462 -78.251083 48.9935 -78.256752 49.376621 -5.090075 60.735847
784000000 -2.2633691 110.37267 -78.112495 21.370083 -78.119965 21.650867 -4.9832768 33.292542
793500000 -2.2244816 80.314201 -77.968666 -6.7246361 -77.950195 -7.3558178 -4.8866887 6.2111058
803000000 -2.1670165 51.773296 -77.737511 -35.171925 -77.747505 -35.371712 -4.8212194 -20.686384
812500000 -2.1548612 23.769201 -77.691368 -62.969379 -77.677559 -62.958363 -4.7956395 -47.612282
822000000 -2.1358964 -4.6854815 -77.613518 -89.811348 -77.592644 -90.557297 -4.8045616 -74.735016
831500000 -2.0714858 -32.860451 -77.448868 -118.7297 -77.437004 -118.75178 -4.832036 -102.13403
841000000 -2.0396051 -60.376095 -77.232071 -146.74451 -77.282257 -146.5661 -4.859868 -129.79269
850500000 -2.0815396 -88.024979 -77.007256 -173.77097 -77.034637 -174.05666 -4.8775935 -157.6266
860000000 -2.1212687 -116.36025 -76.838608 157.23201 -76.805809 157.14235 -4.8837905 174.46474
869500000 -2.1478229 -145.12003 -76.691406 128.48843 -76.695488 129.51161 -4.8796849 146.56711
879000000 -2.2039654 -173.94791 -76.604309 100.74661 -76.547905 101.06734 -4.8660073 118.74557
888500000 -2.2542751 157.0345 -76.401657 72.438805 -76.4674 72.783737 -4.8403659 91.071983
898000000 -2.2808802 127.79897 -76.505539 44.157124 -76.462936 44.618877 -4.7984486 63.62841
907500000 -2.2969708 98.644066 -76.390083 16.73155 -76.371651 16.594671 -4.7416601 36.46394
917000000 -2.2777755 69.810844 -76.33036 -10.567232 -76.342865 -11.170175 -4.6823964 9.5639582
926500000 -2.2170556 41.662716 -76.225914 -38.062916 -76.280846 -38.255646 -4.6387491 -17.15633
936000000 -2.1529751 14.27582 -76.149712 -65.2817 -76.139114 -65.57122 -4.6246595 -43.837746
945500000 -2.1145079 -12.89071 -75.945602 -92.639748 -75.900787 -92.394638 -4.6449404 -70.648232
955000000 -2.0827467 -40.067299 -75.639847 -119.57288 -75.748413 -119.16951 -4.694572 -97.741562
964500000 -2.0447118 -67.010323 -75.563881 -146.67236 -75.566933 -146.93939 -4.7622271 -125.2113
974000000 -2.0433881 -93.799416 -75.327164 -174.21172 -75.28965 -174.03088 -4.8358622 -153.04639
983500000 -2.0925171 -120.94757 -75.047142 157.65549 -75.039574 157.88876 -4.9031634 178.84647
993000000 -2.1357081 -148.85774 -74.805405 131.02284 -74.786568 130.92709 -4.9552598 150.57489
1002500000 -2.1627388 -177.27219 -74.484253 103.31681 -74.463707 103.43797 -4.9891095 122.23503
1012000000 -2.2024109 154.47832 -74.052483 74.175468 -74.080872 74.745308 -5.0043015 93.930504
1021500000 -2.245424 126.16436 -73.847069 45.202034 -73.904243 45.6092 -4.9976397 65.756203
1031000000 -2.278863 97.183701 -73.790115 16.772833 -73.829247 16.60677 -4.9682226 37.790314
1040500000 -2.2635286 68.150391 -73.706497 -11.790325 -73.704689 -11.72015 -4.9236703 10.062593
1050000000 -2.2048092 40.157181 -73.556427 -39.863682 -73.59816 -40.144688 -4.8808942 -17.452707
1059500000 -2.162246 13.036691 -73.417587 -67.278542 -73.3983 -67.416885 -4.8575568 -44.852566
1069000000 -2.1410897 -14.429602 -73.254929 -94.713646 -73.231491 -94.841675 -4.8654733 -72.297974
1078500000 -2.1164029 -42.227276 -73.039085 -122.57147 -73.035751 -122.82259 -4.9072423 -99.972275
1088000000 -2.0836368 -69.175438 -72.748436 -150.77061 -72.720688 -150.6523 -4.9743128 -128.01167
1097500000 -2.0832527 -95.717216 -72.465935 -178.86188 -72.464767 -178.84006 -5.0486217 -156.45895
1107000000 -2.1479247 -123.37691 -72.224022 152.52637 -72.220642 152.74515 -5.110095 174.74908
1116500000 -2.2143455 -152.10255 -72.086487 123.56349 -72.070679 123.6861 -5.1447372 145.77579
1126000000 -2.2444022 179.33353 -71.8601 94.98719 -71.82486 94.857025 -5.1468863 116.82191
1135500000 -2.2908952 150.93716 -71.699753 66.810066 -71.724342 66.83316 -5.117187 88.060486
1145000000 -2.367445 121.54062 -71.509262 37.891781 -71.536644 38.233219 -5.0597024 59.601803
1154500000 -2.4266622 91.317703 -71.408302 8.2672148 -71.370621 8.8827734 -4.9820738 31.488707
1164000000 -2.4155498 61.8689 -71.394455 -19.595194 -71.403877 -19.707079 -4.8938994 3.7197485
1173500000 -2.3646863 33.389294 -71.340103 -47.789322 -71.361404 -47.710094 -4.8082294 -23.754904
1183000000 -2.3490148 4.876792 -71.276321 -75.992371 -71.264977 -76.350876 -4.7389002 -51.019405
1192500000 -2.3415108 -23.734711 -71.111824 -104.03504 -71.107094 -104.10011 -4.6971745 -78.210724
1202000000 -2.2925284 -51.62925 -71.002411 -131.63885 -70.97963 -132.0507 -4.6891685 -105.47635
1211500000 -2.250567 -78.757744 -70.839401 -159.64972 -70.789314 -159.82503 -4.7113261 -132.94826
1221000000 -2.2814987 -106.26034 -70.67997 172.05952 -70.64772 172.23015 -4.7509117 -160.69908
1230500000 -2.3589768 -134.63469 -70.376938 143.98415 -70.378464 143.56725 -4.7894402 171.27623
1240000000 -2.393189 -163.12712 -70.220726 115.52758 -70.25267 115.27491 -4.8112817 143.07317
1249500000 -2.4013801 168.47989 -70.121651 86.460289 -70.109253 86.86779 -4.8074851 114.86211
1259000000 -2.4650621 139.56696 -69.996506 57.242191 -70.034203 57.679253 -4.7757926 86.811279
1268500000 -2.5409245 110.07428 -69.91983 28.773046 -69.948296 28.710165 -4.7207632 59.044083
1278000000 -2.5538256 80.591904 -69.920372 0.33193681 -69.884209 0.41275433 -4.6509409 31.608114
1287500000 -2.5262134 51.524937 -69.936485 -27.782219 -69.940491 -27.470955 -4.5761356 4.4784803
1297000000 -2.4885104 22.963497 -69.821869 -55.518604 -69.856499 -55.08326 -4.507535 -22.422514
1306500000 -2.4431534 -5.0088811 -69.767487 -82.508667 -69.784019 -82.819862 -4.4579773 -49.197418
1316000000 -2.3950415 -32.520824 -69.523186 -109.97443 -69.486717 -110.01325 -4.4379277 -75.954247
1325500000 -2.3460181 -59.792801 -69.330193 -138.32397 -69.267899 -138.39786 -4.4496255 -102.79373
1335000000 -2.3042004 -86.618294 -69.09053 -166.94379 -69.081078 -167.15092 -4.4897509 -129.85495
1344500000 -2.2990026 -113.08498 -68.886421 165.37883 -68.862961 165.06688 -4.5511322 -157.22758
1354000000 -2.3384295 -140.07954 -68.584343 136.97298 -68.603416 136.83781 -4.6217985 175.04771
1363500000 -2.3705559 -167.85022 -68.279411 106.90069 -68.270508 106.87227 -4.6867595 147.02353
1373000000 -2.3665655 164.52682 -68.051933 76.69857 -68.078598 76.542419 -4.7308412 118.81345
1382500000 -2.3902578 137.10304 -68.084396 45.456951 -68.083061 45.543674 -4.7457604 90.560791
1392000000 -2.4764795 108.77145 -68.861275 15.45523 -68.872299 15.698355 -4.7327352 62.424065
1401500000 -2.5189486 79.650131 -68.56427 -6.5379329 -68.612144 -6.6293221 -4.6975956 34.491169
1411000000 -2.4674106 51.151939 -67.954018 -34.832787 -67.974922 -34.650074 -4.6553445 6.8189907
1420500000 -2.434797 23.57288 -67.569542 -66.766777 -67.585236 -66.762733 -4.6143312 -20.648998
1430000000 -2.448452 -4.1413336 -68.022171 -97.963715 -67.992409 -97.804482 -4.5864887 -48.035049
1439500000 -2.417258 -32.112656 -67.953125 -123.61205 -67.984062 -123.63294 -4.5838675 -75.470779
1449000000 -2.3274477 -59.114864 -67.53582 -152.27824 -67.52417 -152.29617 -4.6111884 -103.04391
1458500000 -2.2727454 -85.145805 -67.086433 176.32455 -67.05233 176.35275 -4.6623297 -130.83076
1468000000 -2.3118474 -111.66802 -67.091019 142.12813 -67.080101 142.29333 -4.7273107 -158.87929
1477500000 -2.3646505 -139.15936 -67.693336 109.80123 -67.674393 109.46485 -4.7928042 172.80257
1487000000 -2.3534377 -166.63718 -68.797104 80.001877 -68.779205 80.198227 -4.8457432 144.24881
1496500000 -2.3610356 166.23482 -68.932144 52.301926 -68.907448 52.111855 -4.8794789 115.52132
1506000000 -2.4552164 138.39557 -70.237106 22.918037 -70.253929 23.009634 -4.8855343 86.756653
1515500000 -2.5443223 109.32429 -70.887619 6.8930707 -70.865036 6.8374405 -4.8612523 58.037647
1525000000 -2.5532067 80.154465 -70.035606 -24.158232 -69.995544 -24.336267 -4.8195629 29.464392
1534500000 -2.556885 51.536789 -71.019585 -50.347725 -71.049591 -49.54398 -4.7624326 1.1906099
1544000000 -2.605726 22.627207 -71.678139 -72.719818 -71.720024 -72.2668 -4.696599 -26.795916
1553500000 -2.6147826 -6.6086426 -71.442604 -91.092323 -71.412163 -91.227013 -4.6331344 -54.557632
1563000000 -2.5475643 -35.034904 -70.665833 -114.34306 -70.672806 -114.23286 -4.5861163 -82.20462
1572500000 -2.5012422 -62.606655 -69.978516 -140.38788 -69.910904 -140.29596 -4.5652819 -109.84978
1582000000 -2.5152502 -90.19825 -69.334122 -167.45451 -69.37458 -167.37289 -4.5696964 -137.58678
1591500000 -2.5276432 -117.96991 -68.783234 165.35461 -68.78672 165.11348 -4.5908961 -165.46556
1601000000 -2.5369732 -145.75064 -68.328537 137.05487 -68.272057 136.93523 -4.6145096 166.51555
1610500000 -2.5785699 -173.76953 -67.979507 108.25562 -67.958069 108.56385 -4.6267161 138.39781
1620000000 -2.6164434 157.85078 -67.664581 80.71563 -67.653046 80.537361 -4.6200738 110.23602
1629500000 -2.6627395 129.20961 -67.25972 52.670929 -67.249886 52.393398 -4.5962167 82.081009
1639000000 -2.761354 100.06519 -66.912422 23.52776 -66.888161 23.520336 -4.5625935 53.984852
1648500000 -2.8284152 70.270134 -66.606659 -5.4430804 -66.636826 -5.1375031 -4.5235004 26.010336
1658000000 -2.8112478 40.610859 -66.371117 -34.368641 -66.423645 -34.324131 -4.4789004 -1.7894096
1667500000 -2.8082159 11.569892 -66.218697 -62.915707 -66.246727 -63.061279 -4.4275584 -29.380793
1677000000 -2.8349905 -17.5207 -66.087746 -91.86702 -66.076172 -91.534477 -4.371727 -56.750767
1686500000 -2.7833495 -46.555099 -65.895081 -120.20356 -65.921684 -119.97312 -4.3184972 -83.934822
1696000000 -2.6814992 -74.504883 -65.669327 -148.27814 -65.677055 -148.33252 -4.2786312 -111.01176
1705500000 -2.6731026 -101.67822 -65.517052 -176.63652 -65.486671 -176.80679 -4.2616997 -138.0972
1715000000 -2.7198484 -129.21167 -65.271133 154.86502 -65.221039 154.82608 -4.2714338 -165.29491
1724500000 -2.6838584 -157.08752 -64.995468 126.25149 -65.013695 126.26222 -4.3030019 167.33092
1734000000 -2.6369159 175.40956 -64.754242 97.595032 -64.778351 97.474503 -4.3425956 139.77022
1743500000 -2.6987145 148.00938 -64.59063 68.814621 -64.564056 68.908524 -4.374156 112.05167
1753000000 -2.7796667 119.90651 -64.347763 39.991203 -64.319641 40.141251 -4.3880959 84.21936
1762500000 -2.7795627 91.196671 -64.071465 11.058137 -64.07798 10.97501 -4.3854442 56.311272
1772000000 -2.7894545 62.543053 -63.882904 -18.591547 -63.873192 -18.697788 -4.3737755 28.367813
1781500000 -2.8602028 34.072178 -63.807133 -47.801086 -63.781105 -47.795166 -4.3595538 0.43778446
1791000000 -2.8760886 5.4674392 -63.633488 -76.481621 -63.641788 -76.273643 -4.3423939 -27.424068
1800500000 -2.8105576 -23.176455 -63.418964 -105.21941 -63.454491 -105.3779 -4.3180451 -55.176178
1810000000 -2.7707801 -51.27972 -63.227612 -134.25317 -63.249332 -134.37425 -4.2860374 -82.803169
1819500000 -2.7725201 -78.655724 -63.110012 -163.00197 -63.090931 -162.9198 -4.2548399 -110.31602
1829000000 -2.7419081 -105.69613 -62.753014 168.3981 -62.761089 168.58238 -4.236062 -137.763
1838500000 -2.6859379 -132.77681 -62.372231 139.19727 -62.370651 139.21506 -4.2393689 -165.2343
1848000000 -2.6934757 -159.89841 -61.892635 108.5575 -61.877663 108.43986 -4.2678967 167.15608
1857500000 -2.7595372 173.03528 -61.572002 76.024483 -61.573563 76.1231 -4.3155437 139.31508
1867000000 -2.7857037 145.84166 -61.635071 44.289967 -61.652386 44.249733 -4.3675437 111.20917
1876500000 -2.7833788 118.29464 -61.694065 13.281425 -61.677399 13.165629 -4.4076853 82.879951
1886000000 -2.8631437 90.32782 -61.728424 -17.791105 -61.710815 -17.825277 -4.423224 54.405857
1895500000 -3.0045381 61.932079 -61.788876 -48.928654 -61.797649 -48.812881 -4.4131513 25.861042
1905000000 -3.0698586 33.285088 -62.004726 -79.985435 -62.019417 -79.86216 -4.3869982 -2.6837654
1914500000 -3.0592186 4.7249861 -62.201889 -109.72492 -62.214569 -109.69214 -4.3556108 -31.152376
1924000000 -3.0963295 -23.814907 -62.291016 -141.92188 -62.309795 -141.76175 -4.3214536 -59.469898
1933500000 -3.1512375 -52.444504 -62.759323 -172.78343 -62.766266 -172.65231 -4.2811275 -87.585876
1943000000 -3.1059008 -80.602509 -63.308899 157.16792 -63.319954 157.16881 -4.2330098 -115.4866
1952500000 -3.0100286 -107.94176 -63.898041 127.51297 -63.88707 127.65231 -4.1852555 -143.18681
1962000000 -3.0009761 -135.23924 -64.739319 99.796524 -64.742805 99.999146 -4.1495404 -170.73694
1971500000 -3.0540824 -163.00522 -65.126984 75.295715 -65.153336 75.450508 -4.1372342 161.76682
1981000000 -3.036181 169.29031 -65.261139 49.832287 -65.262413 49.654881 -4.1518879 134.19502
1990500000 -2.9907303 141.89268 -65.364906 23.635216 -65.324432 23.606123 -4.1871076 106.44186
2000000000 -3.0371022 114.13651 -65.167854 -2.6782739 -65.168358 -2.6797359 -4.2262678 78.459427
