!Keysight Technologies,N5242B,MY48420967,A.15.65.19
!Date: Monday, December 19, 2022 11:37:21
!Correction: S11(C  2-Port  ) 
!S21(C  2-Port  ) 
!S12(C  2-Port  ) 
!S22(C  2-Port  ) 
!S2P File: Measurements: S11, S21, S12, S22:
# Hz S  dB   R 50
100000000 -1.3746676 40.907387 -114.80965 -75.70092 -110.22191 -31.677307 -4.1258941 -111.7692
109500000 -1.2535784 11.479424 -105.46593 -105.14211 -108.44737 -70.06617 -4.2823834 -140.08315
119000000 -1.1247588 -16.680574 -106.12388 -117.42856 -109.30114 -130.73624 -4.4362926 -168.62993
128500000 -1.0752791 -44.742355 -108.53907 -137.62096 -108.33865 -158.22656 -4.5773578 162.65733
138000000 -1.0716146 -73.547226 -105.51579 173.51112 -105.34467 -169.47011 -4.6932244 133.84679
147500000 -1.1036286 -102.49052 -103.49495 144.39394 -104.22716 132.56346 -4.7687693 105.04173
157000000 -1.1628619 -131.47575 -102.9075 128.49397 -102.02663 112.59233 -4.7901998 76.408997
166500000 -1.2655939 -161.16351 -102.92183 85.070427 -102.96195 94.001694 -4.754631 48.136234
176000000 -1.3731751 168.58345 -103.01643 58.544003 -102.15067 56.033123 -4.6799989 20.322098
185500000 -1.4590608 138.35593 -99.753967 33.042957 -100.46569 28.567045 -4.5998573 -7.0984192
195000000 -1.5111818 108.17222 -100.4288 4.0261035 -99.729713 -1.0202347 -4.551724 -34.360508
204500000 -1.4976957 78.368629 -99.741753 -29.256866 -100.34399 -23.743855 -4.562871 -61.784302
214000000 -1.4391612 49.194164 -97.486946 -69.507759 -99.108879 -56.717869 -4.6390042 -89.637199
223500000 -1.4121362 20.318424 -98.36232 -84.196587 -98.401207 -81.63913 -4.7602839 -118.02071
233000000 -1.3825898 -8.4059744 -97.542145 -115.85353 -97.411171 -122.04565 -4.8877659 -146.85234
242500000 -1.3029671 -36.888527 -96.7052 -149.32761 -97.033607 -143.68661 -4.984642 -175.89732
252000000 -1.2836781 -65.178078 -96.638672 -172.97745 -96.191399 -162.36261 -5.0327139 155.1118
261500000 -1.3640913 -93.96888 -95.330719 167.15013 -95.701576 161.19272 -5.035893 126.35384
271000000 -1.4440475 -123.6177 -94.522316 126.46465 -94.714775 133.28654 -5.0083785 97.891472
280500000 -1.4813949 -153.46719 -94.503616 98.627991 -94.247719 96.517479 -4.9610624 69.718788
290000000 -1.5609139 176.79918 -92.753006 72.25885 -94.405891 62.968903 -4.8976917 41.822876
299500000 -1.6958597 146.59564 -93.812065 38.239811 -93.380028 40.596619 -4.820436 14.194221
309000000 -1.7520825 115.97057 -93.386055 11.105832 -93.306496 9.8300333 -4.7409053 -13.207158
318500000 -1.7078807 85.942093 -92.000641 -17.163218 -93.410301 -18.182175 -4.6796141 -40.506611
328000000 -1.6864653 56.829437 -92.332253 -43.841045 -91.442337 -49.466454 -4.6608739 -67.910805
337500000 -1.6973543 27.813627 -91.546295 -76.732552 -91.52626 -71.06826 -4.6979389 -95.628479
347000000 -1.658447 -1.4891137 -91.110123 -103.33481 -90.850456 -100.96548 -4.7794275 -123.78111
356500000 -1.5928782 -30.381853 -89.95903 -131.97926 -90.6838 -125.04623 -4.8702888 -152.3327
366000000 -1.5936564 -58.873806 -89.873451 -159.2883 -90.63475 -158.33205 -4.9275942 178.93626
375500000 -1.6666808 -87.937012 -90.204735 171.72374 -89.580063 175.28325 -4.9260507 150.33804
385000000 -1.7270131 -117.92976 -89.438416 141.96321 -89.494049 146.96379 -4.868907 122.1315
394500000 -1.7637681 -148.1712 -88.699516 116.20725 -88.970596 115.26488 -4.7810106 94.404755
404000000 -1.8427283 -178.16524 -88.584053 89.731911 -88.801086 87.574699 -4.6911001 67.085228
413500000 -1.9354266 151.6935 -88.568878 60.150799 -88.05587 59.846966 -4.6170378 40.025021
423000000 -1.9721357 121.14542 -87.652542 33.899971 -88.023293 31.622993 -4.5612917 13.104132
432500000 -1.9591298 90.99575 -86.874062 7.9134684 -87.198997 5.0109344 -4.5205817 -13.762465
442000000 -1.9267609 61.899586 -87.086922 -19.713646 -86.498444 -21.943724 -4.4950395 -40.639526
451500000 -1.8904397 33.295589 -86.35363 -47.719402 -86.454735 -47.317791 -4.4931159 -67.616119
461000000 -1.8523697 4.5989223 -85.619591 -75.080872 -85.746071 -73.686295 -4.526895 -94.832291
470500000 -1.8090999 -23.954342 -84.772057 -99.467995 -84.965485 -97.844017 -4.6002784 -122.41702
480000000 -1.7814759 -52.038177 -83.87867 -124.47734 -83.619461 -125.4629 -4.6972175 -150.41727
489500000 -1.7956738 -80.156036 -82.403961 -151.94601 -82.327087 -151.07603 -4.7850366 -178.73088
499000000 -1.8449419 -109.01557 -80.340439 177.70944 -80.437927 179.308 -4.8291111 152.89917
508500000 -1.8947067 -138.37585 -78.356918 141.0036 -78.262199 140.16156 -4.8145871 124.7698
518000000 -1.9267484 -167.61003 -77.504013 92.443321 -77.544685 92.474792 -4.7550173 97.072037
527500000 -1.9665948 163.14417 -78.84169 51.492626 -78.858315 51.081169 -4.6834998 69.798737
537000000 -2.0161386 133.64407 -80.156174 17.903929 -80.284126 16.065371 -4.6332555 42.782345
546500000 -2.0292521 104.32438 -81.504959 -9.3512163 -81.244583 -10.685541 -4.620801 15.809612
556000000 -1.9892437 75.683311 -81.849396 -35.618168 -81.908455 -36.406025 -4.6436849 -11.297398
565500000 -1.9346159 47.646847 -82.0448 -61.160042 -82.258942 -61.408482 -4.6888475 -38.620605
575000000 -1.8965079 19.894186 -82.049622 -88.12693 -82.121803 -88.525505 -4.7427797 -66.162346
584500000 -1.86812 -7.7443376 -82.332756 -114.17788 -82.271118 -114.19707 -4.799716 -93.928131
594000000 -1.8304982 -35.346699 -82.079056 -141.60869 -82.172096 -140.50816 -4.8672338 -121.98568
603500000 -1.8058734 -62.982841 -81.937218 -167.09236 -82.091721 -167.54471 -4.9536724 -150.37752
613000000 -1.8366048 -90.709549 -81.770828 166.23732 -81.866264 166.53546 -5.0444255 -179.0853
622500000 -1.8981807 -118.92432 -81.586304 138.66962 -81.58532 138.97533 -5.1116056 151.98413
632000000 -1.9522167 -147.96744 -81.425278 110.83956 -81.393387 112.3926 -5.130693 123.06629
641500000 -1.9883078 -177.28282 -81.096664 86.068832 -81.089859 85.312439 -5.0937943 94.45681
651000000 -2.0347579 153.65904 -80.643417 57.282101 -80.658134 57.190926 -5.0163579 66.333389
660500000 -2.0898616 124.5944 -80.604904 26.646759 -80.317604 26.397215 -4.9306211 38.65789
670000000 -2.1025786 95.181137 -80.105515 -1.4829576 -80.313698 -1.1673512 -4.8714986 11.228053
679500000 -2.0611467 66.110512 -80.098503 -28.856508 -80.152733 -29.039309 -4.8558474 -16.213766
689000000 -2.0147295 38.095165 -79.91378 -56.498013 -79.736023 -57.712864 -4.8811955 -43.875168
698500000 -1.9956942 10.507644 -79.513428 -86.966858 -79.616402 -85.767426 -4.9287848 -71.844193
708000000 -1.9787269 -17.637117 -79.49765 -112.82474 -79.505653 -112.92912 -4.9748392 -100.09422
717500000 -1.950469 -45.961895 -79.383087 -140.92097 -79.333832 -141.34322 -5.005569 -128.54742
727000000 -1.9472804 -73.662437 -79.170609 -169.99608 -78.954704 -169.15291 -5.0212913 -157.11961
736500000 -2.0065989 -101.57241 -78.762825 162.20947 -78.926315 163.0845 -5.0261736 174.25615
746000000 -2.098835 -130.8679 -78.575081 134.76508 -78.67881 134.62773 -5.0182085 145.6416
755500000 -2.1406341 -160.76196 -78.475243 105.56155 -78.62146 105.65959 -4.9895663 117.12959
765000000 -2.1651924 169.93124 -78.311272 76.9758 -78.37973 77.182228 -4.9323707 88.865273
774500000 -2.2519789 140.58102 -78.276749 48.559082 -78.208839 49.313187 -4.8465986 60.985455
784000000 -2.3165741 110.30598 -78.043091 21.878887 -78.188301 20.947643 -4.7460818 33.540329
793500000 -2.2767668 80.248718 -78.018997 -6.5702848 -78.019592 -7.2656069 -4.6544867 6.4496226
803000000 -2.2183168 51.712708 -77.808479 -35.528801 -77.938797 -35.447445 -4.5922914 -20.460022
812500000 -2.2061276 23.715202 -77.608734 -63.140633 -77.679413 -62.950615 -4.5684962 -47.397724
822000000 -2.1870589 -4.7337837 -77.58213 -90.636688 -77.625557 -90.886589 -4.5780773 -74.529488
831500000 -2.1226971 -32.901756 -77.504532 -118.83547 -77.459785 -119.00602 -4.6056194 -101.93301
841000000 -2.0909226 -60.407021 -77.224922 -146.02672 -77.299088 -145.97949 -4.6338568 -129.59166
850500000 -2.1336377 -88.045731 -77.086479 -174.33659 -77.066887 -174.4285 -4.6525578 -157.42375
860000000 -2.1747971 -116.37289 -76.836304 157.7524 -76.859825 157.94052 -4.6605115 174.67035
869500000 -2.202312 -145.12491 -76.756622 129.05507 -76.796753 129.80435 -4.6588674 146.77283
879000000 -2.2591088 -173.94589 -76.589584 100.99516 -76.572502 101.01208 -4.6482844 118.95108
888500000 -2.3101459 157.04205 -76.485207 72.856567 -76.476166 72.896729 -4.6261053 91.276207
898000000 -2.3372145 127.80873 -76.497154 44.617096 -76.469742 44.003628 -4.5875764 63.830078
907500000 -2.3529954 98.654991 -76.479332 16.797451 -76.317085 17.119116 -4.5340967 36.659405
917000000 -2.3331075 69.821121 -76.276779 -11.045811 -76.292046 -10.114861 -4.4774051 9.7494125
926500000 -2.2716961 41.672028 -76.295197 -37.437813 -76.250549 -37.854324 -4.4350781 -16.984209
936000000 -2.2068193 14.284613 -76.102722 -65.117599 -76.125092 -65.213318 -4.4209552 -43.680492
945500000 -2.1680181 -12.882564 -75.929291 -92.075836 -75.831512 -92.565018 -4.439786 -70.505882
955000000 -2.1364908 -40.059834 -75.67347 -119.44908 -75.659309 -119.09812 -4.4869423 -97.611824
964500000 -2.0985835 -67.004959 -75.500671 -146.60622 -75.480522 -146.61501 -4.5516586 -125.08941
974000000 -2.0980229 -93.794701 -75.277138 -173.85684 -75.2155 -174.08086 -4.6224351 -152.92749
983500000 -2.1484401 -120.94271 -75.008934 157.66223 -75.032814 158.00771 -4.6876831 178.96584
993000000 -2.1932817 -148.85799 -74.701721 131.28717 -74.763992 131.60922 -4.7385821 150.69775
1002500000 -2.2212856 -177.27673 -74.456802 103.23954 -74.457138 103.19151 -4.7722797 122.36244
1012000000 -2.261524 154.47049 -74.056107 73.77784 -73.986984 74.55526 -4.7881021 94.064804
1021500000 -2.3057399 126.15145 -73.788971 45.1945 -73.839584 45.329159 -4.7827625 65.896896
1031000000 -2.3398671 97.16497 -73.734871 16.785204 -73.753922 17.12904 -4.7549729 37.936363
1040500000 -2.3240378 68.125137 -73.643021 -11.881449 -73.614624 -11.944576 -4.7122231 10.21146
1050000000 -2.264559 40.129822 -73.498253 -39.760128 -73.512085 -39.831013 -4.6705356 -17.304089
1059500000 -2.2215469 13.0082 -73.397911 -67.335419 -73.374435 -67.687019 -4.647181 -44.706165
1069000000 -2.2008281 -14.459043 -73.180603 -94.75235 -73.163506 -94.960709 -4.6540418 -72.155067
1078500000 -2.1764238 -42.255466 -72.969711 -122.74139 -72.959679 -123.06912 -4.6939731 -99.830566
1088000000 -2.1434991 -69.202553 -72.68985 -151.0255 -72.69841 -150.69978 -4.7588458 -127.86552
1097500000 -2.144299 -95.740723 -72.404999 -178.59932 -72.449791 -178.93245 -4.8311334 -156.30188
1107000000 -2.2113376 -123.3953 -72.196518 152.45441 -72.287773 152.51093 -4.8920121 174.92262
1116500000 -2.2795916 -152.12164 -72.00737 123.60635 -72.011269 123.92836 -4.9278483 145.96774
1126000000 -2.3105116 179.31523 -71.769592 94.814384 -71.763664 95.084122 -4.9328341 117.03152
1135500000 -2.3583035 150.92355 -71.649277 66.606575 -71.68676 66.689598 -4.9074788 88.285217
1145000000 -2.436986 121.53027 -71.501785 37.385612 -71.482529 37.834286 -4.8549786 59.837357
1154500000 -2.4965649 91.305176 -71.423485 8.4227114 -71.413132 8.3104115 -4.7827039 31.730234
1164000000 -2.4843171 61.856277 -71.322235 -19.804604 -71.396622 -19.440699 -4.6996922 3.9624753
1173500000 -2.432775 33.38192 -71.322792 -47.836143 -71.27684 -48.133114 -4.6185102 -23.516466
1183000000 -2.4167888 4.8734956 -71.242416 -76.130463 -71.246025 -76.052185 -4.5524254 -50.788128
1192500000 -2.4086611 -23.734251 -71.078423 -104.24334 -71.080315 -104.4433 -4.5129738 -77.989853
1202000000 -2.3585794 -51.620567 -70.976814 -132.00438 -70.929405 -131.89352 -4.5065188 -105.2644
1211500000 -2.3165383 -78.741104 -70.76738 -159.84908 -70.769119 -159.74771 -4.5297122 -132.74286
1221000000 -2.3487935 -106.23377 -70.61396 171.71683 -70.61821 171.99422 -4.5700784 -160.49736
1230500000 -2.4272995 -134.59883 -70.33593 143.66969 -70.338348 143.62683 -4.6098328 171.47739
1240000000 -2.4623256 -163.08662 -70.151794 115.01121 -70.142548 114.84988 -4.6338177 143.27507
1249500000 -2.4715943 168.5274 -70.054268 85.987305 -70.069344 86.382179 -4.6329651 115.06487
1259000000 -2.5364125 139.6239 -69.907616 56.991379 -69.93615 57.01973 -4.605073 87.013199
1268500000 -2.613174 110.13454 -69.847565 28.344603 -69.84967 28.533005 -4.5540934 59.24218
1278000000 -2.6260822 80.651337 -69.881851 -0.31648505 -69.879761 0.30946586 -4.4883757 31.799288
1287500000 -2.5976095 51.584789 -69.860237 -28.096693 -69.899048 -28.038486 -4.4170074 4.6602931
1297000000 -2.5588312 23.023954 -69.781128 -55.989738 -69.799088 -56.061405 -4.3510113 -22.252117
1306500000 -2.5125079 -4.9494691 -69.690674 -83.053123 -69.715263 -83.112137 -4.3031063 -49.040146
1316000000 -2.4633718 -32.460812 -69.430267 -110.50737 -69.412842 -111.09673 -4.2839513 -75.809746
1325500000 -2.4137375 -59.73217 -69.220779 -139.16103 -69.160332 -139.40291 -4.2950516 -102.66207
1335000000 -2.3716824 -86.55748 -68.982109 -167.70374 -68.985413 -167.88353 -4.3344679 -129.73431
1344500000 -2.3667936 -113.02213 -68.814735 164.19611 -68.813293 163.8848 -4.3946261 -157.11482
1354000000 -2.4076307 -140.01572 -68.478897 135.66367 -68.46814 135.78824 -4.4641991 175.15663
1363500000 -2.4412956 -167.78952 -68.170509 105.31985 -68.187119 105.49727 -4.528451 147.13182
1373000000 -2.4380205 164.58273 -67.964508 74.862 -67.977806 74.742569 -4.5725288 118.92326
1382500000 -2.4629731 137.1582 -68.105019 42.759087 -68.103317 42.696098 -4.5883331 90.676018
1392000000 -2.5512335 108.82446 -69.13356 14.197679 -69.158195 14.40345 -4.5758896 62.545834
1401500000 -2.5944676 79.690514 -68.574509 -7.2953005 -68.593803 -7.2340131 -4.542417 34.608402
1411000000 -2.5420644 51.182552 -67.826157 -36.624115 -67.85379 -36.614651 -4.5020776 6.9318924
1420500000 -2.5087485 23.600071 -67.556129 -69.632103 -67.540192 -69.617538 -4.4624944 -20.540413
1430000000 -2.5225937 -4.1200113 -68.140831 -101.00018 -68.17897 -100.74986 -4.4351501 -47.931156
1439500000 -2.4907224 -32.099804 -68.065453 -125.83643 -68.076424 -125.9484 -4.4322505 -75.373978
1449000000 -2.3993821 -59.104824 -67.552559 -155.16568 -67.524292 -155.41312 -4.4591608 -102.95243
1458500000 -2.3448381 -85.13308 -67.193115 171.85062 -67.171158 171.70052 -4.5102506 -130.74026
1468000000 -2.3854337 -111.65263 -67.50563 135.91745 -67.521156 135.95712 -4.5750408 -158.77998
1477500000 -2.4398077 -139.14609 -68.640602 103.97712 -68.685493 103.32878 -4.6393819 172.91873
1487000000 -2.4295373 -166.62383 -70.093895 78.169815 -70.057922 78.2015 -4.6905346 144.37482
1496500000 -2.4386361 166.25026 -70.474152 50.788017 -70.426514 50.996624 -4.7238903 115.66563
1506000000 -2.5354116 138.41422 -71.828346 28.603086 -71.877052 28.884939 -4.7281904 86.907913
1515500000 -2.6268699 109.34082 -71.274574 13.418469 -71.260048 13.481004 -4.7058086 58.180889
1525000000 -2.6365588 80.166199 -70.851906 -19.726742 -70.866905 -19.831678 -4.6680002 29.619509
1534500000 -2.6404862 51.548481 -71.544647 -42.034084 -71.552139 -41.711182 -4.6131787 1.347366
1544000000 -2.6900969 22.638426 -71.518494 -63.495255 -71.559593 -63.520889 -4.5501089 -26.643909
1553500000 -2.6989412 -6.6017828 -70.868378 -85.602074 -70.859772 -85.718468 -4.4897614 -54.411297
1563000000 -2.630199 -35.029949 -70.128212 -111.27012 -70.118828 -111.24932 -4.4454989 -82.062431
1572500000 -2.5830545 -62.596573 -69.489288 -138.26764 -69.45784 -138.27945 -4.4268656 -109.70903
1582000000 -2.5974505 -90.181389 -68.969971 -166.04004 -68.996452 -166.36124 -4.4332523 -137.44666
1591500000 -2.6103413 -117.95018 -68.453728 166.12285 -68.463974 165.82503 -4.4564109 -165.32333
1601000000 -2.6205897 -145.72464 -68.068428 137.62395 -68.049072 137.27975 -4.4822035 166.66093
1610500000 -2.663378 -173.73502 -67.791374 108.66528 -67.788712 108.8702 -4.4966917 138.5484
1620000000 -2.7028205 157.88982 -67.427719 80.983208 -67.499252 80.975273 -4.4924445 110.39101
1629500000 -2.7507837 129.25743 -67.063934 52.646183 -67.044312 52.492134 -4.4713082 82.23864
1639000000 -2.8509393 100.12182 -66.74292 23.470083 -66.734848 23.599796 -4.4407358 54.144089
1648500000 -2.9190953 70.327637 -66.514709 -5.6184177 -66.495575 -5.3946009 -4.4052258 26.169731
1658000000 -2.9015055 40.670311 -66.294006 -34.356171 -66.291985 -34.320248 -4.3641634 -1.6322167
1667500000 -2.8976007 11.635631 -66.143059 -63.3922 -66.140343 -63.344494 -4.3162136 -29.227589
1677000000 -2.9239678 -17.451551 -65.99176 -92.050148 -65.990051 -91.740059 -4.2634125 -56.603165
1686500000 -2.8708904 -46.485672 -65.813385 -120.16942 -65.82383 -120.27536 -4.2128348 -83.794693
1696000000 -2.7669072 -74.430466 -65.614273 -148.48648 -65.609032 -148.60873 -4.1749916 -110.87931
1705500000 -2.7578912 -101.59386 -65.439293 -176.80548 -65.435104 -176.91228 -4.159688 -137.97273
1715000000 -2.8051081 -129.12364 -65.182159 154.64607 -65.183594 154.77994 -4.1709375 -165.17963
1724500000 -2.7695293 -156.99928 -64.947029 126.08437 -64.952995 126.15633 -4.2036338 167.43724
1734000000 -2.7228017 175.50278 -64.716248 97.351219 -64.713501 97.282928 -4.2441664 139.86934
1743500000 -2.7857385 148.10892 -64.527016 68.796379 -64.517357 68.701782 -4.2766919 112.14397
1753000000 -2.8684945 120.00533 -64.266174 40.10778 -64.271591 39.962234 -4.2916522 84.305794
1762500000 -2.869972 91.29039 -63.993946 10.852924 -64.000114 10.726799 -4.2901573 56.392185
1772000000 -2.8804438 62.634052 -63.811489 -18.815985 -63.818424 -18.878168 -4.2798476 28.442909
1781500000 -2.951494 34.157036 -63.711655 -48.063313 -63.725224 -47.908314 -4.2670627 0.50511295
1791000000 -2.9678767 5.5404658 -63.552921 -76.676544 -63.587044 -76.484619 -4.2516031 -27.364285
1800500000 -2.9019747 -23.113401 -63.339897 -105.50086 -63.357502 -105.5045 -4.2286143 -55.123878
1810000000 -2.8609822 -51.223957 -63.18388 -134.69643 -63.156841 -134.65401 -4.1978836 -82.757484
1819500000 -2.8617902 -78.60508 -62.978138 -163.4843 -62.99044 -163.37505 -4.1675959 -110.27689
1829000000 -2.8309097 -105.6522 -62.630966 167.68987 -62.642147 167.67514 -4.1496058 -137.72998
1838500000 -2.7755606 -132.73779 -62.253487 138.11174 -62.258854 138.04053 -4.1536088 -165.20735
1848000000 -2.784348 -159.85692 -61.874496 107.36314 -61.847668 107.19611 -4.1824398 167.17795
1857500000 -2.8518651 173.07672 -61.544491 75.007988 -61.550762 75.105743 -4.2303381 139.33311
1867000000 -2.8804855 145.88171 -61.631615 42.880222 -61.625355 42.824814 -4.2825079 111.22747
1876500000 -2.8809745 118.34119 -61.703506 11.920982 -61.710587 11.979899 -4.3228512 82.900841
1886000000 -2.9637306 90.387039 -61.761028 -19.033602 -61.734016 -18.990923 -4.3389282 54.431206
1895500000 -3.1079903 62.001064 -61.841908 -50.335266 -61.856785 -50.227699 -4.3299208 25.892269
1905000000 -3.1746898 33.360794 -62.084797 -81.469299 -62.10078 -81.438469 -4.3054166 -2.647536
1914500000 -3.1642258 4.8129206 -62.345181 -111.42355 -62.34853 -111.33555 -4.2758379 -31.112263
1924000000 -3.2006788 -23.709639 -62.501343 -143.46368 -62.50547 -143.37292 -4.2435904 -59.426453
1933500000 -3.2532427 -52.332497 -63.018803 -174.28755 -63.035751 -174.29123 -4.2052021 -87.539063
1943000000 -3.204175 -80.48819 -63.622051 155.89609 -63.666176 155.83443 -4.1592016 -115.4368
1952500000 -3.1049132 -107.82324 -64.315125 126.71706 -64.310806 126.66589 -4.1135492 -143.13327
1962000000 -3.0937052 -135.11862 -65.20372 100.26226 -65.219315 100.35058 -4.0797434 -170.68045
1971500000 -3.1453218 -162.88609 -65.486504 76.406578 -65.476471 76.615746 -4.0691514 161.82506
1981000000 -3.126461 169.39941 -65.529373 50.903095 -65.510963 50.799454 -4.0853801 134.25365
1990500000 -3.0808573 141.99828 -65.562088 24.885761 -65.551071 24.861612 -4.1219549 106.50144
2000000000 -3.1284802 114.24342 -65.36042 -1.6864536 -65.322632 -1.5561204 -4.1624007 78.523338
