!Keysight Technologies,N5242B,MY48420967,A.15.65.19
!Date: Thursday, December 22, 2022 14:14:06
!Correction: S11(C  2-Port  ) 
!S21(C  2-Port  ) 
!S12(C  2-Port  ) 
!S22(C  2-Port  ) 
!S2P File: Measurements: S11, S21, S12, S22:
# Hz S  dB   R 50
100000000 -1.4824002 40.636494 -111.30017 -99.810692 -110.46206 -45.944458 -3.7086456 -112.93314
109500000 -1.3801569 11.080038 -108.21946 -134.4113 -110.98757 -115.54866 -3.8667734 -141.05952
119000000 -1.2413557 -17.220966 -109.74265 -124.04133 -107.75399 -139.66541 -4.0254097 -169.42033
128500000 -1.2081954 -45.303833 -108.39852 -160.96255 -106.76768 -170.47443 -4.1647744 162.01392
138000000 -1.2226602 -74.088676 -108.81985 150.73648 -106.84167 162.67348 -4.2769341 133.3055
147500000 -1.2489343 -103.11343 -103.49245 145.74997 -104.20602 112.04385 -4.355125 104.61588
157000000 -1.3190963 -131.96799 -103.33092 113.6481 -107.13792 81.74366 -4.3885641 76.139732
166500000 -1.4265257 -161.6532 -102.99674 92.963509 -103.05151 76.088348 -4.3718805 47.994137
176000000 -1.5412246 168.0885 -101.59998 37.739223 -102.60763 49.697353 -4.3211775 20.206409
185500000 -1.6181556 138.02219 -101.54492 11.223391 -102.12382 19.127041 -4.2645383 -7.2723193
195000000 -1.6785725 107.86934 -100.91591 -14.91406 -100.1837 -11.855386 -4.2293797 -34.614845
204500000 -1.6645445 77.997406 -99.433228 -46.094269 -100.18888 -39.517765 -4.2388968 -62.110954
214000000 -1.5881568 48.837502 -97.984497 -80.412926 -100.34581 -64.624588 -4.3070025 -90.015808
223500000 -1.5729033 20.126123 -98.684662 -94.511887 -98.880699 -94.343269 -4.4318056 -118.3944
233000000 -1.5454873 -8.6131144 -98.356094 -133.16005 -97.180992 -128.25594 -4.5736532 -147.15775
242500000 -1.4642417 -37.200394 -98.003151 -161.55814 -97.952675 -156.2813 -4.6863966 -176.13913
252000000 -1.4488372 -65.412033 -96.900871 178.8819 -96.890945 -179.90181 -4.7468109 154.86209
261500000 -1.5404299 -94.210587 -96.147354 139.75719 -96.447334 140.93912 -4.7582283 126.06334
271000000 -1.6350977 -123.89108 -95.520752 119.25879 -95.294548 118.88438 -4.7347188 97.612946
280500000 -1.6714203 -153.7121 -95.197411 85.905724 -95.808952 80.307838 -4.6878185 69.522499
290000000 -1.7696558 176.44511 -93.302734 55.885204 -95.143013 54.737762 -4.6285381 41.725056
299500000 -1.91652 146.20439 -94.745529 27.422113 -92.982979 30.617132 -4.5664206 14.17646
309000000 -1.9692208 115.5881 -92.546036 2.3271308 -92.747131 2.5510144 -4.5058165 -13.157316
318500000 -1.9462851 85.507072 -92.204391 -30.355133 -92.848953 -30.369583 -4.4528699 -40.412666
328000000 -1.9289011 56.287502 -91.180176 -56.092602 -91.893318 -55.410725 -4.4295144 -67.818115
337500000 -1.940362 27.2005 -91.667137 -87.701828 -91.277054 -84.995026 -4.4599152 -95.538544
347000000 -1.9203358 -2.0089931 -91.665192 -113.72491 -91.182869 -108.72152 -4.5417972 -123.60783
356500000 -1.8666496 -30.969116 -91.004349 -140.81419 -91.205009 -139.76561 -4.6387167 -151.98065
366000000 -1.8796037 -59.476086 -90.65699 -166.43083 -90.256531 -168.32858 -4.7049584 179.46201
375500000 -1.9648982 -88.440826 -90.403938 162.80873 -89.816299 162.99841 -4.7168446 150.94952
385000000 -2.0539141 -118.51556 -89.742691 133.42477 -90.028114 137.24025 -4.6752272 122.76694
394500000 -2.1023455 -148.73878 -89.259575 105.53057 -89.3647 105.89766 -4.596952 95.066017
404000000 -2.1786778 -178.65756 -89.139282 82.428986 -88.885483 77.883301 -4.5085363 67.786804
413500000 -2.3013406 151.22446 -88.802231 51.198147 -88.610535 47.849228 -4.4375024 40.771759
423000000 -2.3406515 120.70439 -88.373642 22.948238 -88.299713 25.462578 -4.3946228 13.912545
432500000 -2.3190777 90.593147 -87.842476 -4.4339361 -88.016876 -6.2410235 -4.3706946 -12.88054
442000000 -2.3023188 61.569435 -87.471634 -30.730101 -87.309372 -30.329357 -4.3544774 -39.730358
451500000 -2.2656338 32.915089 -87.080154 -58.614292 -86.694199 -55.540195 -4.3532691 -66.772102
461000000 -2.225142 4.2590661 -86.600082 -85.706116 -86.48024 -84.076355 -4.3867927 -94.091621
470500000 -2.1906714 -24.095566 -86.139511 -109.24303 -85.797844 -110.83407 -4.461834 -121.71735
480000000 -2.1785097 -52.164551 -85.170609 -137.34306 -84.740738 -136.00192 -4.5608096 -149.66736
489500000 -2.2016695 -80.27861 -83.938812 -162.89885 -83.96096 -161.78789 -4.6522713 -177.90808
499000000 -2.2588875 -109.08723 -82.263596 166.01764 -82.352066 166.03398 -4.7050781 153.74283
508500000 -2.3337662 -138.46609 -81.067421 131.75497 -80.985321 131.03783 -4.6997523 125.56966
518000000 -2.3739848 -167.68912 -80.60556 91.631195 -80.582642 92.180397 -4.644475 97.792618
527500000 -2.4199493 163.09966 -80.960014 54.866962 -80.944962 54.995148 -4.5704746 70.448814
537000000 -2.4882646 133.62376 -81.693344 23.207754 -81.702324 22.210726 -4.5165586 43.422512
546500000 -2.4931741 104.25121 -82.381454 -6.2109942 -82.095268 -7.1120801 -4.5031285 16.520996
556000000 -2.4468205 75.591682 -82.518265 -32.758656 -82.532822 -32.999172 -4.5268402 -10.487879
565500000 -2.4007771 47.554668 -82.502892 -59.640091 -82.500656 -59.661362 -4.5749464 -37.77158
575000000 -2.3611546 19.69319 -82.611832 -86.097565 -82.625046 -86.109955 -4.6337533 -65.349152
584500000 -2.3263268 -7.8951526 -82.504814 -113.52689 -82.546593 -113.64501 -4.691442 -93.165039
594000000 -2.2980237 -35.363129 -82.339668 -141.44699 -82.510269 -139.52347 -4.7542882 -121.24523
603500000 -2.2969661 -63.05563 -82.173752 -168.28883 -82.33902 -166.98695 -4.8388314 -149.56163
613000000 -2.3354218 -90.815529 -81.978867 164.52214 -82.068336 164.91165 -4.9300013 -178.09462
622500000 -2.4052994 -119.003 -81.90313 137.20044 -81.747017 138.58884 -5.0019922 153.13225
632000000 -2.4996896 -148.07614 -81.345604 110.97869 -81.318649 112.91242 -5.030386 124.27524
641500000 -2.5408869 -177.43398 -80.949738 80.733513 -80.971992 81.55896 -5.0009208 95.638931
651000000 -2.5840886 153.49187 -81.037361 52.62365 -80.923233 52.378319 -4.9255972 67.460815
660500000 -2.6583765 124.50005 -80.975266 25.212696 -80.700699 23.419703 -4.8390355 39.81213
670000000 -2.6753666 94.992828 -80.479858 -3.7405715 -80.638855 -3.3544877 -4.7766552 12.519738
679500000 -2.6267354 65.853783 -80.328377 -30.676136 -80.430214 -31.465456 -4.7604589 -14.746878
689000000 -2.5803339 37.854 -80.316238 -59.399437 -80.190628 -60.174911 -4.7939973 -42.286873
698500000 -2.5683773 10.212213 -80.105064 -87.405495 -80.006866 -87.550514 -4.8561354 -70.210922
708000000 -2.5496726 -17.900761 -79.736511 -115.96355 -79.894814 -114.07995 -4.9119701 -98.456917
717500000 -2.5311058 -46.082329 -79.709045 -143.23792 -79.633057 -143.26361 -4.9404774 -126.89496
727000000 -2.5496061 -73.682755 -79.397652 -172.22708 -79.42746 -171.10747 -4.9502711 -155.39346
736500000 -2.6207724 -101.59519 -79.17691 160.30341 -79.141388 161.32379 -4.9585609 176.14029
746000000 -2.7366495 -130.82817 -78.937904 132.19875 -79.054764 132.98079 -4.9654474 147.7225
755500000 -2.7997544 -160.63661 -79.001427 103.7791 -78.898323 103.82868 -4.95509 119.33031
765000000 -2.8291306 170.061 -78.765953 75.163246 -78.735062 75.481621 -4.9125309 91.035904
774500000 -2.9254887 140.85957 -78.526016 47.117878 -78.711884 47.664959 -4.8355107 63.047081
784000000 -3.003994 110.65506 -78.435242 18.838104 -78.559525 19.090075 -4.7375069 35.561512
793500000 -2.9659224 80.511276 -78.467468 -9.6856241 -78.317833 -9.3415537 -4.6429448 8.5619297
803000000 -2.8861456 52.054901 -78.305702 -37.281227 -78.314079 -37.245705 -4.5795627 -18.188591
812500000 -2.8725421 24.144341 -78.152435 -64.539726 -78.121338 -64.549477 -4.564683 -45.001541
822000000 -2.8676531 -4.2867289 -78.02475 -91.537071 -77.997086 -91.948502 -4.5915194 -72.096237
831500000 -2.7856786 -32.366673 -77.810379 -119.86571 -77.749374 -119.74483 -4.6328182 -99.545578
841000000 -2.755492 -59.701401 -77.57856 -147.30141 -77.567299 -147.31021 -4.6630893 -127.27814
850500000 -2.8248096 -87.19825 -77.306282 -175.69817 -77.319641 -175.19862 -4.6767941 -155.12622
860000000 -2.8713455 -115.52621 -77.232628 156.24072 -77.22245 156.58246 -4.6825356 177.05998
869500000 -2.9048886 -144.17609 -77.090248 127.8288 -77.024605 127.83168 -4.6874108 149.3064
879000000 -2.9811156 -172.8609 -76.90815 99.221939 -76.94017 99.766495 -4.6912646 121.54707
888500000 -3.0441978 158.09587 -76.941917 71.057571 -76.865723 72.043808 -4.6861873 93.778458
898000000 -3.0653455 128.91472 -76.841774 44.267891 -76.830116 44.076794 -4.6590133 66.146248
907500000 -3.0834837 99.853462 -76.669693 16.142443 -76.755562 16.102716 -4.6033959 38.827572
917000000 -3.0694914 70.966965 -76.58181 -11.34505 -76.578888 -11.617727 -4.534369 11.877893
926500000 -2.9881494 42.692051 -76.460358 -38.362377 -76.583717 -38.578793 -4.4839611 -14.810746
936000000 -2.9127173 15.247828 -76.465897 -65.534187 -76.380661 -65.931374 -4.4770517 -41.443008
945500000 -2.8716078 -11.900537 -76.150146 -93.164215 -76.161049 -93.125282 -4.5135107 -68.255699
955000000 -2.8282781 -39.090385 -75.862175 -120.00412 -75.900131 -120.25921 -4.5735645 -95.454422
964500000 -2.7970238 -65.944695 -75.753166 -147.92355 -75.697617 -147.76152 -4.6386018 -123.10534
974000000 -2.8100779 -92.671753 -75.549889 -175.56842 -75.515289 -175.15527 -4.7014108 -151.06673
983500000 -2.8742895 -119.93319 -75.2481 157.1886 -75.229118 157.25745 -4.7571788 -179.13463
993000000 -2.9341676 -147.83389 -74.852982 130.12321 -74.893616 130.21527 -4.8035254 152.74287
1002500000 -2.9815819 -176.22693 -74.537071 101.46592 -74.464241 101.48868 -4.8448792 124.49886
1012000000 -3.0413911 155.45804 -74.277397 71.536079 -74.313881 72.200935 -4.8773851 96.146027
1021500000 -3.0853219 127.1503 -74.104637 43.565308 -74.088936 43.865005 -4.8825598 67.833237
1031000000 -3.1339366 98.1623 -73.981453 15.081821 -74.027603 14.946975 -4.8456178 39.75198
1040500000 -3.1303389 69.021149 -73.929802 -13.7935 -73.912109 -13.690492 -4.7803292 12.016848
1050000000 -3.047581 40.839043 -73.861069 -41.428207 -73.794083 -41.754494 -4.7230597 -15.377337
1059500000 -2.9960141 13.679331 -73.747269 -68.732368 -73.727936 -68.696609 -4.7028923 -42.575417
1069000000 -2.981292 -13.760515 -73.472809 -96.216148 -73.435699 -96.325668 -4.7250915 -69.84639
1078500000 -2.9540594 -41.643715 -73.241943 -124.77489 -73.205635 -124.8875 -4.7767477 -97.467415
1088000000 -2.917661 -68.517227 -72.988564 -152.3817 -72.989113 -152.6438 -4.840889 -125.54386
1097500000 -2.9293694 -94.91935 -72.752007 179.49071 -72.621178 179.7789 -4.9012995 -153.97118
1107000000 -3.0253787 -122.56705 -72.539162 150.58981 -72.446609 151.16235 -4.9487739 177.4288
1116500000 -3.1105227 -151.25035 -72.26088 121.56488 -72.247887 121.71334 -4.9839644 148.76825
1126000000 -3.1561224 -179.71382 -72.070656 93.07148 -72.060951 92.755463 -5.0090542 120.0892
1135500000 -3.2294369 151.98288 -71.948631 64.490112 -71.952766 64.912155 -5.0140262 91.444145
1145000000 -3.3243709 122.62478 -71.806511 35.574875 -71.792015 35.651615 -4.9810247 62.936703
1154500000 -3.3970311 92.464844 -71.729889 6.5544682 -71.719902 7.0771375 -4.9050164 34.719971
1164000000 -3.3801799 63.066006 -71.61731 -21.931435 -71.589973 -21.667347 -4.8069267 6.9243221
1173500000 -3.3155215 34.551785 -71.579224 -49.926296 -71.562202 -49.808632 -4.7196274 -20.417339
1183000000 -3.3001065 6.131608 -71.483696 -78.523865 -71.459015 -78.020599 -4.6650519 -47.443615
1192500000 -3.2842069 -22.413832 -71.352997 -106.32924 -71.340645 -106.68645 -4.6469169 -74.450241
1202000000 -3.2228138 -50.325474 -71.19725 -134.36093 -71.200134 -134.41083 -4.6594439 -101.71803
1211500000 -3.1747544 -77.21875 -71.098366 -161.94302 -71.113243 -162.16512 -4.6920147 -129.34142
1221000000 -3.2135465 -104.44674 -70.84462 169.16086 -70.818428 169.47858 -4.7304873 -157.22046
1230500000 -3.3167381 -132.74075 -70.619278 139.99861 -70.630142 140.04051 -4.7644596 174.78714
1240000000 -3.3616998 -161.13705 -70.512024 111.66238 -70.460884 111.70641 -4.7909927 146.75006
1249500000 -3.3778644 170.64256 -70.392166 82.621758 -70.349693 82.943535 -4.8105712 118.66626
1259000000 -3.4638247 141.86955 -70.273979 53.432987 -70.270126 53.802982 -4.8140569 90.563286
1268500000 -3.5511787 112.46271 -70.305733 23.879025 -70.263702 24.55003 -4.785491 62.54734
1278000000 -3.5633576 83.06958 -70.414406 -4.1589251 -70.375252 -3.4535844 -4.7199783 34.791218
1287500000 -3.5378766 53.988037 -70.268074 -31.420383 -70.258987 -30.720043 -4.6322198 7.4424272
1297000000 -3.4930913 25.287477 -70.09243 -60.490833 -70.125061 -59.762695 -4.5514135 -19.494112
1306500000 -3.4237356 -2.785851 -70.019974 -87.65538 -70.073921 -87.815758 -4.5033917 -46.182041
1316000000 -3.3603506 -30.350246 -69.746056 -117.09045 -69.6959 -116.63849 -4.4999871 -72.898918
1325500000 -3.3050954 -57.652576 -69.640724 -147.2363 -69.588539 -147.29675 -4.5342026 -99.860764
1335000000 -3.2494187 -84.491257 -69.709984 -176.98352 -69.695274 -176.84962 -4.5848665 -127.16314
1344500000 -3.2441409 -110.9217 -69.821846 154.34711 -69.779152 154.36473 -4.636364 -154.78226
1354000000 -3.2992039 -137.89014 -69.947357 124.33755 -69.909973 124.44466 -4.6893835 177.39151
1363500000 -3.3487737 -165.7218 -70.444817 95.347832 -70.525902 95.976089 -4.7483044 149.46062
1373000000 -3.3555875 166.6662 -70.814926 72.100243 -70.779099 72.402176 -4.8046303 121.42335
1382500000 -3.3894284 139.2674 -70.160149 47.689255 -70.133713 47.943935 -4.8413844 93.199898
1392000000 -3.5065262 110.8765 -69.476471 17.447657 -69.421455 17.617483 -4.8445015 64.848396
1401500000 -3.5655785 81.665596 -69.331825 -16.640974 -69.322502 -16.359674 -4.8106709 36.613239
1411000000 -3.5020161 52.9967 -70.168175 -47.787369 -70.173149 -47.545441 -4.7483783 8.7747898
1420500000 -3.4669952 25.31864 -70.574554 -72.201607 -70.575874 -72.001396 -4.6816044 -18.629671
1430000000 -3.4811563 -2.4813664 -70.517067 -100.58664 -70.543037 -100.46954 -4.6431623 -45.791607
1439500000 -3.4474216 -30.703674 -70.917709 -130.32893 -70.897629 -130.1405 -4.6521168 -73.003479
1449000000 -3.3418016 -57.860371 -71.70005 -156.66185 -71.670914 -157.16673 -4.700561 -100.49934
1458500000 -3.2714744 -83.890961 -72.237068 -177.44962 -72.242722 -176.90413 -4.760025 -128.3481
1468000000 -3.3284168 -110.37966 -71.708443 160.6433 -71.661026 161.16989 -4.8064208 -156.48894
1477500000 -3.4008927 -137.90709 -71.14621 134.11029 -71.146217 134.72923 -4.8400607 175.22508
1487000000 -3.3963733 -165.43768 -70.794754 108.08797 -70.752518 108.12441 -4.8762317 146.90378
1496500000 -3.4212704 167.58389 -70.390572 81.440636 -70.314445 81.959846 -4.9196882 118.54013
1506000000 -3.5458555 139.87349 -69.870186 52.96994 -69.860985 53.19717 -4.9534712 90.018196
1515500000 -3.6732943 110.78156 -69.807411 23.751341 -69.806435 23.927036 -4.9557838 61.304474
1525000000 -3.6923757 81.64077 -69.698547 -2.5891178 -69.66713 -2.5350969 -4.9158278 32.583679
1534500000 -3.6977875 53.092319 -69.404358 -30.01619 -69.369942 -29.549984 -4.8442864 4.2020049
1544000000 -3.7628367 24.2223 -69.13047 -57.816944 -69.120636 -57.409824 -4.7628202 -23.632896
1553500000 -3.7733288 -5.0952735 -68.89315 -85.848137 -68.873512 -85.574425 -4.6983566 -51.039421
1563000000 -3.6908059 -33.572388 -68.689804 -113.41315 -68.633514 -113.2449 -4.6716862 -78.343163
1572500000 -3.6270654 -61.040009 -68.398178 -141.47072 -68.388214 -141.04399 -4.6846356 -105.83199
1582000000 -3.6457257 -88.534706 -68.165817 -169.77148 -68.15519 -169.42239 -4.7155733 -133.60988
1591500000 -3.6697035 -116.19006 -68.005356 162.2868 -67.952713 162.16951 -4.7403946 -161.5899
1601000000 -3.6743209 -143.85457 -67.716988 134.3394 -67.697601 134.47501 -4.7519593 170.40102
1610500000 -3.7368081 -171.70229 -67.447853 106.06783 -67.465569 106.38046 -4.7597213 142.48573
1620000000 -3.8015499 160.20537 -67.217911 77.943268 -67.174919 77.893585 -4.7719226 114.61848
1629500000 -3.8588655 131.74132 -66.972839 49.415607 -66.926552 49.265289 -4.7856827 86.635216
1639000000 -3.9888656 102.80581 -66.728096 20.352234 -66.706184 20.603428 -4.7881775 58.434967
1648500000 -4.0805111 73.218552 -66.554359 -8.6770248 -66.528603 -8.3580732 -4.7660308 30.144108
1658000000 -4.0632677 43.549641 -66.417831 -37.21389 -66.4049 -36.959366 -4.7156649 2.0469596
1667500000 -4.0567923 14.567864 -66.30368 -65.750908 -66.301743 -65.471153 -4.6488876 -25.640068
1677000000 -4.0843601 -14.482882 -66.124474 -94.061394 -66.120461 -93.829269 -4.5886998 -52.920841
1686500000 -4.0246367 -43.685097 -65.957253 -122.75732 -65.937607 -122.23855 -4.5533628 -79.994675
1696000000 -3.890038 -71.685402 -65.778046 -151.07089 -65.788406 -150.82594 -4.5444822 -107.11015
1705500000 -3.8633235 -98.714088 -65.625809 -179.40155 -65.569794 -179.37445 -4.5507264 -134.43686
1715000000 -3.921912 -126.2161 -65.416 152.00604 -65.400681 152.1944 -4.5621877 -161.97154
1724500000 -3.8893328 -154.20651 -65.205086 123.46935 -65.18576 123.49515 -4.5800438 170.41524
1734000000 -3.8356936 178.3662 -65.01078 94.871284 -64.976036 94.872849 -4.6091743 142.83881
1743500000 -3.9098144 151.10309 -64.790611 66.124008 -64.748367 66.296478 -4.6483912 115.25079
1753000000 -4.0192952 122.97556 -64.549065 37.175049 -64.530472 37.518303 -4.6884079 87.470734
1762500000 -4.0301905 94.300697 -64.283333 8.2071648 -64.278679 8.3947392 -4.7163653 59.369419
1772000000 -4.0528269 65.716515 -64.093758 -21.10602 -64.066116 -21.078451 -4.7200255 31.041618
1781500000 -4.1474361 37.159409 -63.910046 -50.541439 -63.887733 -50.183659 -4.694263 2.7586732
1791000000 -4.1636729 8.3074446 -63.67123 -79.55352 -63.667389 -79.295876 -4.648005 -25.23391
1800500000 -4.1013041 -20.563843 -63.454823 -108.82726 -63.43148 -108.54733 -4.6019602 -52.891418
1810000000 -4.0579581 -48.841652 -63.20496 -138.29153 -63.191067 -138.15315 -4.5749984 -80.344643
1819500000 -4.0297976 -76.480385 -62.898876 -168.31429 -62.861164 -168.11478 -4.5698347 -107.77457
1829000000 -3.9939194 -103.62621 -62.571098 161.0063 -62.572006 161.22714 -4.5734711 -135.30518
1838500000 -3.9514875 -130.72258 -62.358406 129.80498 -62.340565 129.89001 -4.5751576 -162.95355
1848000000 -3.9648058 -158.02971 -62.258087 98.034622 -62.223942 98.286469 -4.5800166 169.3416
1857500000 -4.0387259 174.90605 -62.193356 66.438721 -62.161827 66.621567 -4.6027565 141.62325
1867000000 -4.090507 147.85129 -62.165684 34.676758 -62.167183 34.684723 -4.65066 113.82894
1876500000 -4.1291909 120.31084 -62.257896 2.6167772 -62.1945 2.8314798 -4.711544 85.811951
1886000000 -4.2299409 92.529991 -62.329784 -30.014299 -62.315926 -30.131731 -4.7567787 57.462715
1895500000 -4.3906388 64.511406 -62.701725 -63.188934 -62.689899 -63.091251 -4.7597928 28.837988
1905000000 -4.4877105 36.08181 -63.216251 -94.846733 -63.202305 -94.66256 -4.7181149 0.17008169
1914500000 -4.4695148 7.6602902 -63.670746 -128.18614 -63.651207 -128.01942 -4.6576991 -28.255678
1924000000 -4.4743342 -20.604963 -64.750343 -161.24455 -64.735252 -160.96683 -4.6081285 -56.277451
1933500000 -4.5074959 -49.146767 -66.259918 169.14499 -66.250984 169.09084 -4.5782413 -83.962845
1943000000 -4.412827 -77.540146 -67.64431 145.23651 -67.668213 145.4138 -4.5572605 -111.53424
1952500000 -4.2504406 -104.92121 -68.687325 123.6036 -68.637596 123.52435 -4.5335088 -139.164
1962000000 -4.2198405 -132.12653 -68.749046 103.48783 -68.741814 103.8788 -4.5051861 -166.82446
1971500000 -4.2753081 -160.01306 -68.562904 80.005798 -68.597427 80.217171 -4.4825506 165.63594
1981000000 -4.2308083 172.22447 -68.388542 54.93671 -68.362328 54.911659 -4.4800301 138.25883
1990500000 -4.1819105 145.0358 -68.259369 28.758614 -68.207115 28.644766 -4.5100479 110.88139
2000000000 -4.2688169 117.55032 -68.21772 1.4212999 -68.161812 1.9093649 -4.5716991 83.243713
