!Keysight Technologies,N5242B,MY48420967,A.15.65.19
!Date: Monday, December 19, 2022 16:03:40
!Correction: S11(C  2-Port  ) 
!S21(C  2-Port  ) 
!S12(C  2-Port  ) 
!S22(C  2-Port  ) 
!S2P File: Measurements: S11, S21, S12, S22:
# Hz S  dB   R 50
100000000 -1.4801444 40.655655 -113.93916 -153.09506 -114.08931 -13.35812 -3.5353017 -112.93927
109500000 -1.3641845 11.149849 -108.44733 -98.732689 -108.98734 -92.716423 -3.68255 -141.14368
119000000 -1.244547 -17.027136 -114.00727 -125.59351 -109.44138 -141.82994 -3.8299885 -169.56436
128500000 -1.201573 -45.091759 -107.23985 -150.52156 -106.38898 -164.32877 -3.9695396 161.8586
138000000 -1.2079449 -73.877403 -106.30033 164.35963 -106.58759 174.38898 -4.0895047 133.1848
147500000 -1.2402482 -102.78798 -104.099 136.76335 -105.46507 119.41273 -4.1739573 104.50397
157000000 -1.3070203 -131.69536 -105.53834 105.99345 -101.86932 93.886101 -4.2087379 75.968323
166500000 -1.410202 -161.32382 -103.5614 83.547546 -102.30793 80.006035 -4.1896873 47.757893
176000000 -1.5214754 168.50583 -102.67539 42.679543 -101.88697 56.661373 -4.1317511 19.9688
185500000 -1.6069511 138.33658 -99.574348 19.789848 -100.2565 23.461126 -4.0652318 -7.463522
195000000 -1.6565001 108.20508 -100.18719 -8.4219923 -100.29661 -8.4762831 -4.0264516 -34.770966
204500000 -1.6414163 78.440926 -99.390457 -42.464802 -99.459183 -38.731884 -4.0431223 -62.260105
214000000 -1.5813191 49.291843 -100.07529 -73.092644 -100.03228 -68.370674 -4.1217275 -90.177986
223500000 -1.5531734 20.444801 -98.330147 -90.439491 -98.861496 -89.899574 -4.243927 -118.60775
233000000 -1.5219601 -8.2798986 -98.339775 -123.06427 -97.55188 -125.25632 -4.3734865 -147.45534
242500000 -1.4450922 -36.748734 -97.358459 -151.0257 -97.661163 -150.00827 -4.4753075 -176.48247
252000000 -1.4270365 -65.044731 -96.117134 -179.22116 -96.771698 171.35054 -4.5311222 154.57153
261500000 -1.5125457 -93.816582 -95.913506 154.46709 -96.51342 148.12378 -4.5440621 125.8699
271000000 -1.5990347 -123.47325 -95.19117 122.01119 -95.151619 121.58932 -4.5269523 97.462242
280500000 -1.6428853 -153.35489 -94.454468 86.959862 -94.037376 88.656067 -4.4903464 69.341377
290000000 -1.7281864 176.9166 -93.576187 56.012077 -94.300888 53.840443 -4.4370222 41.498657
299500000 -1.8708754 146.70393 -94.240646 38.078575 -92.866966 30.655703 -4.3685637 13.922668
309000000 -1.9367784 116.03878 -93.224701 3.4319501 -92.643196 -2.2776086 -4.2954826 -13.433536
318500000 -1.896153 85.959656 -92.028023 -27.181166 -92.592804 -26.625914 -4.2385745 -40.695827
328000000 -1.8798507 56.844467 -91.272621 -50.409061 -92.244568 -55.268459 -4.2222514 -68.065033
337500000 -1.8993511 27.815506 -91.939873 -80.284233 -90.81559 -81.374969 -4.2595873 -95.73848
347000000 -1.8696612 -1.5259949 -91.002312 -115.71613 -91.181747 -108.15682 -4.3408837 -123.82998
356500000 -1.8110195 -30.43046 -90.887131 -141.65619 -90.872345 -139.37483 -4.4340487 -152.29887
366000000 -1.8205899 -58.902336 -90.258835 -166.68414 -90.706604 -169.00198 -4.4986563 179.07207
375500000 -1.907855 -87.952263 -90.058861 164.56497 -89.937233 162.72566 -4.5088854 150.57906
385000000 -1.9809537 -117.93502 -89.360268 134.16449 -89.615891 135.55405 -4.4661326 122.46099
394500000 -2.0268693 -148.15996 -88.91819 110.30987 -89.152885 109.57668 -4.393487 94.795067
404000000 -2.1143618 -178.11284 -89.054832 82.523285 -89.163139 80.211784 -4.3177662 67.511833
413500000 -2.2146742 151.79597 -88.389656 52.606674 -88.358253 52.239773 -4.2555304 40.472157
423000000 -2.2588315 121.26452 -87.695732 25.283253 -88.032677 25.309937 -4.2092972 13.557506
432500000 -2.2480738 91.145439 -87.422066 0.33204591 -87.720901 -3.8725026 -4.1762986 -13.317883
442000000 -2.2140317 62.099125 -87.364105 -30.325918 -87.140419 -30.139446 -4.1568804 -40.216351
451500000 -2.1815639 33.555408 -86.691414 -56.912292 -86.855423 -54.464363 -4.1593189 -67.223518
461000000 -2.149749 4.8996792 -86.211868 -81.793732 -86.343117 -82.449409 -4.1952162 -94.474922
470500000 -2.1096413 -23.616463 -85.309326 -108.18505 -85.442192 -108.59361 -4.2690325 -122.09728
480000000 -2.0852718 -51.6301 -84.571747 -134.53905 -84.551376 -135.22612 -4.3664436 -150.1301
489500000 -2.1091123 -79.686615 -83.295242 -162.49677 -83.326118 -160.5258 -4.4566383 -178.46541
499000000 -2.1708381 -108.51411 -81.6866 168.15323 -81.884811 168.33253 -4.5052776 153.15294
508500000 -2.228276 -137.85555 -80.475296 131.66365 -80.314728 130.71365 -4.4966855 125.0141
518000000 -2.2707489 -167.0621 -79.950027 90.321083 -79.803719 90.280571 -4.4430718 97.302155
527500000 -2.3207462 163.7274 -80.552353 53.559006 -80.528343 53.267681 -4.3762083 70.009491
537000000 -2.3742652 134.23016 -81.27108 21.825562 -81.503525 21.110895 -4.3279405 42.971291
546500000 -2.3875382 104.90324 -82.165535 -7.2830677 -81.931328 -7.3687344 -4.3150997 15.979766
556000000 -2.3468676 76.247528 -82.396446 -33.669655 -82.334984 -33.764107 -4.3364916 -11.138932
565500000 -2.2922006 48.188648 -82.403374 -59.457085 -82.392944 -59.696033 -4.3794298 -38.461117
575000000 -2.255271 20.432791 -82.590485 -86.158112 -82.619904 -86.000694 -4.429986 -65.99202
584500000 -2.2303157 -7.203064 -82.714455 -112.9677 -82.448868 -114.61181 -4.482769 -93.739044
594000000 -2.1989288 -34.813702 -82.284904 -141.11259 -82.379723 -139.46698 -4.545773 -121.77139
603500000 -2.181119 -62.44622 -82.119278 -167.51662 -82.151756 -167.56641 -4.6281924 -150.129
613000000 -2.2211993 -90.157211 -81.919891 165.12665 -81.921791 165.63466 -4.7169414 -178.78955
622500000 -2.2964592 -118.35892 -81.815895 137.62895 -81.6026 138.46294 -4.7853999 152.34071
632000000 -2.3631694 -147.4106 -81.418221 111.8663 -81.590683 111.69652 -4.8091459 123.49033
641500000 -2.4085994 -176.74992 -81.010002 84.308945 -81.091255 83.589989 -4.7793946 94.945747
651000000 -2.4606178 154.17995 -80.764786 53.105175 -80.601837 52.657681 -4.7088342 66.879944
660500000 -2.5215342 125.09744 -80.638657 24.727497 -80.551529 25.391634 -4.6296706 39.24968
670000000 -2.539603 95.651817 -80.365021 -3.172796 -80.378647 -3.4118066 -4.5749011 11.862881
679500000 -2.4967554 66.545616 -80.23381 -30.125107 -80.184448 -31.251728 -4.5621209 -15.530998
689000000 -2.4463196 38.531666 -80.14064 -59.80761 -80.041405 -60.210609 -4.5896816 -43.134922
698500000 -2.4302847 10.981291 -79.951416 -87.237228 -79.991188 -86.599884 -4.6393843 -71.036217
708000000 -2.4232173 -17.13785 -79.632027 -114.10193 -79.643028 -114.48067 -4.6887822 -99.213509
717500000 -2.4006622 -45.439648 -79.563255 -142.75787 -79.539757 -143.42891 -4.7245102 -127.59096
727000000 -2.4015522 -73.068169 -79.300728 -171.7892 -79.405273 -170.92499 -4.7468047 -156.08658
736500000 -2.4767318 -100.86881 -79.032028 160.43539 -79.120674 161.30504 -4.7595973 175.36134
746000000 -2.5903547 -130.09538 -78.784431 132.50394 -78.8983 132.74649 -4.7613444 146.80943
755500000 -2.6436238 -159.9539 -78.835197 103.98788 -78.844414 104.21486 -4.744525 118.34971
765000000 -2.6725738 170.82458 -78.694046 75.404648 -78.650482 75.813736 -4.7004051 90.126801
774500000 -2.7707436 141.55881 -78.481178 47.736191 -78.485283 47.066723 -4.6271849 62.276443
784000000 -2.8473301 111.29774 -78.33374 19.912025 -78.385338 19.715452 -4.5377231 34.848778
793500000 -2.802388 81.240448 -78.410378 -8.8789463 -78.351715 -9.3249531 -4.4550395 7.7693548
803000000 -2.733777 52.748524 -78.285583 -36.82869 -78.242638 -36.739494 -4.3996034 -19.128775
812500000 -2.7224798 24.816383 -77.983208 -63.940327 -78.069237 -64.581581 -4.3809757 -46.049904
822000000 -2.7069473 -3.5986526 -77.869286 -91.668892 -77.895546 -91.878426 -4.3949361 -73.161232
831500000 -2.6402836 -31.723761 -77.776695 -119.56291 -77.799309 -119.31132 -4.4270024 -100.54344
841000000 -2.6072893 -59.130882 -77.521599 -147.30602 -77.467056 -147.17847 -4.4604354 -128.18268
850500000 -2.6585412 -86.667511 -77.307159 -174.58022 -77.347351 -174.51653 -4.4852104 -156.00218
860000000 -2.7136216 -114.91651 -77.071388 156.56778 -77.062515 157.13731 -4.4994102 176.09349
869500000 -2.74928 -143.59052 -76.956306 127.78959 -76.971306 128.43951 -4.5045385 148.18576
879000000 -2.8120782 -172.33051 -76.767319 99.091873 -76.805176 100.04054 -4.5012083 120.34416
888500000 -2.871686 158.71555 -76.850571 72.247032 -76.816795 72.174332 -4.4860816 92.641785
898000000 -2.9041672 129.50433 -76.763412 43.767868 -76.729744 44.041199 -4.4539762 65.159218
907500000 -2.9184709 100.35769 -76.688011 16.079952 -76.597374 16.355282 -4.4060435 37.944191
917000000 -2.8926866 71.513962 -76.522644 -11.382467 -76.514862 -11.160298 -4.3538947 10.984785
926500000 -2.8238523 43.340046 -76.464386 -38.873447 -76.436607 -38.705585 -4.3144426 -15.797048
936000000 -2.7513187 15.94375 -76.36969 -65.777061 -76.294167 -65.913605 -4.3013315 -42.53825
945500000 -2.7084641 -11.207124 -76.046509 -93.026779 -76.065292 -92.973389 -4.31987 -69.405548
955000000 -2.6766753 -38.367722 -75.850327 -120.14391 -75.840309 -120.28143 -4.3661075 -96.548866
964500000 -2.6395571 -65.30555 -75.581284 -147.38519 -75.647064 -147.55299 -4.4297652 -124.05962
974000000 -2.6435177 -92.065277 -75.437569 -175.36388 -75.382874 -175.29846 -4.4994621 -151.92828
983500000 -2.7051136 -119.16037 -75.144508 157.9174 -75.137802 157.64484 -4.5639544 179.93477
993000000 -2.765182 -147.05565 -74.836487 130.27931 -74.863342 130.28755 -4.6147742 151.64038
1002500000 -2.8049364 -175.48906 -74.46859 101.93661 -74.486855 101.62252 -4.6483493 123.28676
1012000000 -2.8519235 156.23853 -74.237961 72.019699 -74.148666 72.407928 -4.663722 94.977364
1021500000 -2.9061537 127.90504 -73.996887 44.114491 -74.073158 44.27383 -4.6579838 66.804924
1031000000 -2.9493122 98.872437 -73.938652 15.450592 -73.93499 15.379701 -4.6303897 38.849255
1040500000 -2.9325202 69.730881 -73.830093 -12.622103 -73.813309 -12.825067 -4.5878806 11.142379
1050000000 -2.8633909 41.661041 -73.683861 -41.54575 -73.701469 -41.432442 -4.5455928 -16.341158
1059500000 -2.8143046 14.523705 -73.621391 -68.297356 -73.603043 -68.170357 -4.5204215 -43.698101
1069000000 -2.7980871 -12.951263 -73.349739 -95.812668 -73.337769 -96.420609 -4.5251598 -71.085838
1078500000 -2.7752693 -40.767479 -73.209892 -124.25555 -73.139015 -124.2846 -4.562983 -98.682251
1088000000 -2.7379954 -67.7071 -72.905632 -152.40382 -72.929405 -152.71225 -4.6267939 -126.6216
1097500000 -2.7468348 -94.164383 -72.603836 179.82442 -72.580429 179.80641 -4.6996136 -154.95242
1107000000 -2.8361213 -121.72027 -72.424095 151.02684 -72.358086 151.00861 -4.7633986 176.38142
1116500000 -2.922991 -150.40601 -72.175003 122.05399 -72.210594 121.9024 -4.8047438 147.5313
1126000000 -2.9618671 -178.92044 -72.024757 92.969383 -72.02742 93.483063 -4.8171763 118.6912
1135500000 -3.0231228 152.79126 -71.91082 64.978706 -71.970528 65.299438 -4.8004112 90.028961
1145000000 -3.1241593 123.48198 -71.740707 35.558537 -71.761337 36.004299 -4.7578769 61.645653
1154500000 -3.1923327 93.260025 -71.675888 6.7485609 -71.677559 7.3129873 -4.6960297 33.592964
1164000000 -3.1718717 63.79726 -71.60656 -21.527893 -71.622093 -21.2721 -4.6229534 5.869597
1173500000 -3.1141398 35.371582 -71.548187 -49.30032 -71.535141 -49.656937 -4.5500488 -21.570406
1183000000 -3.0974126 6.9201946 -71.428116 -77.817154 -71.451859 -77.487297 -4.4908862 -48.80949
1192500000 -3.0846829 -21.654774 -71.284447 -106.0191 -71.280502 -106.0602 -4.4580855 -75.976242
1202000000 -3.0234725 -49.477959 -71.191185 -134.02875 -71.157562 -134.00221 -4.4583821 -103.2133
1211500000 -2.9779391 -76.480698 -71.069427 -161.88054 -71.037399 -162.05591 -4.4891343 -130.65384
1221000000 -3.0208569 -103.81541 -70.855553 170.17744 -70.88266 170.08029 -4.537734 -158.38055
1230500000 -3.1115847 -132.04758 -70.638908 140.9077 -70.640366 140.86188 -4.5871434 173.59775
1240000000 -3.154151 -160.43716 -70.50013 112.451 -70.512901 112.35954 -4.621861 145.3815
1249500000 -3.173327 171.30646 -70.367676 83.569695 -70.447159 83.614899 -4.631259 117.13052
1259000000 -3.2523649 142.53685 -70.288841 54.405415 -70.321495 54.324352 -4.6132154 89.019783
1268500000 -3.3404927 113.10692 -70.216957 25.300419 -70.241684 25.273758 -4.5712404 61.173832
1278000000 -3.354775 83.624657 -70.318672 -2.9412384 -70.323227 -2.7865937 -4.513495 33.647507
1287500000 -3.3215969 54.534611 -70.369629 -30.767704 -70.353424 -30.526333 -4.4486332 6.4232221
1297000000 -3.2743256 25.92893 -70.168991 -58.563934 -70.208954 -58.53574 -4.3869481 -20.57365
1306500000 -3.2151489 -2.0834789 -70.143379 -86.591484 -70.149345 -87.135506 -4.3419948 -47.436588
1316000000 -3.1543472 -29.606569 -69.887863 -113.77357 -69.850418 -114.19524 -4.3226013 -74.271118
1325500000 -3.0975051 -56.892147 -69.659363 -144.0211 -69.678986 -143.68663 -4.3355656 -101.19538
1335000000 -3.0488977 -83.725098 -69.634041 -173.55128 -69.631958 -173.47479 -4.3780179 -128.31873
1344500000 -3.0416937 -110.13555 -69.70462 158.0269 -69.686172 157.84445 -4.4415231 -155.74808
1354000000 -3.0932446 -137.05164 -69.603676 129.33403 -69.653877 129.1628 -4.5145078 176.47559
1363500000 -3.142082 -164.81427 -69.755424 99.325478 -69.748596 99.342941 -4.5813866 148.40442
1373000000 -3.1446831 167.54031 -70.152115 71.18074 -70.200874 71.152519 -4.6260552 120.15684
1382500000 -3.1782668 140.1653 -70.301079 47.830879 -70.239944 47.843662 -4.6386642 91.862541
1392000000 -3.2863822 111.86571 -69.626862 22.34734 -69.558014 22.593788 -4.6250858 63.658806
1401500000 -3.3438261 82.615631 -68.898956 -9.4392357 -68.94651 -9.2126389 -4.5957003 35.682682
1411000000 -3.2852283 53.962532 -69.151733 -42.915218 -69.14476 -42.775078 -4.5560722 7.9946041
1420500000 -3.2430923 26.311666 -69.64682 -69.681618 -69.623016 -69.715065 -4.5137072 -19.483231
1430000000 -3.2592394 -1.4844757 -69.528816 -97.788406 -69.558105 -97.499008 -4.4839187 -46.877338
1439500000 -3.2240574 -29.600449 -69.535507 -127.8242 -69.567764 -127.88181 -4.4797759 -74.287498
1449000000 -3.1169288 -56.710449 -69.979156 -157.7361 -69.898987 -157.66835 -4.5037541 -101.80574
1458500000 -3.0556672 -82.728485 -70.696159 174.75984 -70.64109 174.60809 -4.5509715 -129.51303
1468000000 -3.1076243 -109.1968 -71.291321 152.30048 -71.295204 152.10689 -4.6111398 -157.4774
1477500000 -3.1783781 -136.70047 -70.894714 128.99844 -70.85096 129.07306 -4.6731911 174.28185
1487000000 -3.1759424 -164.1889 -70.625732 103.22112 -70.605148 102.86086 -4.725287 145.80806
1496500000 -3.1946723 168.75761 -70.455742 77.224022 -70.414085 77.469116 -4.7572594 117.17605
1506000000 -3.317353 141.02469 -69.963211 51.006653 -69.945641 51.114742 -4.7649155 88.479919
1515500000 -3.4357016 111.97083 -69.481773 21.517508 -69.497643 21.421965 -4.751308 59.843422
1525000000 -3.453541 82.769142 -69.659164 -6.355824 -69.694672 -6.4041748 -4.7181487 31.392933
1534500000 -3.4603853 54.186172 -69.53817 -32.69537 -69.552055 -32.364758 -4.669507 3.2022989
1544000000 -3.5210574 25.307695 -69.257164 -59.734997 -69.311836 -59.424519 -4.6125054 -24.708178
1553500000 -3.5323973 -3.9841266 -69.007507 -86.941803 -69.017281 -86.804779 -4.5582113 -52.390133
1563000000 -3.4480608 -32.436298 -68.772758 -114.73525 -68.757423 -114.7171 -4.5195284 -79.942886
1572500000 -3.3903778 -59.922726 -68.581123 -142.34898 -68.535057 -141.79144 -4.5066433 -107.48336
1582000000 -3.4080949 -87.406891 -68.277756 -169.90768 -68.274361 -170.13992 -4.5208206 -135.1144
1591500000 -3.4256637 -115.09899 -68.033684 162.42505 -68.019806 162.02043 -4.554142 -162.89717
1601000000 -3.440696 -142.73721 -67.816635 134.42787 -67.77494 134.12466 -4.5914812 169.16153
1610500000 -3.4958544 -170.57896 -67.535446 106.3527 -67.532722 106.24863 -4.6176448 141.09961
1620000000 -3.5529029 161.17455 -67.213997 78.404442 -67.235863 78.216415 -4.6243081 112.96902
1629500000 -3.6157279 132.70238 -66.941109 49.819 -66.951027 49.664131 -4.6139197 84.824196
1639000000 -3.7323163 103.73756 -66.724998 20.794319 -66.728264 20.841959 -4.5941534 56.71986
1648500000 -3.8193922 74.004486 -66.516335 -8.2093372 -66.502373 -7.9660282 -4.5692635 28.714552
1658000000 -3.8049405 44.346745 -66.369972 -36.838921 -66.411079 -36.908432 -4.5382566 0.85893911
1667500000 -3.7932081 15.350106 -66.279037 -65.423378 -66.266655 -65.19043 -4.4988327 -26.811363
1677000000 -3.8179967 -13.715042 -66.107246 -93.743172 -66.101578 -93.410301 -4.4524031 -54.272099
1686500000 -3.7558608 -42.807957 -65.903687 -121.98527 -65.957726 -121.79028 -4.4063487 -81.544632
1696000000 -3.6296594 -70.776428 -65.782974 -150.28386 -65.802681 -150.27049 -4.372571 -108.70094
1705500000 -3.6064544 -97.859032 -65.584885 -178.46916 -65.582413 -178.63832 -4.3622055 -135.85925
1715000000 -3.6577392 -125.3195 -65.373398 152.97133 -65.370476 153.24246 -4.3798971 -163.1317
1724500000 -3.6274717 -153.17957 -65.120621 124.54839 -65.148232 124.59302 -4.4198275 169.41098
1734000000 -3.5780132 179.38472 -64.935623 95.983688 -64.955589 95.848167 -4.4671903 141.75455
1743500000 -3.646668 152.10757 -64.729424 67.308853 -64.700447 67.265572 -4.5055203 113.93278
1753000000 -3.7499557 124.07633 -64.445679 38.414314 -64.461601 38.50412 -4.5251122 86.000092
1762500000 -3.7692413 95.358803 -64.203606 9.4683685 -64.203491 9.3190727 -4.527338 57.999992
1772000000 -3.7845886 66.687424 -64.02227 -19.988338 -64.032036 -20.044125 -4.5201411 29.968479
1781500000 -3.8600268 38.167915 -63.884758 -49.219498 -63.869133 -49.06443 -4.5102921 1.947551
1791000000 -3.8866029 9.4390297 -63.658569 -78.091019 -63.679302 -77.961113 -4.4967008 -26.005634
1800500000 -3.820555 -19.360392 -63.439438 -107.26139 -63.468052 -107.221 -4.4739447 -53.838902
1810000000 -3.7645769 -47.597858 -63.275677 -136.33344 -63.266701 -136.23215 -4.4412827 -81.527527
1819500000 -3.7521479 -75.080208 -62.953083 -165.3356 -62.962234 -165.10727 -4.4081879 -109.07513
1829000000 -3.7197101 -102.22334 -62.517956 165.29271 -62.523209 165.25096 -4.3882761 -136.52913
1838500000 -3.6672952 -129.37082 -62.080093 134.03465 -62.066048 133.99532 -4.3921585 -163.9838
1848000000 -3.678093 -156.48064 -61.859531 101.52005 -61.831367 101.56429 -4.4221883 168.44208
1857500000 -3.7555821 176.47318 -61.805149 69.372536 -61.80632 69.571907 -4.4714751 140.64594
1867000000 -3.8073781 149.28955 -61.785423 38.035694 -61.788254 37.909134 -4.5255733 112.5976
1876500000 -3.8325934 121.82592 -61.804043 6.0654764 -61.80146 5.9793773 -4.5675063 84.344322
1886000000 -3.9383054 94.032494 -61.883442 -26.552404 -61.879829 -26.590752 -4.585371 55.961529
1895500000 -4.1095061 65.805466 -62.168659 -59.626324 -62.181194 -59.579521 -4.5791173 27.52021
1905000000 -4.1974621 37.268909 -62.791069 -91.208641 -62.795563 -91.399895 -4.5579138 -0.91731554
1914500000 -4.1914997 8.8500824 -63.056721 -121.89104 -63.040646 -121.91903 -4.5313926 -29.282122
1924000000 -4.2123976 -19.472967 -63.7631 -155.1373 -63.735497 -155.01361 -4.5010352 -57.4991
1933500000 -4.2403088 -48.000866 -64.76162 174.17889 -64.820847 174.06526 -4.4632907 -85.518715
1943000000 -4.156373 -76.194016 -65.936279 146.96527 -65.937096 146.81433 -4.4185705 -113.31853
1952500000 -4.0181484 -103.53703 -66.994629 120.5746 -67.006592 120.69323 -4.3750286 -140.90627
1962000000 -3.9812763 -130.7654 -67.70594 99.397644 -67.745438 99.680809 -4.3445649 -168.3382
1971500000 -4.0208015 -158.49034 -67.779076 76.95446 -67.834908 77.150467 -4.3387465 164.28052
1981000000 -4.0000935 173.77278 -67.676422 53.948566 -67.658943 53.595238 -4.3613672 136.81528
1990500000 -3.9549344 146.43878 -67.291527 27.875069 -67.256256 27.569469 -4.4059248 109.16178
2000000000 -4.0132565 118.88491 -67.064133 -0.37184739 -67.063507 -0.15971145 -4.4557419 81.269585
