!CSV A.01.01
!Keysight Technologies,N5242B,MY48420967,A.15.65.19
!Date: Saturday, February 04, 2023 08:45:54
!Source: Standard

BEGIN CH1_DATA
Freq(Hz),B_1(DB),B_1(DEG)
100000000,-103.91095,141.44525
109500000,-102.87797,-112.20084
119000000,-103.47407,-113.48684
128500000,-104.32753,168.42311
138000000,-105.02173,136.75652
147500000,-102.23117,130.10742
157000000,-102.64857,-32.205315
166500000,-103.3207,134.23239
176000000,-103.92746,-142.45039
185500000,-104.01732,144.55344
195000000,-104.44077,8.8248186
204500000,-104.74233,-128.87234
214000000,-102.49506,58.400433
223500000,-102.33109,-59.013885
233000000,-102.72997,-74.358406
242500000,-103.07524,-57.32439
252000000,-98.514153,-105.078
261500000,-98.847466,42.115208
271000000,-99.181778,-143.01335
280500000,-99.189087,-170.24968
290000000,-99.43425,21.209036
299500000,-99.761078,-23.526737
309000000,-100.14636,-147.30399
318500000,-100.17719,-152.4008
328000000,-100.52314,-6.0238314
337500000,-100.87665,56.697144
347000000,-100.77608,-176.23468
356500000,-101.06283,86.590431
366000000,-101.11932,-159.58624
375500000,-101.55697,162.52725
385000000,-101.77663,-16.506088
394500000,-101.99256,23.825104
404000000,-102.01317,-179.88797
413500000,-102.37894,-72.997879
423000000,-102.52881,134.28131
432500000,-102.30573,74.578354
442000000,-102.56642,-42.167179
451500000,-103.20259,104.48571
461000000,-102.9027,37.386616
470500000,-103.27397,-144.9397
480000000,-103.38339,30.751789
489500000,-103.24964,46.736397
499000000,-103.89591,-41.894043
508500000,-102.859,125.61012
518000000,-102.82278,169.32681
527500000,-103.16667,-39.079128
537000000,-103.42381,104.7
546500000,-103.17035,81.285385
556000000,-103.36858,76.776306
565500000,-103.39642,41.134491
575000000,-103.59937,-58.780273
584500000,-103.95711,22.817894
594000000,-103.91425,149.06067
603500000,-103.93914,60.150791
613000000,-103.95803,78.081139
622500000,-104.24458,-40.306522
632000000,-103.04581,-45.612434
641500000,-103.34646,93.605782
651000000,-103.36408,44.568161
660500000,-103.60911,37.446392
670000000,-103.58805,-92.956604
679500000,-103.76805,87.340889
689000000,-104.04187,166.10368
698500000,-103.85945,126.79077
708000000,-103.7523,34.725712
717500000,-103.8013,110.24829
727000000,-103.81937,1.7727708
736500000,-104.11969,-67.913994
746000000,-103.87798,158.07182
755500000,-104.21734,124.3203
765000000,-104.4661,28.735197
774500000,-104.69375,25.034863
784000000,-104.49969,-96.221237
793500000,-104.25509,9.3952799
803000000,-104.42835,-160.78864
812500000,-104.60091,178.13945
822000000,-104.68466,80.807625
831500000,-104.74216,68.613777
841000000,-104.716,32.462749
850500000,-104.60531,179.90195
860000000,-104.76591,-72.459007
869500000,-105.00934,-128.86372
879000000,-104.88619,32.100918
888500000,-105.01371,10.573307
898000000,-105.00995,12.305234
907500000,-104.67716,-151.08699
917000000,-104.78159,-148.26619
926500000,-104.80015,-152.44756
936000000,-104.89546,-51.483208
945500000,-105.2683,-46.07074
955000000,-105.20854,149.62019
964500000,-105.05022,45.7164
974000000,-105.55086,174.87921
983500000,-105.3495,114.17727
993000000,-105.17325,-133.26834
1002500000,-105.17904,120.88645
1012000000,-105.28898,156.57951
1021500000,-105.21101,-47.612595
1031000000,-105.36989,48.047405
1040500000,-105.34298,-63.355621
1050000000,-105.14646,-70.498428
1059500000,-105.38966,-154.50208
1069000000,-105.48743,-32.718071
1078500000,-105.5002,65.197144
1088000000,-105.37583,-116.5729
1097500000,-105.48257,103.61594
1107000000,-105.61716,-65.519249
1116500000,-105.49924,78.542862
1126000000,-105.58288,144.64171
1135500000,-105.45181,58.380634
1145000000,-105.38047,-7.9805722
1154500000,-105.45472,-21.036783
1164000000,-105.51571,54.569466
1173500000,-105.35928,107.04254
1183000000,-105.40515,-118.00964
1192500000,-105.3885,-164.34651
1202000000,-105.42818,93.33918
1211500000,-105.55013,39.540451
1221000000,-105.50531,-75.521965
1230500000,-105.50731,44.000202
1240000000,-105.37273,65.480743
1249500000,-105.71719,-163.89102
1259000000,-105.43101,-27.652157
1268500000,-105.58721,13.891425
1278000000,-105.64174,-24.16453
1287500000,-105.40067,136.35851
1297000000,-105.58786,56.499851
1306500000,-105.58549,-150.1534
1316000000,-105.58283,-99.161346
1325500000,-105.22987,97.377388
1335000000,-105.23973,-68.639839
1344500000,-105.42595,43.197483
1354000000,-105.32069,-9.7722149
1363500000,-105.08978,-109.48569
1373000000,-105.32294,62.979965
1382500000,-105.26427,-123.1545
1392000000,-105.21806,70.402504
1401500000,-105.18655,-177.41985
1411000000,-105.17737,-71.968872
1420500000,-105.25736,-14.140822
1430000000,-105.15798,8.1507607
1439500000,-105.10043,119.64466
1449000000,-105.06229,13.41622
1458500000,-105.30416,-90.185822
1468000000,-105.19838,174.7547
1477500000,-105.2088,-125.64969
1487000000,-104.96437,-50.245293
1496500000,-105.43972,-96.06601
1506000000,-105.0946,-49.251801
1515500000,-105.00388,-1.426165
1525000000,-105.06718,43.51939
1534500000,-104.85472,179.40862
1544000000,-105.01787,134.87534
1553500000,-104.81619,101.04666
1563000000,-105.07183,-24.608669
1572500000,-104.86087,80.052536
1582000000,-104.89809,75.198746
1591500000,-104.84306,44.275387
1601000000,-104.85627,-33.671211
1610500000,-104.73245,97.335442
1620000000,-104.64958,-38.585049
1629500000,-105.03091,135.41258
1639000000,-104.71938,-4.1427522
1648500000,-104.72721,23.206524
1658000000,-104.68044,-2.2911963
1667500000,-104.49739,-107.89956
1677000000,-104.60022,21.676115
1686500000,-104.74297,96.769707
1696000000,-104.86745,-109.00414
1705500000,-104.47815,-84.765976
1715000000,-104.53914,-172.68214
1724500000,-104.57029,-26.92238
1734000000,-104.41322,-141.64818
1743500000,-104.48341,57.739536
1753000000,-104.2724,27.051413
1762500000,-104.4687,-59.94553
1772000000,-104.60789,-30.859892
1781500000,-104.37011,-121.76622
1791000000,-104.21703,-12.78082
1800500000,-104.16556,-84.898804
1810000000,-104.0651,30.946594
1819500000,-104.20725,3.3282588
1829000000,-104.22303,5.8254814
1838500000,-104.27346,142.7549
1848000000,-104.24491,-130.13058
1857500000,-104.1066,111.77314
1867000000,-104.05117,29.059839
1876500000,-104.30729,119.84789
1886000000,-103.95342,-102.26801
1895500000,-103.97093,29.257509
1905000000,-103.92413,-80.571434
1914500000,-104.02073,170.03146
1924000000,-103.89866,126.35625
1933500000,-103.51756,163.05086
1943000000,-103.93198,-18.344807
1952500000,-104.22571,35.006424
1962000000,-104.07146,-92.060989
1971500000,-103.87261,4.1130948
1981000000,-103.75133,174.25795
1990500000,-103.83274,-66.868195
2000000000,-103.61864,-71.874062
END

