!CSV A.01.01
!Keysight Technologies,N5242B,MY48420967,A.15.65.19
!Date: Saturday, February 04, 2023 04:31:34
!Source: Standard

BEGIN CH1_DATA
Freq(Hz),DUTNPD(DB),DUTNPD(DEG)
100000000,-174.94322,80.452408
109500000,-174.28421,79.100891
119000000,-174.09084,78.662857
128500000,-173.82452,77.980659
138000000,-173.67479,77.596199
147500000,-171.81154,71.484596
157000000,-174.09294,78.817726
166500000,-173.52019,77.311432
176000000,-173.50237,77.296074
185500000,-173.46359,77.157631
195000000,-173.52019,77.373009
204500000,-173.34787,76.989632
214000000,-173.58592,77.800674
223500000,-173.58946,77.961052
233000000,-173.62511,78.230026
242500000,-173.53972,78.109917
252000000,-173.46658,77.953514
261500000,-173.45561,77.950935
271000000,-173.48976,78.008995
280500000,-173.53922,78.094505
290000000,-173.53122,78.048477
299500000,-173.56302,78.181686
309000000,-173.70265,78.558037
318500000,-173.52463,78.047165
328000000,-173.08568,76.792053
337500000,-173.42198,77.841209
347000000,-172.75818,76.025551
356500000,-172.53615,75.145859
366000000,-172.68991,75.63205
375500000,-173.47189,77.921448
385000000,-174.04407,79.459099
394500000,-173.96938,79.363426
404000000,-173.84254,79.174072
413500000,-174.09821,79.933067
423000000,-173.83733,79.481499
432500000,-173.53426,78.823341
442000000,-173.36789,78.461182
451500000,-173.38368,78.550591
461000000,-172.99806,77.495094
470500000,-173.08272,77.704689
480000000,-173.19556,77.974304
489500000,-173.23605,78.034981
499000000,-173.37411,78.352089
508500000,-173.49619,78.684715
518000000,-173.47153,78.648079
527500000,-173.4072,78.51506
537000000,-173.52374,78.857635
546500000,-173.36122,78.491753
556000000,-173.38855,78.703003
565500000,-173.49217,79.148994
575000000,-173.42409,79.164574
584500000,-173.37521,79.238022
594000000,-173.37804,79.431328
603500000,-173.38722,79.553169
613000000,-173.24741,79.178925
622500000,-173.36842,79.429932
632000000,-173.37822,79.444061
641500000,-173.39272,79.480408
651000000,-173.45409,79.620407
660500000,-173.52301,79.722702
670000000,-173.56281,79.756668
679500000,-173.62437,79.825294
689000000,-173.7639,80.052696
698500000,-173.60623,79.599854
708000000,-173.66025,79.649117
717500000,-173.58171,79.38884
727000000,-173.34444,78.745575
736500000,-173.02063,77.908623
746000000,-173.12161,78.187851
755500000,-173.37598,78.923187
765000000,-173.14944,78.421524
774500000,-173.0874,78.33548
784000000,-173.22879,78.771797
793500000,-173.36778,79.19416
803000000,-172.99164,78.35791
812500000,-172.90758,78.252075
822000000,-173.02992,78.679688
831500000,-173.3185,79.492096
841000000,-173.44801,79.851166
850500000,-173.53349,80.091255
860000000,-173.58702,80.255295
869500000,-173.50731,80.124031
879000000,-173.5287,80.196182
888500000,-173.73369,80.636391
898000000,-173.76163,80.691788
907500000,-173.64258,80.434464
917000000,-173.55357,80.236641
926500000,-173.48607,80.093857
936000000,-173.44122,80.000244
945500000,-173.39059,79.892632
955000000,-173.41063,79.945465
964500000,-173.35233,79.870522
974000000,-173.22636,79.666237
983500000,-173.23186,79.76458
993000000,-173.32242,80.054008
1002500000,-173.45882,80.442375
1012000000,-173.58868,80.823303
1021500000,-173.63737,81.024658
1031000000,-173.65977,81.168129
1040500000,-173.48869,80.918785
1050000000,-173.60286,81.10537
1059500000,-173.63986,81.114441
1069000000,-173.66017,81.089142
1078500000,-173.48415,80.657127
1088000000,-173.3477,80.294388
1097500000,-173.26802,80.0485
1107000000,-173.2551,79.948639
1116500000,-173.28244,79.939011
1126000000,-173.30739,79.928871
1135500000,-172.9971,79.173958
1145000000,-172.87173,78.838188
1154500000,-172.92467,78.943764
1164000000,-173.16713,79.505241
1173500000,-173.44507,80.273026
1183000000,-173.68301,80.957756
1192500000,-173.66626,81.09256
1202000000,-173.49826,80.916389
1211500000,-173.43127,80.934242
1221000000,-173.67448,81.546982
1230500000,-173.6987,81.715752
1240000000,-173.52927,81.514542
1249500000,-173.20439,80.994759
1259000000,-173.42412,81.417564
1268500000,-173.48262,81.508377
1278000000,-173.46974,81.461151
1287500000,-173.43188,81.364861
1297000000,-173.28889,81.024574
1306500000,-173.08345,80.511795
1316000000,-173.0079,80.259811
1325500000,-173.16437,80.510948
1335000000,-173.41101,80.968109
1344500000,-173.15039,80.487053
1354000000,-173.25931,80.783516
1363500000,-173.42941,81.193748
1373000000,-173.40787,81.211861
1382500000,-173.82697,82.16993
1392000000,-174.304,83.138733
1401500000,-174.4745,83.550049
1411000000,-174.08742,83.110512
1420500000,-173.8981,82.917908
1430000000,-174.14116,83.340675
1439500000,-174.16859,83.422256
1449000000,-173.95386,83.133545
1458500000,-173.61255,82.619347
1468000000,-173.54448,82.365364
1477500000,-173.43961,82.033684
1487000000,-173.36273,81.737907
1496500000,-173.49908,81.833122
1506000000,-173.18669,80.949341
1515500000,-173.11945,80.786606
1525000000,-173.0681,80.654655
1534500000,-173.15034,80.802948
1544000000,-173.38835,81.262573
1553500000,-173.55759,81.569397
1563000000,-173.46625,81.370125
1572500000,-173.6393,81.79184
1582000000,-174.13641,82.861649
1591500000,-174.41687,83.475182
1601000000,-174.28737,83.447144
1610500000,-174.20721,83.488503
1620000000,-174.0394,83.395004
1629500000,-173.73753,83.088013
1639000000,-173.418,82.663231
1648500000,-173.36232,82.476669
1658000000,-173.41548,82.473007
1667500000,-173.42413,82.391418
1677000000,-173.30466,82.080246
1686500000,-173.27664,81.924812
1696000000,-173.34009,81.934273
1705500000,-173.29962,81.765671
1715000000,-173.30307,81.817108
1724500000,-173.36719,81.979553
1734000000,-173.51007,82.278076
1743500000,-173.49898,82.300262
1753000000,-173.47443,82.298813
1762500000,-173.41939,82.2435
1772000000,-173.33377,82.132851
1781500000,-173.56999,82.672562
1791000000,-173.6942,83.004219
1800500000,-173.7001,83.136253
1810000000,-173.70221,83.257889
1819500000,-173.54634,83.132195
1829000000,-173.46223,83.115738
1838500000,-173.42844,83.176193
1848000000,-173.18796,82.708138
1857500000,-172.79047,81.845757
1867000000,-172.53925,81.177315
1876500000,-172.46333,80.822769
1886000000,-172.60739,80.912949
1895500000,-172.75203,80.99868
1905000000,-173.00218,81.289413
1914500000,-173.32375,81.865616
1924000000,-173.6208,82.475227
1933500000,-173.79189,82.836563
1943000000,-173.83252,82.974358
1952500000,-173.84563,83.065262
1962000000,-173.68587,82.879333
1971500000,-173.34425,82.37867
1981000000,-173.08044,81.994698
1990500000,-173.12051,82.16526
2000000000,-173.07805,82.18573
END

