!CSV A.01.01
!Keysight Technologies,N5242B,MY48420967,A.15.65.19
!Date: Saturday, February 04, 2023 12:14:55
!Source: Standard

BEGIN CH1_DATA
Freq(Hz),A_2(DB),A_2(DEG)
100000000,-103.99033,117.5546
109500000,-102.97325,112.05312
119000000,-103.74452,-1.4596107
128500000,-104.39931,68.341721
138000000,-104.87055,-70.501984
147500000,-102.01719,68.331764
157000000,-102.50091,-39.260612
166500000,-103.08468,31.953138
176000000,-103.53146,43.397472
185500000,-103.96725,-45.61097
195000000,-104.34717,-68.69381
204500000,-104.88235,-127.47559
214000000,-102.68804,-29.238634
223500000,-102.91361,56.687679
233000000,-102.91285,106.80263
242500000,-103.61469,-73.590675
252000000,-98.909195,-142.29498
261500000,-99.158257,-148.12436
271000000,-99.349953,-65.872078
280500000,-99.609024,-52.247341
290000000,-99.823013,-15.118122
299500000,-100.29848,161.67725
309000000,-100.44073,174.03549
318500000,-100.77163,-122.08257
328000000,-100.92367,36.44754
337500000,-101.10201,178.56906
347000000,-101.273,21.898645
356500000,-101.52499,9.7318029
366000000,-101.85859,56.383518
375500000,-102.10358,20.024895
385000000,-102.13609,27.184494
394500000,-102.35831,-95.771019
404000000,-101.44392,-56.840157
413500000,-101.60989,21.541681
423000000,-102.03635,44.960068
432500000,-102.12478,97.505013
442000000,-102.30727,-3.4846144
451500000,-102.22736,100.81998
461000000,-102.55752,-99.806427
470500000,-102.71801,107.89384
480000000,-102.7022,-107.29103
489500000,-103.29939,-29.190163
499000000,-103.20411,-26.981516
508500000,-103.03789,-4.3188858
518000000,-103.36101,110.96997
527500000,-103.61324,-100.30826
537000000,-103.52866,64.152412
546500000,-103.52969,-165.94296
556000000,-104.02167,-134.05069
565500000,-104.23511,-52.957569
575000000,-104.01064,-53.227188
584500000,-104.19667,137.88138
594000000,-104.17784,27.02494
603500000,-104.16478,-164.97125
613000000,-104.52762,76.96701
622500000,-104.47667,121.11212
632000000,-103.55905,76.945984
641500000,-103.63947,-160.51372
651000000,-103.58016,-95.758278
660500000,-103.75771,-101.20377
670000000,-103.78134,101.8487
679500000,-104.10695,117.20699
689000000,-104.06144,-115.2351
698500000,-104.04983,-131.28117
708000000,-104.46642,123.19592
717500000,-104.3672,-57.457142
727000000,-104.20871,91.807152
736500000,-104.1628,58.084339
746000000,-104.79417,85.449913
755500000,-104.66086,-114.91031
765000000,-104.68111,-86.978394
774500000,-104.59901,45.860935
784000000,-104.88949,-176.2942
793500000,-104.87957,-95.568665
803000000,-104.98371,25.630896
812500000,-104.89646,-90.078041
822000000,-104.68071,91.477753
831500000,-105.14689,29.637232
841000000,-104.8258,-178.84579
850500000,-105.19244,-96.566147
860000000,-105.146,176.2244
869500000,-105.10998,-12.675362
879000000,-105.1348,-77.907173
888500000,-105.21635,-168.20447
898000000,-105.08042,-100.04512
907500000,-105.47912,-44.29916
917000000,-105.41492,147.44286
926500000,-105.361,133.54733
936000000,-105.38023,40.013515
945500000,-105.36479,-100.39635
955000000,-105.56631,149.06432
964500000,-105.42227,-102.83402
974000000,-105.38513,15.960224
983500000,-105.52972,25.642286
993000000,-105.55271,-31.167116
1002500000,-102.49416,-4.5152788
1012000000,-103.0537,-116.13066
1021500000,-102.95585,69.516052
1031000000,-102.97213,9.5874386
1040500000,-103.16529,-145.69762
1050000000,-102.96086,-54.882442
1059500000,-102.86067,5.0028667
1069000000,-103.15309,18.741278
1078500000,-102.84779,-42.703976
1088000000,-103.27824,38.232647
1097500000,-102.85901,131.73357
1107000000,-103.07198,-168.09775
1116500000,-103.06836,-97.056557
1126000000,-103.15498,-141.11531
1135500000,-103.23064,-129.04489
1145000000,-103.05859,-49.184769
1154500000,-102.94808,-51.917801
1164000000,-103.18368,-112.44828
1173500000,-103.08369,88.004288
1183000000,-102.98547,-70.699379
1192500000,-103.13062,29.996559
1202000000,-103.10612,152.14575
1211500000,-103.22162,127.89613
1221000000,-102.7981,19.571123
1230500000,-102.96324,131.95822
1240000000,-102.71555,-111.25201
1249500000,-103.04128,-172.0146
1259000000,-103.12955,-66.973793
1268500000,-102.91923,-92.71505
1278000000,-103.05829,-174.87675
1287500000,-103.27467,71.99353
1297000000,-102.88969,-133.81052
1306500000,-103.02702,12.515219
1316000000,-103.21753,46.041161
1325500000,-103.09705,94.885201
1335000000,-102.99944,97.661949
1344500000,-102.94978,-119.14489
1354000000,-102.79162,-146.51796
1363500000,-103.00794,-176.51904
1373000000,-102.88113,31.97216
1382500000,-103.06321,130.18942
1392000000,-103.06464,-113.5442
1401500000,-102.93817,-37.585583
1411000000,-102.91683,118.23566
1420500000,-102.96394,127.11206
1430000000,-102.89216,16.159327
1439500000,-102.87225,-154.05943
1449000000,-102.90171,-34.20126
1458500000,-103.19663,-28.794163
1468000000,-102.75853,-41.599606
1477500000,-102.74325,63.13739
1487000000,-102.84165,-45.870125
1496500000,-102.68417,-80.010193
1506000000,-105.71577,-100.39288
1515500000,-105.39751,-58.153145
1525000000,-105.58578,-50.785618
1534500000,-105.68008,102.68472
1544000000,-105.29901,-72.814209
1553500000,-105.37565,112.92136
1563000000,-105.32247,-108.86835
1572500000,-105.28296,59.556442
1582000000,-105.29508,64.906548
1591500000,-105.16228,-135.91225
1601000000,-105.32151,111.53864
1610500000,-105.44512,176.04231
1620000000,-105.23833,-110.41427
1629500000,-105.20496,80.681709
1639000000,-105.16267,-174.60274
1648500000,-105.31353,118.13618
1658000000,-105.24097,-39.614994
1667500000,-105.00063,-61.198235
1677000000,-105.14719,84.042648
1686500000,-105.22963,-173.90782
1696000000,-105.36794,85.187469
1705500000,-105.33763,140.84554
1715000000,-104.81273,-143.28954
1724500000,-105.1409,-110.67614
1734000000,-105.15437,-110.36199
1743500000,-105.02787,-0.47022215
1753000000,-105.04002,-83.609505
1762500000,-104.79227,12.648475
1772000000,-104.99733,-23.342897
1781500000,-104.98632,68.067078
1791000000,-104.73003,113.83527
1800500000,-104.57086,9.1170006
1810000000,-104.75405,65.365379
1819500000,-104.79412,-17.884939
1829000000,-104.79114,32.645065
1838500000,-104.47758,-31.250971
1848000000,-104.56104,-152.41936
1857500000,-104.83195,-136.44237
1867000000,-104.51163,151.55827
1876500000,-104.89431,99.214134
1886000000,-104.54324,38.974094
1895500000,-104.74092,-77.893234
1905000000,-104.54426,-86.354141
1914500000,-104.4071,-69.463226
1924000000,-104.27663,70.425194
1933500000,-104.62867,-148.74086
1943000000,-104.54785,-31.727589
1952500000,-104.31927,-34.018379
1962000000,-104.38649,-66.581749
1971500000,-104.54316,-129.3685
1981000000,-103.99461,-47.109642
1990500000,-104.52853,14.958331
2000000000,-104.74157,-40.109772
END

