!CSV A.01.01
!Keysight Technologies,N5242B,MY48420967,A.15.65.19
!Date: Saturday, February 04, 2023 12:14:55
!Source: Standard

BEGIN CH1_DATA
Freq(Hz),B_2(DB),B_2(DEG)
100000000,-104.10171,-47.942394
109500000,-103.10738,94.078613
119000000,-103.38065,129.26196
128500000,-104.25706,118.73937
138000000,-104.81715,-0.91296399
147500000,-102.06174,-59.824123
157000000,-102.77085,114.79489
166500000,-103.00089,-78.737801
176000000,-103.82918,-34.16061
185500000,-104.12621,-129.3949
195000000,-104.23763,27.057829
204500000,-104.81515,-112.39204
214000000,-102.32564,81.222229
223500000,-102.53629,173.1969
233000000,-103.01435,-111.91071
242500000,-103.08286,132.98485
252000000,-98.486855,48.832584
261500000,-98.482048,-137.34256
271000000,-98.819176,-5.2818117
280500000,-99.271591,-51.546543
290000000,-99.678558,102.48341
299500000,-99.857407,-16.838312
309000000,-100.20808,-133.04674
318500000,-100.13035,-167.10953
328000000,-100.3464,-148.79333
337500000,-101.15584,-153.21754
347000000,-100.8389,-8.3837986
356500000,-100.98296,-170.20995
366000000,-101.56809,60.65686
375500000,-101.38808,38.969151
385000000,-101.67211,-104.77689
394500000,-101.7653,160.48064
404000000,-101.93037,-150.28802
413500000,-102.25555,-23.685856
423000000,-102.34763,77.053162
432500000,-102.29892,43.756248
442000000,-102.85721,-159.84134
451500000,-102.75135,8.3314352
461000000,-103.0894,71.409111
470500000,-103.21942,-14.578665
480000000,-103.12314,-118.4978
489500000,-103.43028,-57.964996
499000000,-103.6767,30.775623
508500000,-102.75372,70.216057
518000000,-103.14322,-95.722893
527500000,-103.07091,-46.02784
537000000,-103.40891,-96.826447
546500000,-103.43764,-145.74324
556000000,-103.49371,-4.4762845
565500000,-103.44931,110.33114
575000000,-103.65764,-56.399471
584500000,-103.86417,-159.04002
594000000,-104.00234,-175.85999
603500000,-104.01615,-40.44466
613000000,-104.02524,-35.774723
622500000,-104.63229,-71.05423
632000000,-103.36138,97.951775
641500000,-103.41544,140.74861
651000000,-103.57275,-15.516474
660500000,-103.46636,77.791428
670000000,-103.54594,87.363457
679500000,-103.83496,-171.43739
689000000,-103.84372,167.07112
698500000,-103.74559,-83.73587
708000000,-103.68275,152.035
717500000,-103.63074,23.916245
727000000,-104.10854,-153.13336
736500000,-104.17316,-94.137299
746000000,-104.18793,-18.738661
755500000,-104.47346,-149.66968
765000000,-104.10838,64.164024
774500000,-104.33749,120.24663
784000000,-104.28947,164.93729
793500000,-104.62212,-20.48823
803000000,-104.20822,78.503372
812500000,-104.52328,124.83766
822000000,-104.53011,42.314327
831500000,-104.68416,-115.81857
841000000,-104.51706,104.85288
850500000,-104.79387,-46.155094
860000000,-104.75591,-142.23154
869500000,-105.0423,-68.004387
879000000,-104.96517,-101.27589
888500000,-104.86939,-112.44445
898000000,-104.9736,-130.38818
907500000,-104.84236,-32.566727
917000000,-105.11968,40.431503
926500000,-104.76847,-128.10637
936000000,-105.08901,168.58063
945500000,-105.16058,-111.68721
955000000,-105.24886,115.83073
964500000,-105.19865,155.45471
974000000,-105.0492,177.31017
983500000,-105.54773,178.8053
993000000,-105.44673,-18.930614
1002500000,-105.47222,84.299545
1012000000,-105.52446,129.70178
1021500000,-105.1423,-140.26309
1031000000,-105.30619,109.234
1040500000,-105.01899,-73.802254
1050000000,-105.34565,-83.556969
1059500000,-105.46335,-91.093102
1069000000,-105.51371,-165.71648
1078500000,-105.27331,136.9136
1088000000,-105.31434,-92.717117
1097500000,-105.55802,34.735558
1107000000,-105.45148,165.31023
1116500000,-105.18717,62.019718
1126000000,-105.17,110.68384
1135500000,-105.57016,159.8773
1145000000,-105.6552,-146.72377
1154500000,-105.71717,103.43928
1164000000,-105.59445,79.03849
1173500000,-105.33768,130.05942
1183000000,-105.25456,-148.90053
1192500000,-105.63749,88.678497
1202000000,-105.50047,62.583878
1211500000,-105.4399,-166.80165
1221000000,-105.40611,-9.6030416
1230500000,-105.28762,64.562469
1240000000,-105.64353,57.623798
1249500000,-105.59953,176.81877
1259000000,-105.2337,36.275341
1268500000,-105.49384,136.06116
1278000000,-105.55986,47.016586
1287500000,-105.56093,-131.84221
1297000000,-105.49323,98.480751
1306500000,-105.62,111.02726
1316000000,-105.11134,-93.783707
1325500000,-105.3508,17.983093
1335000000,-105.41225,-100.45756
1344500000,-105.39778,176.47234
1354000000,-105.44217,76.316872
1363500000,-105.2547,102.01386
1373000000,-105.56423,48.405651
1382500000,-105.24203,-150.92952
1392000000,-105.22904,-3.6387231
1401500000,-105.31326,-172.88814
1411000000,-105.19494,15.381755
1420500000,-105.2701,70.636467
1430000000,-105.45649,-71.464424
1439500000,-105.25249,-30.384821
1449000000,-105.0994,125.87405
1458500000,-105.27847,72.904938
1468000000,-105.39377,85.957207
1477500000,-105.09126,-92.404541
1487000000,-105.07484,159.69199
1496500000,-104.81495,147.37421
1506000000,-105.15995,126.28647
1515500000,-104.85405,-156.04381
1525000000,-104.99956,175.76814
1534500000,-104.87009,168.34464
1544000000,-104.69149,28.105825
1553500000,-104.80439,-33.037109
1563000000,-104.86533,-171.72789
1572500000,-104.68099,143.54549
1582000000,-104.76734,-95.85128
1591500000,-104.88766,143.16171
1601000000,-104.69089,-44.212612
1610500000,-104.80519,-130.98032
1620000000,-104.49883,57.207298
1629500000,-104.7486,-127.83002
1639000000,-104.7266,7.25668
1648500000,-104.7363,-33.202923
1658000000,-104.56417,5.8478012
1667500000,-104.52731,-174.4828
1677000000,-104.76357,-129.92015
1686500000,-104.45261,72.115265
1696000000,-104.51317,-72.613159
1705500000,-104.54173,-110.5515
1715000000,-104.38002,-130.8309
1724500000,-104.80659,-72.151855
1734000000,-104.54052,164.63249
1743500000,-104.65989,12.999104
1753000000,-104.31104,57.913208
1762500000,-104.42583,-132.39441
1772000000,-104.51818,-97.381592
1781500000,-104.30669,-13.327621
1791000000,-104.2817,-84.334457
1800500000,-104.34634,-7.6534081
1810000000,-104.24733,-53.839363
1819500000,-103.96514,-66.176979
1829000000,-104.36501,-62.094479
1838500000,-104.14162,-138.08961
1848000000,-103.87106,-75.688454
1857500000,-103.9017,37.22966
1867000000,-104.15114,127.96153
1876500000,-104.04076,-171.10292
1886000000,-103.97797,-21.864893
1895500000,-103.924,-23.032055
1905000000,-103.88929,-169.11516
1914500000,-104.19457,48.467148
1924000000,-103.89532,58.157742
1933500000,-104.15155,13.043935
1943000000,-103.90958,138.8885
1952500000,-103.75324,33.755409
1962000000,-103.63506,-30.514765
1971500000,-103.88813,-116.45768
1981000000,-104.03105,-83.536537
1990500000,-104.021,-52.851978
2000000000,-104.05119,-104.31704
END

