!CSV A.01.01
!Keysight Technologies,N5242B,MY48420967,A.15.65.19
!Date: Saturday, February 04, 2023 08:45:54
!Source: Standard

BEGIN CH1_DATA
Freq(Hz),A_2(DB),A_2(DEG)
100000000,-104.36098,-73.094688
109500000,-102.80691,11.919933
119000000,-103.4553,-129.8082
128500000,-104.52967,-75.529144
138000000,-105.02733,78.205086
147500000,-101.7958,70.068504
157000000,-102.69237,83.625679
166500000,-103.11818,-42.266426
176000000,-103.48692,152.85419
185500000,-104.14799,-150.97978
195000000,-104.32164,-49.780457
204500000,-104.76007,19.722317
214000000,-102.46862,-82.332932
223500000,-102.87035,-118.62961
233000000,-103.05919,-72.215393
242500000,-103.42871,-75.26989
252000000,-98.474388,-176.89154
261500000,-99.018005,13.762848
271000000,-99.306541,-85.038475
280500000,-99.851158,-21.830854
290000000,-99.910545,88.412086
299500000,-100.10281,-11.925303
309000000,-100.39935,29.988503
318500000,-100.78102,-20.015408
328000000,-100.7596,46.431549
337500000,-101.10194,-178.6998
347000000,-101.54902,81.149117
356500000,-101.53185,-85.162575
366000000,-101.81853,-12.596713
375500000,-101.90945,-59.734234
385000000,-101.88397,-91.943657
394500000,-102.22744,-61.095963
404000000,-101.58528,70.796745
413500000,-101.83773,174.4614
423000000,-102.03553,96.568405
432500000,-102.02404,43.730366
442000000,-102.19926,-130.81911
451500000,-102.47752,-9.8020945
461000000,-102.75042,-136.15149
470500000,-102.86489,-83.095802
480000000,-102.80254,2.5619462
489500000,-102.85093,168.64674
499000000,-103.38133,-68.412033
508500000,-103.36275,167.0029
518000000,-103.25153,-167.84264
527500000,-103.47214,-35.28056
537000000,-103.91724,-39.641697
546500000,-103.54052,45.78334
556000000,-103.97977,-126.9727
565500000,-104.2442,102.60604
575000000,-104.21266,72.126526
584500000,-104.25101,75.408524
594000000,-104.21294,16.381258
603500000,-104.31049,161.69171
613000000,-104.42977,124.20833
622500000,-104.45248,4.0115337
632000000,-103.60412,171.30959
641500000,-103.47208,162.27551
651000000,-103.69289,-100.57225
660500000,-103.83653,-34.376392
670000000,-103.63427,-38.022602
679500000,-103.85477,43.383617
689000000,-104.0567,-129.34633
698500000,-104.11665,-156.4744
708000000,-104.43524,97.421486
717500000,-104.3976,11.858019
727000000,-104.54547,-35.248116
736500000,-104.76161,-38.12466
746000000,-104.38335,-81.484505
755500000,-104.49079,59.900898
765000000,-104.80075,115.19625
774500000,-104.73658,79.636986
784000000,-104.73137,-1.4577824
793500000,-104.75723,127.01643
803000000,-104.83031,0.68983001
812500000,-104.96558,5.5958018
822000000,-105.12317,152.73894
831500000,-105.2473,-177.86209
841000000,-105.09626,37.515358
850500000,-105.25915,-68.363647
860000000,-104.98717,-37.911514
869500000,-105.2676,132.54037
879000000,-105.38541,-124.77085
888500000,-105.00352,145.90025
898000000,-105.25835,-120.53275
907500000,-105.37227,-55.611584
917000000,-105.35102,-136.60916
926500000,-105.49664,2.901206
936000000,-105.42354,2.3633916
945500000,-105.27435,38.809471
955000000,-105.574,-70.549721
964500000,-105.59563,-54.105942
974000000,-105.28802,98.727684
983500000,-105.55553,-134.88011
993000000,-105.54922,145.10231
1002500000,-102.77213,146.47089
1012000000,-102.74266,176.11095
1021500000,-102.95033,-66.715645
1031000000,-102.96232,88.258057
1040500000,-102.81968,-11.04343
1050000000,-102.89708,151.53699
1059500000,-102.88293,45.513786
1069000000,-102.9861,-143.42818
1078500000,-102.87068,112.59021
1088000000,-103.23405,-111.05737
1097500000,-103.0898,170.20622
1107000000,-103.26601,-32.107883
1116500000,-103.04206,-114.11025
1126000000,-103.0448,-24.051825
1135500000,-103.17783,174.27007
1145000000,-102.97113,-111.55107
1154500000,-102.9707,45.168045
1164000000,-103.17221,-71.21489
1173500000,-103.10928,108.02551
1183000000,-103.14234,-142.13092
1192500000,-103.35708,-28.513102
1202000000,-102.99985,70.085503
1211500000,-103.14523,3.1669068
1221000000,-102.75214,-146.46788
1230500000,-103.05791,-43.995556
1240000000,-103.08931,-18.185394
1249500000,-103.16058,-125.95818
1259000000,-103.13875,87.582878
1268500000,-102.88734,133.98055
1278000000,-103.00591,-20.520428
1287500000,-103.19777,129.33591
1297000000,-102.90128,132.63869
1306500000,-102.8531,12.957872
1316000000,-103.1144,-163.20085
1325500000,-102.79832,-130.173
1335000000,-103.14606,-80.980438
1344500000,-103.03858,148.75169
1354000000,-103.15622,-28.991531
1363500000,-103.03404,-50.013138
1373000000,-103.33672,40.85569
1382500000,-103.00066,-47.736324
1392000000,-103.11803,-135.66481
1401500000,-102.80193,-78.09211
1411000000,-103.01199,-86.612816
1420500000,-102.90957,-89.766052
1430000000,-102.80638,128.69705
1439500000,-102.91511,50.265862
1449000000,-102.78541,172.38921
1458500000,-102.688,-134.30106
1468000000,-102.79086,-105.07398
1477500000,-102.8339,-136.45659
1487000000,-102.87314,-154.08073
1496500000,-102.76608,-63.340908
1506000000,-105.64375,177.13071
1515500000,-105.19598,37.57428
1525000000,-105.64571,27.754721
1534500000,-105.58248,82.460159
1544000000,-105.45443,-40.851635
1553500000,-105.61392,-113.23269
1563000000,-105.41167,134.38411
1572500000,-105.20472,-115.63699
1582000000,-105.34234,-169.74133
1591500000,-105.43488,160.73961
1601000000,-105.28314,-66.647034
1610500000,-105.24506,-75.002899
1620000000,-105.49019,-57.150055
1629500000,-105.25468,66.358574
1639000000,-105.21503,-87.423943
1648500000,-105.13514,-20.612223
1658000000,-105.09549,-53.3326
1667500000,-105.04168,88.354874
1677000000,-105.23218,125.25298
1686500000,-105.20461,32.808033
1696000000,-104.9953,-148.61217
1705500000,-105.11299,35.172615
1715000000,-105.27412,16.612627
1724500000,-105.09634,134.79314
1734000000,-104.87642,-27.87657
1743500000,-104.60367,-162.21164
1753000000,-104.98779,19.444668
1762500000,-104.94624,-105.67505
1772000000,-104.90963,-143.80058
1781500000,-104.80059,-134.49695
1791000000,-105.03016,5.988677
1800500000,-104.8641,117.89513
1810000000,-104.70217,-33.957294
1819500000,-104.69714,-158.38258
1829000000,-104.68581,81.421059
1838500000,-104.57652,117.68539
1848000000,-104.73949,-108.94566
1857500000,-104.6797,-107.29173
1867000000,-104.67828,-124.57623
1876500000,-104.65131,167.21333
1886000000,-104.50944,-139.50545
1895500000,-104.68153,-66.627007
1905000000,-104.42937,-143.56114
1914500000,-104.41381,119.20171
1924000000,-104.7292,-100.20538
1933500000,-104.24184,84.783241
1943000000,-104.66013,-159.42229
1952500000,-104.70704,168.70213
1962000000,-104.53471,-34.502304
1971500000,-104.40527,-123.26044
1981000000,-104.26572,53.399841
1990500000,-104.59885,33.231552
2000000000,-104.38397,69.110497
END

