!Keysight Technologies,N5242B,MY48420967,A.15.65.19
!Date: Sunday, January 22, 2023 20:30:22
!Correction: S11(C  1-Port  ) 
!S21(Off) 
!S12(Off) 
!S22(Off) 
!S2P File: Measurements: S11, S21, S12, S22:
# Hz S  dB   R 50
100000000 -1.2894756 40.523827 -81.7192 137.17569 -90.522163 138.47525 -2.0849104 73.52227
109500000 -1.2043943 11.169753 -90.196945 27.586298 -99.894882 -170.76694 -1.9987488 7.1241226
119000000 -1.1109046 -17.504593 -84.266617 -97.492889 -96.452019 -141.09955 -2.0395422 -68.394318
128500000 -1.035807 -45.87904 -83.649689 -158.26343 -93.723404 -140.43475 -2.7697134 -143.17653
138000000 -1.0282401 -74.446472 -85.241425 85.124153 -93.880264 163.38631 -2.9048755 151.57382
147500000 -1.0779293 -103.33123 -90.391876 11.948545 -85.414879 167.8345 -1.8471522 89.870514
157000000 -1.1380461 -132.52524 -79.820946 -134.51598 -94.039902 -42.7589 -0.59693575 20.858774
166500000 -1.2260585 -162.1199 -82.220375 130.49303 -98.115692 113.3952 -1.3453177 -54.072914
176000000 -1.3445814 167.8569 -87.015007 19.398457 -91.122704 8.3779173 -3.2137978 -121.86256
185500000 -1.4388096 137.6293 -82.535271 -80.222786 -90.361725 53.29277 -3.8974841 173.24739
195000000 -1.4791917 107.62114 -80.572868 -149.55827 -95.516304 4.9560671 -2.9626915 103.76723
204500000 -1.4895227 77.964737 -80.270897 120.48853 -100.86166 54.444881 -1.9217249 29.004082
214000000 -1.483059 48.568802 -82.247612 -10.607546 -97.549828 96.735336 -2.0468047 -41.041649
223500000 -1.4467888 19.545025 -83.984245 -103.71642 -90.251602 -175.70471 -2.3085248 -103.48734
233000000 -1.4008418 -9.1614428 -80.548805 -163.26613 -96.08091 -106.79734 -2.1328006 -167.69072
242500000 -1.3832575 -37.787308 -83.150063 69.448555 -89.948639 -90.173798 -2.268934 119.86992
252000000 -1.3848881 -66.509178 -82.263466 -108.27934 -86.621696 -70.364449 -3.1174526 46.348785
261500000 -1.4128655 -95.48764 -76.075478 -134.03436 -91.16272 -1.1681167 -3.3140047 -21.034941
271000000 -1.4823616 -124.80828 -80.694633 126.70544 -85.368965 26.568899 -2.2704737 -86.275879
280500000 -1.5680561 -154.54245 -80.197311 46.867508 -86.453224 165.31497 -1.1403748 -156.89934
290000000 -1.6427584 175.45784 -80.291351 -86.837555 -100.38642 -149.77661 -1.6404985 130.59787
299500000 -1.7206389 145.36925 -76.204536 -175.96773 -84.538658 -169.2028 -2.8631861 64.697624
309000000 -1.7818934 115.21397 -79.410362 96.32811 -87.9487 169.222 -3.2014101 -0.21285297
318500000 -1.7962841 85.34848 -78.719856 -21.077703 -91.270149 106.40583 -2.5956745 -71.728806
328000000 -1.7726703 55.976181 -77.031502 -130.40402 -89.540596 152.53421 -2.3487587 -147.25032
337500000 -1.7554065 26.819181 -77.95742 135.50943 -90.184311 178.00851 -2.6368382 144.07628
347000000 -1.7466584 -2.2054927 -78.60865 50.158806 -87.164337 29.146973 -2.4014933 80.736549
356500000 -1.7195349 -31.082245 -76.576332 -66.835381 -85.961838 -173.18871 -1.7370108 12.76356
366000000 -1.7132952 -60.052055 -78.641945 -174.48593 -110.27513 -42.217636 -2.025275 -62.332798
375500000 -1.7605377 -89.383347 -80.365021 91.363182 -92.94915 -38.580059 -3.1637127 -133.03679
385000000 -1.8201289 -119.17494 -79.69696 0.14476024 -88.165382 -53.7062 -3.3606353 162.75809
394500000 -1.8808633 -149.2229 -77.616501 -94.883789 -90.175766 -49.66827 -2.2496386 97.236366
404000000 -1.9431826 -179.36853 -74.482582 148.2392 -99.7342 112.35558 -1.3321009 23.342424
413500000 -2.0026293 150.37292 -74.737595 57.731716 -89.487556 -149.07176 -2.2235324 -50.499065
423000000 -2.0435326 120.20292 -76.727676 -57.263371 -98.427635 172.51736 -3.3243673 -116.60835
432500000 -2.0412202 90.492584 -74.975922 -153.84074 -87.609528 -106.42777 -3.2319319 177.14386
442000000 -2.0118546 61.25412 -75.413406 121.39629 -94.31311 70.835945 -2.4273036 103.83669
451500000 -1.9911779 32.392731 -77.161743 -2.0843101 -87.298767 82.815369 -2.4524975 28.955956
461000000 -1.9667561 3.7999263 -77.608009 -100.311 -97.342674 -103.96865 -2.9225373 -37.56414
470500000 -1.9380095 -24.610479 -75.087677 151.86299 -94.679207 -164.31122 -2.7333229 -100.65534
480000000 -1.9256508 -52.936401 -77.954597 76.198067 -95.389252 -41.33255 -2.1807935 -170.41876
489500000 -1.9460776 -81.513634 -74.895233 -32.30584 -97.718689 138.9304 -2.5923681 113.22469
499000000 -1.9921905 -110.47808 -75.045212 -139.35858 -92.937172 75.370346 -3.4739802 42.066933
508500000 -2.0306785 -139.63104 -73.913193 123.95254 -86.886261 66.479225 -3.2894349 -23.264893
518000000 -2.0652359 -168.9268 -73.845657 9.1397381 -93.743233 -139.94705 -2.2365813 -90.314682
527500000 -2.1080027 161.65469 -74.554863 -100.66788 -87.934448 124.97189 -1.9485253 -162.59102
537000000 -2.1346059 132.31197 -75.065857 161.52272 -87.24469 157.09015 -2.9582233 128.01598
546500000 -2.1298134 103.31734 -77.747475 57.968849 -92.759239 -87.228104 -3.6763995 62.261642
556000000 -2.1038067 74.816055 -76.571625 -38.295929 -94.996155 25.917835 -3.2957661 -8.032033
565500000 -2.0721607 46.697865 -74.889893 -142.35295 -92.947639 15.961189 -2.7596922 -85.263954
575000000 -2.0410967 18.884014 -78.027519 109.97364 -91.523766 -6.8718691 -3.1193743 -157.67595
584500000 -2.0074239 -8.6851377 -76.959587 20.805216 -91.558311 -69.642792 -3.36429 140.28728
594000000 -1.9873031 -36.223843 -77.736252 -78.06665 -94.332893 -73.051697 -2.8070786 79.60659
603500000 -1.9967182 -63.960167 -76.34388 177.83446 -97.236725 -44.552998 -2.2670665 9.8686924
613000000 -2.0280502 -92.060028 -77.115036 73.052322 -95.626953 47.50666 -3.0551097 -65.660637
622500000 -2.0672653 -120.55426 -77.341309 -31.648088 -102.63986 176.90866 -3.9918823 -135.55933
632000000 -2.1199336 -149.42264 -75.454895 -121.99092 -87.779823 -130.07764 -3.6407905 158.74457
641500000 -2.1697166 -178.54347 -74.771347 138.16608 -98.726486 -41.741184 -2.5694649 91.043625
651000000 -2.2079473 152.18921 -78.137566 23.569607 -92.839363 10.952353 -2.4144917 20.680771
660500000 -2.2293065 123.00715 -76.994194 -70.054764 -95.148895 -2.0334697 -3.273253 -45.890942
670000000 -2.2274384 94.023247 -77.842056 -165.22337 -87.225128 168.21448 -3.8040521 -111.49167
679500000 -2.2088227 65.37529 -75.8162 105.6599 -96.098976 -156.78539 -3.6152601 175.79768
689000000 -2.1756463 37.152813 -75.980095 -11.805273 -94.442871 7.0339818 -3.5562027 97.997169
698500000 -2.1486919 9.1692648 -76.783043 -113.97292 -86.980186 79.770767 -3.8001134 28.108521
708000000 -2.1368172 -18.693783 -76.867958 172.68858 -94.73381 -157.72025 -3.5121183 -32.888466
717500000 -2.130801 -46.543793 -76.844109 61.298512 -88.717514 151.70807 -2.6753035 -94.734146
727000000 -2.152869 -74.661919 -78.235748 -49.002174 -93.984779 145.21007 -2.4719391 -165.25427
736500000 -2.2114887 -103.23833 -75.058914 -156.58981 -90.582336 114.30551 -3.7449541 121.46276
746000000 -2.2746224 -132.314 -77.014671 114.97363 -89.228333 145.81664 -4.7196407 51.786858
755500000 -2.329308 -161.76015 -76.251373 8.4144478 -85.946228 106.46705 -4.1095958 -17.312574
765000000 -2.3904285 168.56888 -73.009995 -96.838264 -95.029388 155.04857 -2.9326172 -89.069862
774500000 -2.4397008 138.73088 -75.679199 162.36237 -92.111511 -50.257168 -2.9619281 -159.1722
784000000 -2.4532557 108.99934 -76.47171 65.575401 -97.748329 -176.13608 -3.7388921 138.09076
793500000 -2.4367733 79.665634 -76.67038 -37.166374 -88.773186 89.352921 -4.0970416 75.718208
803000000 -2.4105866 50.789532 -74.943672 -140.49884 -91.109077 -76.787384 -4.012289 3.2853613
812500000 -2.3782921 22.317486 -75.342293 106.49049 -89.286186 6.8608146 -4.3679476 -77.16436
822000000 -2.3418024 -5.7757659 -76.36573 5.8099518 -89.68763 124.66914 -4.7509041 -149.60777
831500000 -2.3183141 -33.609131 -76.762611 -86.657204 -93.37252 96.95047 -4.2308693 147.776
841000000 -2.3208356 -61.411263 -75.892143 -169.21199 -96.278725 -42.739548 -3.1397748 85.106674
850500000 -2.3481488 -89.430038 -74.743042 79.279007 -96.310722 67.437614 -2.8858294 15.11741
860000000 -2.3932648 -117.81955 -74.791695 -29.318697 -87.145355 174.33015 -4.208457 -56.568039
869500000 -2.4426181 -146.55789 -74.822754 -131.40858 -90.129837 132.91388 -5.3553658 -126.55727
879000000 -2.4937909 -175.55293 -76.120178 134.00545 -98.975487 146.86948 -4.9967051 161.36047
888500000 -2.5352521 155.28854 -75.30056 32.816196 -93.356873 126.21916 -3.9703748 87.5914
898000000 -2.5548546 126.11469 -75.03508 -89.164375 -91.792336 142.85364 -3.7578397 18.270435
907500000 -2.5434034 97.170303 -75.096001 179.88484 -90.916374 95.988892 -4.0569839 -44.047295
917000000 -2.5121834 68.652634 -75.37822 80.181786 -101.76932 83.670311 -4.2344918 -106.89201
926500000 -2.4677742 40.589451 -74.47229 -24.883226 -90.289932 -18.86013 -4.5712709 -178.72293
936000000 -2.4155996 12.985423 -73.798653 -124.60481 -106.17301 -116.95725 -5.3596606 103.00322
945500000 -2.3681688 -14.187439 -75.908081 133.96623 -92.30883 125.82882 -5.5526237 29.534622
955000000 -2.3362277 -41.124893 -78.007294 31.740355 -104.2346 88.584839 -4.6846423 -36.711262
964500000 -2.3309646 -68.038605 -75.809509 -65.196861 -102.44624 -45.415142 -3.6367564 -101.83233
974000000 -2.3464699 -95.105293 -74.60878 -169.00426 -106.91988 110.75876 -3.6228006 -168.84496
983500000 -2.3837595 -122.56119 -75.226433 93.332802 -93.604019 123.02298 -4.6452413 124.79607
993000000 -2.4317772 -150.41521 -75.49234 -11.231996 -87.902397 22.665571 -5.5188251 56.296864
1002500000 -2.4735398 -178.61752 -74.846756 -111.48433 -98.999786 -16.913303 -5.5115633 -18.67387
1012000000 -2.5170434 152.85045 -74.229378 157.35622 -91.053024 -173.05075 -5.1049504 -94.378868
1021500000 -2.5453427 124.17943 -76.34993 60.577591 -95.612503 129.87756 -4.8175826 -161.29953
1031000000 -2.5395293 95.549835 -73.886642 -52.984436 -87.911507 7.0809155 -4.3582416 138.65022
1040500000 -2.516351 67.174026 -74.772675 -141.36621 -92.39637 -15.977705 -3.8218901 75.970985
1050000000 -2.4865162 39.151268 -73.521347 106.55141 -91.103226 100.98869 -4.275372 4.6510625
1059500000 -2.4408283 11.458096 -74.730461 4.9380808 -99.224724 122.61579 -5.8794785 -69.068863
1069000000 -2.3992152 -15.862496 -75.179268 -85.07135 -88.440742 -106.60792 -6.5768452 -139.95016
1078500000 -2.3808842 -42.901379 -74.34771 174.42813 -94.995842 -119.98207 -5.4795151 151.36591
1088000000 -2.3782327 -69.952896 -74.502106 74.380386 -90.105873 100.95253 -3.9626784 81.402405
1097500000 -2.4077861 -97.250648 -74.93898 -29.59866 -85.705437 18.801788 -3.8632889 11.981931
1107000000 -2.4596612 -124.90922 -74.139084 -145.33195 -91.947495 127.19335 -4.80726 -51.522526
1116500000 -2.5223119 -153.11424 -74.708061 127.98504 -97.366325 -50.89209 -5.5462565 -114.90833
1126000000 -2.5903156 178.15907 -74.304611 22.74217 -91.578079 128.93532 -5.75808 173.67616
1135500000 -2.6515999 149.05009 -72.785156 -79.609978 -88.843834 -152.88284 -5.7656984 97.163292
1145000000 -2.6969707 119.60538 -73.584236 -175.97134 -93.74044 -6.3046408 -5.5481167 27.40547
1154500000 -2.7163806 90.118835 -73.166977 84.609718 -91.39196 -7.0451779 -4.8200493 -34.74752
1164000000 -2.7041698 60.868092 -74.037758 -23.195206 -85.205772 136.08261 -3.9980969 -97.915627
1173500000 -2.6783795 31.917713 -71.067688 -122.04496 -87.40567 -54.820423 -4.3328595 -167.01512
1183000000 -2.6467412 3.3792064 -72.67498 132.54286 -90.528091 24.833998 -6.0098219 123.09513
1192500000 -2.6094103 -24.685659 -73.116119 36.376884 -85.58744 -159.59976 -7.1467938 52.887554
1202000000 -2.5877817 -52.403687 -73.429146 -67.120277 -94.120644 176.81992 -6.4252748 -20.381021
1211500000 -2.5940275 -80.028656 -72.078392 -162.83043 -101.07837 -68.187469 -4.9362297 -95.092728
1221000000 -2.6252654 -107.79481 -71.497658 87.468704 -88.333488 -53.818401 -4.5722499 -165.28387
1230500000 -2.6785312 -135.82368 -72.468544 -21.473795 -89.297112 92.99688 -5.035604 132.63213
1240000000 -2.7340467 -164.22934 -71.247963 -118.54937 -89.921432 68.393723 -5.5068097 71.687424
1249500000 -2.7931523 166.90749 -72.123291 143.47018 -92.913094 -76.199898 -6.0038252 3.4800491
1259000000 -2.8541455 137.71342 -71.824615 38.099419 -95.327515 -27.459221 -6.599051 -72.237762
1268500000 -2.8887696 108.34154 -70.368027 -70.436897 -95.583031 -121.63789 -6.517128 -146.46855
1278000000 -2.8820283 79.024086 -70.545509 -171.2334 -86.284645 -148.1732 -5.5350928 145.11349
1287500000 -2.8515451 50.090866 -71.038383 93.507393 -85.029388 14.393306 -4.6452093 78.363358
1297000000 -2.8112335 21.584927 -70.5326 -22.210697 -89.977371 114.4004 -4.9231601 11.801513
1306500000 -2.7585614 -6.4178395 -70.472008 -121.56318 -85.760872 -157.13155 -6.1041574 -53.045124
1316000000 -2.6929758 -33.822098 -69.71138 138.37848 -90.170914 143.34348 -7.0694146 -121.14554
1325500000 -2.6521063 -60.802944 -70.334381 41.214802 -85.944618 -33.281918 -7.0176988 162.22322
1335000000 -2.6487837 -87.68454 -69.780914 -83.833168 -98.213722 -91.838875 -6.303772 83.801895
1344500000 -2.6568756 -114.58664 -71.022148 -173.47394 -86.614525 -164.01344 -5.7424235 14.46764
1354000000 -2.6753366 -141.61034 -72.239082 80.372375 -93.813263 49.429283 -5.2841015 -47.231144
1363500000 -2.7166767 -168.92926 -73.745209 -32.366459 -97.40181 174.32726 -5.0694065 -109.74477
1373000000 -2.772552 163.26164 -72.287376 -122.93439 -96.302002 -125.63532 -5.7246256 -177.76633
1382500000 -2.8188627 135.09862 -73.587708 139.48576 -103.54243 -106.91973 -6.9920311 111.43135
1392000000 -2.8418543 106.76116 -74.731583 38.037971 -90.167366 54.808861 -7.2937956 40.68541
1401500000 -2.8461299 78.30899 -75.458435 -51.801342 -100.33479 97.30674 -6.0797553 -29.175369
1411000000 -2.835444 49.916237 -72.191574 -145.98586 -89.465439 107.92117 -4.8439355 -99.639221
1420500000 -2.8043671 21.833376 -70.217209 110.16772 -88.707382 87.571808 -5.0941863 -167.35776
1430000000 -2.7496855 -5.8093915 -70.877228 -7.3464398 -94.588043 12.507519 -6.2141428 130.66946
1439500000 -2.6983116 -32.970577 -71.42794 -101.85117 -90.056999 11.274337 -7.110846 66.88929
1449000000 -2.6675985 -59.783588 -70.040291 159.38838 -87.523132 -157.84154 -7.3052268 -7.4291949
1458500000 -2.6568599 -86.512039 -69.952881 41.533115 -83.272324 113.53355 -6.8951516 -87.901482
1468000000 -2.6659493 -113.29863 -70.204353 -70.148285 -84.329422 49.673695 -6.2742496 -159.8131
1477500000 -2.6897068 -140.18901 -71.651077 -167.61504 -95.071259 -125.19324 -5.5273709 137.91443
1487000000 -2.7406802 -167.50954 -70.973824 88.313469 -90.218437 -170.08226 -4.9966011 76.980644
1496500000 -2.808723 164.66129 -73.359123 -20.883358 -111.46931 119.18042 -5.4152737 12.757443
1506000000 -2.8676963 136.40427 -72.946312 -121.33807 -102.32935 -136.74321 -6.7119861 -53.574066
1515500000 -2.9214752 107.76941 -74.460548 142.61412 -97.881157 -102.57123 -7.5326233 -123.12926
1525000000 -2.962676 78.798805 -74.454826 52.284203 -91.427559 151.28506 -6.8875494 163.02985
1534500000 -2.9754074 49.6791 -75.283501 -66.627304 -89.834183 106.77633 -5.811604 88.973793
1544000000 -2.966671 20.716675 -77.033791 -173.28697 -96.998779 152.5768 -5.6801362 21.217113
1553500000 -2.9429054 -7.8963957 -80.655312 103.06259 -96.569778 -63.52113 -6.1074963 -39.77409
1563000000 -2.9043121 -36.114552 -79.616791 26.939281 -90.965065 -138.68419 -6.5420361 -102.17481
1572500000 -2.8751464 -63.94622 -78.102158 -73.931236 -94.699318 105.95375 -7.0845003 -173.97469
1582000000 -2.878448 -91.566063 -78.903191 -169.54633 -107.78275 128.69643 -7.6046557 107.82325
1591500000 -2.902874 -119.23373 -79.020828 97.424446 -102.85382 144.63818 -7.2552814 35.354546
1601000000 -2.9338033 -147.01956 -77.962372 -1.1816143 -106.01283 -74.328232 -6.1098599 -29.165096
1610500000 -2.9831076 -175.08339 -75.953644 -104.76987 -90.626236 74.577652 -5.1418905 -92.766548
1620000000 -3.066015 156.37047 -76.758453 160.10806 -100.54523 129.98531 -5.4432545 -158.35023
1629500000 -3.1428235 127.3476 -75.704002 57.066532 -103.23418 82.987076 -6.8364787 136.26746
1639000000 -3.1875246 98.078827 -76.840965 -43.793133 -97.668137 -63.168861 -7.9388728 67.609039
1648500000 -3.2212136 68.621498 -75.475548 -140.3979 -102.89398 -59.494671 -7.6595531 -7.5224118
1658000000 -3.2487187 39.021057 -74.355736 126.43881 -91.432777 94.474815 -6.6136212 -82.601662
1667500000 -3.2382896 9.6164169 -74.335754 18.249777 -100.72536 41.645451 -6.0823894 -149.97488
1677000000 -3.1816173 -19.262205 -72.769547 -87.58609 -90.075699 -177.70781 -6.0519252 149.04092
1686500000 -3.1244266 -47.610371 -72.776176 174.78847 -98.641632 -166.57547 -6.4135947 86.478981
1696000000 -3.1022871 -75.578827 -73.971542 82.433838 -93.701302 -53.791088 -7.4723115 15.880067
1705500000 -3.0836494 -103.24649 -74.012062 -21.635431 -89.90361 178.85136 -8.5967808 -61.493149
1715000000 -3.0621502 -130.69907 -73.135201 -121.84144 -96.764809 -161.30403 -8.1635866 -136.83859
1724500000 -3.0694046 -158.07695 -73.389503 141.46413 -92.859413 166.14346 -6.5582952 154.73528
1734000000 -3.1130683 174.30957 -71.201172 40.709366 -94.857635 84.89489 -5.4197297 88.867889
1743500000 -3.1684191 146.30717 -72.086418 -60.608109 -89.949142 -76.415703 -5.7272882 24.844223
1753000000 -3.2051797 118.09636 -70.99176 -159.4046 -101.11491 -2.2712758 -6.9352508 -37.071964
1762500000 -3.229641 89.704727 -71.536789 101.88982 -94.153175 148.89871 -8.0154572 -103.04865
1772000000 -3.268626 61.012672 -70.399994 3.6775656 -95.637978 115.27045 -8.1930561 -177.68198
1781500000 -3.2909813 32.243774 -68.63179 -102.88628 -89.912292 -61.855507 -7.5258322 106.42648
1791000000 -3.2608192 3.6544428 -68.316971 152.34981 -87.522018 173.46933 -6.8223352 38.429295
1800500000 -3.213891 -24.556244 -68.667259 52.876392 -86.132111 118.72211 -6.4143915 -24.093597
1810000000 -3.1788285 -52.337242 -68.005318 -51.187492 -93.51503 -54.619495 -6.6221976 -88.713478
1819500000 -3.153708 -79.884575 -68.527786 -153.94684 -91.250412 -139.22174 -7.7912369 -159.271
1829000000 -3.12762 -107.16784 -68.134949 117.21032 -93.155952 175.36612 -8.9170446 126.06405
1838500000 -3.1000173 -134.10199 -65.879654 16.005217 -89.116943 96.267258 -8.3542995 53.072689
1848000000 -3.1123767 -161.01512 -65.872894 -89.880714 -91.393074 82.770454 -6.6469898 -14.515522
1857500000 -3.1747017 171.80566 -64.857689 172.49429 -91.560745 -53.908672 -5.5193024 -79.509697
1867000000 -3.2316611 144.33142 -63.044365 73.244881 -94.38269 179.39688 -5.8059077 -141.53534
1876500000 -3.282511 116.58833 -61.94479 -36.488468 -91.02639 116.45943 -6.9574423 158.53285
1886000000 -3.363122 88.589752 -60.447613 -142.59688 -85.550507 57.153233 -8.2339907 93.383263
1895500000 -3.452739 60.157013 -59.188145 102.6685 -86.936943 -87.242043 -8.909297 16.952913
1905000000 -3.5145063 31.384171 -59.402042 -11.47894 -88.158211 143.17841 -8.3523951 -62.204727
1914500000 -3.5341237 2.7605522 -59.600555 -126.19078 -90.306412 27.77401 -7.2349238 -131.88977
1924000000 -3.5375421 -25.617512 -60.436588 130.32898 -92.226006 52.793755 -6.35429 165.10252
1933500000 -3.5399864 -53.845901 -61.134243 18.16008 -92.421448 -105.98133 -6.2906599 101.71111
1943000000 -3.5256047 -81.821312 -61.829464 -92.437012 -85.617966 121.93135 -7.3416071 35.543087
1952500000 -3.48456 -109.4593 -63.861462 168.7251 -100.07564 134.5331 -8.6406384 -33.704998
1962000000 -3.4581904 -136.85126 -64.547318 70.413589 -92.655716 -128.91577 -8.6881533 -105.88186
1971500000 -3.4658041 -164.20088 -64.908211 -32.806126 -92.359489 168.67299 -7.4592476 -176.82109
1981000000 -3.493006 168.22932 -65.500633 -131.43594 -94.007309 106.47495 -6.4875603 115.94337
1990500000 -3.5202596 140.41699 -65.86615 137.12354 -96.76757 36.323551 -6.5464234 53.019283
2000000000 -3.5590909 112.38741 -66.398697 38.921513 -95.380966 3.404721 -7.3241034 -8.8623428
