!Keysight Technologies,N5242B,MY48420967,A.15.65.19
!Date: Saturday, February 04, 2023 08:29:06
!Correction: S11(C  1-Port  ) 
!S21(Off) 
!S12(Off) 
!S22(Off) 
!S2P File: Measurements: S11, S21, S12, S22:
# Hz S  dB   R 50
100000000 -1.4153888 40.353577 -84.927696 154.56828 -100.90273 -166.34056 -2.2077923 73.024193
109500000 -1.3420416 11.01654 -85.51207 26.430609 -97.034874 71.117577 -2.168395 6.3225522
119000000 -1.2686856 -17.859447 -86.804474 -81.791145 -100.17288 150.24393 -2.2400048 -69.29377
128500000 -1.1773881 -46.223068 -87.321541 -168.39432 -91.967964 -76.153175 -2.9361882 -143.9306
138000000 -1.157462 -74.615356 -83.014374 103.82969 -90.23835 162.43454 -3.0222728 150.93507
147500000 -1.2253597 -103.52378 -82.557777 -10.110069 -91.384697 108.48814 -1.9503583 89.257629
157000000 -1.2880287 -132.78326 -77.198822 -134.91505 -99.654617 102.36449 -0.73087096 20.252485
166500000 -1.3586415 -162.2686 -83.260834 176.76352 -92.875732 -84.807007 -1.5181581 -54.561928
176000000 -1.4833213 167.79422 -85.490356 48.361446 -99.843102 85.179779 -3.3969743 -122.41459
185500000 -1.5870886 137.50183 -82.611778 -63.362587 -88.294624 93.844742 -4.0780749 172.4126
195000000 -1.6083375 107.5043 -81.762871 -142.76648 -97.503151 102.62807 -3.1381087 102.73697
204500000 -1.6125064 77.935822 -82.478867 109.72337 -97.850021 89.110298 -2.0939183 28.139147
214000000 -1.6243325 48.476009 -80.599785 -13.309691 -87.84948 102.30987 -2.1989717 -41.636494
223500000 -1.5815479 19.355408 -83.410538 -94.768303 -94.043648 -12.810684 -2.4539142 -104.01183
233000000 -1.5139908 -9.2897921 -79.431282 173.336 -94.876945 158.42784 -2.3007171 -168.27785
242500000 -1.5072347 -37.885147 -81.112 88.514603 -86.741859 170.69067 -2.4718597 119.2554
252000000 -1.5268157 -66.736679 -80.741966 -37.919044 -88.830658 28.534388 -3.317585 45.701305
261500000 -1.5403056 -95.765862 -76.444031 -140.4335 -82.730286 138.28574 -3.4856665 -21.80394
271000000 -1.598799 -124.99301 -80.833214 117.60228 -91.818047 -144.30814 -2.4267673 -87.130493
280500000 -1.7090777 -154.73724 -81.85141 23.293507 -90.120659 -32.235771 -1.3113468 -157.67557
290000000 -1.7936285 175.1396 -79.485756 -98.790352 -92.85479 -118.7579 -1.8189451 130.03751
299500000 -1.8490732 145.0502 -83.523643 -154.6189 -93.029213 111.18018 -3.0356579 64.165794
309000000 -1.9114609 114.99841 -80.874847 93.973854 -83.140488 155.08511 -3.3815899 -0.91435838
318500000 -1.948096 85.095528 -82.593208 -26.754597 -88.82505 146.2159 -2.7930646 -72.569038
328000000 -1.9195455 55.631138 -77.719627 -124.12615 -85.187393 107.70293 -2.5460715 -148.01744
337500000 -1.8913736 26.491962 -82.285217 157.97572 -94.762177 113.9135 -2.8091495 143.39285
347000000 -1.8962716 -2.4987392 -80.050308 50.975124 -95.797295 -52.900219 -2.5659947 80.010849
356500000 -1.8810992 -31.385386 -80.292435 -62.618702 -111.43103 145.05487 -1.924875 11.986093
366000000 -1.8639872 -60.362534 -74.602524 -174.98073 -90.262802 -143.2016 -2.23508 -63.010014
375500000 -1.9143783 -89.702858 -78.366501 86.799881 -98.901337 -89.351791 -3.3571637 -133.69774
385000000 -1.9947213 -119.50663 -79.813416 -16.242435 -86.172066 -137.12804 -3.5323188 161.93735
394500000 -2.0529621 -149.54219 -76.501312 -111.14769 -87.004105 -171.46965 -2.4251549 96.264526
404000000 -2.106461 -179.66527 -75.609291 141.63269 -93.616722 120.33427 -1.537554 22.46628
413500000 -2.1808305 150.04022 -77.268845 54.020149 -101.50577 -72.491684 -2.4293933 -51.156059
423000000 -2.2315912 119.842 -80.36425 -71.338585 -95.830696 96.834076 -3.5191882 -117.31974
432500000 -2.2131705 90.1968 -78.272102 -134.82716 -97.233185 -64.959251 -3.4322367 176.20607
442000000 -2.1794932 60.991226 -78.470612 101.10265 -94.963112 -118.80136 -2.6486566 102.78111
451500000 -2.1770225 32.061684 -77.034019 4.8341665 -89.616089 96.541817 -2.667213 28.061737
461000000 -2.1534426 3.4753642 -79.901604 -103.79312 -88.350624 114.05797 -3.1067986 -38.363529
470500000 -2.10744 -24.819847 -78.857422 163.524 -92.142479 78.656281 -2.9069114 -101.48895
480000000 -2.1012313 -53.136238 -76.553825 70.787788 -83.087112 43.143822 -2.3766873 -171.26686
489500000 -2.1425626 -81.792343 -74.789192 -43.776909 -93.778671 -67.273895 -2.807364 112.49109
499000000 -2.1833138 -110.73368 -77.083626 -138.19609 -101.18548 162.8815 -3.6779964 41.318214
508500000 -2.2096353 -139.79897 -74.704544 119.18266 -94.987129 -19.793043 -3.4830425 -24.190411
518000000 -2.256341 -169.10115 -74.194397 5.3293815 -86.788147 165.26241 -2.446595 -91.363518
527500000 -2.314508 161.39595 -75.659149 -118.57789 -102.13566 133.13065 -2.1770024 -163.49686
537000000 -2.3326221 132.05673 -79.035576 155.9549 -89.77533 165.96724 -3.1686394 127.262
546500000 -2.3187904 103.11594 -76.499405 59.140293 -90.166687 -111.0864 -3.8654256 61.441635
556000000 -2.3016696 74.581757 -76.719276 -45.846249 -103.81187 169.66872 -3.4856799 -8.9833603
565500000 -2.2752063 46.421585 -75.868057 -157.55496 -94.764442 176.14357 -2.9631011 -86.147896
575000000 -2.2343884 18.632093 -79.739151 125.30482 -97.247955 -157.48294 -3.3130798 -158.41602
584500000 -2.2029741 -8.9341507 -78.393097 18.062185 -92.923363 81.255325 -3.5484233 139.50307
594000000 -2.1925681 -36.500641 -78.76738 -79.525787 -90.688225 4.9698529 -3.0087378 78.661125
603500000 -2.199733 -64.218803 -76.01825 171.13271 -97.86631 98.893311 -2.5097315 8.8709154
613000000 -2.2305388 -92.27462 -75.468918 85.578354 -89.941193 155.19188 -3.2979207 -66.506462
622500000 -2.2819221 -120.80264 -78.261879 -26.889204 -94.010666 83.131172 -4.1902361 -136.39578
632000000 -2.3429472 -149.72256 -77.294891 -112.34299 -113.13154 67.262039 -3.8072658 157.8555
641500000 -2.3868811 -178.76379 -76.019485 139.42938 -97.725418 -112.13774 -2.739373 90.1614
651000000 -2.4277623 152.02274 -77.782936 43.044792 -97.542763 -177.70947 -2.6039846 19.923613
660500000 -2.4631224 122.74529 -78.71376 -83.049995 -91.631767 -114.93441 -3.4742332 -46.621292
670000000 -2.4551938 93.741562 -76.686829 -148.1736 -98.084709 -179.81776 -4.0226908 -112.40658
679500000 -2.4231405 65.212311 -76.400719 104.71479 -85.025284 141.3295 -3.8566344 174.67474
689000000 -2.3984632 36.995659 -76.683586 -9.2386532 -89.009277 110.04089 -3.7877281 96.95031
698500000 -2.3841686 8.891716 -78.948151 -125.37663 -100.67755 -44.010693 -3.9852538 27.232121
708000000 -2.3628595 -18.940035 -77.609001 155.03368 -95.83931 -90.641388 -3.6696689 -33.722813
717500000 -2.3511989 -46.640545 -78.039238 56.169849 -94.714287 172.7426 -2.8445256 -95.600769
727000000 -2.3874474 -74.774734 -76.81411 -58.948673 -97.952721 90.316605 -2.6807747 -166.07138
736500000 -2.4583251 -103.48529 -76.031532 -152.4734 -96.023079 69.080208 -3.9658704 120.70605
746000000 -2.5127697 -132.49216 -76.371696 108.6392 -94.467682 35.298645 -4.9233322 50.864677
755500000 -2.5666084 -161.80316 -77.618553 19.127302 -105.62791 -25.259724 -4.2955189 -18.428112
765000000 -2.6471524 168.4473 -76.0485 -100.32803 -93.423569 -97.14859 -3.1207445 -90.129593
774500000 -2.7002423 138.52596 -74.934074 152.81902 -95.682167 161.97279 -3.1481283 -159.99124
784000000 -2.6985848 108.87379 -77.481651 61.069481 -89.803375 125.19505 -3.9148765 137.34486
793500000 -2.6833148 79.609558 -75.456627 -50.780979 -89.873001 82.468361 -4.2859159 74.80706
803000000 -2.6655226 50.669212 -76.38224 -145.85088 -103.10607 33.361736 -4.2379174 2.1394823
812500000 -2.627172 22.164557 -74.77372 105.65952 -102.81834 17.152208 -4.5979996 -78.315453
822000000 -2.5849328 -5.8419132 -76.066658 11.899199 -87.048737 178.14468 -4.9340096 -150.66287
831500000 -2.5683706 -33.619144 -76.9673 -82.201187 -95.854942 86.58313 -4.3799138 146.75554
841000000 -2.5778682 -61.478699 -75.791023 175.64723 -90.39624 -60.005943 -3.2957606 84.083611
850500000 -2.6019015 -89.495766 -75.710464 70.194221 -94.799767 110.3784 -3.0747373 14.203873
860000000 -2.6458926 -117.79926 -76.065216 -37.058113 -89.007439 -154.82692 -4.4085755 -57.388016
869500000 -2.7081304 -146.52043 -75.824623 -132.47989 -95.424736 10.567391 -5.5472612 -127.55034
879000000 -2.7628369 -175.56721 -75.17765 128.46527 -93.343597 45.092434 -5.1734238 160.14333
888500000 -2.7973413 155.29163 -75.362762 18.053928 -95.29554 38.250431 -4.142767 86.403236
898000000 -2.8202655 126.19445 -75.112503 -82.480003 -104.06853 135.16127 -3.9248576 17.29917
907500000 -2.8140037 97.249283 -76.180656 -175.70749 -92.312958 -8.8200083 -4.2172937 -44.932182
917000000 -2.773169 68.691544 -76.421112 90.74234 -90.275009 93.803482 -4.4099998 -107.8598
926500000 -2.7207577 40.672836 -75.32621 -28.062317 -97.480087 -67.566711 -4.7775006 -179.81346
936000000 -2.6743972 13.1387 -76.039719 -123.58639 -94.06559 39.382496 -5.564476 101.85522
945500000 -2.6319559 -14.065419 -75.47319 138.61819 -92.800476 76.817444 -5.7161779 28.394648
955000000 -2.5943964 -41.028561 -75.69416 40.761715 -89.162132 78.221413 -4.822032 -37.798962
964500000 -2.5860319 -67.853851 -75.081253 -72.92157 -93.670647 95.629372 -3.7827992 -102.81635
974000000 -2.6087599 -94.854919 -74.859688 -166.09723 -104.8949 -111.80738 -3.7888665 -169.66177
983500000 -2.6556537 -122.35976 -76.440735 96.633881 -95.063263 75.744461 -4.8214893 124.02901
993000000 -2.7060204 -150.25288 -75.245415 -1.5202363 -89.253044 9.7040749 -5.702045 55.366077
1002500000 -2.7481806 -178.40442 -74.278954 -111.13315 -85.339722 -161.40848 -5.6926908 -19.809809
1012000000 -2.798697 153.08946 -74.886185 152.69766 -90.617432 -169.17647 -5.2679014 -95.461342
1021500000 -2.8350821 124.34918 -75.00415 56.368492 -98.458794 -12.207948 -4.9570327 -162.22867
1031000000 -2.8284817 95.672646 -75.830627 -58.538349 -90.989098 115.75696 -4.4934893 137.7751
1040500000 -2.7948236 67.33165 -74.956757 -144.27545 -92.680649 178.15926 -3.9838777 75.070038
1050000000 -2.7653158 39.302299 -74.931763 106.52533 -94.56189 58.612381 -4.4776311 3.7912173
1059500000 -2.7317455 11.535004 -74.691574 -4.5001221 -85.462196 168.36562 -6.084291 -69.961807
1069000000 -2.6864798 -15.816361 -74.763763 -93.608482 -91.809563 -61.642651 -6.7455897 -141.05293
1078500000 -2.6539483 -42.793728 -75.133217 174.70764 -88.778229 -157.28392 -5.6139607 150.14714
1088000000 -2.6594894 -69.812584 -74.29631 69.276482 -92.626251 -176.71069 -4.1009498 80.281342
1097500000 -2.7054505 -97.167381 -73.749161 -34.919632 -102.08867 -52.856041 -4.0089607 11.131933
1107000000 -2.7549026 -124.84731 -73.559608 -143.22321 -96.905327 55.132278 -4.9478235 -52.2342
1116500000 -2.808341 -152.95052 -74.044769 128.21675 -92.1269 -117.87128 -5.6932349 -115.7079
1126000000 -2.8930292 178.34982 -74.138618 11.641134 -97.852982 -3.3059883 -5.9233394 172.6653
1135500000 -2.9703641 149.1597 -74.583488 -82.168983 -94.823906 134.78905 -5.9336748 96.043175
1145000000 -3.0010178 119.75661 -72.883171 176.95357 -96.142952 -34.104893 -5.6959867 26.302973
1154500000 -3.0128026 90.401268 -73.672226 75.451233 -92.170143 -133.03 -4.9583101 -35.854385
1164000000 -3.0172288 61.134785 -74.094986 -34.583645 -91.439613 -53.972462 -4.1527572 -99.031532
1173500000 -2.9893894 32.10033 -71.847092 -135.2204 -94.275215 71.346695 -4.5102692 -168.03006
1183000000 -2.9401867 3.6658933 -72.631737 129.45958 -95.036789 68.420403 -6.1746092 122.11011
1192500000 -2.9060476 -24.283794 -74.662926 30.96772 -89.3974 -109.60384 -7.2723618 51.731998
1202000000 -2.8994935 -52.101818 -73.782921 -68.155556 -94.936287 -145.23547 -6.5143795 -21.643568
1211500000 -2.9002125 -79.750023 -72.368851 -171.33221 -97.885658 -148.21706 -5.0323219 -96.259323
1221000000 -2.9180069 -107.34431 -72.549965 81.270439 -89.147392 42.742104 -4.6881113 -166.20778
1230500000 -2.9837611 -135.32472 -72.761284 -23.203218 -87.676056 150.83304 -5.1610312 131.82611
1240000000 -3.059792 -163.85963 -72.774643 -118.09456 -91.096649 152.28801 -5.6478286 70.809387
1249500000 -3.1104174 167.28252 -71.400337 138.20987 -85.80703 80.418518 -6.1627407 2.3920465
1259000000 -3.1634805 138.24536 -70.718781 41.884361 -92.176476 -76.152748 -6.7446089 -73.506706
1268500000 -3.2144146 108.87801 -70.81813 -71.057823 -103.14032 174.50117 -6.6179018 -147.75034
1278000000 -3.2146375 79.438339 -70.483833 -174.90025 -90.675308 93.974426 -5.6127915 143.93225
1287500000 -3.1654258 50.525421 -70.019737 86.19973 -89.54689 166.25368 -4.7349653 77.307396
1297000000 -3.1136208 22.141691 -70.721397 -26.707447 -93.07608 -88.190788 -5.0344992 10.886429
1306500000 -3.0757322 -5.9081597 -70.995422 -125.81643 -93.514282 89.657494 -6.2242751 -53.93943
1316000000 -3.020472 -33.427925 -70.594765 138.66373 -87.827713 69.884651 -7.1865196 -122.23952
1325500000 -2.9596744 -60.386017 -71.264977 34.640724 -102.52539 17.02289 -7.1132393 160.90623
1335000000 -2.9460711 -87.166214 -72.051781 -73.056404 -96.918442 109.37945 -6.377584 82.581779
1344500000 -2.9745324 -114.0789 -70.920906 -166.01366 -100.52781 -82.196846 -5.807313 13.484076
1354000000 -3.0048518 -141.22098 -70.847687 93.227943 -86.96067 156.86026 -5.3550148 -48.08017
1363500000 -3.0306017 -168.54822 -69.471046 -8.2092314 -102.71909 -3.5660748 -5.1663451 -110.58073
1373000000 -3.0828764 163.76265 -68.520004 -119.33781 -86.815453 -151.61896 -5.85147 -178.62024
1382500000 -3.1565166 135.58055 -69.473328 127.29733 -86.390953 129.87599 -7.1226339 110.46162
1392000000 -3.1871164 107.11551 -72.557686 26.264986 -90.583557 44.192871 -7.3913598 39.537476
1401500000 -3.1679344 78.699333 -72.449745 -67.812294 -91.801865 155.10919 -6.1472597 -30.383097
1411000000 -3.1546097 50.387424 -69.939049 -170.37642 -95.385406 138.05052 -4.9183364 -100.73561
1420500000 -3.1456704 22.221081 -69.764412 82.095367 -89.244186 123.10297 -5.1805849 -168.22141
1430000000 -3.0831761 -5.5027699 -73.423256 -26.404528 -95.079323 167.14697 -6.3036413 129.91333
1439500000 -3.0105283 -32.602806 -71.202515 -122.36073 -95.351082 -77.188873 -7.206068 66.025688
1449000000 -2.99212 -59.376762 -72.125633 134.87744 -89.577744 -146.74042 -7.4023657 -8.520895
1458500000 -2.9985425 -86.209366 -71.014053 28.853718 -86.395531 139.92654 -6.9770951 -89.026764
1468000000 -2.9964218 -113.00681 -71.037468 -68.716736 -87.783936 90.10894 -6.337122 -160.75258
1477500000 -3.0106335 -139.77832 -71.457314 -176.16388 -89.668373 -95.472473 -5.5869942 137.11197
1487000000 -3.0808306 -167.11407 -74.214737 71.209724 -86.513275 135.42397 -5.0725932 76.252014
1496500000 -3.1616018 164.97345 -73.878632 -32.926632 -95.06749 -163.61403 -5.5178251 12.074043
1506000000 -3.2055278 136.8338 -73.895363 -137.99649 -95.585548 -63.852791 -6.8315754 -54.326256
1515500000 -3.2607188 108.33435 -78.492386 151.16315 -92.869682 97.325256 -7.6436706 -124.1375
1525000000 -3.3279994 79.294533 -77.468124 51.101223 -99.573769 144.11998 -6.968112 161.81128
1534500000 -3.3384895 50.106625 -77.799171 -56.68507 -91.955421 36.151104 -5.8728852 87.820808
1544000000 -3.3087981 21.26288 -77.210945 -165.63811 -97.291054 -32.941753 -5.7340636 20.279402
1553500000 -3.2926657 -7.2871881 -78.309288 120.28786 -95.742058 -122.54726 -6.1596122 -40.579651
1563000000 -3.2709303 -35.626461 -78.810547 17.288721 -101.76427 -168.14845 -6.6064901 -102.99578
1572500000 -3.2309208 -63.496323 -78.109634 -64.23999 -94.558388 84.511772 -7.1714888 -174.91806
1582000000 -3.2201862 -90.974022 -75.602058 -166.28035 -88.884758 60.753086 -7.6909084 106.7568
1591500000 -3.2577686 -118.60458 -75.935287 103.05899 -93.567871 124.50934 -7.3120308 34.276009
1601000000 -3.3045597 -146.50208 -77.601952 -7.8102856 -97.790764 174.30197 -6.1470976 -30.197643
1610500000 -3.3459346 -174.5603 -75.733086 -108.33585 -93.114105 158.46817 -5.1825118 -93.752243
1620000000 -3.4219062 157.03894 -75.911423 153.30099 -106.52765 -145.35596 -5.4994664 -159.24561
1629500000 -3.5172482 128.06364 -75.625885 64.007904 -103.91179 -139.53078 -6.9003162 135.41267
1639000000 -3.5734231 98.716187 -74.916275 -40.155285 -93.356544 -77.860085 -8.0025063 66.599098
1648500000 -3.593878 69.280678 -73.259804 -131.93648 -92.662254 81.197487 -7.7073326 -8.7676945
1658000000 -3.6175468 39.770306 -72.682716 115.81805 -89.270638 165.37193 -6.6477966 -83.910278
1667500000 -3.6186423 10.338212 -72.70787 13.365326 -101.8346 109.73016 -6.1096268 -151.19359
1677000000 -3.5629966 -18.629269 -72.932831 -87.501816 -94.597946 175.59666 -6.0717211 147.88736
1686500000 -3.4946439 -46.983822 -71.778381 173.15083 -113.93884 30.485922 -6.4329877 85.308235
1696000000 -3.4698522 -74.915764 -72.974998 70.776611 -89.009811 -4.7956305 -7.4939389 14.673739
1705500000 -3.451323 -102.59466 -72.560509 -30.081537 -92.802727 14.597654 -8.6083469 -62.676739
1715000000 -3.424444 -130.06143 -71.905319 -120.8159 -98.927948 34.978409 -8.1569052 -137.94763
1724500000 -3.4384649 -157.42198 -70.771576 135.17177 -88.286018 55.807583 -6.5490341 153.63408
1734000000 -3.4899943 174.95961 -70.826576 32.317745 -93.875023 50.545006 -5.4278436 87.749725
1743500000 -3.5378113 146.9577 -70.917656 -72.332344 -97.008324 51.511456 -5.7513037 23.773275
1753000000 -3.573288 118.82156 -69.728378 -163.13185 -93.732002 -114.36647 -6.9612179 -38.123318
1762500000 -3.6144211 90.461113 -69.960495 90.008316 -94.929756 -132.32487 -8.0294695 -104.18782
1772000000 -3.6565933 61.699707 -69.278702 -5.6687298 -97.744003 -45.671719 -8.1928053 -178.93697
1781500000 -3.6618259 32.931782 -67.791122 -108.50878 -90.858002 28.671997 -7.5192266 105.16148
1791000000 -3.6335673 4.4284697 -67.041031 150.90781 -87.816765 -166.28777 -6.8140731 37.199902
1800500000 -3.6098466 -23.868296 -67.350952 48.128689 -90.842293 162.99731 -6.405746 -25.337723
1810000000 -3.5678995 -51.791267 -66.18512 -55.842659 -87.291832 90.817223 -6.6127362 -90.007843
1819500000 -3.5156391 -79.275246 -66.592865 -160.23082 -93.382782 -88.67382 -7.7747827 -160.53079
1829000000 -3.4981191 -106.45314 -66.078568 106.90051 -95.140388 177.16902 -8.8802032 125.01025
1838500000 -3.4952981 -133.47513 -64.764641 -0.16535743 -92.432037 179.88341 -8.3170214 52.22044
1848000000 -3.4988647 -160.5027 -64.511101 -106.98847 -103.59725 82.883286 -6.6297235 -15.360279
1857500000 -3.542851 172.4151 -64.41787 162.20026 -96.060677 -126.69136 -5.5311499 -80.438942
1867000000 -3.6140876 145.07501 -62.442844 56.838234 -86.033875 -177.40327 -5.8365822 -142.53094
1876500000 -3.6903832 117.2981 -61.600006 -54.35865 -86.808067 128.19205 -6.9833779 157.43259
1886000000 -3.7735884 89.261536 -60.696209 -155.67903 -92.71505 -31.457331 -8.2316999 92.10981
1895500000 -3.8532422 60.921833 -59.177639 93.743889 -91.659294 -89.942162 -8.8593006 15.635999
1905000000 -3.9165473 32.249241 -58.742611 -24.493176 -82.344238 157.81609 -8.2900457 -63.30574
1914500000 -3.950877 3.636055 -59.801262 -143.87918 -91.417679 69.031166 -7.1937022 -132.85654
1924000000 -3.9584033 -24.763374 -61.238071 113.26028 -90.456284 173.13704 -6.3382001 164.08806
1933500000 -3.9447238 -52.987274 -62.663723 4.2591782 -85.54641 160.60191 -6.2976971 100.57042
1943000000 -3.9143422 -80.870956 -63.345898 -97.700531 -97.896729 114.30636 -7.3532057 34.325916
1952500000 -3.8804886 -108.43118 -64.133194 165.96404 -90.070107 48.494492 -8.6172686 -34.903389
1962000000 -3.863291 -135.91725 -65.134705 65.794136 -101.66586 31.729477 -8.6183672 -106.86708
1971500000 -3.8532443 -163.32857 -64.448181 -35.62384 -88.759369 -127.36942 -7.3843031 -177.60959
1981000000 -3.8574831 169.2179 -65.10257 -139.01709 -84.516235 117.18389 -6.4371409 115.16412
1990500000 -3.9032698 141.495 -65.482445 120.69455 -87.077393 -43.34568 -6.5260811 52.128201
2000000000 -3.9672432 113.37057 -66.504608 22.315996 -97.336006 4.8947902 -7.3215675 -9.9725027
