!Keysight Technologies,N5242B,MY48420967,A.15.65.19
!Date: Saturday, February 04, 2023 11:58:05
!Correction: S11(C  1-Port  ) 
!S21(Off) 
!S12(Off) 
!S22(Off) 
!S2P File: Measurements: S11, S21, S12, S22:
# Hz S  dB   R 50
100000000 -1.5142484 40.24892 -81.512146 162.03069 -91.167488 128.84381 -2.299433 72.73877
109500000 -1.4471861 10.879455 -87.644783 42.364578 -99.144508 46.659664 -2.276243 5.9069433
119000000 -1.3753697 -18.024563 -82.043114 -90.316704 -95.607109 82.569069 -2.3666959 -69.785759
128500000 -1.2887211 -46.406639 -85.579437 177.60394 -103.71876 114.45588 -3.0562098 -144.43489
138000000 -1.2744995 -74.800453 -81.994301 101.73322 -90.301788 121.024 -3.1247416 150.37953
147500000 -1.3442988 -103.70381 -87.097504 -14.184079 -89.532654 44.937363 -2.0534887 88.626793
157000000 -1.4099022 -132.95221 -84.035408 -92.375137 -97.040573 71.876549 -0.86312538 19.642647
166500000 -1.4823332 -162.4086 -85.459625 147.33417 -98.473679 -6.7981496 -1.6656585 -54.956036
176000000 -1.6065209 167.67596 -81.770897 92.621376 -92.586174 -68.964836 -3.5324912 -122.75948
185500000 -1.7079797 137.40994 -82.058037 -57.722919 -86.688339 152.48691 -4.2063279 171.9494
195000000 -1.725131 107.4514 -80.377968 -146.37396 -95.352402 -13.863156 -3.2656078 102.16785
204500000 -1.7253317 77.913025 -84.978073 108.80368 -99.624969 9.5142126 -2.2253122 27.662916
214000000 -1.7321105 48.49197 -85.352386 -14.515605 -91.084778 138.85587 -2.3189669 -41.958183
223500000 -1.6856188 19.405186 -78.846207 -91.444794 -88.772171 41.161022 -2.5659733 -104.28737
233000000 -1.615334 -9.212388 -80.224304 163.26045 -89.315414 137.10043 -2.4213061 -168.53925
242500000 -1.6050091 -37.779346 -87.153046 76.660309 -95.565369 116.78072 -2.6049516 119.04592
252000000 -1.6231464 -66.600121 -84.37191 5.5928173 -96.929565 111.81497 -3.4440868 45.506557
261500000 -1.6370363 -95.614082 -79.227585 -139.18614 -98.002258 -157.99211 -3.5986981 -22.071344
271000000 -1.6959759 -124.83199 -78.082321 150.77235 -82.025238 90.84465 -2.5390553 -87.4422
280500000 -1.8077189 -154.56511 -78.51017 9.0685291 -89.150459 4.9893527 -1.4356947 -157.93263
290000000 -1.8941662 175.3062 -78.733757 -78.985779 -86.911095 -123.56807 -1.9427303 129.90848
299500000 -1.9521275 145.19951 -78.398926 -174.04677 -101.17168 -33.644913 -3.1542826 64.018745
309000000 -2.0175717 115.12754 -78.205986 72.457306 -88.137962 119.98235 -3.5054929 -1.1695082
318500000 -2.0563121 85.212181 -83.537888 -24.438835 -99.271225 -56.231724 -2.9288476 -72.920731
328000000 -2.0305765 55.713043 -77.88427 -123.89005 -97.409981 -143.89961 -2.6820166 -148.35449
337500000 -2.004941 26.556711 -77.093422 125.99504 -90.471649 57.231491 -2.9333251 143.04803
347000000 -2.0139391 -2.4500902 -83.299812 74.33696 -95.538673 -139.03712 -2.6899381 79.597267
356500000 -2.0038166 -31.369293 -78.372032 -66.753105 -81.144699 163.16158 -2.067395 11.522552
366000000 -1.9916794 -60.3624 -79.490013 -173.30501 -86.456642 121.00765 -2.3912809 -63.418095
375500000 -2.0474467 -89.703011 -78.030113 92.906654 -96.598885 -170.80266 -3.5016131 -134.1181
385000000 -2.1354342 -119.52741 -81.83812 -1.8846046 -90.021072 116.39613 -3.6649139 161.38811
394500000 -2.198776 -149.56937 -78.328316 -99.328003 -90.489883 159.18727 -2.5668342 95.583145
404000000 -2.2558026 -179.6815 -78.449814 140.42938 -86.479561 -157.73643 -1.7063276 21.831635
413500000 -2.3341441 150.0255 -76.265259 44.741943 -93.879005 102.0219 -2.598659 -51.626469
423000000 -2.3868287 119.831 -81.297417 -62.034088 -87.084137 39.629581 -3.6773481 -117.82513
432500000 -2.3678992 90.192436 -77.658943 -148.87897 -85.015213 79.135071 -3.5915501 175.55011
442000000 -2.3348477 61.015911 -76.337982 99.443672 -88.31559 -177.13487 -2.8191452 102.09558
451500000 -2.3330219 32.115643 -76.941513 -1.6057651 -98.040428 131.09158 -2.833936 27.518089
461000000 -2.3105075 3.5544116 -78.99839 -106.25971 -90.585312 -136.38472 -3.2574754 -38.836636
470500000 -2.2663574 -24.706797 -78.851967 -176.79749 -94.973709 12.030939 -3.0586951 -101.99276
480000000 -2.2630684 -52.991028 -78.369392 60.584503 -89.676735 -138.42374 -2.5512407 -171.75723
489500000 -2.3071425 -81.60955 -78.12809 -44.506779 -106.01855 -150.17146 -2.9891915 112.13122
499000000 -2.3508635 -110.53529 -75.959045 -143.32558 -93.40049 -141.82503 -3.8406303 40.980297
508500000 -2.3819201 -139.58983 -76.901108 113.07334 -93.671944 26.274105 -3.6344123 -24.590681
518000000 -2.4339736 -168.88078 -73.908875 7.2345648 -88.946182 -46.229221 -2.6074927 -91.7556
527500000 -2.4946032 161.63631 -77.035873 -106.51271 -97.192924 4.2794194 -2.348865 -163.72568
537000000 -2.5143509 132.29672 -78.272934 154.64018 -92.654655 27.696871 -3.3342943 127.12663
546500000 -2.4995332 103.34402 -77.105316 48.699295 -110.89409 -34.241989 -4.0330453 61.239006
556000000 -2.4810846 74.796158 -80.247169 -60.697701 -98.399467 51.089718 -3.6677992 -9.2884636
565500000 -2.454329 46.623196 -78.553558 -159.03958 -93.69825 -27.034355 -3.1493411 -86.399483
575000000 -2.4141402 18.820845 -80.601219 128.15579 -91.668083 51.497341 -3.4743376 -158.58397
584500000 -2.3832254 -8.7556791 -78.608498 26.545919 -97.965645 -115.65352 -3.6923642 139.31421
594000000 -2.375916 -36.323208 -77.032005 -83.423584 -87.730057 -30.742002 -3.1624944 78.428375
603500000 -2.386766 -64.052231 -77.164833 168.24503 -90.223122 74.692886 -2.6894784 8.7016239
613000000 -2.4225731 -92.111969 -80.03492 67.967705 -90.791138 -160.12173 -3.4799371 -66.580116
622500000 -2.478641 -120.64441 -81.388313 -20.745071 -94.681221 158.68265 -4.3577819 -136.54915
632000000 -2.5456944 -149.57681 -81.26252 -107.21909 -99.165398 -133.59315 -3.9671535 157.58427
641500000 -2.5935783 -178.62717 -77.964409 130.67995 -102.77484 -136.11296 -2.9060504 89.892471
651000000 -2.6374929 152.14639 -80.068237 17.426836 -93.483772 -83.43293 -2.7735407 19.786201
660500000 -2.6761816 122.85928 -76.74659 -71.613571 -100.54891 -154.38756 -3.6408894 -46.710117
670000000 -2.6688552 93.837234 -78.813484 -163.53377 -92.541359 -94.129601 -4.2001834 -112.56995
679500000 -2.6358383 65.301041 -74.857101 99.570084 -92.823944 5.2671556 -4.0526805 174.41145
689000000 -2.6131837 37.09164 -75.931656 -35.598152 -96.922409 -153.31944 -3.976361 96.697533
698500000 -2.6008155 8.9903736 -75.437012 -131.58759 -94.640442 -99.022369 -4.1443958 26.979368
708000000 -2.5824704 -18.839125 -79.481644 154.35814 -86.9561 -89.472702 -3.8140924 -34.018997
717500000 -2.5754454 -46.521587 -77.429062 51.664078 -87.335548 -155.88779 -3.0027823 -95.91246
727000000 -2.6190786 -74.634407 -78.853149 -59.876335 -97.990814 -176.2867 -2.8656337 -166.26846
736500000 -2.696455 -103.33081 -76.835426 -160.92137 -95.762451 168.82607 -4.1547914 120.5812
746000000 -2.7586465 -132.31668 -77.705345 118.16228 -94.356071 162.13712 -5.1045442 50.581093
755500000 -2.8192313 -161.61134 -77.325165 3.5892768 -90.535751 70.417839 -4.4706683 -18.882399
765000000 -2.9045582 168.66158 -76.885582 -102.17789 -93.426239 -173.2271 -3.2981129 -90.551056
774500000 -2.9599466 138.75801 -73.791565 156.25342 -91.563911 128.3759 -3.3157403 -160.25435
784000000 -2.9597735 109.12374 -77.956696 53.11047 -95.851585 70.10775 -4.0748949 137.12083
793500000 -2.9439051 79.873833 -76.179512 -54.723438 -97.074753 30.099472 -4.4626379 74.508858
803000000 -2.9236183 50.961605 -76.424706 -146.22937 -102.33096 -80.627556 -4.4465885 1.7608914
812500000 -2.8831 22.491272 -78.12104 120.92198 -105.32915 -103.47861 -4.8063736 -78.684441
822000000 -2.840795 -5.4732084 -78.463913 -15.225262 -100.5853 -17.27174 -5.1057982 -151.05719
831500000 -2.8242495 -33.209824 -77.510971 -89.966965 -103.87952 -61.325092 -4.5305719 146.31955
841000000 -2.8357344 -61.011696 -76.520279 173.72864 -97.42231 82.996262 -3.4581568 83.658928
850500000 -2.8642197 -88.980667 -76.997749 70.235909 -93.433014 -55.878334 -3.2619331 13.934804
860000000 -2.9134073 -117.23315 -76.427353 -30.221088 -97.475609 -177.75592 -4.6023707 -57.546032
869500000 -2.9801848 -145.9183 -77.18396 -133.50571 -95.568321 -75.465767 -5.7411151 -127.83073
879000000 -3.0401487 -174.93817 -76.968735 138.89304 -104.19384 34.53952 -5.3641868 159.69406
888500000 -3.0769885 155.93192 -75.990211 30.82506 -93.18441 -98.444702 -4.3255467 86.002563
898000000 -3.1005452 126.84381 -75.643417 -86.10157 -98.046928 -50.319889 -4.0892873 17.059446
907500000 -3.0937204 97.89444 -75.409134 -174.03581 -94.120895 173.8508 -4.3751869 -45.095757
917000000 -3.0502615 69.313316 -76.139305 85.955345 -103.18658 58.604683 -4.584053 -107.98318
926500000 -2.9936934 41.283051 -76.13768 -16.338142 -98.681381 32.844685 -4.9804645 -179.87854
936000000 -2.9447925 13.739582 -77.419662 -132.00273 -95.94812 -40.10223 -5.7698312 101.79704
945500000 -2.9006643 -13.473794 -75.593048 137.37509 -89.735641 133.55295 -5.8962655 28.248549
955000000 -2.8627303 -40.448082 -77.585281 34.281631 -95.86348 -98.941315 -4.9841514 -37.959682
964500000 -2.8551719 -67.273849 -76.803429 -63.756763 -93.448486 -158.90015 -3.9457698 -102.86932
974000000 -2.8827472 -94.269356 -73.870544 -168.5659 -87.436821 154.85425 -3.9524746 -169.51949
983500000 -2.9345212 -121.7737 -76.215324 97.525742 -100.82803 31.321493 -4.9877696 124.29212
993000000 -2.9909973 -149.67509 -75.513977 -9.2433853 -92.716331 148.83958 -5.8866673 55.620388
1002500000 -3.0393429 -177.83522 -74.296585 -110.08434 -101.12469 84.83757 -5.8923922 -19.624723
1012000000 -3.0950553 153.64317 -75.738174 154.95773 -90.488106 -154.58577 -5.4499702 -95.308006
1021500000 -3.1343205 124.87984 -76.743217 59.707581 -91.074104 171.6544 -5.1132107 -162.08632
1031000000 -3.1290703 96.176117 -76.302208 -55.743286 -92.67527 -176.07813 -4.6431255 137.92278
1040500000 -3.0938334 67.804703 -75.285469 -146.04904 -94.241989 -26.298782 -4.1483154 75.318466
1050000000 -3.0620382 39.759132 -75.17202 114.76678 -92.369667 7.9438586 -4.6571569 4.2359371
1059500000 -3.026624 11.985308 -76.459015 -7.8832474 -100.53471 -93.579056 -6.2671909 -69.515579
1069000000 -2.9799395 -15.370477 -75.817703 -93.759789 -93.760895 -160.08475 -6.9307528 -140.8546
1078500000 -2.94875 -42.352291 -74.946182 167.03696 -88.689209 -45.306477 -5.7963452 150.15469
1088000000 -2.956075 -69.338005 -74.610405 66.457298 -91.859848 146.30573 -4.2800636 80.337761
1097500000 -3.0089571 -96.67099 -75.461327 -42.402847 -99.204002 79.211823 -4.1721797 11.348101
1107000000 -3.0658512 -124.33064 -74.279915 -145.07356 -91.237442 -1.890385 -5.1010666 -51.98156
1116500000 -3.1278789 -152.40707 -74.982475 120.31213 -88.022415 163.67729 -5.8605666 -115.49664
1126000000 -3.2212632 178.92195 -74.733765 13.245611 -84.17868 169.31969 -6.1129684 172.80688
1135500000 -3.3063827 149.73846 -73.544937 -88.359116 -100.71947 -141.53236 -6.1186347 96.09346
1145000000 -3.3418303 120.34686 -73.910324 174.86813 -98.980194 -44.938587 -5.8564305 26.27223
1154500000 -3.3565714 91.008987 -75.064323 70.411034 -92.138824 -149.35097 -5.1069841 -35.924572
1164000000 -3.3603871 61.749454 -72.936218 -32.399628 -96.17778 -91.756546 -4.3104 -99.029953
1173500000 -3.3292739 32.72538 -72.916962 -136.25102 -95.461533 -87.007645 -4.6787148 -167.86566
1183000000 -3.2756691 4.3165727 -73.837868 124.98486 -97.293709 101.60178 -6.3477201 122.31286
1192500000 -3.2387142 -23.59655 -74.145378 27.831703 -88.476547 -177.81961 -7.4559741 51.754356
1202000000 -3.2317944 -51.373798 -72.512428 -70.676582 -90.69532 143.27141 -6.6990633 -21.841129
1211500000 -3.2317235 -78.967827 -72.722679 -179.88 -102.6288 -59.081547 -5.2065568 -96.418869
1221000000 -3.2519195 -106.49683 -73.221748 86.591446 -100.85949 32.846466 -4.8391628 -166.21149
1230500000 -3.3245101 -134.41508 -72.557632 -23.889114 -96.222092 -168.62154 -5.2968669 131.90358
1240000000 -3.4071882 -162.89308 -72.056259 -121.69697 -89.101364 109.07489 -5.7892952 70.922905
1249500000 -3.4622803 168.30609 -71.645279 142.70064 -91.772057 91.781754 -6.3238745 2.5532727
1259000000 -3.5222156 139.30704 -72.43013 28.916071 -89.844673 -114.31219 -6.915206 -73.364876
1268500000 -3.5763245 109.9648 -71.087715 -77.402824 -88.793365 130.8071 -6.7776279 -147.69127
1278000000 -3.575597 80.524445 -70.77095 -170.16173 -88.105362 112.83903 -5.7589655 143.98465
1287500000 -3.5230784 51.606266 -71.196815 84.746338 -88.208359 23.999878 -4.8748651 77.481979
1297000000 -3.466958 23.219294 -71.231995 -27.79425 -95.543579 -109.08865 -5.1651001 11.232424
1306500000 -3.4231219 -4.8252101 -71.767357 -128.90204 -83.460213 172.32828 -6.3541088 -53.49371
1316000000 -3.3625665 -32.362137 -71.052399 142.34059 -94.452248 95.019928 -7.3379512 -121.76273
1325500000 -3.2977879 -59.318562 -71.086472 30.701237 -96.753189 30.206772 -7.2886734 161.36369
1335000000 -3.2820363 -86.079437 -72.464264 -70.36895 -89.152405 -66.738518 -6.5415001 83.013939
1344500000 -3.3133371 -112.98246 -71.860687 -175.15089 -92.448357 -154.79271 -5.9445276 13.911694
1354000000 -3.3480728 -140.11365 -70.960609 95.703545 -91.365913 46.221615 -5.4795499 -47.616184
1363500000 -3.3789635 -167.43774 -70.604103 -20.962423 -89.685364 -94.120537 -5.2882667 -109.97271
1373000000 -3.4379721 164.87755 -68.714027 -130.72287 -104.71909 -119.64796 -5.9737515 -177.8365
1382500000 -3.5186181 136.67458 -71.785866 124.34433 -97.523102 -113.91114 -7.2524457 111.29753
1392000000 -3.5555034 108.16459 -75.363625 29.641603 -90.835976 41.662884 -7.5401931 40.262844
1401500000 -3.5384507 79.703728 -72.031158 -61.091137 -89.97982 -19.976336 -6.3061566 -29.738197
1411000000 -3.5255342 51.35207 -68.905304 -169.14801 -87.528496 169.1992 -5.0639405 -99.990784
1420500000 -3.5144348 23.135059 -71.90889 71.583885 -88.991821 102.85613 -5.2982788 -167.38625
1430000000 -3.4472473 -4.6548872 -72.188454 -18.093172 -89.239273 114.49619 -6.413033 130.78197
1439500000 -3.3710208 -31.787165 -72.131844 -121.56226 -88.389481 -45.799946 -7.3387618 66.983437
1449000000 -3.3511217 -58.585518 -71.13784 140.67743 -98.566574 -50.69091 -7.5761027 -7.5028176
1458500000 -3.3580744 -85.431808 -72.398613 32.598343 -90.618782 149.30551 -7.1564689 -88.122505
1468000000 -3.3579841 -112.24057 -71.014931 -77.89222 -91.338394 -157.13214 -6.4900775 -160.04239
1477500000 -3.3781435 -139.00757 -73.698959 171.92374 -90.119713 -77.245415 -5.7193327 137.74756
1487000000 -3.4559202 -166.33095 -75.670776 68.73011 -93.954552 22.702013 -5.1939459 76.944664
1496500000 -3.5467505 165.75731 -76.564667 -28.837879 -104.10715 -69.700043 -5.6309452 12.886083
1506000000 -3.5995989 137.61726 -76.371071 -118.93526 -92.032959 -149.65875 -6.9500141 -53.452736
1515500000 -3.6635661 109.12317 -76.490677 153.8719 -94.049858 97.815987 -7.7923961 -123.32116
1525000000 -3.7381895 80.07943 -78.597404 50.589794 -87.756851 156.01584 -7.1390548 162.4913
1534500000 -3.750668 50.886322 -78.785339 -59.109959 -90.416069 137.78705 -6.030817 88.44313
1544000000 -3.7206786 22.034061 -77.625656 -146.7747 -98.639412 8.9586267 -5.8641343 20.880892
1553500000 -3.7029953 -6.5059576 -78.823051 126.13051 -93.77784 -49.561527 -6.2785397 -40.006447
1563000000 -3.6774673 -34.830364 -76.549294 28.726154 -101.56969 -91.664818 -6.7355766 -102.37894
1572500000 -3.6338835 -62.666855 -77.161636 -67.764435 -95.757683 165.58203 -7.320714 -174.24187
1582000000 -3.6223733 -90.092331 -76.817917 -170.79031 -97.886497 -128.83987 -7.8474407 107.33199
1591500000 -3.6621537 -117.65211 -77.143265 100.50616 -97.067932 -173.21378 -7.4530835 34.638756
1601000000 -3.7148335 -145.4866 -77.122292 8.3055592 -91.181808 -8.0834475 -6.2739162 -29.916216
1610500000 -3.7623019 -173.47302 -75.232903 -111.60094 -95.255486 87.797798 -5.2994213 -93.402321
1620000000 -3.8464558 158.21211 -74.129646 154.45547 -98.725578 28.506859 -5.6052213 -158.7829
1629500000 -3.9500828 129.30478 -75.666618 61.01593 -96.72332 -57.33847 -7.0025444 135.9324
1639000000 -4.0147848 99.999664 -73.322159 -37.25816 -95.796227 148.55659 -8.1203089 67.1082
1648500000 -4.039854 70.604317 -72.108116 -142.6443 -98.997498 133.02185 -7.8405466 -8.3410254
1658000000 -4.0653968 41.125164 -72.531563 119.25201 -87.814705 30.332737 -6.771101 -83.511688
1667500000 -4.0657907 11.700438 -72.127129 9.2513142 -94.005692 -113.61549 -6.2099771 -150.77505
1677000000 -4.0040016 -17.270376 -72.322014 -91.904686 -97.78775 -13.082641 -6.1594925 148.36165
1686500000 -3.9296219 -45.614044 -72.652512 174.36276 -96.383995 91.90451 -6.5187802 85.917
1696000000 -3.8984482 -73.531639 -72.648117 71.37709 -100.06678 -23.060041 -7.5838485 15.464949
1705500000 -3.8770247 -101.19421 -72.83551 -32.966675 -90.369125 146.70132 -8.7132006 -61.838211
1715000000 -3.8486083 -128.64452 -71.651253 -125.71708 -94.229736 -45.767178 -8.2714329 -137.25253
1724500000 -3.8623998 -155.97032 -70.094688 138.17899 -90.110184 119.45036 -6.6548519 154.27925
1734000000 -3.9195597 176.44308 -70.516525 27.655682 -98.34948 29.07852 -5.5121722 88.480499
1743500000 -3.9738383 148.45287 -70.270744 -73.519791 -106.18481 -41.189445 -5.8112411 24.594975
1753000000 -4.0156426 120.31262 -70.064514 -168.14671 -99.311035 87.7444 -7.0104074 -37.203163
1762500000 -4.0631618 91.952652 -69.268517 94.184311 -91.734947 108.63934 -8.0938997 -103.08414
1772000000 -4.112916 63.155701 -68.69017 -3.9297149 -96.072266 109.1461 -8.2867298 -177.71262
1781500000 -4.1187973 34.340866 -67.917145 -106.96287 -104.78715 120.06029 -7.6226916 106.34009
1791000000 -4.0904183 5.7786283 -66.617523 149.43684 -92.338661 -151.50516 -6.9048896 38.296848
1800500000 -4.063704 -22.579767 -66.149841 42.530235 -91.380562 157.96931 -6.4839702 -24.198881
1810000000 -4.0193391 -50.554653 -65.848381 -66.157265 -97.379547 -34.230606 -6.6770277 -88.692383
1819500000 -3.9623725 -78.090324 -65.843338 -163.45303 -90.379822 -14.399419 -7.8327785 -159.011
1829000000 -3.9415393 -105.29449 -65.518677 96.415672 -92.263885 -175.12019 -8.967288 126.53732
1838500000 -3.9414384 -132.33615 -65.451851 -10.881557 -88.175995 145.08818 -8.4368019 53.537365
1848000000 -3.948832 -159.37469 -65.041183 -107.05482 -109.13879 -66.708397 -6.7470894 -14.18725
1857500000 -3.9992971 173.55029 -63.98951 158.35956 -92.89164 -170.08296 -5.6172862 -79.263008
1867000000 -4.0827031 146.23491 -62.412952 49.41431 -87.393967 -171.877 -5.8896122 -141.34624
1876500000 -4.1731124 118.48588 -62.243614 -57.90424 -82.863586 104.70123 -7.0246792 158.7101
1886000000 -4.2706881 90.47393 -60.460945 -159.24852 -88.00602 -7.9590225 -8.2895308 93.616699
1895500000 -4.3632064 62.187222 -59.178532 87.184212 -88.46386 -109.63182 -8.9647427 17.290478
1905000000 -4.4369836 33.581722 -58.833675 -30.958437 -87.453102 142.06329 -8.4218597 -61.881058
1914500000 -4.4722738 5.0335097 -60.410233 -147.45819 -90.962509 22.809309 -7.3117638 -131.69444
1924000000 -4.4740834 -23.282982 -61.147274 105.49259 -89.089058 -105.75344 -6.4350672 165.17189
1933500000 -4.4466405 -51.43885 -63.052113 -1.2884657 -94.41806 157.00047 -6.3721161 101.70643
1943000000 -4.3975372 -79.276581 -64.52327 -108.99743 -99.56884 175.02716 -7.4147182 35.531055
1952500000 -4.342227 -106.81715 -65.17601 164.5094 -87.421371 48.044029 -8.6943817 -33.68536
1962000000 -4.3115768 -134.2964 -66.375771 65.655312 -93.625374 -68.352966 -8.7266417 -105.77341
1971500000 -4.2918077 -161.71358 -66.222122 -38.534367 -92.015831 -129.97736 -7.4951634 -176.6579
1981000000 -4.2916441 170.84189 -66.408371 -140.06114 -97.046082 98.994629 -6.5255494 116.061
1990500000 -4.3397279 143.14957 -67.345749 125.45528 -104.48358 150.84563 -6.5922184 53.018116
2000000000 -4.4130688 115.05642 -67.108147 30.45137 -98.872063 -36.752914 -7.3781056 -9.0222063
