!Keysight Technologies,N5242B,MY48420967,A.15.65.19
!Date: Sunday, January 22, 2023 23:00:31
!Correction: S11(C  1-Port  ) 
!S21(Off) 
!S12(Off) 
!S22(Off) 
!S2P File: Measurements: S11, S21, S12, S22:
# Hz S  dB   R 50
100000000 -1.346128 40.477524 -83.25827 150.84271 -90.623329 153.52863 -2.0967221 73.487778
109500000 -1.2610551 11.103555 -90.399277 40.507492 -91.232086 139.74728 -2.0127521 7.0755892
119000000 -1.1666076 -17.578465 -83.825684 -93.438042 -91.409996 -127.44601 -2.056437 -68.455284
128500000 -1.0911114 -45.950359 -84.571182 -166.24895 -88.532799 138.37761 -2.7862942 -143.24208
138000000 -1.082513 -74.504539 -84.469582 94.997635 -90.408508 -18.907017 -2.9188778 151.49675
147500000 -1.1310958 -103.36743 -85.230461 -34.13192 -85.324234 143.23613 -1.8619483 89.777306
157000000 -1.1898152 -132.53554 -80.193871 -104.39472 -89.555344 118.8523 -0.61574894 20.761312
166500000 -1.2759862 -162.09489 -83.633247 148.35321 -99.037575 -5.4736366 -1.3674316 -54.148331
176000000 -1.3919606 167.91425 -81.208099 60.493286 -92.443703 78.544334 -3.234422 -121.93597
185500000 -1.4837912 137.71304 -87.720879 -46.33588 -92.146873 -172.98959 -3.9168797 173.1458
195000000 -1.5212233 107.72761 -79.230698 -163.86433 -84.022606 127.18303 -2.9817183 103.63867
204500000 -1.5294714 78.089592 -80.47728 101.72536 -97.005241 -32.538197 -1.9410058 28.877886
214000000 -1.5218421 48.698692 -81.730675 -2.0269907 -89.996201 155.14311 -2.0648251 -41.144478
223500000 -1.4836094 19.667799 -79.198883 -100.60549 -98.817162 28.008738 -2.3259232 -103.58562
233000000 -1.4366355 -9.0415659 -79.347717 166.35864 -93.511589 96.989777 -2.150404 -167.79694
242500000 -1.4193079 -37.684399 -82.086967 58.366707 -96.949272 -4.0760684 -2.288352 119.76617
252000000 -1.4212358 -66.423904 -81.497154 -75.21067 -84.478104 32.446796 -3.1363983 46.248344
261500000 -1.4495885 -95.425873 -84.45607 -161.21288 -85.942551 31.375898 -3.329299 -21.145615
271000000 -1.5214123 -124.76791 -76.631027 151.66359 -86.104858 177.95317 -2.2841973 -86.39193
280500000 -1.6085798 -154.52371 -77.580627 39.512535 -87.985565 -167.93414 -1.1558789 -157.01141
290000000 -1.6846141 175.46393 -80.289421 -81.081795 -93.438011 -174.14117 -1.6568902 130.50423
299500000 -1.7625645 145.36139 -77.371864 -151.85428 -106.40786 178.20226 -2.8773913 64.606239
309000000 -1.8244405 115.21113 -82.491539 110.36512 -87.236832 118.06665 -3.2154443 -0.31551927
318500000 -1.8401018 85.34198 -81.894005 -23.839186 -93.417068 -164.13371 -2.6097093 -71.844109
328000000 -1.8170114 55.976261 -76.508255 -127.89088 -88.201248 113.88277 -2.3630426 -147.35818
337500000 -1.8003384 26.835205 -78.224304 131.79877 -89.520554 -172.48599 -2.648627 143.97406
347000000 -1.7920243 -2.1816063 -78.957619 40.244728 -91.163879 125.88158 -2.4126728 80.6334
356500000 -1.7655931 -31.04129 -79.563675 -71.16066 -88.077042 163.88136 -1.749705 12.648892
366000000 -1.760478 -59.994034 -78.894417 -167.48386 -93.336273 83.972954 -2.0394597 -62.442123
375500000 -1.8094039 -89.315819 -81.893188 93.864288 -90.543587 138.57965 -3.1767812 -133.14351
385000000 -1.8715433 -119.10203 -76.829514 -9.6429377 -101.37571 172.21207 -3.3709955 162.64113
394500000 -1.9333426 -149.15479 -75.707733 -118.5582 -96.285866 -23.49498 -2.2597618 97.100502
404000000 -1.9976825 -179.30083 -77.734734 134.19681 -88.75444 110.83743 -1.345196 23.198776
413500000 -2.0578401 150.43324 -80.039337 36.078346 -88.782028 -170.39355 -2.2392972 -50.63129
423000000 -2.0995603 120.25727 -77.284363 -55.525482 -92.977142 -77.469505 -3.3386238 -116.74185
432500000 -2.0972245 90.536255 -76.760437 -152.06401 -98.16011 -20.457045 -3.24402 176.99223
442000000 -2.0670383 61.292439 -75.02317 93.754356 -86.292564 -45.41209 -2.4399443 103.66367
451500000 -2.046375 32.436943 -74.75882 0.30864853 -96.855522 -156.37596 -2.4654231 28.797611
461000000 -2.0214195 3.8439946 -75.563942 -104.96091 -84.149147 145.46234 -2.9343643 -37.714043
470500000 -1.9920341 -24.554464 -78.863014 155.97081 -92.043381 44.844921 -2.7438123 -100.81806
480000000 -1.9800069 -52.867905 -75.196083 84.83503 -88.20182 -102.61051 -2.1934619 -170.60054
489500000 -2.0015686 -81.430305 -76.962227 -41.311619 -91.32032 159.73965 -2.6069932 113.04403
499000000 -2.0476182 -110.37241 -78.678947 -130.03061 -88.818748 153.26468 -3.486727 41.899315
508500000 -2.0863802 -139.50761 -72.856804 116.87791 -94.8302 -151.35236 -3.2981422 -23.434542
518000000 -2.1201403 -168.78896 -73.100739 11.855639 -89.025581 178.11234 -2.2452528 -90.495964
527500000 -2.1640539 161.80185 -73.667633 -110.53532 -92.59285 179.6255 -1.9604732 -162.7661
537000000 -2.191529 132.46643 -75.963104 151.28961 -95.392204 58.310658 -2.9709592 127.85594
546500000 -2.1866176 103.48166 -77.4039 52.775677 -93.671616 157.75864 -3.687037 62.093777
556000000 -2.1605289 74.982162 -76.362892 -41.057457 -95.632652 128.08052 -3.3042526 -8.2277479
565500000 -2.1292868 46.867687 -74.522453 -143.44603 -89.161865 -147.31682 -2.7684288 -85.453102
575000000 -2.099015 19.049824 -79.818741 108.72057 -100.68969 62.88612 -3.1269455 -157.83868
584500000 -2.0663109 -8.523715 -79.421448 22.421703 -96.887344 -138.00668 -3.3698866 140.14032
594000000 -2.0469162 -36.061192 -77.431862 -75.641785 -90.141586 -179.46458 -2.8115089 79.445969
603500000 -2.0576668 -63.800076 -76.051544 178.40588 -90.803093 155.49487 -2.2736197 9.6940651
613000000 -2.0909998 -91.904366 -76.402756 77.928818 -89.472488 127.95529 -3.0632045 -65.833359
622500000 -2.131783 -120.39827 -77.658249 -37.993153 -88.389671 81.170189 -3.9976206 -135.72058
632000000 -2.1858041 -149.26961 -76.626846 -145.8846 -92.379768 -139.66675 -3.6426179 158.58781
641500000 -2.2377763 -178.38446 -74.902748 136.19316 -116.09089 -95.099655 -2.5705385 90.881409
651000000 -2.2775223 152.34953 -79.591438 20.808996 -93.399124 -54.519497 -2.4178984 20.518248
660500000 -2.2988503 123.16782 -78.44442 -66.169693 -96.328239 -1.5201632 -3.2773557 -46.053673
670000000 -2.2963805 94.182915 -77.363945 -171.12917 -95.637276 -92.030243 -3.8066695 -111.66459
679500000 -2.2776029 65.541733 -75.758118 106.03407 -90.573738 170.41698 -3.6156294 175.6017
689000000 -2.2441165 37.325829 -78.223122 -19.179991 -91.417915 141.69217 -3.5562286 97.80127
698500000 -2.2172968 9.3487215 -75.930138 -125.45745 -86.055199 3.7388191 -3.7992547 27.944832
708000000 -2.2052574 -18.504667 -77.641891 163.24889 -103.00313 -79.556168 -3.5099812 -33.044807
717500000 -2.2005706 -46.346203 -78.124939 66.577286 -96.900459 121.65813 -2.6724257 -94.9086
727000000 -2.2230768 -74.450111 -73.663071 -57.679768 -90.616547 112.56445 -2.4721363 -165.45795
736500000 -2.2837584 -103.02231 -76.842438 -151.59091 -101.95547 -70.71904 -3.7467546 121.24667
746000000 -2.3483555 -132.09476 -76.253525 112.76379 -90.409309 -133.81415 -4.7166305 51.576099
755500000 -2.4046359 -161.53635 -77.240417 12.495646 -88.503441 170.71854 -4.1024866 -17.528442
765000000 -2.4669096 168.79117 -75.466667 -100.44049 -98.58078 72.982384 -2.9252477 -89.293465
774500000 -2.5169268 138.95006 -74.736595 171.33769 -92.388435 -158.79703 -2.9591846 -159.38832
784000000 -2.5300465 109.21171 -76.601791 59.010998 -92.261177 -79.921013 -3.7364435 137.88104
793500000 -2.5134239 79.872742 -75.64061 -36.10918 -91.244827 33.015511 -4.0921016 75.479477
803000000 -2.4861956 50.994591 -75.031479 -144.03491 -88.000809 -141.76305 -4.0041909 2.9998815
812500000 -2.4533179 22.52774 -74.90419 114.62576 -95.628372 -71.863869 -4.360178 -77.458069
822000000 -2.4166799 -5.5618882 -77.71624 17.173296 -92.700768 -179.75854 -4.7414818 -149.85809
831500000 -2.3926558 -33.383785 -77.069618 -88.722282 -95.28772 84.189522 -4.2183585 147.54807
841000000 -2.3956306 -61.170879 -74.368408 -175.45871 -108.63473 -20.115005 -3.1263797 84.86274
850500000 -2.4237742 -89.171249 -76.18895 63.296688 -93.740074 -82.969574 -2.8762226 14.837951
860000000 -2.4696872 -117.53703 -75.223579 -28.127466 -90.242294 -143.02919 -4.2017555 -56.859943
869500000 -2.5205722 -146.25665 -74.911415 -135.58919 -97.570999 -93.486458 -5.3423586 -126.85188
879000000 -2.5722556 -175.23004 -76.011894 135.61336 -92.781067 136.33838 -4.9767675 161.07797
888500000 -2.6145699 155.63419 -75.423393 22.16349 -93.458351 115.46834 -3.9499013 87.319962
898000000 -2.6347303 126.47586 -75.331169 -72.411461 -94.631973 161.10783 -3.7420514 18.024096
907500000 -2.6232545 97.544296 -74.757332 -169.38533 -93.366867 98.405441 -4.0426383 -44.289528
917000000 -2.5904675 69.041367 -75.258957 89.211517 -95.815811 60.925766 -4.2187161 -107.1589
926500000 -2.544878 40.990147 -74.707962 -30.895849 -94.489243 78.647987 -4.5522828 -179.0265
936000000 -2.4923408 13.395862 -74.330437 -123.72575 -94.729042 -156.69089 -5.3383174 102.69851
945500000 -2.4442425 -13.767456 -75.288605 136.1347 -99.883194 75.681183 -5.5278296 29.277664
955000000 -2.4119194 -40.694618 -75.579803 32.352558 -94.700775 -37.936543 -4.6581659 -36.926266
964500000 -2.4074569 -67.594391 -75.822205 -71.468719 -94.791344 11.787444 -3.6122572 -102.05014
974000000 -2.4236734 -94.649193 -76.215919 -150.22276 -95.130005 169.95033 -3.602371 -169.08337
983500000 -2.4631188 -122.09666 -75.031387 96.383652 -97.943336 -84.557281 -4.6259274 124.54051
993000000 -2.5132318 -149.94933 -76.498398 -11.4504 -105.44846 178.34673 -5.4947052 56.029686
1002500000 -2.5563357 -178.15138 -75.323463 -112.37455 -100.43748 -166.58142 -5.4817061 -18.935638
1012000000 -2.602824 153.31551 -75.278885 155.98906 -87.421829 -158.59435 -5.0754819 -94.61203
1021500000 -2.6332283 124.62777 -76.418381 43.781429 -92.700157 43.339157 -4.7916651 -161.49365
1031000000 -2.6278973 95.980988 -76.699203 -47.996262 -95.562073 -138.87454 -4.3335466 138.46394
1040500000 -2.6048152 67.584244 -74.447243 -143.87032 -91.170815 -62.300034 -3.7961755 75.748779
1050000000 -2.5744007 39.539864 -73.846634 112.51372 -94.026268 -142.57742 -4.2506428 4.3742166
1059500000 -2.5280907 11.820818 -75.278244 -2.5124762 -86.59713 -127.97429 -5.8541641 -69.354073
1069000000 -2.4866958 -15.505664 -75.00515 -93.763184 -95.624435 -57.353958 -6.545042 -140.19424
1078500000 -2.4676621 -42.554665 -75.752518 174.75616 -89.373528 135.78581 -5.4425797 151.15427
1088000000 -2.4653659 -69.613274 -75.350815 61.633648 -97.798256 -151.49207 -3.9270487 81.174507
1097500000 -2.4955044 -96.900398 -74.764 -34.659561 -96.344612 -116.09845 -3.8352165 11.73175
1107000000 -2.5488214 -124.54827 -74.018372 -143.62953 -102.51045 151.71719 -4.7827101 -51.777782
1116500000 -2.6131442 -152.73891 -75.010918 130.15778 -89.153763 -99.897865 -5.5177865 -115.18274
1126000000 -2.6826 178.55128 -74.062668 22.341028 -99.223747 -60.656677 -5.7217255 173.37129
1135500000 -2.7453392 149.46077 -73.48735 -78.440018 -98.130348 -170.46741 -5.7275038 96.866211
1145000000 -2.7912843 120.04082 -74.158066 -174.16933 -84.492119 -85.049667 -5.5116792 27.158085
1154500000 -2.8109574 90.563797 -73.49614 88.409843 -91.980484 31.572069 -4.7842455 -34.983326
1164000000 -2.7985754 61.328045 -73.742378 -21.219561 -91.628067 97.197372 -3.96117 -98.185555
1173500000 -2.7708085 32.386681 -73.097404 -128.13002 -87.513062 37.232513 -4.3000016 -167.35928
1183000000 -2.7389903 3.8581774 -72.498436 127.62416 -90.150734 -31.078966 -5.9774384 122.72079
1192500000 -2.7000031 -24.199715 -72.575958 32.512642 -106.93048 36.540199 -7.1010838 52.532906
1202000000 -2.677628 -51.905331 -72.635345 -68.173141 -90.235107 147.58829 -6.3669915 -20.69186
1211500000 -2.684123 -79.511658 -71.732681 -170.46999 -91.555199 -139.70143 -4.8800068 -95.394493
1221000000 -2.7159274 -107.2614 -72.0513 86.557869 -99.23056 82.599342 -4.5268912 -165.58769
1230500000 -2.7697453 -135.27054 -72.432251 -21.609175 -93.416061 130.01596 -4.995657 132.33507
1240000000 -2.8278666 -163.66336 -72.216881 -118.17816 -95.931183 -66.32357 -5.4648333 71.370247
1249500000 -2.8880725 167.48846 -71.265327 147.41388 -92.076408 29.075317 -5.9537678 3.104625
1259000000 -2.9511201 138.30977 -71.329323 39.489449 -92.405365 -123.34181 -6.5408311 -72.617012
1268500000 -2.9863641 108.94238 -70.978546 -66.527939 -89.981766 -152.98334 -6.4545231 -146.78033
1278000000 -2.9808693 79.621979 -70.364136 -174.66104 -87.898399 100.06194 -5.4744492 144.84509
1287500000 -2.9488018 50.684978 -70.62455 85.83197 -100.90881 -50.002487 -4.5882339 78.073814
1297000000 -2.9078271 22.179462 -71.03125 -19.592081 -97.566681 78.410278 -4.8723392 11.465625
1306500000 -2.8525605 -5.8268132 -70.257782 -123.0892 -107.09846 -142.59215 -6.0523424 -53.411644
1316000000 -2.7864878 -33.228394 -70.864441 139.2686 -86.348602 54.015808 -7.0043263 -121.51877
1325500000 -2.7437482 -60.202366 -70.470268 32.376972 -90.192833 -175.21611 -6.937417 161.8755
1335000000 -2.740886 -87.073448 -70.407707 -77.484833 -100.5742 -85.602066 -6.2263575 83.506676
1344500000 -2.7490249 -113.96439 -70.55751 -174.07771 -94.687553 85.103539 -5.6774073 14.219781
1354000000 -2.7688236 -140.9646 -71.803757 73.687714 -93.803123 29.898621 -5.2241793 -47.472824
1363500000 -2.8119259 -168.27917 -72.557915 -28.322531 -90.613388 116.04913 -5.0101547 -110.02709
1373000000 -2.8701434 163.92712 -71.993561 -125.23428 -108.82394 9.4169846 -5.664341 -178.11227
1382500000 -2.9177241 135.76839 -72.885147 140.56769 -93.960846 132.86255 -6.9277568 111.08624
1392000000 -2.9435942 107.43008 -74.211098 43.337597 -98.746651 47.8694 -7.2212744 40.422935
1401500000 -2.9498022 78.968925 -74.389694 -47.637077 -98.518295 -96.300774 -6.0033994 -29.393112
1411000000 -2.9389405 50.562138 -71.090683 -143.34506 -89.459991 -108.58919 -4.7726078 -99.89827
1420500000 -2.9075999 22.454721 -70.234772 110.41928 -87.92234 -170.83997 -5.0336933 -167.66626
1430000000 -2.8519819 -5.2062521 -71.586899 -12.937405 -98.379562 -38.89286 -6.1573596 130.3501
1439500000 -2.7991548 -32.381538 -71.132065 -98.474312 -92.992569 27.909859 -7.0424738 66.549324
1449000000 -2.7674956 -59.202415 -69.461029 157.14609 -85.893417 -122.30477 -7.218112 -7.7761269
1458500000 -2.7561555 -85.934402 -69.871086 42.454197 -104.13871 121.3604 -6.8070197 -88.199394
1468000000 -2.7648978 -112.71646 -69.934303 -73.026718 -90.909775 62.602776 -6.1996984 -160.04463
1477500000 -2.7901168 -139.59744 -70.480194 -162.87645 -87.397514 -169.15121 -5.4624906 137.70012
1487000000 -2.8426785 -166.89958 -70.365967 76.665565 -95.959091 111.8579 -4.9343367 76.728531
1496500000 -2.9121611 165.28381 -73.066338 -28.074057 -92.768631 88.805298 -5.3544302 12.430058
1506000000 -2.9726899 137.0553 -72.449287 -124.70954 -92.574425 -157.72327 -6.6474028 -53.940063
1515500000 -3.028507 108.43807 -77.340401 137.48495 -98.196854 16.15452 -7.4534855 -123.47823
1525000000 -3.0723126 79.480789 -74.370079 41.964859 -87.52256 133.31902 -6.7976084 162.73854
1534500000 -3.0855296 50.371136 -76.07299 -79.072388 -92.021889 61.56863 -5.7259092 88.680397
1544000000 -3.0769587 21.418333 -76.83577 -164.11601 -100.22778 40.879875 -5.6073375 20.911434
1553500000 -3.0524893 -7.197021 -79.922226 105.02545 -103.9683 -179.30823 -6.0388899 -40.096325
1563000000 -3.0128565 -35.411057 -81.209618 20.918913 -92.357147 138.28302 -6.4659181 -102.5493
1572500000 -2.9822099 -63.240017 -82.055 -76.941811 -95.391548 176.57518 -6.9926529 -174.40921
1582000000 -2.9853225 -90.851318 -77.910164 -170.95773 -97.533638 74.260071 -7.5052161 107.4289
1591500000 -3.0100489 -118.50594 -79.322578 102.81383 -93.55246 -48.420948 -7.161602 35.070263
1601000000 -3.0414059 -146.27373 -78.486237 -9.0736256 -94.650108 131.34952 -6.0232987 -29.403839
1610500000 -3.093035 -174.31923 -76.776184 -103.823 -97.108154 -151.04184 -5.0582986 -93.065811
1620000000 -3.1776943 157.15312 -77.424644 158.48193 -102.57001 115.54041 -5.3652015 -158.74854
1629500000 -3.2563226 128.14552 -77.068893 59.494984 -90.998955 101.60723 -6.7562838 135.81734
1639000000 -3.3035038 98.881653 -74.539604 -38.550152 -96.79628 144.75165 -7.8405371 67.160469
1648500000 -3.3389571 69.434822 -73.916901 -138.03609 -93.780052 -125.21941 -7.5420208 -7.8878465
1658000000 -3.3677294 39.824726 -72.862465 124.27924 -88.697571 65.546524 -6.5021811 -82.925034
1667500000 -3.3561761 10.405392 -74.108208 8.8594856 -92.987633 -41.010532 -5.9865017 -150.3029
1677000000 -3.2977653 -18.485758 -72.75415 -92.472206 -93.777092 -143.43221 -5.9614115 148.67934
1686500000 -3.2397468 -46.845764 -74.346329 165.55255 -104.36418 152.04376 -6.3172102 86.029732
1696000000 -3.2148049 -74.815117 -74.19352 71.454063 -93.315117 98.816612 -7.3605108 15.330052
1705500000 -3.1947842 -102.48661 -73.946121 -31.748604 -92.463745 133.13443 -8.467617 -61.991638
1715000000 -3.1719594 -129.9371 -72.195976 -125.27096 -95.066414 -124.06441 -8.0341139 -137.14384
1724500000 -3.1795881 -157.30528 -72.993439 143.90431 -89.65229 87.864555 -6.4394412 154.50047
1734000000 -3.2239411 175.09694 -70.581017 39.379055 -94.958076 11.56859 -5.3136411 88.560204
1743500000 -3.2807031 147.11128 -72.04216 -60.910385 -100.36431 154.59418 -5.6327763 24.447098
1753000000 -3.3191092 118.91491 -71.042671 -159.44466 -94.165863 107.24856 -6.8407564 -37.524799
1762500000 -3.3450379 90.532478 -70.073036 97.985992 -87.147568 83.90741 -7.9023852 -103.52153
1772000000 -3.3848262 61.848763 -70.281937 -0.55246443 -97.047516 -168.88324 -8.0572853 -178.09918
1781500000 -3.4089661 33.080521 -67.334587 -105.08253 -104.15567 -19.026987 -7.392477 106.08936
1791000000 -3.378809 4.4864569 -68.135559 149.21809 -104.48643 -83.152298 -6.7021794 38.118328
1800500000 -3.3305233 -23.731928 -68.048904 47.97987 -84.065445 77.733124 -6.3014302 -24.437216
1810000000 -3.2953534 -51.518768 -67.782593 -47.143574 -98.190384 40.582455 -6.5053515 -89.163963
1819500000 -3.2685373 -79.070992 -68.511879 -150.87759 -89.183929 158.94136 -7.6667061 -159.81004
1829000000 -3.2415981 -106.35702 -68.369438 114.86747 -89.093178 -143.01895 -8.7792788 125.61994
1838500000 -3.2138846 -133.28198 -66.694115 15.221881 -89.184837 107.13712 -8.2181673 52.826904
1848000000 -3.226651 -160.18457 -65.410149 -90.370308 -84.75267 60.008137 -6.522284 -14.709579
1857500000 -3.290585 172.65482 -64.88765 172.90688 -85.854538 -105.96941 -5.4087229 -79.788155
1867000000 -3.3500969 145.20343 -63.070229 72.692772 -90.071587 115.63618 -5.7080131 -141.92465
1876500000 -3.4036727 117.47897 -61.753731 -38.758236 -89.710388 136.73996 -6.8582025 158.07094
1886000000 -3.4868038 89.50576 -60.132362 -143.64478 -88.590858 -21.592506 -8.1115971 92.859184
1895500000 -3.5790288 61.103233 -58.892086 101.39699 -94.321686 -82.642784 -8.75348 16.469063
1905000000 -3.6438081 32.344646 -59.119469 -14.416052 -83.935715 157.21814 -8.1964779 -62.531033
1914500000 -3.6642509 3.7296894 -59.914799 -126.69393 -88.837822 44.994499 -7.0997176 -132.1507
1924000000 -3.6666644 -24.642685 -60.580399 128.75055 -90.322784 -126.53426 -6.2314086 164.80116
1933500000 -3.666322 -52.864491 -61.32122 18.100071 -91.277901 -165.81393 -6.1716776 101.29298
1943000000 -3.6502054 -80.837471 -62.494099 -92.644318 -88.503502 128.20491 -7.2221308 35.02261
1952500000 -3.6048591 -108.4782 -63.918121 167.31419 -98.890495 46.944427 -8.5064411 -34.21254
1962000000 -3.5750744 -135.86691 -64.958656 68.392593 -101.95922 -94.23774 -8.5386839 -106.24391
1971500000 -3.5817177 -163.21135 -65.278137 -32.360401 -94.014671 -98.91433 -7.3127418 -177.10541
1981000000 -3.6076074 169.2287 -65.426949 -131.70131 -91.82769 95.071167 -6.3546224 115.61006
1990500000 -3.6360667 141.42497 -65.911148 133.91682 -90.383202 53.992538 -6.4247632 52.583466
2000000000 -3.675561 113.41119 -66.012642 34.419613 -88.706978 5.3592892 -7.1981444 -9.3980389
