!Keysight Technologies,N5242B,MY48420967,A.15.65.19
!Date: Saturday, February 04, 2023 00:39:51
!Correction: S11(C  1-Port  ) 
!S21(Off) 
!S12(Off) 
!S22(Off) 
!S2P File: Measurements: S11, S21, S12, S22:
# Hz S  dB   R 50
100000000 -1.32013 40.353504 -81.633202 137.25186 -93.087578 96.417603 -2.1780388 73.117043
109500000 -1.2494384 11.0415 -88.412842 14.004741 -89.373642 -176.88931 -2.1327453 6.4454842
119000000 -1.1762136 -17.834311 -85.062408 -93.371857 -93.792084 13.067791 -2.1973212 -69.138191
128500000 -1.0868695 -46.208748 -83.359055 -167.81667 -90.664764 -174.41971 -2.8944159 -143.75423
138000000 -1.0693213 -74.616928 -83.261314 115.12775 -93.371834 83.746819 -2.9859433 151.14259
147500000 -1.1369005 -103.5476 -85.69593 -1.4351186 -118.75791 2.8453851 -1.9139113 89.496056
157000000 -1.2014955 -132.83687 -84.823456 -95.93087 -96.619453 133.04865 -0.68564242 20.488552
166500000 -1.2760214 -162.35637 -84.01239 149.62675 -95.850334 -71.071686 -1.4654636 -54.396389
176000000 -1.4023879 167.66837 -85.228905 42.917843 -84.767876 -169.3179 -3.346813 -122.26218
185500000 -1.5089198 137.35796 -82.751709 -73.64344 -104.32489 -47.665642 -4.0304189 172.62489
195000000 -1.5343269 107.3568 -79.207893 -132.9178 -94.172218 -34.616264 -3.0914946 103.00621
204500000 -1.5425596 77.767937 -80.671196 112.09041 -95.912445 -152.5314 -2.0471802 28.396429
214000000 -1.5574615 48.307377 -84.615128 -14.555026 -89.793739 160.1969 -2.1562891 -41.433113
223500000 -1.5174131 19.197329 -78.642822 -86.050797 -85.827904 82.989441 -2.4144886 -103.83347
233000000 -1.4527688 -9.4428587 -82.085892 172.91805 -97.862755 -124.45848 -2.2595608 -168.09509
242500000 -1.4482915 -38.030197 -82.681099 61.83638 -93.75547 161.03198 -2.4265573 119.4271
252000000 -1.4689417 -66.874527 -80.419281 -82.791573 -90.913994 151.98051 -3.2749307 45.86734
261500000 -1.4829924 -95.896851 -83.303795 -151.4402 -89.956833 -114.69404 -3.4496458 -21.623241
271000000 -1.5407422 -125.11795 -77.816628 143.99283 -85.886452 -163.94965 -2.3924963 -86.921867
280500000 -1.6512725 -154.84435 -79.936783 40.504711 -89.416687 -108.40917 -1.2738532 -157.47423
290000000 -1.7354765 175.03139 -82.925232 -109.34004 -94.519402 119.79954 -1.7805499 130.19466
299500000 -1.7893251 144.9465 -80.064461 173.57216 -85.156914 19.750834 -3.0008576 64.313766
309000000 -1.8508043 114.9119 -77.333046 101.11113 -83.053452 -156.27321 -3.3465948 -0.73185194
318500000 -1.8875844 85.031059 -77.309479 -29.275276 -84.864548 111.96999 -2.7581749 -72.346191
328000000 -1.8584126 55.559746 -79.151085 -135.79095 -87.81575 -73.175499 -2.5097642 -147.79002
337500000 -1.8261555 26.429005 -78.655701 146.18224 -103.62884 -132.39684 -2.7759202 143.60562
347000000 -1.8302122 -2.5388761 -77.960915 53.431263 -98.338257 30.541161 -2.5347972 80.241982
356500000 -1.813285 -31.429153 -78.694679 -60.969856 -100.23196 -104.48064 -1.8901722 12.239899
366000000 -1.7930584 -60.400791 -74.665527 -167.16747 -93.845528 176.74921 -2.1947129 -62.766502
375500000 -1.8389777 -89.73687 -78.441788 88.063492 -92.811905 52.292198 -3.3207319 -133.46796
385000000 -1.9177449 -119.54916 -76.902122 -41.082287 -97.295273 72.31369 -3.5017004 162.19992
394500000 -1.973393 -149.57854 -77.06881 -103.23959 -98.502144 23.538046 -2.3942184 96.573723
404000000 -2.0234416 -179.70026 -77.809021 151.51042 -87.498466 50.014629 -1.4970076 22.785973
413500000 -2.0979629 149.98615 -76.65657 43.431129 -90.166397 -179.35234 -2.3841808 -50.874458
423000000 -2.148104 119.78372 -78.441788 -61.442341 -92.018646 99.117912 -3.4780209 -117.03155
432500000 -2.1278129 90.138741 -75.854576 -141.13931 -91.705849 -132.46289 -3.3943911 176.53723
442000000 -2.0955801 60.917145 -77.835129 98.278915 -86.475601 146.23643 -2.6090572 103.14177
451500000 -2.0938425 31.955675 -77.24263 -7.3232427 -86.907249 143.15685 -2.6277664 28.387623
461000000 -2.0677886 3.353009 -77.739243 -113.11416 -96.319656 -136.90556 -3.0710821 -38.062901
470500000 -2.0219185 -24.947651 -77.526085 159.19427 -103.73473 -179.71968 -2.8724618 -101.17355
480000000 -2.0157325 -53.282272 -76.865784 74.029953 -89.169289 -115.07712 -2.3373914 -170.91927
489500000 -2.055079 -81.970047 -75.415466 -38.293709 -86.247604 166.61478 -2.7639151 112.8203
499000000 -2.0935981 -110.92329 -76.788498 -138.39081 -87.837303 134.16414 -3.6405764 41.619953
508500000 -2.1194634 -139.98889 -74.508911 120.64919 -95.52018 91.605568 -3.4532585 -23.883148
518000000 -2.1649935 -169.29349 -73.952042 10.35696 -92.387802 -154.75154 -2.415921 -91.045654
527500000 -2.2204192 161.20351 -73.934708 -106.26993 -97.065781 103.07953 -2.1400185 -163.20297
537000000 -2.2383032 131.86839 -74.596893 154.43959 -98.938988 88.553314 -3.1305554 127.52756
546500000 -2.2239375 102.9332 -75.289406 62.552963 -91.633461 135.17625 -3.8294921 61.731579
556000000 -2.2070904 74.412857 -76.757515 -47.339203 -93.921547 117.311 -3.4515913 -8.6466503
565500000 -2.1815674 46.262985 -75.239288 -152.93329 -99.384285 76.268738 -2.9300096 -85.810722
575000000 -2.1413584 18.470831 -77.397697 130.4792 -95.653542 49.069393 -3.2840476 -158.13278
584500000 -2.1084869 -9.087183 -81.009087 26.180113 -109.74763 -91.371796 -3.5252037 139.7607
594000000 -2.0964448 -36.639965 -78.618408 -93.095741 -91.356079 -159.79553 -2.9861565 78.942612
603500000 -2.102417 -64.364929 -77.043701 176.96596 -98.004684 -147.93961 -2.4804683 9.182826
613000000 -2.1309841 -92.434166 -76.904648 85.32148 -98.006805 168.61694 -3.2648942 -66.206223
622500000 -2.179034 -120.97253 -78.528503 -21.894892 -92.343658 -162.40924 -4.164351 -136.09796
632000000 -2.2388673 -149.90427 -77.894356 -116.28815 -86.283806 117.35564 -3.788079 158.16063
641500000 -2.2795701 -178.9453 -75.415794 153.59776 -94.947899 100.21774 -2.7198963 90.483871
651000000 -2.318975 151.82903 -78.446419 42.963768 -91.501579 -37.795109 -2.5788596 20.227779
660500000 -2.3545856 122.542 -76.078606 -61.515888 -95.651306 118.74249 -3.4476764 -46.333843
670000000 -2.3453908 93.534752 -77.249275 -169.96881 -91.029648 -119.68441 -3.9984791 -112.08679
679500000 -2.3114705 65.002396 -77.032951 95.538307 -91.296066 143.9536 -3.8338962 175.03772
689000000 -2.2891905 36.782459 -76.993408 -18.07609 -102.92339 101.23769 -3.7674034 97.303719
698500000 -2.2740617 8.6597109 -75.990837 -112.46619 -101.01569 -92.086983 -3.970206 27.538881
708000000 -2.2507 -19.180182 -77.275192 156.57404 -97.027504 163.92572 -3.6581283 -33.432915
717500000 -2.2365327 -46.866096 -76.258057 64.120934 -91.017403 107.44998 -2.8320742 -95.282356
727000000 -2.272135 -75.02227 -76.383682 -52.108986 -91.846077 72.821022 -2.6603582 -165.71138
736500000 -2.3393965 -103.75932 -74.820213 -157.5378 -85.678589 -92.867203 -3.9420445 121.0675
746000000 -2.3889425 -132.76337 -75.660034 115.4908 -92.82547 174.7785 -4.9058976 51.242489
755500000 -2.4409726 -162.08194 -77.603897 2.4046726 -99.167343 -13.518518 -4.2877231 -18.033978
765000000 -2.5196922 168.15929 -76.195641 -89.331665 -101.51832 158.23994 -3.113373 -89.732086
774500000 -2.5703731 138.23726 -74.42038 150.30013 -105.58862 86.685295 -3.134913 -159.61858
784000000 -2.5685592 108.58982 -77.080505 53.270702 -90.087517 93.542191 -3.9008884 137.7012
793500000 -2.5541933 79.324478 -76.380798 -37.796459 -96.351929 138.39435 -4.2740493 75.217773
803000000 -2.5365522 50.375805 -74.492264 -154.39996 -98.890511 14.934883 -4.2262292 2.6375687
812500000 -2.50014 21.864283 -75.246284 124.61083 -104.25358 -55.076855 -4.5885897 -77.801987
822000000 -2.4585693 -6.1470952 -76.71479 14.796987 -88.525528 110.08124 -4.9313722 -150.21779
831500000 -2.4410317 -33.944057 -75.797325 -86.520973 -99.86911 87.688934 -4.383636 147.16423
841000000 -2.4497681 -61.81636 -76.558411 177.1543 -94.39537 -55.541088 -3.2997997 84.521385
850500000 -2.4728129 -89.857826 -76.411819 74.091164 -89.177872 17.618484 -3.0685265 14.694464
860000000 -2.514432 -118.19449 -74.013786 -30.498714 -103.7327 -91.879402 -4.396698 -56.890369
869500000 -2.5739212 -146.93619 -75.029121 -132.93539 -97.19136 75.472527 -5.5445337 -127.03424
879000000 -2.6274004 -175.99748 -75.222595 126.22628 -92.730179 53.399849 -5.1845026 160.66606
888500000 -2.6608822 154.83852 -75.902512 30.058096 -101.57256 -19.115858 -4.1558347 86.90139
898000000 -2.6831584 125.73249 -74.657166 -73.525185 -101.16169 -11.013542 -3.9312274 17.743551
907500000 -2.6773889 96.783318 -76.018021 -170.99765 -94.030975 92.101723 -4.2229018 -44.512566
917000000 -2.6387582 68.212288 -75.03231 88.486893 -94.048264 27.603178 -4.4158144 -107.40161
926500000 -2.5871003 40.184364 -75.056702 -21.431231 -94.556343 15.754861 -4.784513 -179.28697
936000000 -2.5436354 12.634909 -75.937874 -121.60625 -100.12861 57.047276 -5.5753565 102.38485
945500000 -2.5024412 -14.581814 -76.724739 132.22725 -94.065231 49.372002 -5.7348285 28.847868
955000000 -2.4633949 -41.566753 -75.64743 37.917629 -94.991096 170.17815 -4.8447981 -37.403049
964500000 -2.4542105 -68.404587 -75.991081 -57.912663 -90.720459 -113.20384 -3.8036215 -102.42854
974000000 -2.4761517 -95.428886 -75.399124 -163.26987 -88.306595 117.75751 -3.8030357 -169.2592
983500000 -2.519743 -122.97034 -75.010651 85.247978 -94.826042 -158.07487 -4.8319855 124.44539
993000000 -2.5658405 -150.87607 -75.784248 -7.2057695 -92.281746 130.782 -5.7197585 55.80518
1002500000 -2.6053331 -179.02153 -74.520996 -109.15562 -87.571724 147.61646 -5.7194457 -19.362669
1012000000 -2.6524677 152.47359 -73.755524 157.15807 -92.179688 -168.67656 -5.294591 -95.070694
1021500000 -2.686465 123.73599 -74.544624 50.582119 -97.079224 95.360985 -4.9816303 -161.89929
1031000000 -2.6789887 95.093277 -74.85714 -45.057743 -95.307861 -116.84448 -4.5171127 138.08099
1040500000 -2.6447906 66.777252 -74.045586 -144.04346 -92.065536 -119.90251 -4.0075264 75.418327
1050000000 -2.615824 38.770973 -74.575363 109.74512 -87.015312 106.35052 -4.4970646 4.2141294
1059500000 -2.5835173 11.021082 -75.021355 2.6427581 -92.234245 -25.693546 -6.1034203 -69.523109
1069000000 -2.5396636 -16.313246 -74.625511 -89.600052 -97.706253 -95.108734 -6.7751546 -140.65305
1078500000 -2.5063295 -43.282482 -74.378723 175.51274 -94.482674 -125.19743 -5.6526685 150.50826
1088000000 -2.5102003 -70.289932 -73.863693 75.650887 -88.180923 159.58842 -4.1383963 80.659561
1097500000 -2.5564222 -97.661102 -74.612801 -38.011898 -91.787605 35.39782 -4.0359645 11.528372
1107000000 -2.6016076 -125.36192 -73.702103 -137.09805 -90.251778 25.923698 -4.9704018 -51.832794
1116500000 -2.6499629 -153.48093 -74.154503 120.61076 -91.350967 111.12437 -5.7203174 -115.27339
1126000000 -2.7324901 177.80907 -74.038887 21.501331 -96.336517 82.004539 -5.9591937 173.15475
1135500000 -2.8081408 148.5957 -72.771637 -79.438545 -87.391098 124.24109 -5.9743595 96.520447
1145000000 -2.8357642 119.17299 -73.611839 176.97632 -109.49844 94.503883 -5.7373152 26.711332
1154500000 -2.8470523 89.815178 -74.259079 82.060951 -93.16246 -112.36906 -4.9998736 -35.474907
1164000000 -2.8514135 60.539486 -72.724739 -20.171137 -97.501968 -92.782394 -4.1943221 -98.594963
1173500000 -2.8254976 31.483601 -73.397903 -127.54828 -93.35463 5.270165 -4.5446868 -167.50926
1183000000 -2.777812 3.0394814 -73.002739 125.9981 -85.227219 164.98508 -6.2074509 122.67126
1192500000 -2.745244 -24.926243 -74.024719 30.163809 -86.987587 -44.061584 -7.321835 52.295021
1202000000 -2.7406456 -52.765533 -73.149292 -65.242714 -97.278389 -114.0978 -6.5826635 -21.129393
1211500000 -2.7412636 -80.443069 -71.328972 -170.50688 -94.717445 138.90134 -5.1010528 -95.757553
1221000000 -2.7579005 -108.06478 -71.327515 85.124588 -97.235725 168.09084 -4.7429972 -165.72437
1230500000 -2.8214357 -136.0937 -72.799728 -23.46966 -91.416214 -145.16029 -5.2089224 132.28967
1240000000 -2.8935401 -164.65132 -73.143707 -112.59989 -94.782745 31.68507 -5.699141 71.298286
1249500000 -2.9399734 166.47818 -71.62648 144.64755 -91.877602 86.520607 -6.22402 2.9607022
1259000000 -2.9926424 137.41811 -71.183853 34.402054 -87.675621 -67.891312 -6.8161879 -72.921303
1268500000 -3.0398972 108.03875 -70.677399 -66.235367 -87.235451 162.82553 -6.6958632 -147.25137
1278000000 -3.0388277 78.610062 -71.632126 -166.15155 -101.1225 128.20079 -5.6899891 144.36748
1287500000 -2.9909096 49.714485 -71.152229 86.944092 -98.76506 71.482094 -4.8078332 77.765884
1297000000 -2.9432144 21.335001 -70.252007 -23.379665 -95.038109 -176.12291 -5.0987625 11.400222
1306500000 -2.9078755 -6.7050991 -70.968979 -123.94701 -90.295647 174.1868 -6.2887998 -53.390465
1316000000 -2.8544471 -34.223763 -71.250771 137.70625 -100.44687 -114.12801 -7.2685957 -121.67008
1325500000 -2.795675 -61.180874 -71.288635 35.186932 -94.806282 -132.67809 -7.2171216 161.45967
1335000000 -2.7816889 -87.965187 -71.565956 -79.576866 -90.732552 -116.34992 -6.4787927 83.054565
1344500000 -2.8113992 -114.89957 -71.800308 -162.52762 -87.845398 147.91919 -5.8944111 13.89173
1354000000 -2.8396318 -142.06087 -72.577904 101.77465 -101.55914 85.318779 -5.4351392 -47.701702
1363500000 -2.8598688 -169.39511 -70.909813 -9.5699606 -95.680382 14.226356 -5.2454753 -110.14377
1373000000 -2.9104991 162.90675 -69.715828 -118.68272 -89.015808 147.4897 -5.9321237 -178.10522
1382500000 -2.9805937 134.70824 -70.487473 132.79405 -86.507378 13.422745 -7.2081966 110.97454
1392000000 -3.0092025 106.24729 -74.608047 29.518715 -89.223846 77.624054 -7.4890285 39.947014
1401500000 -2.9855583 77.851334 -72.351265 -51.944813 -91.681717 18.102741 -6.2503777 -30.040155
1411000000 -2.9730179 49.564373 -70.889145 -164.11095 -89.03907 -67.278687 -5.0155644 -100.34943
1420500000 -2.9666095 21.413729 -70.9394 88.821709 -89.668465 96.221046 -5.262547 -167.78009
1430000000 -2.9058197 -6.3017697 -72.604126 -9.3113222 -89.606461 -155.49963 -6.3811502 130.36942
1439500000 -2.8347075 -33.381023 -71.370049 -111.58518 -99.707497 47.102665 -7.2985158 66.500305
1449000000 -2.8175626 -60.148804 -70.503273 148.85172 -96.750641 -101.76267 -7.5193086 -8.0442009
1458500000 -2.82617 -86.994583 -71.702629 39.975552 -86.5159 138.99779 -7.0966368 -88.614929
1468000000 -2.8234203 -113.81359 -72.26442 -70.323364 -96.07032 -76.080627 -6.4388971 -160.42725
1477500000 -2.8331878 -140.61104 -71.359978 -160.87315 -90.686516 -135.64217 -5.6770387 137.41019
1487000000 -2.8997254 -167.96437 -71.928177 78.132874 -88.663704 -126.14947 -5.1588368 76.596725
1496500000 -2.9778845 164.09421 -73.746857 -17.398523 -91.064087 138.22087 -5.6019821 12.506718
1506000000 -3.0172453 135.9279 -74.707512 -130.9919 -95.065704 24.036839 -6.9201207 -53.840851
1515500000 -3.0679905 107.40012 -77.891785 151.32191 -91.602188 -153.3109 -7.7519088 -123.6853
1525000000 -3.1306696 78.354912 -76.221809 51.672665 -93.897842 128.54803 -7.0915661 162.19331
1534500000 -3.1394351 49.177765 -77.31263 -56.559566 -93.065353 67.716736 -5.9900255 88.19828
1544000000 -3.1107883 20.333887 -77.189911 -155.99748 -95.937706 66.635979 -5.8344736 20.689232
1553500000 -3.0949574 -8.2162867 -79.815086 116.56716 -100.57516 -142.5067 -6.2538509 -40.152679
1563000000 -3.0735972 -36.546425 -78.65564 12.115374 -95.394958 46.28817 -6.7116055 -102.50332
1572500000 -3.0361233 -64.407898 -78.58773 -76.881348 -97.187508 101.04202 -7.2966371 -174.33247
1582000000 -3.026675 -91.900772 -77.738327 -178.77582 -93.629364 34.282593 -7.8279328 107.30157
1591500000 -3.0629632 -119.55014 -77.717667 86.530647 -98.061546 152.39873 -7.441525 34.671818
1601000000 -3.1072505 -147.46548 -78.177269 14.95383 -98.071991 -136.22693 -6.2688651 -29.863104
1610500000 -3.1460309 -175.53882 -77.837143 -114.41077 -93.8283 160.08354 -5.2995281 -93.329826
1620000000 -3.2190435 156.03397 -76.774971 158.27834 -98.459999 128.09782 -5.6091208 -158.68398
1629500000 -3.3090723 127.03828 -76.507393 79.210457 -94.958733 92.066086 -7.0116167 136.05757
1639000000 -3.3611133 97.680733 -76.057434 -41.336151 -103.02422 0.84000123 -8.1407337 67.249207
1648500000 -3.3800881 68.251472 -73.583664 -137.46246 -98.305519 146.27388 -7.8731251 -8.2229891
1658000000 -3.4030545 38.746555 -72.608772 133.51772 -92.334572 113.62424 -6.80865 -83.42881
1667500000 -3.4056156 9.3213663 -72.698006 20.968836 -89.962463 145.65125 -6.2490506 -150.71036
1677000000 -3.3519797 -19.635834 -71.950905 -83.954208 -88.538094 135.97063 -6.2023883 148.41466
1686500000 -3.2873032 -47.984673 -72.437187 174.57007 -97.679161 74.814285 -6.5718088 85.961456
1696000000 -3.2660766 -75.913338 -72.898842 77.361298 -99.006989 153.68555 -7.6541319 15.483081
1705500000 -3.2509604 -103.60149 -72.941849 -26.804722 -93.019653 172.80843 -8.7951441 -61.934464
1715000000 -3.2251487 -131.09276 -71.857849 -123.78873 -93.483322 -125.87639 -8.3463736 -137.49161
1724500000 -3.2387853 -158.48141 -70.847755 143.12701 -94.363213 73.01152 -6.7240305 153.97829
1734000000 -3.2877779 173.87956 -70.155731 33.230984 -98.314774 172.52756 -5.5864239 88.193649
1743500000 -3.3344042 145.84554 -71.040817 -69.426208 -88.707603 -169.03711 -5.8922238 24.342203
1753000000 -3.3676894 117.67927 -69.007462 -159.96083 -94.009018 -147.51382 -7.1006007 -37.482147
1762500000 -3.4033589 89.300613 -69.302956 102.25199 -101.52959 -133.89919 -8.1977625 -103.51798
1772000000 -3.4435043 60.534897 -69.794426 -1.6737382 -102.18444 -118.00983 -8.3954477 -178.35397
1781500000 -3.4468153 31.779966 -67.57518 -102.89607 -87.309578 -95.705154 -7.7195807 105.61047
1791000000 -3.4195139 3.2743704 -67.37706 151.65701 -90.719711 -158.74477 -6.9939895 37.599083
1800500000 -3.3971796 -25.010675 -67.803841 46.358776 -92.881172 99.629936 -6.5764618 -24.892857
1810000000 -3.3554537 -52.906109 -66.16526 -54.112801 -89.340179 49.282867 -6.7887945 -89.420097
1819500000 -3.3051023 -80.385796 -66.510315 -157.31377 -91.510948 -108.54008 -7.9633498 -159.81998
1829000000 -3.2905591 -107.5641 -65.678009 110.99393 -94.423141 -140.67007 -9.0854864 125.57424
1838500000 -3.2885091 -134.59314 -64.672089 -0.72685403 -91.55262 69.57431 -8.518342 52.504398
1848000000 -3.2890537 -161.64043 -64.751015 -105.16367 -92.083557 80.444054 -6.8158355 -15.150248
1857500000 -3.3304832 171.25967 -64.423698 163.01689 -95.344124 -5.3710146 -5.6999855 -80.103302
1867000000 -3.397984 143.89175 -62.729824 58.254307 -85.519653 178.16098 -5.9871092 -142.04935
1876500000 -3.4696341 116.06968 -61.909252 -51.298244 -89.425728 92.224281 -7.1359525 158.02298
1886000000 -3.5452192 88.000046 -60.6119 -154.552 -88.109703 23.913984 -8.4159098 92.780769
1895500000 -3.6169443 59.6451 -59.224014 93.75869 -84.349495 -108.84705 -9.0883169 16.230291
1905000000 -3.6784432 30.940386 -59.013554 -23.737535 -87.232567 155.74536 -8.5181427 -62.927101
1914500000 -3.7105081 2.3004849 -59.899143 -142.91257 -87.665817 73.315918 -7.3925962 -132.56581
1924000000 -3.7181234 -26.124878 -61.196884 115.41767 -87.819893 -108.28454 -6.5204916 164.43915
1933500000 -3.7076213 -54.357052 -62.687565 2.6313317 -87.848442 163.67542 -6.4763622 101.084
1943000000 -3.6847329 -82.242271 -64.143059 -93.56356 -119.17241 102.48948 -7.5346141 34.983051
1952500000 -3.6572185 -109.81786 -65.066437 171.32709 -98.06292 -32.90477 -8.8172455 -34.270569
1962000000 -3.646112 -137.30222 -65.860489 68.043571 -94.346237 -45.397461 -8.8372812 -106.43498
1971500000 -3.6387129 -164.71634 -64.471779 -31.362276 -87.13269 -146.18794 -7.5995083 -177.28067
1981000000 -3.6433187 167.83234 -64.47007 -134.64787 -83.939796 134.81241 -6.6346211 115.59456
1990500000 -3.690249 140.10439 -65.629166 125.38351 -93.912155 -21.239164 -6.7090635 52.695618
2000000000 -3.7522492 111.96104 -66.094231 23.678303 -96.043091 0.15195101 -7.5122061 -9.2590342
