!Keysight Technologies,N5242B,MY48420967,A.15.65.19
!Date: Sunday, January 22, 2023 21:31:40
!Correction: S11(C  1-Port  ) 
!S21(Off) 
!S12(Off) 
!S22(Off) 
!S2P File: Measurements: S11, S21, S12, S22:
# Hz S  dB   R 50
100000000 -1.2832537 40.53812 -81.411552 158.69514 -102.0265 157.70671 -2.0840001 73.526802
109500000 -1.1984588 11.181376 -89.512558 15.857878 -107.76899 79.584488 -1.9971216 7.1296616
119000000 -1.1046129 -17.495012 -81.25148 -88.767265 -94.464951 -53.63026 -2.038132 -68.388344
128500000 -1.0299995 -45.87714 -80.802361 -176.51636 -100.26231 -5.0447459 -2.7686188 -143.16743
138000000 -1.0221093 -74.449348 -85.008232 96.562546 -89.870346 120.93701 -2.9037702 151.58389
147500000 -1.0718287 -103.34007 -79.64653 -3.3638871 -95.342857 -130.26993 -1.8460433 89.879738
157000000 -1.1321402 -132.5399 -80.985428 -131.46091 -98.034958 59.078239 -0.59491068 20.869259
166500000 -1.2201359 -162.14038 -82.550957 140.48651 -94.345444 -172.08246 -1.3427191 -54.067001
176000000 -1.3391532 167.83612 -85.031021 42.21833 -95.631058 157.05788 -3.2117376 -121.85661
185500000 -1.4337727 137.60843 -83.18811 -48.813671 -89.908051 104.82505 -3.8953197 173.25725
195000000 -1.4735991 107.6059 -84.145432 -137.61108 -90.562363 -97.152458 -2.9615958 103.7787
204500000 -1.4843894 77.953636 -82.214859 107.30979 -94.515167 -141.81197 -1.9199837 29.013163
214000000 -1.4781815 48.561935 -82.839363 9.1117916 -103.73325 -50.401718 -2.0450981 -41.031296
223500000 -1.4416151 19.53978 -84.138634 -91.857407 -93.435364 7.1722708 -2.3075736 -103.47978
233000000 -1.3953289 -9.1591978 -78.786461 -173.24135 -96.110939 -146.48862 -2.1307139 -167.68155
242500000 -1.3784428 -37.787037 -84.346405 60.025745 -92.20414 175.33006 -2.2670865 119.88243
252000000 -1.380334 -66.505157 -91.080811 -106.75097 -87.308029 -81.858253 -3.1152742 46.358391
261500000 -1.4079366 -95.48494 -76.152039 -151.23393 -89.875023 118.64314 -3.3131948 -21.022528
271000000 -1.4777086 -124.80296 -79.066063 156.3748 -94.769897 -81.001053 -2.2695355 -86.261726
280500000 -1.5643089 -154.5462 -79.645584 39.330704 -90.968239 108.29409 -1.1388503 -156.88422
290000000 -1.6381055 175.45004 -77.38784 -100.78252 -98.337074 176.37241 -1.6391422 130.61043
299500000 -1.7158115 145.36053 -77.185394 -179.41771 -88.498596 66.49305 -2.8608136 64.704933
309000000 -1.7767946 115.20657 -82.518097 92.620941 -84.713867 -80.489906 -3.2002945 -0.19745418
318500000 -1.7913536 85.334618 -83.260429 -19.390417 -87.290489 130.94342 -2.5943882 -71.70858
328000000 -1.7668982 55.95945 -77.742554 -118.35577 -100.46524 116.13403 -2.3479049 -147.23308
337500000 -1.7505126 26.80809 -77.631615 127.50694 -93.128014 -164.12338 -2.6351206 144.08835
347000000 -1.7415873 -2.2161098 -77.837212 53.739628 -92.278564 55.981148 -2.400475 80.753784
356500000 -1.7140005 -31.091391 -77.910667 -75.559944 -90.140457 -117.28294 -1.7352132 12.783482
366000000 -1.7076687 -60.056374 -78.028954 -174.32686 -95.108978 136.87401 -2.0235167 -62.31422
375500000 -1.7549862 -89.387871 -78.44162 95.857353 -92.601791 -24.893988 -3.161849 -133.02089
385000000 -1.8145955 -119.18071 -77.086609 -8.4298363 -100.94389 13.968686 -3.3591847 162.77382
394500000 -1.8750294 -149.23042 -77.676346 -95.453552 -91.892159 143.379 -2.2486985 97.255486
404000000 -1.9374793 -179.37953 -75.569939 162.06422 -84.772064 -169.33235 -1.3302671 23.364187
413500000 -1.9964238 150.35846 -77.193634 54.351467 -90.843552 114.99603 -2.2218149 -50.486595
423000000 -2.0377362 120.18461 -78.11142 -51.410812 -89.395905 -24.340319 -3.3236814 -116.59579
432500000 -2.0350466 90.469254 -77.157402 -147.36899 -91.682884 48.611267 -3.2310307 177.16148
442000000 -2.0060863 61.228516 -75.944412 108.43841 -88.057724 -116.54125 -2.4265604 103.85655
451500000 -1.9849659 32.36953 -78.547737 12.743529 -92.569397 -158.89619 -2.4510624 28.970749
461000000 -1.9598516 3.7770212 -78.184578 -100.93465 -88.279175 -76.937813 -2.9217875 -37.550777
470500000 -1.931021 -24.631649 -77.295609 162.90088 -86.985207 -101.87143 -2.7324226 -100.644
480000000 -1.9183488 -52.955883 -76.180611 80.039558 -91.27478 -112.27919 -2.1795714 -170.40311
489500000 -1.9398518 -81.534546 -76.140701 -31.587523 -87.689148 -129.05232 -2.5910625 113.23656
499000000 -1.9848121 -110.4931 -74.601509 -142.06725 -90.062347 117.7468 -3.4733346 42.077526
508500000 -2.0233364 -139.65004 -75.221367 131.12898 -101.65752 148.73099 -3.2882171 -23.257349
518000000 -2.0583136 -168.94119 -73.762268 13.911647 -95.119362 164.98656 -2.2360618 -90.303452
527500000 -2.1008492 161.64169 -73.797928 -98.113594 -88.055588 -49.503006 -1.9473878 -162.5788
537000000 -2.1280525 132.29497 -74.910423 159.30255 -98.827797 160.92744 -2.9571543 128.02963
546500000 -2.1233039 103.30131 -77.300568 55.31575 -93.877815 151.74515 -3.6757023 62.276211
556000000 -2.0973699 74.794945 -74.90239 -40.752136 -94.093452 -137.47939 -3.2951856 -8.0189705
565500000 -2.065613 46.676155 -74.099678 -139.52544 -87.471291 117.1756 -2.7591574 -85.248306
575000000 -2.0350487 18.854345 -77.145042 123.81942 -93.364937 38.529861 -3.1190565 -157.6635
584500000 -2.0016367 -8.7214699 -80.833763 18.861422 -89.767548 70.256126 -3.3638513 140.29524
594000000 -1.9811649 -36.263783 -75.282883 -76.178589 -99.049698 28.695789 -2.806658 79.616791
603500000 -1.9907336 -64.005798 -76.506058 -177.1008 -90.269775 179.95503 -2.2664077 9.8870668
613000000 -2.0215433 -92.113152 -76.636887 79.060341 -93.829727 -120.87692 -3.0538428 -65.643845
622500000 -2.0603068 -120.6095 -77.127625 -45.373817 -90.074913 48.113743 -3.9917636 -135.54129
632000000 -2.1130548 -149.47333 -77.65345 -121.70422 -96.7248 -164.70662 -3.6413367 158.76537
641500000 -2.1631286 -178.59534 -75.357498 137.93541 -91.621933 117.20836 -2.5692785 91.062347
651000000 -2.2013845 152.14197 -78.651543 22.154821 -92.766426 32.047951 -2.4139135 20.700655
660500000 -2.2225962 122.9653 -76.939201 -65.839394 -93.056213 -88.035042 -3.2728531 -45.876888
670000000 -2.2206991 93.984375 -75.246368 -167.49651 -87.938301 138.90552 -3.8039985 -111.47225
679500000 -2.20207 65.345322 -77.195961 102.10899 -88.192459 -169.36693 -3.6145267 175.82031
689000000 -2.1687601 37.128838 -76.481743 -14.223914 -96.919098 -72.969688 -3.5562792 98.016808
698500000 -2.1415079 9.1455593 -77.345932 -102.0405 -107.67867 53.251537 -3.7996621 28.127684
708000000 -2.1294649 -18.712605 -77.411079 164.37373 -92.54554 -149.33978 -3.5124042 -32.870258
717500000 -2.1236951 -46.562115 -77.112373 68.021561 -98.670586 34.617508 -2.6753058 -94.712563
727000000 -2.1458576 -74.679527 -74.722725 -50.910854 -99.724251 154.18364 -2.4719718 -165.23076
736500000 -2.2047729 -103.26494 -74.820358 -149.23772 -94.645584 -42.759926 -3.7443724 121.48238
746000000 -2.2674313 -132.34366 -76.258171 113.13634 -94.483147 -132.25046 -4.719234 51.811253
755500000 -2.321908 -161.79337 -76.657326 5.4665937 -86.798714 -171.18788 -4.1107125 -17.287357
765000000 -2.3831971 168.53268 -75.349335 -100.87043 -92.347336 -115.78634 -2.9328675 -89.044662
774500000 -2.4319439 138.68758 -75.349304 167.10065 -93.040123 -119.84174 -2.962779 -159.1528
784000000 -2.4447415 108.95529 -76.885506 55.687542 -89.667625 138.9855 -3.7394075 138.11116
793500000 -2.4282398 79.616699 -75.989845 -42.218002 -92.965019 119.69926 -4.0978231 75.741463
803000000 -2.4019887 50.741695 -74.117516 -138.20883 -100.63251 80.693001 -4.0126357 3.3109012
812500000 -2.3697715 22.269066 -74.419945 114.45785 -92.125313 22.322508 -4.3692379 -77.134552
822000000 -2.3330393 -5.824327 -77.768196 23.587671 -92.059944 -83.2108 -4.752563 -149.58508
831500000 -2.3100734 -33.658337 -76.518593 -92.646179 -89.354301 122.82957 -4.2319536 147.79309
841000000 -2.312484 -61.459526 -74.693214 -174.94266 -92.951027 116.10932 -3.141345 85.123047
850500000 -2.3397861 -89.484024 -75.729744 70.000282 -91.972649 -83.93412 -2.8868141 15.141529
860000000 -2.384737 -117.8708 -74.67572 -33.589935 -101.70899 134.51662 -4.2092223 -56.542336
869500000 -2.4343486 -146.61229 -74.501114 -122.01874 -96.012802 -93.044044 -5.357317 -126.5364
879000000 -2.4860318 -175.61221 -74.970329 133.95105 -88.847481 47.186314 -4.9990978 161.3835
888500000 -2.5272324 155.22214 -74.757797 29.356535 -103.59448 87.936363 -3.9723983 87.613098
898000000 -2.5467033 126.04459 -75.031342 -84.175079 -89.457649 -169.53152 -3.7597284 18.294756
907500000 -2.535959 97.096901 -75.493607 -175.85168 -96.073334 78.69854 -4.0587749 -44.027374
917000000 -2.5045362 68.580505 -74.868942 77.950706 -91.722382 137.90472 -4.2366581 -106.86954
926500000 -2.4594629 40.512676 -73.215126 -22.785078 -93.908417 117.06096 -4.5734887 -178.69479
936000000 -2.4080679 12.905582 -74.291176 -132.54213 -99.346931 179.4454 -5.3616948 103.03164
945500000 -2.3606682 -14.268073 -75.745903 124.85667 -94.334717 173.00172 -5.5549154 29.555695
955000000 -2.3283322 -41.209278 -76.382744 39.306038 -97.21978 -11.351313 -4.6873469 -36.692703
964500000 -2.3229933 -68.121475 -75.439583 -66.255081 -92.192833 -177.06273 -3.639087 -101.813
974000000 -2.33865 -95.189568 -74.768349 -157.13857 -101.22807 -131.35497 -3.6249723 -168.82002
983500000 -2.375387 -122.64467 -75.815117 88.770477 -94.578827 -88.540092 -4.6473656 124.81831
993000000 -2.4233494 -150.49741 -75.75502 -5.8181739 -91.396973 33.974274 -5.5209656 56.322178
1002500000 -2.4647462 -178.69833 -75.092545 -113.74267 -96.746788 -40.667351 -5.5149026 -18.65048
1012000000 -2.509022 152.77818 -75.966621 151.52914 -89.57962 -116.52598 -5.1078401 -94.358482
1021500000 -2.537261 124.10858 -75.574982 51.424389 -95.499947 161.38875 -4.8203816 -161.27907
1031000000 -2.530961 95.486771 -75.969124 -49.555134 -99.679802 83.867943 -4.3612494 138.66913
1040500000 -2.5081396 67.111526 -73.554832 -140.59877 -94.752998 171.21509 -3.8249242 75.993942
1050000000 -2.4779444 39.092018 -74.010559 120.32295 -89.347244 -148.71687 -4.2778215 4.678483
1059500000 -2.4320676 11.394257 -75.158363 -2.7269533 -90.750504 8.7994947 -5.8817658 -69.034454
1069000000 -2.3910179 -15.919122 -74.748825 -93.713562 -87.227974 31.81299 -6.5802069 -139.92911
1078500000 -2.3721952 -42.961857 -74.535561 169.15564 -90.913223 21.519707 -5.4829078 151.38885
1088000000 -2.3700659 -70.017006 -74.599281 72.380775 -99.116516 -97.654427 -3.9666049 81.426323
1097500000 -2.3990362 -97.318169 -73.901268 -43.987476 -93.346115 -118.09029 -3.8662121 12.0077
1107000000 -2.4507456 -124.97615 -74.132629 -137.22818 -99.503456 -102.77271 -4.8099132 -51.497452
1116500000 -2.5128722 -153.18355 -74.148712 128.30511 -92.702248 100.30666 -5.5499644 -114.88474
1126000000 -2.580719 178.08928 -74.397316 24.263332 -91.87043 81.135864 -5.7617755 173.70689
1135500000 -2.6416469 148.97655 -74.31221 -76.618553 -98.103546 39.704967 -5.7699332 97.1931
1145000000 -2.6870835 119.53759 -73.53598 -176.25591 -97.644905 -69.302933 -5.5521879 27.430113
1154500000 -2.7057419 90.051445 -73.546371 83.441689 -98.684151 174.65176 -4.8242722 -34.728882
1164000000 -2.6944432 60.8046 -72.138069 -23.734785 -86.261345 137.37148 -4.0020823 -97.884163
1173500000 -2.6681862 31.85825 -72.244629 -126.74182 -90.566719 5.4235096 -4.3366704 -166.98465
1183000000 -2.6372819 3.318562 -72.764435 131.308 -90.075768 -2.1125512 -6.0140128 123.13449
1192500000 -2.6004767 -24.74741 -73.960411 39.724857 -95.049568 86.798508 -7.1515951 52.922207
1202000000 -2.5792515 -52.467216 -72.735756 -63.953766 -105.83554 109.3341 -6.4312663 -20.352278
1211500000 -2.585398 -80.104523 -71.516731 -168.82854 -93.890221 86.853798 -4.9419975 -95.06398
1221000000 -2.6165411 -107.87373 -71.428696 84.817917 -97.990479 157.88403 -4.5770802 -165.25882
1230500000 -2.6695414 -135.90872 -72.420982 -14.678206 -89.938103 -175.21786 -5.0396905 132.65988
1240000000 -2.7255175 -164.32726 -71.891846 -117.72264 -93.828278 99.269356 -5.5115709 71.718552
1249500000 -2.7839146 166.79727 -71.166733 147.89856 -105.64973 -30.867514 -6.0096235 3.5170288
1259000000 -2.8451838 137.59605 -71.020203 36.714508 -90.345406 -115.22285 -6.6052322 -72.203651
1268500000 -2.878931 108.21562 -70.638405 -69.717606 -98.456383 -119.98225 -6.5234756 -146.4411
1278000000 -2.8728793 78.888893 -70.122421 -170.37895 -91.553314 144.49921 -5.5413213 145.13979
1287500000 -2.841922 49.958721 -70.533424 88.427696 -86.339363 47.271648 -4.6511402 78.393585
1297000000 -2.8015409 21.45549 -71.124107 -23.027906 -96.390961 -37.406811 -4.9286389 11.832467
1306500000 -2.7485774 -6.5508661 -70.874077 -122.82143 -90.70916 -171.56866 -6.1097236 -53.009396
1316000000 -2.6838961 -33.947289 -69.815689 137.5244 -90.634834 123.45578 -7.0754619 -121.11181
1325500000 -2.6425881 -60.932964 -70.18055 36.899826 -88.508759 144.11804 -7.0258508 162.25604
1335000000 -2.6397028 -87.809425 -70.179871 -84.511337 -95.927109 -152.42203 -6.3116493 83.825562
1344500000 -2.6472297 -114.70769 -70.320236 -170.54709 -99.440247 -21.479465 -5.7490935 14.496404
1354000000 -2.665612 -141.72836 -71.481842 76.386162 -109.73844 -64.239105 -5.2898431 -47.207302
1363500000 -2.7075813 -169.0443 -73.030052 -29.951767 -96.2258 -22.979826 -5.0755963 -109.71568
1373000000 -2.7621279 163.14621 -72.624817 -115.81565 -94.111481 37.38438 -5.7312093 -177.73048
1382500000 -2.8083379 134.98706 -72.770859 139.95311 -89.858109 -161.41931 -6.9994659 111.46542
1392000000 -2.8315594 106.64996 -74.987885 34.655945 -90.96125 151.39488 -7.3016825 40.709625
1401500000 -2.8363626 78.201805 -74.544449 -55.417961 -89.854248 -38.746685 -6.0876927 -29.15443
1411000000 -2.8252709 49.808998 -72.074692 -148.06134 -90.21006 -90.997597 -4.8517866 -99.61541
1420500000 -2.7941723 21.726091 -71.050873 111.70177 -87.546509 154.59865 -5.0997815 -167.32585
1430000000 -2.740027 -5.9078894 -71.542114 -8.223341 -91.463799 94.564636 -6.2199512 130.69873
1439500000 -2.6883855 -33.066494 -71.451935 -102.34616 -93.700157 9.3612604 -7.1187029 66.918961
1449000000 -2.6577892 -59.879833 -70.062027 160.63971 -97.036995 66.309608 -7.3139272 -7.4007254
1458500000 -2.6464269 -86.611221 -70.328209 42.987862 -95.640396 170.10657 -6.9041915 -87.875183
1468000000 -2.6555924 -113.39088 -70.568115 -69.243187 -92.813461 55.096687 -6.2817369 -159.79042
1477500000 -2.6796408 -140.28735 -71.438126 -167.58371 -89.00695 -55.113174 -5.5346475 137.93367
1487000000 -2.7304955 -167.60083 -71.861122 85.778526 -88.920822 78.595642 -5.0030551 77.004875
1496500000 -2.7973087 164.56485 -74.189392 -18.037144 -97.357964 54.720501 -5.4215841 12.790559
1506000000 -2.8564816 136.3177 -72.6334 -120.36919 -99.793106 -4.5974689 -6.7182946 -53.542923
1515500000 -2.9104462 107.68057 -75.96299 144.13805 -94.991028 28.424778 -7.5400243 -123.09679
1525000000 -2.9515574 78.709877 -75.003052 58.740379 -96.050308 104.01205 -6.8970871 163.05936
1534500000 -2.9640508 49.592621 -75.264824 -69.757896 -98.194496 -159.48706 -5.8195477 89
1544000000 -2.955945 20.628736 -75.986427 -170.00356 -93.133446 51.954178 -5.6869268 21.25161
1553500000 -2.9316461 -7.984149 -78.29911 101.08365 -105.61521 -14.235062 -6.1141138 -39.74118
1563000000 -2.8938053 -36.210373 -80.299782 11.935144 -91.161133 -168.56232 -6.5504999 -102.14029
1572500000 -2.8646834 -64.042007 -78.071373 -84.90847 -91.971527 132.50174 -7.0932512 -173.92751
1582000000 -2.8689389 -91.671547 -81.374146 170.94548 -101.62788 60.878166 -7.6145897 107.86458
1591500000 -2.8932486 -119.34698 -79.177391 107.73789 -89.963013 6.4703693 -7.2640777 35.383083
1601000000 -2.9240236 -147.13805 -78.553963 -9.2979422 -98.50415 -133.53561 -6.1192808 -29.134111
1610500000 -2.9734547 -175.21202 -77.664474 -105.55311 -95.711487 65.208 -5.1501231 -92.731239
1620000000 -3.0562055 156.23314 -75.4422 151.22868 -92.861671 24.919241 -5.4513512 -158.30626
1629500000 -3.132618 127.19759 -77.681808 58.435863 -96.029091 -73.278915 -6.8439026 136.31886
1639000000 -3.177705 97.92215 -77.672043 -36.428207 -99.936577 89.20153 -7.9490528 67.657066
1648500000 -3.2102146 68.463936 -75.209679 -138.03979 -91.841377 27.734964 -7.67102 -7.4780798
1658000000 -3.2380815 38.859489 -74.535126 126.54428 -89.723801 89.728111 -6.6247206 -82.566277
1667500000 -3.2269137 9.4481297 -74.04129 20.907688 -97.584892 -37.532513 -6.0920639 -149.9417
1677000000 -3.170228 -19.425392 -73.206047 -86.895836 -108.40557 -123.9035 -6.0608296 149.0786
1686500000 -3.1136308 -47.772903 -74.179092 162.81319 -101.27008 81.793251 -6.4237967 86.526077
1696000000 -3.0912397 -75.741631 -75.139275 72.082855 -90.860275 66.462257 -7.4839697 15.941474
1705500000 -3.0727177 -103.40483 -74.431641 -26.805614 -99.07238 132.60335 -8.6099281 -61.444607
1715000000 -3.050777 -130.85597 -73.339142 -125.74815 -92.663773 -35.880684 -8.1771116 -136.8118
1724500000 -3.0587687 -158.23412 -72.203125 148.45526 -97.829063 -100.70662 -6.570612 154.75021
1734000000 -3.102186 174.15041 -71.914856 38.523167 -93.347763 -46.490177 -5.4309478 88.896523
1743500000 -3.1572111 146.15024 -72.019058 -57.498779 -88.730026 -6.4998484 -5.7367401 24.883871
1753000000 -3.1934476 117.9389 -70.221123 -156.06375 -101.56806 -165.84897 -6.9449539 -37.032921
1762500000 -3.2181168 89.544144 -70.986847 105.19149 -97.041603 -164.44563 -8.0276546 -103.00378
1772000000 -3.2564836 60.853893 -70.454155 4.2271862 -90.03923 100.11036 -8.2075319 -177.64801
1781500000 -3.2791967 32.088997 -68.971024 -103.52965 -94.079803 23.11743 -7.5404739 106.44883
1791000000 -3.2484291 3.509166 -68.279541 151.74666 -92.277908 -143.80501 -6.8334289 38.443886
1800500000 -3.2012429 -24.69418 -69.182922 54.05891 -90.774132 139.64336 -6.4264522 -24.0686
1810000000 -3.1662288 -52.467625 -68.095459 -48.48201 -96.54612 29.445326 -6.6343513 -88.676743
1819500000 -3.1407282 -80.007401 -68.001152 -151.45102 -102.32066 -101.1702 -7.8053365 -159.22401
1829000000 -3.115123 -107.28503 -67.654259 119.11164 -95.228912 162.15771 -8.9316549 126.08788
1838500000 -3.0881877 -134.216 -66.187088 16.722763 -91.765732 101.91256 -8.3681889 53.088081
1848000000 -3.099869 -161.12427 -65.573036 -90.976212 -94.278877 89.375725 -6.6601849 -14.514151
1857500000 -3.1626062 171.70245 -65.302345 177.0105 -92.73204 -37.434238 -5.5309734 -79.486191
1867000000 -3.2197154 144.22823 -63.088417 74.810799 -86.877068 -178.98213 -5.8159456 -141.50504
1876500000 -3.2703629 116.47586 -61.640911 -37.12154 -89.831337 119.27199 -6.9668078 158.57433
1886000000 -3.3512294 88.476494 -60.299011 -140.66231 -89.273521 22.323345 -8.2466726 93.433762
1895500000 -3.4405689 60.040104 -59.103333 102.36921 -92.138321 -47.767204 -8.9240446 16.994583
1905000000 -3.5026276 31.260372 -59.342384 -11.921451 -84.734711 161.63797 -8.3667479 -62.181797
1914500000 -3.5221086 2.6352477 -59.716782 -125.54157 -89.727547 40.873249 -7.2480555 -131.87265
1924000000 -3.5256021 -25.749557 -60.259899 130.79323 -92.103195 -6.9959331 -6.3661408 165.13075
1933500000 -3.5285099 -53.983078 -61.033119 18.627865 -89.291939 -133.06276 -6.3021393 101.75352
1943000000 -3.5142586 -81.967781 -61.955791 -93.213707 -87.950623 135.87355 -7.353971 35.592747
1952500000 -3.473568 -109.60916 -63.409641 169.87054 -90.847946 23.534008 -8.6544409 -33.655567
1962000000 -3.4466982 -137.00604 -64.793442 70.948143 -88.201241 -87.967964 -8.7017155 -105.84654
1971500000 -3.4557059 -164.36287 -64.968887 -30.218964 -87.425339 -178.18568 -7.4731574 -176.79446
1981000000 -3.4824462 168.06155 -65.288734 -131.36751 -87.580025 54.518333 -6.5009861 115.98348
1990500000 -3.5096788 140.24194 -65.686157 132.87222 -92.567612 32.120106 -6.5583391 53.062389
2000000000 -3.5484071 112.21586 -66.449638 34.974384 -88.553703 -66.654953 -7.336822 -8.8045111
