!Keysight Technologies,N5242B,MY48420967,A.15.65.19
!Date: Monday, January 23, 2023 05:53:40
!Correction: S11(C  1-Port  ) 
!S21(Off) 
!S12(Off) 
!S22(Off) 
!S2P File: Measurements: S11, S21, S12, S22:
# Hz S  dB   R 50
100000000 -1.4896426 40.363766 -85.463356 151.38419 -95.440025 -158.43704 -2.2573898 72.990341
109500000 -1.4121739 10.909564 -88.749199 -26.18454 -96.438499 -92.198006 -2.203213 6.340683
119000000 -1.3205998 -17.833899 -80.807838 -70.467613 -88.9412 114.42368 -2.2810736 -69.32338
128500000 -1.2518904 -46.241882 -84.806564 -173.66327 -90.383232 151.14932 -2.9993165 -144.12804
138000000 -1.2512509 -74.8069 -87.846771 99.575981 -92.880753 85.251419 -3.1031487 150.51956
147500000 -1.3026645 -103.67564 -82.615616 9.6684408 -95.163704 113.1365 -2.0459285 88.657974
157000000 -1.3653123 -132.8257 -80.854866 -150.06461 -90.018074 108.76366 -0.85063994 19.668728
166500000 -1.4552902 -162.34865 -78.956451 154.11134 -93.691383 -166.33296 -1.6314186 -54.867966
176000000 -1.5708379 167.68454 -83.789871 43.070827 -94.799553 51.460964 -3.4785445 -122.57623
185500000 -1.6607097 137.52629 -81.146851 -58.326168 -99.547455 -90.876755 -4.1451845 172.28148
195000000 -1.6949643 107.58485 -80.675453 -154.63557 -100.84351 -42.607136 -3.2110963 102.5803
204500000 -1.6976199 77.970566 -84.010368 123.51116 -98.800102 137.84492 -2.178565 27.978294
214000000 -1.6845378 48.622875 -83.781746 -6.001565 -104.1082 23.549456 -2.2824395 -41.777206
223500000 -1.642428 19.639168 -79.699303 -102.56612 -101.09664 -166.94279 -2.5307834 -104.145
233000000 -1.592316 -9.0467148 -81.44371 164.24173 -98.051407 133.72798 -2.3724277 -168.35829
242500000 -1.5726924 -37.660606 -82.233963 69.070099 -89.114586 -157.0242 -2.5350544 119.28381
252000000 -1.5750571 -66.374146 -86.942871 5.2169018 -86.251701 -128.66769 -3.3702288 45.801006
261500000 -1.6057044 -95.351044 -81.269775 -126.46011 -91.409317 3.9695728 -3.5398142 -21.71483
271000000 -1.6800594 -124.68325 -80.836197 161.98145 -87.538933 -114.16328 -2.4910264 -87.079559
280500000 -1.7717113 -154.43214 -82.030815 9.5666475 -101.39948 -101.52262 -1.3867337 -157.60864
290000000 -1.8532355 175.53979 -80.839668 -104.33253 -95.46653 54.770584 -1.890447 130.14821
299500000 -1.937457 145.40833 -78.365707 171.5923 -88.19883 -0.91415757 -3.1005144 64.236488
309000000 -2.0051227 115.22686 -83.39566 117.06091 -106.33823 134.56454 -3.4442856 -0.90197688
318500000 -2.027606 85.323837 -80.132271 -12.492091 -88.218834 -61.278538 -2.8606246 -72.612312
328000000 -2.0101287 55.895271 -75.427048 -117.25964 -92.038643 -76.903336 -2.6165037 -148.09563
337500000 -2.0012555 26.715799 -78.077354 122.41889 -93.962944 108.13657 -2.879555 143.24507
347000000 -2.0023103 -2.3306928 -80.028824 20.041653 -92.881065 -114.80069 -2.6412532 79.787804
356500000 -1.9867517 -31.238977 -78.523964 -57.235645 -91.876373 176.64833 -2.0135367 11.705576
366000000 -1.9931101 -60.221668 -76.140434 -172.40251 -98.246674 154.37434 -2.3302655 -63.265469
375500000 -2.0543411 -89.556389 -84.811584 77.954323 -91.607483 34.987061 -3.4443069 -133.97934
385000000 -2.1299708 -119.3577 -80.216263 -22.938974 -89.952515 -165.8457 -3.6157243 161.56409
394500000 -2.2023504 -149.40799 -76.889336 -105.45276 -90.734772 138.28514 -2.5193453 95.76712
404000000 -2.2737765 -179.53262 -75.428879 142.15118 -85.657913 149.94676 -1.6580799 21.950905
413500000 -2.3430316 150.21986 -80.390106 37.316895 -88.327705 164.69894 -2.5540166 -51.567249
423000000 -2.3889363 120.06869 -76.797974 -53.0858 -90.679047 75.970146 -3.6307442 -117.74805
432500000 -2.386636 90.395691 -79.538246 -147.136 -85.296791 -18.384481 -3.5366144 175.71376
442000000 -2.3605211 61.208569 -77.580025 117.13628 -90.838081 33.504898 -2.7563303 102.30816
451500000 -2.3422782 32.400948 -78.160347 -4.3221302 -94.920403 -46.991642 -2.7755032 27.713905
461000000 -2.3194072 3.8691819 -77.289154 -120.33922 -87.247734 -55.384026 -3.2131872 -38.666245
470500000 -2.2963512 -24.462086 -77.278877 169.72591 -99.386116 -96.050583 -3.0247629 -101.83064
480000000 -2.2906528 -52.723774 -76.564949 67.381287 -89.268616 -162.11563 -2.5168478 -171.60179
489500000 -2.3198245 -81.236099 -76.746574 -44.942974 -113.44406 129.88739 -2.9467762 112.28563
499000000 -2.3747993 -110.13857 -76.700157 -157.55209 -89.430595 -70.71595 -3.7915778 41.185616
508500000 -2.4238923 -139.26718 -74.406151 132.72928 -93.773712 -144.90976 -3.5802782 -24.263685
518000000 -2.4681077 -168.53937 -75.011261 4.4957194 -93.582092 75.100769 -2.5455232 -91.316071
527500000 -2.5181155 162.07924 -75.554657 -103.29849 -89.101212 83.37516 -2.2841341 -163.28552
537000000 -2.5500326 132.74133 -77.797867 167.61914 -101.44303 127.76068 -3.2842157 127.52824
546500000 -2.5434539 103.73792 -78.723595 54.495213 -85.868713 141.2679 -4.0030127 61.628922
556000000 -2.5142634 75.23008 -77.116165 -41.009029 -89.99955 -176.37964 -3.6471195 -8.8978825
565500000 -2.4847982 47.109127 -76.439812 -158.50043 -89.052017 173.30188 -3.1192877 -86.033478
575000000 -2.4543829 19.275391 -77.416962 117.30118 -95.772209 121.70613 -3.4319551 -158.25014
584500000 -2.423496 -8.3089466 -80.307236 18.512098 -95.917595 104.96936 -3.6428249 139.68391
594000000 -2.4102826 -35.831924 -77.14978 -86.698105 -89.192787 9.3426228 -3.1023636 78.906189
603500000 -2.430012 -63.570984 -78.179901 -174.23611 -97.246155 -157.18961 -2.6155283 9.2460985
613000000 -2.4737723 -91.678741 -78.269287 68.617119 -94.3703 105.68472 -3.4123101 -66.08873
622500000 -2.5247285 -120.16819 -77.540474 -39.25536 -93.613808 71.135956 -4.316874 -136.11143
632000000 -2.5929513 -149.04303 -79.399254 -126.61781 -90.161385 150.07748 -3.9465096 157.96817
641500000 -2.6531765 -178.168 -79.807701 154.27565 -87.590401 135.89581 -2.886234 90.258011
651000000 -2.6973922 152.55078 -79.569183 28.697638 -88.957451 61.697788 -2.7406549 20.140436
660500000 -2.7263849 123.34979 -80.847527 -71.396095 -95.833572 50.541061 -3.5953844 -46.341412
670000000 -2.7251971 94.334038 -76.347588 -172.08141 -101.62331 -130.32932 -4.1447997 -112.11598
679500000 -2.7057705 65.673027 -76.027382 100.04087 -89.817474 139.3864 -3.9893713 174.96869
689000000 -2.6757474 37.460808 -79.564789 -15.585295 -113.54818 137.82198 -3.9168935 97.200424
698500000 -2.6519594 9.4792948 -77.518166 -123.59892 -88.259483 -108.56367 -4.102273 27.36009
708000000 -2.6447294 -18.373995 -78.376961 143.42073 -90.314255 80.339256 -3.7849011 -33.706585
717500000 -2.6496236 -46.171558 -76.022583 53.457882 -110.25826 179.77792 -2.9748411 -95.613258
727000000 -2.6854343 -74.237274 -79.326897 -52.373005 -96.803398 78.602798 -2.8280478 -165.97087
736500000 -2.760102 -102.78197 -77.278969 -147.91705 -92.233482 110.76891 -4.1113696 120.86543
746000000 -2.838836 -131.80219 -77.970947 107.5224 -89.022774 108.03494 -5.0652566 50.891731
755500000 -2.9078877 -161.18744 -78.147079 -3.4862778 -89.535713 55.867916 -4.4370756 -18.547564
765000000 -2.9804008 169.1794 -76.305412 -91.469017 -94.746643 125.67403 -3.2649612 -90.257874
774500000 -3.0351219 139.39734 -76.735275 155.41539 -90.882446 -123.74523 -3.2840614 -160.03687
784000000 -3.0499218 109.7092 -77.395813 56.209152 -88.89151 172.79349 -4.0466585 137.31529
793500000 -3.0319743 80.406166 -78.086205 -30.64991 -99.928627 93.26535 -4.4322858 74.746292
803000000 -3.0004785 51.599457 -75.260124 -148.66177 -88.926353 72.500305 -4.408433 2.0765569
812500000 -2.9641984 23.207375 -75.079323 116.20701 -94.633308 58.177666 -4.7645421 -78.35154
822000000 -2.9275079 -4.8165107 -77.640373 8.960516 -92.398308 -160.09029 -5.0734487 -150.76332
831500000 -2.903702 -32.555542 -77.660049 -86.184868 -85.605705 131.46739 -4.5087571 146.58012
841000000 -2.9107695 -60.237926 -75.912369 -176.34659 -100.80359 46.760002 -3.439358 83.910789
850500000 -2.9493186 -88.147491 -76.699242 78.640289 -103.44213 -124.53837 -3.2402384 14.188381
860000000 -3.0050571 -116.43969 -76.069794 -39.765442 -97.662796 142.47853 -4.5785551 -57.27858
869500000 -3.0645249 -145.08865 -76.712082 -125.81386 -93.759178 64.051598 -5.7197833 -127.50181
879000000 -3.1253684 -174.0076 -74.010742 137.35748 -92.174934 108.44374 -5.3456602 160.1122
888500000 -3.173707 156.87845 -77.291962 21.717857 -98.227165 -17.78577 -4.3039336 86.455528
898000000 -3.1944273 127.72582 -75.973801 -86.448387 -92.896477 108.94305 -4.0645037 17.485918
907500000 -3.1813185 98.790123 -75.547813 -172.81271 -89.102577 152.5544 -4.3497272 -44.661144
917000000 -3.1436346 70.265823 -77.29364 90.41993 -93.023903 -123.42619 -4.5579958 -107.46342
926500000 -3.0898521 42.194107 -75.93882 -31.897062 -88.008789 -97.625694 -4.9482622 -179.21539
936000000 -3.0312932 14.597857 -74.118408 -135.12549 -97.44976 -146.42398 -5.7401199 102.53266
945500000 -2.9795601 -12.562237 -75.468124 127.15158 -87.574333 62.682251 -5.8806744 28.94459
955000000 -2.9451265 -39.494076 -76.977577 37.848881 -105.51258 120.54919 -4.9770074 -37.308315
964500000 -2.9437563 -66.364624 -75.305161 -70.831551 -98.282654 -137.69167 -3.9323208 -102.22043
974000000 -2.9688232 -93.392731 -75.637299 -171.86519 -91.195992 -149.12 -3.9269986 -168.87059
983500000 -3.0195434 -120.83521 -76.474785 88.06739 -95.161011 108.46468 -4.9563527 124.98206
993000000 -3.0814476 -148.6844 -77.783745 -15.929822 -102.63346 -32.457424 -5.8595171 56.443787
1002500000 -3.1375725 -176.88612 -75.786552 -116.50911 -91.334465 -162.4196 -5.8757038 -18.668192
1012000000 -3.1959536 154.55092 -74.723969 145.63515 -102.41639 157.40573 -5.4365549 -94.388802
1021500000 -3.2315402 125.8241 -75.664764 40.682125 -88.329369 66.005791 -5.1002359 -161.28815
1031000000 -3.2284911 97.129967 -76.4543 -57.41629 -95.760071 -33.763386 -4.6289701 138.67876
1040500000 -3.2050738 68.668442 -75.571991 -146.40298 -90.283157 -35.617554 -4.123414 76.149422
1050000000 -3.1698086 40.574718 -74.596115 103.90552 -93.364784 -150.38359 -4.6093335 5.1483684
1059500000 -3.1197586 12.838422 -76.639465 -8.3634529 -99.227585 22.744223 -6.2185898 -68.571388
1069000000 -3.0754273 -14.499659 -76.573441 -100.47283 -89.355103 -100.50144 -6.9111414 -139.89609
1078500000 -3.0565383 -41.553741 -75.821663 176.2944 -86.226669 -7.0806055 -5.8016171 151.07187
1088000000 -3.0601175 -68.575882 -75.318016 70.241035 -87.509949 139.37238 -4.2832146 81.185478
1097500000 -3.1013975 -95.809921 -74.747208 -51.862797 -94.213791 -131.12262 -4.1637087 12.050921
1107000000 -3.1697729 -123.41875 -74.651733 -143.45593 -94.921127 21.552811 -5.0916538 -51.379547
1116500000 -3.2508886 -151.56706 -74.388222 117.28811 -92.733116 129.50725 -5.8537707 -114.88658
1126000000 -3.3371542 179.78496 -75.056358 13.561878 -89.666443 -179.68213 -6.1015377 173.50336
1135500000 -3.4141734 150.73177 -74.859673 -81.950104 -92.621925 -23.130501 -6.0973835 96.826035
1145000000 -3.4705253 121.32636 -74.140381 176.44675 -87.316414 -157.09567 -5.8318167 26.960421
1154500000 -3.4938276 91.877708 -74.48719 73.977951 -91.07003 99.731316 -5.0812206 -35.2439
1164000000 -3.4805963 62.667484 -74.26815 -37.299309 -99.889374 -63.653667 -4.2797012 -98.327934
1173500000 -3.4482074 33.750282 -72.92215 -131.80156 -85.607407 64.349136 -4.6435065 -167.17282
1183000000 -3.4074211 5.2808442 -72.805244 126.67179 -92.356956 72.726936 -6.3288641 122.98541
1192500000 -3.3631251 -22.695187 -75.026459 23.127745 -93.101967 82.724937 -7.4700217 52.40868
1202000000 -3.3363235 -50.320686 -73.735977 -76.493027 -89.73761 162.45763 -6.7351236 -21.25209
1211500000 -3.3435917 -77.803329 -72.452324 -172.16316 -92.597908 55.534107 -5.2282033 -95.878082
1221000000 -3.3814585 -105.41061 -72.920792 80.09314 -89.874062 -150.57831 -4.8329167 -165.72604
1230500000 -3.4460881 -133.30333 -73.178146 -26.035519 -90.161064 122.67165 -5.2722774 132.3681
1240000000 -3.5172999 -161.57181 -72.283813 -119.10756 -93.240494 162.63062 -5.7535601 71.47731
1249500000 -3.5882678 169.7083 -72.448784 140.62178 -96.962723 58.548923 -6.2822537 3.2937229
1259000000 -3.6633847 140.60965 -71.704025 37.253262 -97.740288 139.12955 -6.8878689 -72.447105
1268500000 -3.7065148 111.28135 -71.186913 -75.796425 -90.829056 130.98602 -6.7777872 -146.76492
1278000000 -3.6992435 81.974648 -70.881935 -173.80243 -99.596375 -129.94884 -5.7710094 144.86269
1287500000 -3.6625082 53.030621 -71.239464 89.568199 -88.846474 23.103485 -4.8750539 78.347534
1297000000 -3.6125169 24.504879 -71.128838 -28.875448 -90.710281 80.624054 -5.1438255 12.089055
1306500000 -3.5460043 -3.533879 -70.990646 -131.45277 -84.228653 130.63402 -6.3229656 -52.577003
1316000000 -3.4685998 -30.947096 -71.17659 130.65933 -88.320351 159.34857 -7.317029 -120.61642
1325500000 -3.4183555 -57.918659 -70.460609 21.413536 -87.607758 17.280668 -7.2977629 162.71956
1335000000 -3.4126558 -84.778351 -70.326073 -83.371223 -92.651459 103.40886 -6.5664306 84.310707
1344500000 -3.4248173 -111.652 -71.743721 166.70329 -98.241508 68.314049 -5.964046 15.021046
1354000000 -3.4507885 -138.63496 -73.068619 69.496742 -103.39516 -104.68092 -5.4847579 -46.574192
1363500000 -3.5070367 -165.94044 -73.215355 -24.728537 -92.891716 -35.605762 -5.2679453 -108.85847
1373000000 -3.5783529 166.26192 -72.358353 -131.96913 -92.129677 122.95434 -5.9233193 -176.58891
1382500000 -3.6395192 138.07043 -73.691055 136.82512 -96.206299 -176.36635 -7.2020411 112.70873
1392000000 -3.6758718 109.66117 -75.817307 50.012993 -91.250656 -69.170303 -7.5338297 41.810581
1401500000 -3.6878958 81.114502 -72.504974 -48.863544 -103.55871 -22.560522 -6.3368435 -28.169096
1411000000 -3.6776319 52.611675 -70.283852 -160.98738 -97.479515 -135.43639 -5.0829263 -98.47007
1420500000 -3.6422958 24.392834 -70.051384 89.216026 -91.838013 155.13512 -5.287745 -166.03247
1430000000 -3.5784624 -3.3591306 -71.864838 -15.968692 -96.319313 128.27562 -6.3940382 132.04639
1439500000 -3.5174718 -30.607229 -70.933823 -118.94885 -88.825699 -76.959702 -7.3278999 68.379822
1449000000 -3.4820619 -57.468269 -71.52916 133.68471 -90.409065 -97.412422 -7.5854731 -5.8427401
1458500000 -3.4697855 -84.211143 -71.09919 25.616535 -96.344604 -71.757599 -7.1858854 -86.505409
1468000000 -3.4843004 -110.99823 -72.533585 -93.599731 -98.372459 -121.87263 -6.5214434 -158.7276
1477500000 -3.5216718 -137.85609 -74.467606 171.55667 -87.428711 -174.35925 -5.7422547 138.86046
1487000000 -3.5884376 -165.13461 -76.430511 87.131104 -86.925781 161.30646 -5.195435 78.0065
1496500000 -3.6771097 167.07089 -76.298531 -20.527559 -99.419037 56.89698 -5.6019211 13.955069
1506000000 -3.7561758 138.86906 -79.097183 -133.71872 -88.939026 -73.850151 -6.9055653 -52.315983
1515500000 -3.8286278 110.26538 -76.908058 154.41353 -114.91046 -73.33329 -7.7685995 -121.99991
1525000000 -3.8867764 81.298737 -78.281586 57.049473 -94.152893 -135.6459 -7.1559124 163.92432
1534500000 -3.9063358 52.187336 -76.901489 -55.281776 -89.53511 22.920639 -6.0591369 89.769554
1544000000 -3.8962023 23.220503 -78.206398 -155.9985 -101.07484 175.53546 -5.8858228 21.976566
1553500000 -3.8670845 -5.3923965 -77.700089 124.20087 -93.129944 -133.46284 -6.2956634 -39.072571
1563000000 -3.8208795 -33.568436 -78.186157 25.982685 -103.19576 93.495667 -6.7462049 -101.46195
1572500000 -3.7824762 -61.330429 -75.700661 -72.184784 -91.83342 151.49255 -7.3173294 -173.22375
1582000000 -3.7852974 -88.839203 -75.625526 -172.34816 -105.83096 -18.094429 -7.8398376 108.40002
1591500000 -3.8140557 -116.36568 -76.506828 86.890015 -94.093361 6.6748319 -7.4616504 35.65604
1601000000 -3.8532462 -144.00406 -76.399132 -3.1089339 -91.014236 148.2738 -6.2923422 -28.966215
1610500000 -3.9186707 -171.88741 -76.133293 -114.14237 -89.87764 168.67386 -5.3125358 -92.4842
1620000000 -4.0210342 159.75223 -76.047523 154.04837 -89.375793 90.979782 -5.5996079 -157.914
1629500000 -4.1160693 130.87381 -76.193413 65.836288 -95.862953 22.293781 -6.9848084 136.77321
1639000000 -4.1790109 101.71679 -74.520767 -49.30518 -89.965088 175.80536 -8.1010246 68.067467
1648500000 -4.2261949 72.368492 -73.702538 -139.2289 -93.518738 117.7479 -7.8322749 -7.1582866
1658000000 -4.2588067 42.7994 -73.199532 119.89973 -100.75088 -30.658415 -6.7688856 -82.226334
1667500000 -4.2448421 13.382699 -74.03817 -2.0924766 -92.070267 41.426235 -6.2086949 -149.53976
1677000000 -4.1769595 -15.501331 -73.887398 -91.787163 -98.292854 -66.704849 -6.1598754 149.58446
1686500000 -4.1050682 -43.851524 -74.422081 169.67596 -94.356689 57.55748 -6.5143957 87.217667
1696000000 -4.0697618 -71.810371 -73.62114 68.930962 -101.3615 126.96172 -7.5709267 16.886469
1705500000 -4.0425453 -99.436958 -74.833847 -30.845346 -95.263351 97.876595 -8.708724 -60.35162
1715000000 -4.0157351 -126.85724 -73.748817 -128.52245 -91.15361 -88.936279 -8.2908325 -135.7885
1724500000 -4.0258398 -154.17377 -71.46328 139.19301 -88.752472 135.95361 -6.6790099 155.75737
1734000000 -4.078022 178.30171 -71.963425 33.41943 -85.564545 68.733414 -5.511333 90.030533
1743500000 -4.1480651 150.34514 -72.469711 -74.489685 -92.780685 -11.966193 -5.7791018 26.13706
1753000000 -4.2009048 122.1423 -71.632141 -161.53528 -103.7363 -35.150616 -6.9672785 -35.613869
1762500000 -4.2381983 93.754868 -70.91716 91.790237 -89.28009 138.46452 -8.0623159 -101.25406
1772000000 -4.2914882 65.018318 -69.234306 -11.198077 -90.771591 33.86451 -8.2835588 -175.58322
1781500000 -4.3240528 36.138401 -68.385246 -115.17358 -102.60263 -162.0573 -7.637569 108.49423
1791000000 -4.29144 7.4062867 -68.601807 150.54059 -89.118195 156.0519 -6.9211011 40.357224
1800500000 -4.2375679 -20.929979 -69.417572 42.426315 -99.232368 -73.588417 -6.494348 -22.112312
1810000000 -4.1958976 -48.822105 -68.73513 -55.999653 -92.196503 45.851521 -6.6731334 -86.454552
1819500000 -4.1604066 -76.486221 -69.627586 -153.6384 -95.097656 -52.150299 -7.8256121 -156.68217
1829000000 -4.1291313 -103.84335 -68.121048 111.0822 -91.430412 -119.08971 -9.0014887 128.73573
1838500000 -4.102016 -130.80579 -66.509613 12.765067 -90.681038 129.6555 -8.5059099 55.427406
1848000000 -4.1215205 -157.72675 -66.654053 -85.780914 -100.36613 145.50964 -6.8015232 -12.424212
1857500000 -4.200695 175.13542 -65.275116 175.82977 -92.675194 -76.618546 -5.6240654 -77.471664
1867000000 -4.281467 147.71631 -63.326103 72.204117 -89.848122 -142.34436 -5.855679 -139.53909
1876500000 -4.3589106 120.04108 -61.862003 -33.745415 -89.002922 135.71753 -6.9823527 160.62448
1886000000 -4.4676428 92.16114 -59.785858 -137.10065 -84.639961 29.246119 -8.2760448 95.83905
1895500000 -4.5878048 63.88567 -57.693401 104.47865 -92.94416 -119.49528 -9.0197172 19.692909
1905000000 -4.6705441 35.227863 -57.902557 -19.106518 -87.179436 164.21144 -8.5120726 -59.809917
1914500000 -4.6922169 6.7297935 -58.951012 -129.23639 -84.444458 67.733414 -7.3814411 -129.95926
1924000000 -4.677598 -21.450083 -59.423412 117.35205 -96.299644 -112.58599 -6.468812 166.85489
1933500000 -4.6519828 -49.537243 -60.791359 7.4725146 -93.865494 -117.2001 -6.3666487 103.48545
1943000000 -4.5978775 -77.461266 -62.273289 -103.21217 -88.696625 158.80902 -7.3932595 37.370945
1952500000 -4.5117884 -105.05922 -64.020767 157.12381 -93.028358 14.688513 -8.7091055 -31.869461
1962000000 -4.4542751 -132.41383 -66.082603 57.545784 -95.171455 -106.23132 -8.7979479 -104.18465
1971500000 -4.4433107 -159.72482 -66.587891 -35.448181 -91.027802 170.75037 -7.5751977 -175.33626
1981000000 -4.460094 172.73579 -65.904831 -133.31406 -87.116737 147.43384 -6.571722 117.29338
1990500000 -4.492651 144.99252 -66.597191 135.23874 -85.534874 56.409561 -6.5966325 54.289352
2000000000 -4.5498171 117.08966 -66.3377 37.628914 -93.653351 1.595208 -7.3522148 -7.5459676
