!Keysight Technologies,N5242B,MY48420967,A.15.65.19
!Date: Saturday, February 04, 2023 15:18:35
!Correction: S11(C  1-Port  ) 
!S21(Off) 
!S12(Off) 
!S22(Off) 
!S2P File: Measurements: S11, S21, S12, S22:
# Hz S  dB   R 50
100000000 -1.5047814 40.199032 -79.515511 157.18495 -84.992462 -161.51981 -2.3439529 72.614105
109500000 -1.4406614 10.782686 -85.400291 23.877018 -95.997925 -4.8689957 -2.3293447 5.7173743
119000000 -1.3725857 -18.156019 -81.80162 -54.206253 -85.245605 140.37051 -2.4276404 -70.010948
128500000 -1.2885724 -46.56382 -81.7174 -178.64142 -90.659187 -155.03119 -3.1138604 -144.67654
138000000 -1.2763815 -74.983574 -85.975243 77.805107 -99.877655 82.489716 -3.1742055 150.10983
147500000 -1.3494428 -103.89926 -88.307495 22.053102 -87.671547 31.694483 -2.1027164 88.325294
157000000 -1.4172024 -133.16287 -80.495659 -129.54686 -89.668922 -34.227165 -0.92586827 19.354774
166500000 -1.4911356 -162.6209 -80.9291 163.76015 -86.021439 100.49823 -1.7361559 -55.142117
176000000 -1.6170586 167.47368 -85.074341 51.215736 -100.02641 176.03746 -3.5997844 -122.92445
185500000 -1.7205518 137.2179 -83.163223 -54.794479 -96.553825 150.77968 -4.2694154 171.71794
195000000 -1.7387534 107.26601 -79.012527 -134.36971 -97.222336 51.534016 -3.3307285 101.88509
204500000 -1.7397445 77.751381 -82.049942 113.50716 -93.525436 26.703814 -2.2916899 27.412191
214000000 -1.7478634 48.34354 -94.158348 21.984467 -98.892754 -3.0599654 -2.3804569 -42.136826
223500000 -1.7032309 19.266907 -83.697777 -127.49625 -89.516891 159.96965 -2.6254952 -104.44372
233000000 -1.633329 -9.3403625 -79.181213 171.58716 -94.729774 114.35856 -2.4865727 -168.70067
242500000 -1.6260864 -37.896931 -80.304413 49.215046 -89.179283 -66.267639 -2.6774023 118.90883
252000000 -1.6474653 -66.7201 -81.204292 -50.887161 -84.418701 -144.97301 -3.5140646 45.37027
261500000 -1.6623678 -95.730263 -80.226326 -137.80864 -87.470276 124.70741 -3.6627078 -22.241465
271000000 -1.7258629 -124.95482 -87.149239 111.9608 -91.750267 -65.734528 -2.6031029 -87.664497
280500000 -1.840364 -154.70021 -82.536354 28.713121 -91.002937 -157.87703 -1.5079929 -158.11916
290000000 -1.929932 175.16515 -79.722755 -103.39455 -98.782806 41.640404 -2.0157082 129.79727
299500000 -1.9920284 145.05312 -79.321404 172.99376 -97.079933 4.5549498 -3.22436 63.909061
309000000 -2.0607464 114.96793 -80.548492 100.59229 -88.475342 55.440689 -3.5787308 -1.3450265
318500000 -2.1029127 85.02652 -81.349091 3.2865286 -91.159042 115.5161 -3.0084097 -73.149574
328000000 -2.0806718 55.527603 -80.432411 -121.8024 -92.538612 6.7589436 -2.762768 -148.56622
337500000 -2.0587757 26.368147 -79.379402 120.45391 -94.124184 128.46867 -3.0079296 142.83672
347000000 -2.0711401 -2.6505642 -84.789772 19.290966 -94.668526 -24.789837 -2.7643635 79.358871
356500000 -2.0645661 -31.569166 -80.88356 -40.152328 -86.22496 112.49369 -2.1522238 11.263453
366000000 -2.0580213 -60.553547 -80.074127 168.14592 -99.359093 0.77477384 -2.4846418 -63.632256
375500000 -2.118365 -89.893806 -78.816864 86.196022 -94.660912 -161.67024 -3.5878055 -134.34166
385000000 -2.2106006 -119.70933 -82.613518 -16.388708 -88.979454 154.7829 -3.7452552 161.09073
394500000 -2.2782555 -149.74016 -79.13089 -112.86855 -91.474205 108.85611 -2.6511934 95.210915
404000000 -2.3396068 -179.84543 -76.820572 148.30988 -99.259811 106.74785 -1.8070318 21.491207
413500000 -2.4204671 149.87761 -77.311386 36.487255 -87.33757 -177.29919 -2.7008448 -51.874874
423000000 -2.4758656 119.69395 -79.220543 -57.17424 -92.328972 -142.30014 -3.7733994 -118.09414
432500000 -2.4591432 90.067192 -78.146233 -152.37177 -86.864891 76.238289 -3.6888423 175.19875
442000000 -2.4280589 60.902576 -79.290344 92.919121 -97.580948 -150.51245 -2.9249344 101.72042
451500000 -2.427248 32.023476 -78.36628 -18.223265 -98.190857 -105.97715 -2.9356923 27.226553
461000000 -2.4065449 3.4741566 -78.794487 -121.19756 -94.117081 35.811802 -3.3495133 -39.093655
470500000 -2.3652222 -24.777596 -76.977943 170.03595 -94.643616 102.2947 -3.1535015 -102.26005
480000000 -2.3642347 -53.039536 -79.987602 66.361343 -93.286903 -96.832588 -2.6609907 -172.00941
489500000 -2.4126945 -81.635902 -77.476761 -40.455536 -96.6968 -108.01295 -3.1040218 111.96783
499000000 -2.4601352 -110.54402 -77.237762 -141.39403 -94.566246 -158.02769 -3.9454648 40.822384
508500000 -2.4940245 -139.588 -75.940033 107.79454 -87.364594 68.635475 -3.7340245 -24.78249
518000000 -2.5510869 -168.86011 -75.483459 1.1058669 -92.38485 39.161057 -2.7127612 -91.935516
527500000 -2.6140127 161.67352 -77.399582 -114.52797 -95.823486 130.99693 -2.4609938 -163.79555
537000000 -2.6342332 132.34763 -75.762741 156.27139 -105.49739 -41.998478 -3.4445255 127.12817
546500000 -2.6200113 103.40953 -78.45858 66.418182 -95.129692 97.579239 -4.1467948 61.193626
556000000 -2.6025043 74.868057 -77.268639 -45.563953 -90.687241 -85.783531 -3.7934477 -9.3875685
565500000 -2.5762546 46.700562 -76.627441 -148.86992 -87.229385 154.39116 -3.2768626 -86.466042
575000000 -2.536413 18.907339 -78.612328 110.67573 -97.911285 54.394524 -3.585856 -158.60928
584500000 -2.5084426 -8.6596899 -81.306808 12.355353 -94.798676 78.000381 -3.7935734 139.27209
594000000 -2.5025988 -36.227997 -78.297203 -97.469063 -108.76316 43.273815 -3.2698183 78.360916
603500000 -2.5169322 -63.951664 -77.188919 168.86876 -88.383881 -119.75571 -2.814755 8.6907148
613000000 -2.5566294 -92.002167 -80.609245 62.220852 -98.144585 51.348877 -3.6073699 -66.522392
622500000 -2.6180706 -120.53461 -77.706741 -24.09355 -94.631149 149.96481 -4.4764361 -136.55177
632000000 -2.6879454 -149.47273 -78.908211 -120.69715 -97.281982 107.66127 -4.082304 157.4881
641500000 -2.7393415 -178.53217 -77.423828 151.23862 -91.787537 23.414335 -3.0261824 89.800255
651000000 -2.787257 152.23186 -78.735344 33.837246 -95.094841 161.74699 -2.8939192 19.794613
660500000 -2.8265076 122.92957 -77.544327 -77.714996 -91.645905 54.010742 -3.7592621 -46.665276
670000000 -2.8203845 93.889221 -75.794006 -160.60435 -89.993896 156.36578 -4.3288403 -112.57449
679500000 -2.7883317 65.344284 -78.139656 90.13063 -92.929245 130.94234 -4.1969314 174.35551
689000000 -2.7660468 37.127129 -77.659027 -18.777374 -93.241173 96.02018 -4.1160016 96.63562
698500000 -2.7546751 9.0309134 -76.984024 -131.47031 -94.222328 -167.90099 -4.263247 26.89369
708000000 -2.7381301 -18.799143 -76.029877 163.75653 -99.000366 0.28426811 -3.9240327 -34.146648
717500000 -2.7339947 -46.471718 -80.070969 56.078369 -93.498718 -92.176338 -3.1232889 -96.045082
727000000 -2.7817504 -74.568634 -77.788109 -47.77512 -94.958939 33.539024 -3.0040426 -166.30818
736500000 -2.8641186 -103.23784 -75.761108 -162.83392 -97.086533 81.804237 -4.2970681 120.58311
746000000 -2.9315047 -132.20668 -77.038666 104.35404 -98.152191 -88.052933 -5.2454114 50.463005
755500000 -2.9963074 -161.48021 -78.017746 13.591474 -94.018623 -138.79852 -4.609262 -19.136442
765000000 -3.0853105 168.82008 -76.731224 -110.02465 -95.412323 117.964 -3.4373186 -90.788628
774500000 -3.1426978 138.93874 -75.115898 153.57074 -101.69326 69.999039 -3.4481647 -160.3725
784000000 -3.1425457 109.32244 -76.777527 57.574089 -100.74467 42.240192 -4.202477 137.03033
793500000 -3.1255431 80.096748 -79.274147 -54.31406 -100.25758 -146.43719 -4.6040325 74.367371
803000000 -3.1048355 51.213802 -74.450981 -150.61192 -92.935852 -44.301254 -4.6153841 1.5818928
812500000 -3.0633593 22.768438 -76.853279 108.4466 -91.011795 -100.87605 -4.9763317 -78.854088
822000000 -3.0195572 -5.1606841 -81.945877 15.4813 -90.626221 -150.72043 -5.2471962 -151.26366
831500000 -3.0045762 -32.864059 -78.649178 -89.823662 -88.989311 158.6656 -4.6580129 146.07761
841000000 -3.017837 -60.637115 -77.097443 171.21022 -103.11807 25.233318 -3.5953162 83.438545
850500000 -3.0481608 -88.563545 -77.090973 77.563835 -96.709572 72.38018 -3.4177949 13.870972
860000000 -3.1011841 -116.77829 -76.240738 -31.771513 -101.03322 112.33194 -4.7630367 -57.496655
869500000 -3.1723423 -145.43257 -77.126343 -137.06931 -95.126953 36.472534 -5.9057612 -127.86994
879000000 -3.2346251 -174.43143 -78.153336 125.74226 -100.74078 -134.47166 -5.5304632 159.53575
888500000 -3.2737057 156.45703 -75.812508 29.24365 -95.089668 82.410027 -4.4853539 85.877663
898000000 -3.2985127 127.37029 -75.870079 -89.987213 -86.964165 -151.89284 -4.2341118 17.052828
907500000 -3.2908177 98.411324 -75.08947 179.85936 -97.135696 110.66812 -4.5132999 -45.029198
917000000 -3.2461402 69.826195 -76.549583 82.487549 -95.224236 17.08511 -4.7373466 -107.86044
926500000 -3.1873567 41.79351 -76.054893 -24.298668 -96.150009 -150.67615 -5.1584554 -179.66
936000000 -3.1355646 14.248807 -75.727203 -121.11831 -103.15389 83.304672 -5.9529948 102.01864
945500000 -3.0903957 -12.963291 -76.099167 138.8503 -93.54908 -152.577 -6.0622926 28.34931
955000000 -3.0515833 -39.932465 -78.813019 36.739529 -96.990952 -72.016304 -5.1376314 -37.906399
964500000 -3.0447884 -66.748619 -75.895065 -73.522118 -95.181923 -165.51582 -4.0973701 -102.72232
974000000 -3.0744534 -93.735199 -75.954651 -171.13728 -88.730507 -171.20781 -4.1029792 -169.20142
983500000 -3.131001 -121.22552 -76.360123 105.63927 -99.890961 -91.325439 -5.1407151 124.71181
993000000 -3.1914587 -149.12035 -76.791679 -16.508772 -93.916855 96.209457 -6.0589375 56.045166
1002500000 -3.2438016 -177.28557 -76.301781 -104.78908 -89.904602 -145.12872 -6.0814567 -19.265368
1012000000 -3.3025696 154.18683 -75.960587 146.63893 -92.962891 -94.223061 -5.6244154 -95.007469
1021500000 -3.3443573 125.40865 -76.864403 49.4109 -87.978317 112.95573 -5.2638006 -161.82454
1031000000 -3.340425 96.677589 -75.684807 -58.610756 -106.487 -56.432735 -4.7875423 138.18814
1040500000 -3.3049915 68.285004 -75.177536 -154.73494 -95.932243 -140.37704 -4.3067946 75.699471
1050000000 -3.2723088 40.224438 -74.838547 119.5599 -91.566383 120.24929 -4.8273787 4.8164325
1059500000 -3.2343814 12.432529 -77.588409 1.365682 -99.61615 115.2905 -6.4428759 -68.934525
1069000000 -3.1878788 -14.933174 -75.721794 -105.66557 -89.823502 -115.74966 -7.1141186 -140.51532
1078500000 -3.1558831 -41.912079 -75.884506 172.41393 -96.066109 160.86086 -5.9798012 150.29701
1088000000 -3.1661623 -68.889946 -74.571136 64.495644 -88.887878 168.85362 -4.4603877 80.534775
1097500000 -3.2217913 -96.211845 -75.266785 -42.146992 -98.435974 132.62563 -4.3341928 11.688731
1107000000 -3.2832365 -123.85461 -74.113197 -142.19115 -93.145264 1.2868106 -5.2535772 -51.602543
1116500000 -3.3515971 -151.90843 -74.510193 127.5517 -90.793282 -173.59366 -6.0290051 -115.1387
1126000000 -3.4510934 179.43423 -75.574333 17.557844 -89.298256 -48.693035 -6.3078384 173.11238
1135500000 -3.5409036 150.27122 -73.82283 -85.975616 -98.413307 -144.90733 -6.3114357 96.310257
1145000000 -3.5801117 120.89972 -75.084038 172.72412 -97.726341 150.09387 -6.0257897 26.378035
1154500000 -3.5958395 91.560265 -75.064735 84.743813 -91.805222 165.43602 -5.2649999 -35.85453
1164000000 -3.599179 62.311558 -73.096863 -26.488827 -102.39863 -116.40965 -4.4778051 -98.876625
1173500000 -3.5664852 33.303623 -72.646011 -133.70169 -91.413567 112.35905 -4.854805 -167.51224
1183000000 -3.5100086 4.9195151 -73.221222 129.15919 -94.716171 -167.07054 -6.530057 122.7267
1192500000 -3.471734 -22.969492 -74.448395 30.543791 -86.221008 -133.66245 -7.6571059 51.980427
1202000000 -3.4625268 -50.69696 -73.550957 -66.679108 -98.961693 123.32852 -6.9094572 -21.848244
1211500000 -3.4630613 -78.25058 -72.476036 -174.03485 -90.813515 -81.838829 -5.4059343 -96.398392
1221000000 -3.4847102 -105.72344 -73.731079 83.965179 -92.786003 -121.35946 -5.0096631 -166.0325
1230500000 -3.5603976 -133.58038 -73.754478 -25.879416 -86.89167 175.37059 -5.4499998 132.16208
1240000000 -3.6474195 -162.00247 -72.53067 -119.70579 -97.373611 -144.59387 -5.9508781 71.252525
1249500000 -3.7083092 169.24197 -71.741653 137.95474 -99.431786 -94.64225 -6.5106111 2.9761593
1259000000 -3.7704761 140.27939 -71.929115 37.472839 -89.483284 -31.17202 -7.1197715 -72.942947
1268500000 -3.8287077 110.96131 -71.178047 -75.211708 -92.660179 -174.0287 -6.9750271 -147.39268
1278000000 -3.8290591 81.521454 -72.532516 -171.7672 -97.9543 122.29439 -5.9432483 144.25644
1287500000 -3.7747114 52.596729 -71.917633 81.095161 -91.526558 47.040623 -5.0485888 77.902176
1297000000 -3.7147038 24.209269 -71.430527 -22.197533 -85.884651 -116.80204 -5.3262715 11.858584
1306500000 -3.6676772 -3.8432255 -71.338959 -128.08519 -89.620033 143.86191 -6.517077 -52.731186
1316000000 -3.6025352 -31.388609 -72.055931 132.8264 -89.951241 171.78168 -7.5345693 -120.93036
1325500000 -3.5351 -58.350307 -71.15686 33.828888 -88.107544 24.673037 -7.5233841 162.15967
1335000000 -3.5182891 -85.097717 -73.156624 -80.428307 -91.710129 -40.638996 -6.7648005 83.72216
1344500000 -3.55003 -111.98782 -72.071182 -175.75792 -90.172935 -156.84523 -6.131793 14.570679
1354000000 -3.5879846 -139.11057 -71.981628 93.090668 -90.294891 164.63681 -5.6485186 -46.923542
1363500000 -3.622807 -166.41959 -70.674835 -20.720705 -88.886597 -57.466316 -5.4568944 -109.09795
1373000000 -3.6868563 165.90068 -70.28064 -134.39078 -85.739243 -165.8799 -6.1426625 -176.72984
1382500000 -3.7719481 137.69029 -72.417168 126.3274 -92.035172 111.19386 -7.4360538 112.44651
1392000000 -3.813046 109.16527 -74.829292 46.199135 -95.005226 85.033218 -7.7524619 41.214603
1401500000 -3.7978182 80.663513 -73.074486 -59.9454 -103.42833 -0.84295386 -6.5300899 -28.922211
1411000000 -3.7853317 52.274612 -71.021858 -163.90385 -115.27988 85.699722 -5.2697649 -99.067406
1420500000 -3.7731087 24.00926 -71.384377 84.075432 -92.248825 154.3439 -5.4673991 -166.33279
1430000000 -3.7040362 -3.8208535 -72.030472 -27.558565 -102.40182 -33.07299 -6.5726252 131.88158
1439500000 -3.6233866 -30.989853 -71.104225 -118.92295 -91.084335 -118.16469 -7.5339274 68.159332
1449000000 -3.6011906 -57.805168 -71.325882 140.49556 -92.775505 65.345268 -7.8276911 -6.2864904
1458500000 -3.6085327 -84.65786 -72.068069 28.161123 -85.597687 -172.23683 -7.4158926 -87.111938
1468000000 -3.6101289 -111.47439 -72.513191 -92.73101 -91.148911 104.17773 -6.7067833 -159.27922
1477500000 -3.6324449 -138.23631 -73.284798 177.17398 -94.953194 -147.34489 -5.9061174 138.41931
1487000000 -3.7169583 -165.54369 -74.290146 80.986664 -90.571915 -27.895231 -5.3703885 77.708923
1496500000 -3.8133886 166.55023 -76.794182 -32.623974 -91.470551 74.223007 -5.8018785 13.828972
1506000000 -3.8717921 138.41231 -78.530083 -125.20785 -98.559601 99.193726 -7.1326208 -52.430336
1515500000 -3.9432805 109.92699 -78.489075 157.44397 -92.948143 -109.82645 -8.0144768 -122.4064
1525000000 -4.0225768 80.882538 -77.856995 55.035175 -94.021507 122.34084 -7.3883872 163.18655
1534500000 -4.037281 51.675861 -79.703636 -43.973274 -100.40826 123.04102 -6.2617846 89.091003
1544000000 -4.0063601 22.83148 -79.21579 -137.92688 -90.857437 -7.4883456 -6.0585842 21.546543
1553500000 -3.9868975 -5.7001295 -76.155197 135.2036 -94.780746 0.57429045 -6.4600325 -39.323189
1563000000 -3.9599311 -34.009705 -79.649132 27.919529 -89.069206 -144.25209 -6.9368272 -101.61481
1572500000 -3.9131413 -61.818813 -76.705116 -73.620987 -110.68089 33.346931 -7.5580487 -173.38019
1582000000 -3.8997693 -89.199303 -75.232941 -176.28036 -86.171692 55.896996 -8.0956774 108.04517
1591500000 -3.9415689 -116.70274 -78.323692 95.38353 -96.927635 97.002426 -7.6772966 35.086967
1601000000 -3.9974501 -144.47729 -78.015656 1.1808414 -87.478584 158.903 -6.4748573 -29.554556
1610500000 -4.0489259 -172.3956 -75.934402 -107.69108 -101.74789 66.459633 -5.4909596 -92.901527
1620000000 -4.1384602 159.36096 -74.678223 157.62854 -92.675209 -32.316128 -5.7837496 -158.05524
1629500000 -4.2501478 130.51918 -74.698494 61.230305 -94.043556 -100.59052 -7.1828723 136.78198
1639000000 -4.3199325 101.27024 -74.293068 -45.916946 -94.057747 178.72635 -8.3350525 67.939926
1648500000 -4.3494897 71.905594 -73.320915 -133.89235 -105.52884 53.190578 -8.0850525 -7.6567669
1658000000 -4.3781395 42.454994 -73.229813 121.51151 -99.308136 -48.522881 -6.998198 -82.87574
1667500000 -4.3772726 13.037211 -72.857582 9.2798595 -95.033531 -28.266369 -6.4008517 -150.08727
1677000000 -4.3139849 -15.941444 -72.834045 -97.514908 -85.811035 140.71999 -6.3342681 149.16658
1686500000 -4.2351885 -44.282852 -73.598015 167.14835 -93.851936 92.830643 -6.7002082 86.968643
1696000000 -4.2002511 -72.187019 -73.736382 73.384491 -91.736488 40.569889 -7.7875247 16.82386
1705500000 -4.1762738 -99.845978 -73.908264 -21.205256 -94.108894 51.941048 -8.9513702 -60.492615
1715000000 -4.1466489 -127.27972 -72.442154 -129.18741 -89.358543 -168.83942 -8.5209894 -136.22449
1724500000 -4.1609778 -154.58992 -70.170273 137.63374 -92.292732 110.73634 -6.8841944 155.19748
1734000000 -4.2211103 177.84596 -70.972458 33.629967 -97.63842 -3.9962683 -5.7089639 89.575989
1743500000 -4.2802339 149.86711 -70.862701 -68.072433 -98.122742 141.6442 -5.9693079 25.895166
1753000000 -4.3263693 121.72867 -70.117149 -166.29712 -98.070267 -100.70492 -7.1604972 -35.738731
1762500000 -4.3811021 93.359932 -69.584961 98.974754 -93.362823 149.36115 -8.283083 -101.41155
1772000000 -4.4345326 64.540794 -69.051331 -2.7130818 -90.568451 130.70526 -8.5334644 -175.97369
1781500000 -4.4434519 35.67728 -67.910767 -108.40569 -101.72266 -6.431941 -7.8770065 107.91611
1791000000 -4.4143944 7.0624552 -66.695343 147.74619 -86.778229 138.50092 -7.1318874 39.753414
1800500000 -4.3865023 -21.340609 -66.988472 50.003735 -87.667168 161.8896 -6.6900606 -22.661402
1810000000 -4.3377638 -49.375641 -66.049576 -58.042725 -94.624321 79.695938 -6.87463 -86.862915
1819500000 -4.276855 -76.947746 -64.938225 -163.09041 -90.68737 -68.691307 -8.0391626 -156.89731
1829000000 -4.2548308 -104.18011 -65.279617 92.42984 -93.279114 114.10407 -9.2206564 128.52927
1838500000 -4.2537212 -131.25124 -65.735039 -8.7648401 -94.725853 96.854973 -8.7219076 55.035419
1848000000 -4.2631917 -158.29395 -65.011742 -102.8659 -88.962212 56.125801 -7.0107598 -12.92251
1857500000 -4.3181634 174.64095 -63.236088 158.21892 -88.129471 -71.320641 -5.8362861 -77.900925
1867000000 -4.407423 147.33376 -62.739765 49.873222 -88.153114 149.92064 -6.0644507 -139.84583
1876500000 -4.5059943 119.59637 -61.420219 -57.707649 -89.980354 88.866318 -7.1923771 160.36018
1886000000 -4.6133642 91.610489 -60.153805 -157.87321 -85.402313 -11.669589 -8.5032597 95.51239
1895500000 -4.715744 63.357655 -58.998478 88.998779 -88.926888 -76.57476 -9.2605085 19.214214
1905000000 -4.7951536 34.796673 -58.391155 -30.874207 -84.208313 134.65726 -8.7370844 -60.401043
1914500000 -4.8312392 6.3043895 -59.805408 -145.03494 -83.008392 13.575668 -7.5856261 -130.53394
1924000000 -4.8265424 -21.953651 -60.753849 106.75667 -87.073685 -51.02824 -6.6751823 166.325
1933500000 -4.7857842 -50.064323 -62.163319 -4.0288253 -88.843529 -137.75655 -6.5906801 103.04766
1943000000 -4.7206793 -77.892616 -64.37764 -109.92722 -93.282776 156.67853 -7.6273804 37.039375
1952500000 -4.6512733 -105.42304 -64.742691 157.80415 -98.310638 23.941828 -8.9370461 -32.2257
1962000000 -4.6113968 -132.90105 -66.650139 62.871891 -92.827286 -148.078 -9.0055351 -104.61353
1971500000 -4.5838637 -160.29684 -65.691956 -42.343201 -90.819923 134.61369 -7.768527 -175.71899
1981000000 -4.582139 172.28828 -66.409569 -144.81456 -88.951897 145.06227 -6.7644534 117.04877
1990500000 -4.6316881 144.64594 -67.015053 118.30462 -108.95363 75.140732 -6.7996173 54.120014
2000000000 -4.7089338 116.61501 -67.552414 25.838728 -88.226868 -40.030949 -7.5831952 -7.7306166
