!Keysight Technologies,N5242B,MY48420967,A.15.65.19
!Date: Monday, January 23, 2023 03:09:18
!Correction: S11(C  1-Port  ) 
!S21(Off) 
!S12(Off) 
!S22(Off) 
!S2P File: Measurements: S11, S21, S12, S22:
# Hz S  dB   R 50
100000000 -1.4993117 40.423836 -81.836914 147.26321 -90.576149 133.97517 -2.2081964 73.117256
109500000 -1.416142 11.005216 -87.527924 22.110346 -98.249359 106.30747 -2.1459126 6.5391121
119000000 -1.324173 -17.699177 -82.841049 -103.49411 -94.430504 176.16568 -2.2150044 -69.084824
128500000 -1.2515433 -46.074421 -86.786987 -140.71964 -97.954193 163.87987 -2.936897 -143.88583
138000000 -1.2453076 -74.615166 -83.331253 83.755295 -95.776642 -126.89902 -3.0479057 150.79066
147500000 -1.2964422 -103.45779 -86.186844 -9.0827751 -87.291779 119.27328 -1.9899211 88.975723
157000000 -1.3560416 -132.59186 -78.233543 -137.7971 -87.2687 -99.817627 -0.7799964 19.974897
166500000 -1.4422026 -162.12131 -84.624374 151.42023 -97.001747 34.511559 -1.552951 -54.669823
176000000 -1.557725 167.9241 -87.34996 72.85524 -88.732147 123.54616 -3.4066615 -122.39195
185500000 -1.6457778 137.75343 -94.658638 -71.632423 -97.873146 -67.657272 -4.0773149 172.53549
195000000 -1.6775329 107.79462 -78.621414 -156.19281 -95.673248 -146.05518 -3.140893 102.89201
204500000 -1.6796346 78.180397 -83.537193 124.13646 -99.520729 -136.38823 -2.1041152 28.247396
214000000 -1.6656843 48.814869 -85.072449 5.5565505 -86.25882 135.19507 -2.2132168 -41.581593
223500000 -1.6218169 19.808594 -81.398224 -99.903244 -86.248344 148.64989 -2.4651334 -103.95701
233000000 -1.569104 -8.8757133 -78.138199 149.35429 -94.258759 -7.5822983 -2.3003983 -168.16072
242500000 -1.5480343 -37.490868 -82.404694 61.566418 -89.871933 91.523712 -2.4539473 119.46609
252000000 -1.5475888 -66.211899 -76.426186 -52.970192 -92.065987 -179.37758 -3.2926619 45.965111
261500000 -1.5738467 -95.185287 -78.13488 -119.78715 -92.116982 -38.526035 -3.4681172 -21.506975
271000000 -1.6456697 -124.503 -79.79496 128.91968 -92.133224 97.967972 -2.4197586 -86.829178
280500000 -1.7340368 -154.2529 -84.063087 29.942787 -93.382942 -83.227386 -1.3066432 -157.38396
290000000 -1.8106341 175.73468 -80.122192 -70.214699 -86.556618 -122.04111 -1.8088471 130.2901
299500000 -1.8916233 145.62601 -80.437065 169.69557 -84.382942 107.30328 -3.0225039 64.378471
309000000 -1.9564401 115.44147 -90.730484 64.471199 -90.555389 0.72072262 -3.3640859 -0.69291341
318500000 -1.9747466 85.537338 -82.679527 2.811543 -83.51622 70.525993 -2.7726362 -72.349884
328000000 -1.9539006 56.131668 -80.455994 -135.61548 -89.392097 -109.09077 -2.526587 -147.85413
337500000 -1.9422089 26.948532 -81.617348 133.05695 -107.54079 -11.867068 -2.7971628 143.47876
347000000 -1.9387311 -2.1072006 -79.732819 17.12022 -95.791733 -173.57867 -2.5598018 80.05452
356500000 -1.9173758 -31.000671 -80.204163 -85.924515 -101.04456 88.89061 -1.9193438 11.995249
366000000 -1.9201034 -59.987946 -76.673477 -168.33449 -88.689331 179.27728 -2.2288787 -63.030769
375500000 -1.9763756 -89.338264 -82.399132 96.279999 -88.969841 121.05915 -3.350826 -133.74179
385000000 -2.0453169 -119.13055 -78.139969 -2.987505 -90.252335 82.211098 -3.5289309 161.88448
394500000 -2.1125467 -149.18713 -77.431885 -109.39333 -101.58022 151.77208 -2.4254711 96.17363
404000000 -2.1820371 -179.32941 -77.083229 151.42726 -100.58677 43.322971 -1.5458438 22.315746
413500000 -2.2457218 150.42149 -77.596382 31.203432 -109.20492 -39.554737 -2.4426079 -51.313568
423000000 -2.2892904 120.27087 -80.768867 -63.177952 -88.406708 82.715034 -3.5272541 -117.45992
432500000 -2.2870665 90.576782 -77.185417 -155.008 -89.697029 162.12624 -3.4318235 176.09547
442000000 -2.2575667 61.373184 -76.642036 103.80318 -96.522659 -65.610687 -2.6407666 102.71469
451500000 -2.2375691 32.560364 -78.810295 -11.682429 -87.958733 -149.01666 -2.662164 28.021484
461000000 -2.2139821 4.0143285 -77.394699 -117.64899 -95.738258 144.98193 -3.1108463 -38.400429
470500000 -2.1874237 -24.344378 -81.145882 167.03094 -93.025986 56.625118 -2.9203036 -101.54254
480000000 -2.1777241 -52.61414 -77.392593 64.147873 -102.40728 129.91165 -2.3965516 -171.33133
489500000 -2.2046282 -81.139839 -75.963852 -56.825626 -100.57732 51.707935 -2.8211014 112.46959
499000000 -2.2550795 -110.06329 -75.356873 -144.31519 -103.10589 -20.133076 -3.6768594 41.361366
508500000 -2.2985246 -139.1989 -77.621727 131.0896 -101.42068 -148.22273 -3.4715772 -24.043312
518000000 -2.3394945 -168.48286 -76.027786 10.041907 -97.653419 179.0806 -2.4288082 -91.104691
527500000 -2.3880115 162.11348 -73.441963 -102.13763 -99.623871 -40.475712 -2.1593416 -163.19266
537000000 -2.4162438 132.76553 -76.484467 170.11131 -97.147308 -57.463863 -3.1635606 127.55106
546500000 -2.4109559 103.75732 -77.926041 46.090622 -88.828384 -1.9918637 -3.8796976 61.704041
556000000 -2.3834109 75.240479 -78.162132 -45.337521 -96.482979 -79.502327 -3.5114067 -8.7480574
565500000 -2.350739 47.101566 -77.611809 -147.72057 -89.277725 177.6028 -2.9799247 -85.925728
575000000 -2.319273 19.269844 -77.161346 119.12254 -88.46154 155.87305 -3.3106463 -158.19432
584500000 -2.2879536 -8.312726 -78.908211 11.00929 -90.934303 85.075539 -3.5324116 139.76524
594000000 -2.2718227 -35.853085 -79.532578 -79.658478 -100.63411 -19.930416 -2.9839797 79.010597
603500000 -2.286639 -63.591782 -76.597527 178.10393 -93.322891 142.68892 -2.4773636 9.2952461
613000000 -2.3256304 -91.691483 -78.369316 73.062469 -88.80838 106.45334 -3.2721772 -66.119133
622500000 -2.3731759 -120.18597 -78.776215 -45.579987 -89.652374 -159.27368 -4.1863403 -136.08424
632000000 -2.4343877 -149.05461 -77.639015 -123.90526 -97.333328 9.9604445 -3.8197908 158.09404
641500000 -2.4912901 -178.17015 -76.788071 121.87503 -90.692375 58.363823 -2.7545967 90.373878
651000000 -2.5345058 152.56068 -77.761215 42.002857 -98.879288 164.39467 -2.6080582 20.157757
660500000 -2.5590091 123.36459 -78.709343 -71.236092 -94.259926 -153.58354 -3.4652598 -46.360847
670000000 -2.5580628 94.373245 -78.037849 -171.00804 -97.693245 -178.06384 -4.0049925 -112.07301
679500000 -2.5401871 65.717651 -77.324211 101.85406 -96.533707 157.44925 -3.8319049 175.06866
689000000 -2.5077453 37.493057 -78.239273 -9.9090595 -88.031761 -89.708534 -3.7644205 97.294441
698500000 -2.4823902 9.5172911 -79.116219 -101.84551 -93.083374 56.943378 -3.9730141 27.472364
708000000 -2.4746006 -18.332884 -76.816177 163.81381 -91.918442 -130.54341 -3.6654248 -33.55109
717500000 -2.4756327 -46.165234 -77.177155 58.255539 -111.45199 73.721703 -2.843214 -95.444855
727000000 -2.5058353 -74.247543 -77.265251 -55.069607 -97.377151 52.074593 -2.6752858 -165.90425
736500000 -2.5756376 -102.79749 -76.204849 -158.95168 -91.038345 154.97757 -3.9556847 120.87529
746000000 -2.6492212 -131.84415 -78.172432 112.72627 -89.624817 111.84265 -4.9125838 51.038269
755500000 -2.7122965 -161.25919 -79.486847 27.07884 -92.815598 133.50519 -4.2865067 -18.248192
765000000 -2.7806871 169.10335 -76.10582 -113.44916 -97.112701 121.37067 -3.1117878 -89.979515
774500000 -2.8348975 139.28778 -76.188492 158.47113 -98.777 -31.462908 -3.1397524 -159.88649
784000000 -2.8484757 109.57458 -78.446762 65.926964 -92.232033 170.90642 -3.9088566 137.42838
793500000 -2.8305893 80.263718 -78.062851 -36.429466 -98.18206 154.66544 -4.2789593 74.917549
803000000 -2.8021374 51.428749 -76.385597 -147.20549 -98.524651 -103.25291 -4.2246442 2.2998991
812500000 -2.7667105 22.997282 -77.209801 109.85399 -99.684433 48.937618 -4.5796771 -78.142258
822000000 -2.7293727 -5.0485196 -77.624771 0.87703186 -93.57444 148.36617 -4.9189038 -150.52481
831500000 -2.7062459 -32.81731 -77.018761 -89.252327 -92.843567 -168.56792 -4.3703675 146.8564
841000000 -2.7118413 -60.548752 -75.806747 168.68073 -95.935455 -60.42128 -3.2900805 84.158783
850500000 -2.7452791 -88.490067 -74.780815 74.943611 -91.860428 -161.19072 -3.0715208 14.261507
860000000 -2.7976928 -116.80454 -74.353004 -41.206779 -91.625076 -136.1301 -4.4060817 -57.328701
869500000 -2.8543432 -145.48398 -75.600021 -139.00679 -96.538895 118.44847 -5.5413136 -127.45345
879000000 -2.9109643 -174.42569 -77.197342 131.61656 -88.972229 34.706474 -5.1637807 160.30049
888500000 -2.9567308 156.45302 -75.138313 35.499557 -95.596085 171.18503 -4.1288457 86.601372
898000000 -2.9785903 127.29866 -74.606422 -82.707794 -104.3945 20.071108 -3.9071696 17.496759
907500000 -2.9648151 98.355293 -75.40873 176.63281 -96.248177 153.30547 -4.2014732 -44.721725
917000000 -2.929405 69.846161 -75.607117 86.283325 -96.829613 39.342716 -4.3925452 -107.58447
926500000 -2.8798726 41.778114 -74.528297 -35.116554 -93.173355 85.83197 -4.7549176 -179.43652
936000000 -2.8233311 14.178692 -75.203552 -133.53053 -93.814285 171.83463 -5.541131 102.29618
945500000 -2.7722948 -12.983278 -75.675499 129.93718 -97.856522 117.30372 -5.6998839 28.838165
955000000 -2.7400692 -39.908958 -77.753815 35.300732 -102.26902 -86.296242 -4.8106279 -37.359196
964500000 -2.7377813 -66.797844 -76.606979 -75.508583 -98.186935 -122.22461 -3.7668502 -102.37301
974000000 -2.7590344 -93.840698 -76.382126 -171.35944 -88.607285 82.035927 -3.7628472 -169.21364
983500000 -2.8050172 -121.27637 -76.056099 87.873657 -94.112755 170.62367 -4.7912974 124.52055
993000000 -2.8633187 -149.12515 -76.531792 -14.898857 -98.080658 -28.438601 -5.6730919 55.982407
1002500000 -2.9139898 -177.33655 -75.118668 -112.20098 -86.911331 140.23141 -5.6692791 -19.062408
1012000000 -2.9674559 154.11253 -76.033798 148.10374 -87.480354 149.82834 -5.2459226 -94.727028
1021500000 -3.0015051 125.4033 -77.086418 38.886101 -91.543274 162.7632 -4.9366512 -161.58061
1031000000 -2.9969618 96.721275 -76.034119 -55.222691 -91.932701 42.081524 -4.4719925 138.39767
1040500000 -2.9733117 68.288506 -75.459373 -146.2803 -97.731194 111.46451 -3.9508622 75.753075
1050000000 -2.9402225 40.22081 -76.203773 99.063049 -87.522575 127.76332 -4.4231734 4.5301046
1059500000 -2.8920481 12.483294 -76.020088 -3.8470042 -89.609169 -168.5923 -6.0284824 -69.202843
1069000000 -2.8484886 -14.853628 -75.963287 -99.538712 -90.834038 -166.65498 -6.7145886 -140.26862
1078500000 -2.8299406 -41.896637 -75.423973 165.91417 -100.76421 -121.55931 -5.6033287 150.91327
1088000000 -2.831326 -68.933365 -75.024948 68.70961 -103.22992 153.25034 -4.0871496 80.970955
1097500000 -2.8683386 -96.201645 -75.179123 -48.845356 -88.818901 134.49911 -3.9858756 11.678211
1107000000 -2.9306836 -123.81139 -74.671646 -141.73645 -88.609085 -121.07053 -4.9260092 -51.792889
1116500000 -3.0059698 -151.97136 -73.756767 121.46676 -87.562126 -93.199615 -5.6717343 -115.26694
1126000000 -3.0852435 179.34557 -75.258194 19.649036 -86.491272 91.752792 -5.8923955 173.17972
1135500000 -3.1567986 150.28448 -74.323914 -83.51104 -101.59877 70.58577 -5.8899107 96.602074
1145000000 -3.2096148 120.87608 -73.572662 172.62486 -87.227798 -53.361725 -5.6489501 26.845455
1154500000 -3.2323811 91.402924 -74.565483 88.578453 -96.892555 134.93698 -4.909956 -35.309719
1164000000 -3.2183471 62.185711 -74.242516 -19.292707 -92.126205 -151.10817 -4.0971842 -98.482132
1173500000 -3.1882496 33.262436 -72.806206 -133.23206 -95.262024 122.43372 -4.4513741 -167.53506
1183000000 -3.15098 4.7572584 -73.967926 125.53962 -90.429749 -134.5882 -6.1319232 122.56217
1192500000 -3.1081741 -23.256136 -73.535255 24.873613 -101.06841 -96.656555 -7.2563128 52.185829
1202000000 -3.0832796 -50.905315 -74.009895 -64.886986 -91.507454 -38.783733 -6.5112081 -21.227734
1211500000 -3.0909116 -78.443619 -71.710991 -169.18372 -89.3843 -29.200962 -5.0144658 -95.886681
1221000000 -3.1258156 -106.11847 -71.442101 79.713287 -89.299919 -174.33487 -4.6477294 -165.90828
1230500000 -3.1854911 -134.04417 -72.008835 -16.633434 -89.498505 160.20967 -5.1062245 132.10451
1240000000 -3.2520103 -162.36328 -72.767815 -121.81075 -87.792358 103.78566 -5.5793886 71.154831
1249500000 -3.3196831 168.85364 -71.634758 141.27139 -96.66433 116.17757 -6.0822496 2.8829145
1259000000 -3.3893104 139.73193 -72.37645 34.114414 -94.287666 165.03345 -6.6713109 -72.872307
1268500000 -3.4292498 110.39586 -72.09346 -75.925621 -85.51519 147.96948 -6.5695581 -147.06822
1278000000 -3.4233904 81.07135 -70.681381 -172.04367 -85.098167 115.77892 -5.5748606 144.5858
1287500000 -3.3877339 52.13345 -71.042488 87.813332 -87.38343 5.2268939 -4.6861348 77.922272
1297000000 -3.3419249 23.618334 -70.57132 -22.512861 -90.556557 -76.262924 -4.9684267 11.446555
1306500000 -3.2801619 -4.4143305 -70.697983 -128.27263 -89.663025 -144.04715 -6.1479239 -53.353817
1316000000 -3.2068276 -31.827986 -70.452675 135.75644 -90.404739 89.677345 -7.1102486 -121.47085
1325500000 -3.1600196 -58.799923 -70.158455 24.869003 -91.328011 -120.39143 -7.0521789 161.89714
1335000000 -3.1552773 -85.664879 -70.01796 -78.932137 -89.733757 -134.80251 -6.3302903 83.55069
1344500000 -3.1667104 -112.55177 -70.845764 169.81876 -90.265717 134.24762 -5.7628922 14.316404
1354000000 -3.1903031 -139.54672 -72.403946 69.190742 -89.575249 85.132721 -5.3021541 -47.309479
1363500000 -3.2405114 -166.84761 -73.967148 -25.103493 -96.465607 114.83405 -5.087389 -109.77077
1373000000 -3.308382 165.3532 -72.53051 -120.5666 -89.510788 179.56601 -5.7428946 -177.73495
1382500000 -3.3636518 137.17319 -72.248474 134.45854 -121.02774 -152.57097 -7.0099697 111.5048
1392000000 -3.3959 108.79534 -75.328026 34.710365 -95.107475 -14.89863 -7.3122606 40.787052
1401500000 -3.4060104 80.287636 -73.440056 -51.538074 -93.753372 56.760208 -6.0988955 -29.04677
1411000000 -3.3946342 51.814362 -69.802361 -154.13777 -83.917519 -162.13489 -4.8598218 -99.472023
1420500000 -3.3606703 23.646055 -69.704811 89.489243 -90.046547 146.70546 -5.1038809 -167.16402
1430000000 -3.3006835 -4.0592122 -72.215317 -10.29775 -92.660362 -162.05663 -6.2219906 130.88007
1439500000 -3.2431765 -31.284664 -69.81559 -110.94415 -90.291115 -17.962557 -7.1220465 67.142601
1449000000 -3.2084937 -58.122574 -70.352058 147.60834 -100.73369 140.40385 -7.3216548 -7.1284337
1458500000 -3.197135 -84.859024 -69.471046 30.79537 -100.2429 -31.127525 -6.9132328 -87.617668
1468000000 -3.2106192 -111.63655 -69.706863 -72.031136 -89.796272 -94.884506 -6.2890511 -159.58192
1477500000 -3.2428617 -138.50264 -71.173248 172.55779 -94.315681 -104.58574 -5.5392003 138.1163
1487000000 -3.3053749 -165.77834 -72.601135 74.161034 -98.769012 -139.71144 -5.0049877 77.182404
1496500000 -3.3860767 166.41663 -73.148972 -35.964081 -93.060059 163.64397 -5.4194837 12.957536
1506000000 -3.4577932 138.20013 -74.344093 -134.93723 -93.662994 -68.71209 -6.7142239 -53.391056
1515500000 -3.5240099 109.5982 -77.533562 147.89415 -95.428307 81.894737 -7.5364699 -122.97227
1525000000 -3.5771754 80.634277 -76.296516 38.83984 -94.874352 -157.66507 -6.8921409 163.15428
1534500000 -3.5943661 51.509251 -76.729027 -77.658928 -88.702484 21.21102 -5.8106327 89.052605
1544000000 -3.5844979 22.545616 -78.456177 -160.36139 -90.781296 -38.588734 -5.6750307 21.245026
1553500000 -3.5579507 -6.0695496 -80.84832 112.26509 -87.876335 102.22148 -6.1012173 -39.784214
1563000000 -3.5140064 -34.279987 -77.749161 16.173733 -96.615089 -115.14192 -6.5325627 -102.23739
1572500000 -3.4790595 -62.066284 -79.101692 -91.787216 -92.654213 75.914406 -7.0682664 -174.10207
1582000000 -3.4817221 -89.624435 -76.743591 -174.92534 -91.397415 -98.906349 -7.5797195 107.6412
1591500000 -3.5093336 -117.21671 -78.645027 98.377121 -96.320885 -109.52694 -7.2241082 35.171059
1601000000 -3.5457888 -144.90839 -76.999466 -11.750837 -95.338486 -176.58107 -6.0755548 -29.348783
1610500000 -3.605216 -172.86304 -74.629875 -110.65775 -104.60349 176.78252 -5.1047034 -92.988289
1620000000 -3.7006435 158.69524 -75.195511 141.49219 -107.77083 48.672794 -5.4067025 -158.64806
1629500000 -3.7897379 129.76137 -77.304901 55.76709 -100.45557 -33.061104 -6.794425 135.91632
1639000000 -3.8455451 100.55943 -76.179382 -47.666489 -92.63723 -175.46017 -7.8784862 67.230202
1648500000 -3.8878112 71.1567 -74.824867 -147.58138 -92.838814 -138.95366 -7.5774603 -7.857429
1658000000 -3.9182751 41.569118 -72.624886 119.53674 -89.257233 90.802696 -6.5274849 -82.889198
1667500000 -3.9043 12.153276 -73.844162 12.01335 -90.343391 -56.016941 -6.0026188 -150.24098
1677000000 -3.8398061 -16.735502 -74.001312 -98.389465 -91.710014 -145.17754 -5.9720178 148.77568
1686500000 -3.7731197 -45.08638 -74.83297 163.38815 -97.444839 -107.0312 -6.321918 86.176582
1696000000 -3.7415762 -73.042831 -74.192368 74.001694 -92.704582 100.66156 -7.3583465 15.531492
1705500000 -3.7164249 -100.69283 -73.324371 -41.585323 -92.225922 -104.45016 -8.4625931 -61.727474
1715000000 -3.6915495 -128.11752 -72.781761 -127.66106 -101.02311 -29.597399 -8.0316763 -136.84647
1724500000 -3.7007151 -155.45262 -72.468163 141.64398 -93.087593 117.88786 -6.437109 154.82452
1734000000 -3.7499309 176.99931 -71.112961 31.271482 -96.245163 -45.996178 -5.3020115 88.924149
1743500000 -3.8144717 149.03435 -71.738571 -70.629578 -90.809769 -173.05396 -5.6095886 24.827314
1753000000 -3.861819 120.83886 -70.400612 -169.79005 -91.461487 176.25436 -6.8105927 -37.090294
1762500000 -3.8951995 92.460915 -70.928505 97.05146 -95.321884 114.56573 -7.8694882 -102.94978
1772000000 -3.9426942 63.744926 -70.565613 -1.3039848 -90.559822 -41.520134 -8.0303097 -177.38599
1781500000 -3.9713302 34.909996 -68.400589 -111.46616 -94.664734 -4.1518927 -7.3714995 106.84199
1791000000 -3.9398296 6.2435317 -68.475075 147.38344 -94.552086 -166.2338 -6.681788 38.842155
1800500000 -3.8886704 -22.045649 -70.058487 46.536129 -96.869469 84.829948 -6.2740226 -23.697128
1810000000 -3.8489845 -49.888916 -68.127533 -60.721928 -89.179222 83.972511 -6.4624958 -88.332672
1819500000 -3.8180351 -77.495522 -68.930748 -157.46277 -97.353073 -101.85863 -7.6116199 -158.85526
1829000000 -3.7888083 -104.82246 -68.219498 111.41712 -105.81836 59.063801 -8.7416849 126.6556
1838500000 -3.7615499 -131.77283 -66.624687 6.5197129 -88.478683 83.842812 -8.2127104 53.830917
1848000000 -3.7788315 -158.67078 -66.574432 -93.043434 -102.48319 99.038002 -6.5226493 -13.775398
1857500000 -3.8536074 174.18915 -65.088875 173.25012 -93.126305 -122.92947 -5.3902831 -78.912132
1867000000 -3.9263399 146.7561 -63.692108 69.48687 -88.619476 -141.27586 -5.6698656 -141.11122
1876500000 -3.9949884 119.06773 -62.010204 -37.10693 -88.826897 97.466766 -6.809525 158.90862
1886000000 -4.0960102 91.167351 -60.330044 -141.31012 -87.154686 18.967371 -8.0598364 93.85601
1895500000 -4.2055144 62.830841 -58.21283 103.62054 -89.489883 -121.97823 -8.7168388 17.652723
1905000000 -4.2809792 34.130363 -58.077229 -16.985746 -87.469437 -171.43254 -8.1824083 -61.420799
1914500000 -4.3034391 5.5903387 -59.302013 -129.57196 -88.987213 71.071854 -7.0901284 -131.22028
1924000000 -4.2980027 -22.675886 -59.957031 122.01086 -104.51843 74.514343 -6.2130842 165.63188
1933500000 -4.2848682 -50.822948 -61.018337 11.817458 -85.149673 -133.48915 -6.1357403 102.08492
1943000000 -4.2468023 -78.75573 -62.389561 -99.586113 -89.549042 138.33521 -7.1724839 35.789867
1952500000 -4.1785197 -106.36294 -63.923908 161.84723 -97.641998 113.81549 -8.4608288 -33.423759
1962000000 -4.1317916 -133.75528 -65.75338 60.033867 -92.472313 -154.88297 -8.5099878 -105.45743
1971500000 -4.126925 -161.06662 -67.026764 -36.159069 -91.230049 124.03059 -7.2879052 -176.38179
1981000000 -4.1488452 171.3714 -66.646606 -128.06361 -86.933174 142.44759 -6.3181705 116.22391
1990500000 -4.1799583 143.57408 -66.461082 136.15495 -90.988358 106.88615 -6.3763418 53.10815
2000000000 -4.2288857 115.60213 -65.554405 44.962761 -95.908646 -178.22069 -7.1370401 -8.8949738
