!Keysight Technologies,N5242B,MY48420967,A.15.65.19
!Date: Saturday, February 04, 2023 19:00:36
!Correction: S11(C  1-Port  ) 
!S21(Off) 
!S12(Off) 
!S22(Off) 
!S2P File: Measurements: S11, S21, S12, S22:
# Hz S  dB   R 50
100000000 -1.4957026 40.216805 -84.160202 134.12201 -89.103523 148.9742 -2.3697076 72.586708
109500000 -1.4345312 10.76456 -89.893494 27.705429 -92.26252 -123.82259 -2.3598855 5.6500158
119000000 -1.3672957 -18.207365 -85.8666 -80.168831 -89.870071 144.28671 -2.4636889 -70.115494
128500000 -1.2855264 -46.642128 -82.266281 173.54807 -94.354828 112.85023 -3.1480103 -144.80127
138000000 -1.2762287 -75.081627 -88.116341 86.773087 -91.282494 131.11255 -3.2043946 149.96536
147500000 -1.3502909 -104.0182 -83.559471 -18.371847 -88.370895 -58.390488 -2.1327596 88.152763
157000000 -1.4188923 -133.28581 -78.536499 -116.37221 -95.269524 48.604164 -0.96462995 19.18795
166500000 -1.4948092 -162.73448 -88.556335 120.87006 -87.571625 170.19756 -1.7790883 -55.244064
176000000 -1.6205629 167.36224 -86.891197 61.244068 -90.247223 70.034058 -3.6381338 -123.00672
185500000 -1.723959 137.12933 -82.931473 -89.838951 -92.231049 75.248199 -4.306818 171.6145
195000000 -1.7436799 107.20773 -79.877792 -157.55331 -96.093834 -157.48511 -3.3693452 101.75974
204500000 -1.7450155 77.711678 -80.94529 101.30443 -91.159401 57.189583 -2.3330464 27.330526
214000000 -1.7534424 48.337639 -86.911583 -27.890064 -110.19408 -17.612885 -2.4183421 -42.169857
223500000 -1.7095454 19.290241 -82.54258 -87.023293 -92.808449 -128.07005 -2.6607733 -104.45753
233000000 -1.6429144 -9.2968168 -83.076683 175.43867 -95.948586 -121.37592 -2.5254507 -168.69228
242500000 -1.6356511 -37.836906 -81.442993 68.160088 -100.84401 -36.484459 -2.7198212 118.9465
252000000 -1.6589192 -66.643486 -80.598854 -68.468826 -95.343712 174.70166 -3.5557117 45.424034
261500000 -1.6770009 -95.641441 -82.483078 -124.58112 -85.999901 130.23787 -3.7032783 -22.207975
271000000 -1.7420439 -124.86467 -79.386765 134.30363 -91.25061 122.19049 -2.6458213 -87.648186
280500000 -1.8587831 -154.60609 -78.722519 8.5246305 -92.38887 31.866234 -1.5529916 -158.06998
290000000 -1.9521571 175.25661 -76.282562 -89.672409 -106.81174 -20.065374 -2.0585403 129.88547
299500000 -2.0166557 145.12785 -81.519806 -166.23122 -90.124809 -132.47339 -3.2667439 63.988743
309000000 -2.0883081 115.03112 -80.857002 54.857059 -96.950241 -151.78505 -3.624764 -1.288708
318500000 -2.131695 85.081894 -79.069824 -9.0299568 -95.300034 -105.76067 -3.0618081 -73.114204
328000000 -2.1117814 55.563286 -77.65036 -136.56125 -91.234955 -175.18452 -2.8156831 -148.52443
337500000 -2.0924568 26.398756 -78.479485 106.89669 -103.95625 -132.95146 -3.0571656 142.86833
347000000 -2.1080885 -2.6173379 -83.768044 31.569948 -86.928391 56.203476 -2.8141639 79.365112
356500000 -2.1043224 -31.548418 -81.542908 -79.899826 -104.3981 162.99081 -2.209286 11.278111
366000000 -2.0998704 -60.523651 -76.031013 -179.10521 -93.814018 134.23643 -2.5429547 -63.580318
375500000 -2.1625438 -89.842827 -80.465088 91.526947 -92.077744 143.52116 -3.6433144 -134.30769
385000000 -2.2589481 -119.64983 -77.832207 -17.625238 -102.54835 176.64693 -3.7995934 161.07864
394500000 -2.3291795 -149.65927 -80.519264 -94.883415 -86.902809 -129.17348 -2.7127547 95.162643
404000000 -2.3920293 -179.73917 -76.720551 153.98479 -90.339729 -129.98474 -1.8758476 21.500814
413500000 -2.476516 150.01736 -80.093071 22.889486 -85.97097 135.82785 -2.7656734 -51.810581
423000000 -2.5328279 119.85696 -78.910995 -78.140671 -88.913765 153.14307 -3.8351941 -118.05901
432500000 -2.5168414 90.25531 -79.301819 -172.15367 -90.996887 100.18484 -3.7563756 175.19289
442000000 -2.4872684 61.12854 -76.761086 119.18757 -84.589844 -40.00256 -2.9981718 101.72243
451500000 -2.4883578 32.273838 -79.499077 -22.954105 -87.017372 -155.7262 -3.0055416 27.266779
461000000 -2.4689775 3.7501099 -81.488144 -117.70083 -88.376266 145.25064 -3.4140723 -39.053585
470500000 -2.4294119 -24.473242 -78.796989 -175.91005 -109.97726 -69.355644 -3.2205825 -102.23016
480000000 -2.4311218 -52.711456 -76.004669 57.429817 -86.103226 94.960281 -2.7375178 -171.94188
489500000 -2.4808929 -81.285095 -77.159576 -44.234062 -94.744171 159.63831 -3.1812484 112.09042
499000000 -2.53105 -110.16714 -77.332176 -147.62749 -92.733536 -160.83516 -4.0173383 40.932835
508500000 -2.5694065 -139.20004 -76.734283 123.90147 -94.205132 97.699127 -3.8054214 -24.713825
518000000 -2.6277773 -168.45384 -78.71315 16.786734 -99.307716 52.404633 -2.7898893 -91.849533
527500000 -2.6923904 162.09399 -75.951195 -104.70732 -93.158562 8.6075048 -2.5390935 -163.62164
537000000 -2.7153444 132.77481 -76.808769 152.70879 -98.601479 48.745529 -3.5180533 127.33504
546500000 -2.7020946 103.82888 -78.974998 69.61393 -86.106155 -103.57062 -4.2252564 61.385235
556000000 -2.6836386 75.294853 -77.920425 -46.964355 -90.336823 -142.81659 -3.8834538 -9.2184935
565500000 -2.6580863 47.133842 -78.108711 -150.1582 -94.406891 139.3288 -3.3679402 -86.255669
575000000 -2.619118 19.345697 -80.635902 126.01208 -87.980522 62.540615 -3.6633928 -158.39096
584500000 -2.5905135 -8.2180338 -79.367325 5.5382872 -100.22388 11.940514 -3.8655124 139.45453
594000000 -2.5867469 -35.762867 -80.939278 -93.964012 -89.961296 -105.05942 -3.3487239 78.559875
603500000 -2.6033649 -63.469437 -76.202927 177.94733 -93.669579 -51.809555 -2.9038332 8.9701242
613000000 -2.6450317 -91.505577 -78.661354 84.491638 -90.802055 -98.390099 -3.6947057 -66.184364
622500000 -2.7091017 -120.01019 -81.495071 -44.179913 -93.466484 -27.09907 -4.5617967 -136.2749
632000000 -2.7829254 -148.93236 -76.725319 -132.2372 -88.754524 -20.356558 -4.1707125 157.70442
641500000 -2.8364358 -177.98616 -76.406822 140.96094 -92.735069 132.73926 -3.1167452 90.042747
651000000 -2.8849406 152.79208 -79.373001 12.143526 -93.121887 62.328167 -2.9796805 20.107336
660500000 -2.9274189 123.49508 -77.6147 -79.875427 -90.030052 37.264103 -3.8408055 -46.322353
670000000 -2.9227085 94.445709 -77.752342 -159.00967 -92.333855 -136.07683 -4.4195848 -112.23462
679500000 -2.8896523 65.895279 -76.879791 90.968277 -99.043869 -166.65797 -4.3025832 174.69925
689000000 -2.868475 37.691364 -76.80159 -15.884229 -96.217705 -105.90394 -4.2188878 96.969177
698500000 -2.8585253 9.5967884 -77.880867 -105.25661 -88.445908 88.200386 -4.3526249 27.161564
708000000 -2.8418119 -18.228273 -79.132103 159.30644 -94.008682 -178.1037 -4.0093756 -33.924568
717500000 -2.8392947 -45.882835 -77.503761 52.524006 -89.813957 128.66298 -3.2157657 -95.789177
727000000 -2.8899276 -73.951622 -76.334717 -50.796947 -87.183495 61.450058 -3.1021125 -165.92114
736500000 -2.9754379 -102.59795 -76.371635 -158.82722 -93.79406 48.751495 -4.3930583 121.0265
746000000 -3.0444474 -131.5377 -75.638741 101.67683 -97.41848 -43.611763 -5.3476233 50.818504
755500000 -3.1127999 -160.78465 -78.803772 5.0486574 -91.317749 -166.65109 -4.7200899 -18.87512
765000000 -3.2040927 169.54305 -76.014519 -97.621765 -95.123123 -154.66498 -3.5482292 -90.506668
774500000 -3.2631347 139.68365 -77.743202 162.6723 -99.238792 -52.899868 -3.5452688 -160.03825
784000000 -3.2642179 110.08584 -77.315231 54.265118 -95.244568 134.07172 -4.2938662 137.37015
793500000 -3.2482767 80.87455 -76.620621 -52.833458 -95.4356 174.33395 -4.707396 74.722656
803000000 -3.2251678 52.010345 -75.782433 -141.49631 -102.41171 -31.762819 -4.7417207 1.9911695
812500000 -3.1836665 23.593822 -76.328835 106.60131 -90.776619 101.87775 -5.102932 -78.444229
822000000 -3.1396875 -4.3142471 -79.568924 -14.403631 -91.805321 110.03644 -5.3588943 -150.96255
831500000 -3.1235151 -31.982058 -78.180962 -93.79113 -99.623985 174.26962 -4.7628565 146.29922
841000000 -3.1373181 -59.705456 -75.720375 178.53116 -100.48875 -51.564827 -3.706192 83.70298
850500000 -3.1696217 -87.584587 -75.827156 71.927063 -92.996666 -60.91074 -3.5323815 14.292492
860000000 -3.2250333 -115.75539 -75.559906 -29.187057 -95.217369 163.37192 -4.8751516 -56.986725
869500000 -3.2982137 -144.36455 -78.094536 -136.74295 -91.612625 136.44685 -6.0287485 -127.41874
879000000 -3.3638968 -173.33313 -75.593811 129.66 -96.351097 112.95448 -5.6660056 159.88953
888500000 -3.4054074 157.57358 -77.059441 21.853794 -100.70572 136.29422 -4.6156988 86.234032
898000000 -3.4309595 128.49606 -75.257896 -86.525375 -95.401642 -123.33575 -4.346087 17.455254
907500000 -3.4258883 99.53698 -78.019966 -173.98878 -91.279129 82.731544 -4.6177773 -44.598003
917000000 -3.3809998 70.936432 -76.140022 83.669365 -88.962578 168.77316 -4.8520746 -107.35084
926500000 -3.3194537 42.885933 -77.778847 -23.179977 -102.38292 143.44989 -5.2917581 -179.01141
936000000 -3.2669342 15.336734 -75.421516 -126.89066 -98.259224 177.45341 -6.0939054 102.68385
945500000 -3.2207851 -11.886954 -77.742989 136.75652 -107.80045 3.5918322 -6.1981859 28.871746
955000000 -3.1807911 -38.85804 -77.296616 27.702646 -89.871597 -69.283775 -5.265645 -37.467007
964500000 -3.173563 -65.661919 -77.570206 -67.644608 -97.540535 -25.100979 -4.221046 -102.20917
974000000 -3.2046685 -92.625641 -76.057419 -163.92638 -98.975906 -120.33806 -4.2165012 -168.53664
983500000 -3.2633467 -120.09827 -78.032356 87.681183 -90.385109 106.63676 -5.2507291 125.48244
993000000 -3.3258648 -147.98322 -76.442024 -9.7695456 -103.61884 109.4985 -6.1876974 56.868279
1002500000 -3.3816113 -176.12978 -76.231155 -109.02673 -89.787704 -134.05463 -6.2328134 -18.456224
1012000000 -3.4439073 155.35783 -74.968002 166.49745 -98.887962 93.566658 -5.7674508 -94.285431
1021500000 -3.48755 126.5723 -76.247726 45.715054 -92.650703 125.13229 -5.3866062 -161.19485
1031000000 -3.4845407 97.836121 -76.944679 -56.833702 -92.456703 150.78325 -4.9045649 138.80701
1040500000 -3.4503865 69.424431 -75.941467 -139.7766 -97.27401 137.9725 -4.4296026 76.462616
1050000000 -3.4157453 41.350124 -75.770531 113.50427 -91.467346 111.86079 -4.9490676 5.8084002
1059500000 -3.3771396 13.557231 -77.452484 -6.5560756 -92.79644 77.244888 -6.5692382 -67.900467
1069000000 -3.3293939 -13.812339 -77.729454 -87.562439 -89.510643 77.258385 -7.2632413 -139.6676
1078500000 -3.2966199 -40.794643 -75.388229 169.69705 -92.744072 -163.0546 -6.1415343 150.97325
1088000000 -3.3067169 -67.748268 -75.449493 71.536964 -89.001892 179.60362 -4.6132917 81.25882
1097500000 -3.3640683 -95.034485 -75.500214 -45.347843 -102.91128 48.515747 -4.4594898 12.512114
1107000000 -3.4286466 -122.64172 -75.139099 -140.42766 -92.919815 -33.835594 -5.365221 -50.754364
1116500000 -3.500773 -150.66835 -75.09333 115.49037 -94.558922 -124.35658 -6.1547742 -114.24786
1126000000 -3.604214 -179.28052 -74.936172 19.909622 -93.046082 137.08382 -6.4597707 174.064
1135500000 -3.697861 151.57979 -75.255501 -78.770386 -85.468147 45.014145 -6.4691792 97.187447
1145000000 -3.7406697 122.21661 -74.186333 179.7652 -92.367241 -149.09528 -6.1695023 27.08593
1154500000 -3.7585664 92.893913 -74.270409 83.783752 -90.02916 48.133839 -5.4019594 -35.212715
1164000000 -3.7634606 63.647076 -74.543999 -25.973274 -89.847122 -165.56644 -4.6149073 -98.112717
1173500000 -3.7295091 34.639038 -73.737091 -136.85938 -97.993057 -174.63832 -4.9822402 -166.52882
1183000000 -3.67118 6.2529235 -73.310249 136.08548 -98.066559 0.41806918 -6.6571341 123.79388
1192500000 -3.6301575 -21.616488 -74.200417 32.41349 -91.422676 -14.464309 -7.8179784 52.966183
1202000000 -3.6190486 -49.326775 -73.053108 -70.999527 -94.748787 115.68029 -7.1006417 -21.03759
1211500000 -3.6180708 -76.843811 -72.346878 -174.51099 -90.978867 81.372955 -5.5854464 -95.606461
1221000000 -3.6403933 -104.26092 -72.43705 85.198097 -94.970512 -150.81183 -5.1525912 -165.20189
1230500000 -3.717279 -132.06241 -73.836601 -21.502699 -93.355003 62.249237 -5.5710149 132.99881
1240000000 -3.8083155 -160.42581 -72.960243 -113.78429 -115.80121 -46.244164 -6.0766187 72.186195
1249500000 -3.8712959 170.87549 -71.768875 136.73862 -91.525322 15.356132 -6.6565542 4.0864763
1259000000 -3.9370596 141.95764 -72.143845 35.397102 -94.852951 121.27188 -7.2871003 -71.777931
1268500000 -3.9996684 112.66917 -72.709343 -70.498642 -88.685295 166.48526 -7.1497483 -146.4005
1278000000 -4.002399 83.235222 -71.674751 -173.26578 -88.649612 122.99737 -6.1103983 145.14882
1287500000 -3.9475601 54.293133 -71.953735 83.563049 -93.408165 -161.96056 -5.1997342 78.890686
1297000000 -3.8862371 25.887447 -72.500679 -22.988462 -94.333519 -160.63135 -5.4533038 12.999094
1306500000 -3.8362854 -2.1769259 -71.974129 -128.01671 -94.475502 145.91774 -6.6391749 -51.461002
1316000000 -3.7698085 -29.738029 -72.379074 141.18959 -95.960686 150.59647 -7.6907964 -119.51017
1325500000 -3.7000065 -56.713985 -72.060875 35.751511 -91.744629 35.463837 -7.7277713 163.60529
1335000000 -3.6806095 -83.445953 -72.17186 -76.2892 -92.447334 -146.2388 -6.9660845 85.021492
1344500000 -3.7122471 -110.31588 -72.675262 -173.99602 -87.384857 154.99191 -6.3001103 15.705448
1354000000 -3.7515345 -137.42293 -71.395981 84.58918 -93.61615 59.292667 -5.7958813 -45.810577
1363500000 -3.7873194 -164.71347 -71.193275 -21.24276 -94.804359 118.15289 -5.5946589 -107.82632
1373000000 -3.8553464 167.63527 -73.300262 -134.90504 -98.54435 -155.60843 -6.2716894 -175.21562
1382500000 -3.9446201 139.45052 -73.959724 137.19496 -92.649254 138.4908 -7.5795355 114.04167
1392000000 -3.9896843 110.90729 -73.325317 44.385979 -94.662384 130.76437 -7.9350262 42.674438
1401500000 -3.9775796 82.387344 -72.104347 -56.646427 -89.332947 -42.896866 -6.7334652 -27.596781
1411000000 -3.9648278 53.975639 -70.825996 -163.41165 -93.062973 -90.970917 -5.4505897 -97.65554
1420500000 -3.9526689 25.678734 -71.03978 86.667206 -88.469246 130.85527 -5.6022744 -164.85594
1430000000 -3.8825791 -2.1968238 -72.278259 -23.931921 -96.499245 -26.722343 -6.6927276 133.39619
1439500000 -3.7994711 -29.3937 -72.007172 -124.151 -104.76667 -59.22839 -7.6834688 69.856461
1449000000 -3.7743258 -56.216705 -71.407982 133.94789 -101.55193 134.79478 -8.0374231 -4.3961091
1458500000 -3.7805126 -83.071373 -74.143089 19.003521 -96.169754 172.53015 -7.6449966 -85.388947
1468000000 -3.7816226 -109.883 -75.21524 -87.775734 -98.80188 -65.43676 -6.9037285 -157.89415
1477500000 -3.8062673 -136.62506 -77.059471 -173.95573 -97.669624 142.12408 -6.0749297 139.65019
1487000000 -3.8920434 -163.90039 -77.284752 77.331932 -89.652977 179.64221 -5.5190058 79.025963
1496500000 -3.9921911 168.23473 -79.068504 -31.389952 -88.255333 -171.0619 -5.9304891 15.346903
1506000000 -4.0553474 140.12621 -77.431557 -106.22051 -94.449135 75.855888 -7.2633224 -50.749523
1515500000 -4.1309934 111.67439 -77.122902 163.56728 -97.573296 70.114983 -8.1947832 -120.68388
1525000000 -4.2154837 82.654869 -77.912201 65.313278 -96.603966 152.92934 -7.6151791 164.79549
1534500000 -4.233089 53.450661 -80.061829 -33.894753 -98.615128 -135.93416 -6.4733543 90.612091
1544000000 -4.2034683 24.595339 -79.863815 -139.37439 -88.976036 70.528976 -6.2251554 22.985907
1553500000 -4.1830235 -3.9395213 -78.126923 134.61998 -102.02753 160.69371 -6.6073794 -37.894623
1563000000 -4.1538653 -32.250832 -78.189606 36.190117 -95.330734 -136.36073 -7.0961709 -100.00722
1572500000 -4.1038923 -60.053429 -76.261116 -73.230888 -102.74382 -157.2729 -7.7464027 -171.49002
1582000000 -4.0889878 -87.404243 -75.436531 -154.39377 -96.461945 -145.86377 -8.3120899 109.86421
1591500000 -4.1305819 -114.85841 -77.097008 96.476067 -91.521027 86.51403 -7.894135 36.514347
1601000000 -4.186986 -142.57945 -76.309578 9.8084545 -91.381485 -126.02914 -6.6747551 -28.317158
1610500000 -4.2394295 -170.43443 -73.883034 -103.14571 -94.08242 142.71246 -5.66751 -91.5494
1620000000 -4.3324599 161.4079 -74.762886 158.59853 -95.320961 -125.02331 -5.9268022 -156.48799
1629500000 -4.4485254 132.63799 -75.419594 57.93919 -97.138672 161.70743 -7.317276 138.51282
1639000000 -4.5249157 103.43677 -74.490372 -43.466045 -97.534775 -60.523518 -8.5131292 69.794052
1648500000 -4.5595484 74.119217 -72.632805 -142.74886 -108.53767 117.23266 -8.3203268 -5.8690739
1658000000 -4.5899239 44.699303 -72.60183 116.7078 -104.25284 -119.87695 -7.2254367 -81.261856
1667500000 -4.593348 15.283055 -73.016899 5.900888 -88.911324 -137.57365 -6.5856838 -148.57845
1677000000 -4.5295243 -13.71361 -72.806435 -98.716484 -98.118431 119.43301 -6.4934573 150.71925
1686500000 -4.4475398 -42.06839 -73.674965 174.4989 -87.914536 92.330849 -6.8520684 88.801315
1696000000 -4.4097462 -69.978043 -73.163742 74.288216 -105.33414 24.565117 -7.9496698 19.068529
1705500000 -4.3840456 -97.63073 -71.77581 -22.57843 -105.8259 48.787479 -9.1643896 -58.166458
1715000000 -4.3532023 -125.0574 -72.356506 -128.9912 -91.132744 161.9243 -8.7754068 -134.33992
1724500000 -4.3662071 -152.34512 -71.825798 137.39667 -89.899353 149.51482 -7.1244173 156.8295
1734000000 -4.4278121 -179.87012 -72.851608 28.024954 -88.95079 19.222961 -5.9014802 91.301956
1743500000 -4.4909363 152.1828 -70.930641 -70.812775 -111.17824 107.87514 -6.1081634 27.753361
1753000000 -4.541429 124.06018 -70.732964 -159.10617 -96.267082 140.2373 -7.280849 -33.712811
1762500000 -4.5997334 95.708244 -71.171806 97.240295 -89.884308 151.2095 -8.4391499 -99.099983
1772000000 -4.6589575 66.888763 -68.987656 -4.916285 -95.180542 -166.18097 -8.7605009 -173.48563
1781500000 -4.672852 37.994926 -68.362785 -108.25771 -101.14063 -29.938745 -8.1239815 110.19827
1791000000 -4.6448007 9.3396654 -67.820961 150.6219 -93.452995 -156.11559 -7.348876 41.814129
1800500000 -4.616775 -19.1098 -67.529831 50.912354 -86.428436 28.136328 -6.880661 -20.561348
1810000000 -4.5676227 -47.205128 -65.686722 -50.047264 -92.022873 40.837326 -7.0444417 -84.438454
1819500000 -4.504457 -74.825211 -64.421562 -158.51532 -102.34741 -104.71964 -8.2037888 -154.11792
1829000000 -4.4791589 -102.08329 -65.269112 97.166435 -97.652496 -141.52701 -9.4445333 131.29059
1838500000 -4.4790106 -129.16441 -65.652649 -2.515686 -91.882362 168.10335 -9.001565 57.288406
1848000000 -4.4885726 -156.20815 -64.393829 -100.83958 -89.036026 67.767799 -7.2782435 -10.987301
1857500000 -4.5455389 176.75075 -63.085106 158.31776 -88.618187 -56.783592 -6.0462914 -75.918411
1867000000 -4.6385307 149.50388 -62.039616 51.724514 -85.489723 -158.69434 -6.2121024 -137.76494
1876500000 -4.7424893 121.82993 -61.485287 -58.070049 -87.053909 97.378304 -7.3169842 162.62877
1886000000 -4.8527598 93.917969 -60.018726 -159.75218 -87.380089 3.2131834 -8.6636648 98.213913
1895500000 -4.9571323 65.754158 -58.83292 83.279106 -85.439545 -146.08191 -9.517952 22.194832
1905000000 -5.0345078 37.263672 -59.398613 -36.504402 -84.517982 144.93507 -9.0471382 -57.850185
1914500000 -5.0618296 8.8073311 -60.308315 -144.21857 -89.159782 63.081635 -7.862689 -128.45728
1924000000 -5.0419936 -19.455303 -61.053276 106.85995 -107.27017 -2.4633393 -6.9075785 168.31541
1933500000 -4.9873495 -47.617432 -62.802002 -6.935945 -95.290474 8.4283905 -6.782917 105.24143
1943000000 -4.9130044 -75.51696 -64.957909 -105.82444 -90.988846 85.738564 -7.7962265 39.463612
1952500000 -4.8373537 -103.11849 -65.519226 158.69266 -94.36454 -13.608872 -9.1422329 -29.700569
1962000000 -4.7954216 -130.61067 -66.196632 56.21714 -97.180222 -54.443611 -9.2787085 -102.32617
1971500000 -4.7688503 -158.0249 -66.259705 -40.078873 -87.957413 173.84804 -8.0519333 -173.7135
1981000000 -4.7677765 174.59328 -67.060699 -140.62427 -97.840118 96.697762 -7.0026941 119.01333
1990500000 -4.8214068 147.02083 -66.837502 123.8645 -94.151169 22.408789 -6.9889297 56.164024
2000000000 -4.9044199 119.07504 -66.778496 26.40251 -91.26297 -51.626328 -7.7559218 -5.4559064
