!Keysight Technologies,N5242B,MY48420967,A.15.65.19
!Date: Saturday, February 04, 2023 06:24:08
!Correction: S11(C  1-Port  ) 
!S21(Off) 
!S12(Off) 
!S22(Off) 
!S2P File: Measurements: S11, S21, S12, S22:
# Hz S  dB   R 50
100000000 -1.3742343 40.286217 -83.097565 144.67809 -96.574371 75.855583 -2.1852944 73.102867
109500000 -1.3015403 10.961084 -90.08802 61.97118 -94.395432 -145.38164 -2.1412902 6.4282975
119000000 -1.2286471 -17.9135 -80.711594 -87.714622 -87.649597 113.00394 -2.2081151 -69.170235
128500000 -1.1389593 -46.276684 -82.734993 -152.61649 -91.892242 -54.260811 -2.905395 -143.79802
138000000 -1.1196865 -74.670219 -84.881004 82.809113 -93.980354 -141.55672 -2.9958682 151.07901
147500000 -1.1872684 -103.57543 -81.635994 -6.0460901 -86.691093 -164.9489 -1.9238324 89.427185
157000000 -1.250782 -132.83437 -81.26519 -104.54191 -93.387543 56.16732 -0.69666821 20.417271
166500000 -1.3215209 -162.32349 -80.652092 157.99326 -89.27417 112.68024 -1.4792491 -54.45116
176000000 -1.4473486 167.7419 -87.408844 88.166458 -108.96843 124.82522 -3.3611209 -122.3141
185500000 -1.5516745 137.45543 -86.823624 -65.550934 -90.332344 148.32579 -4.0450025 172.54848
195000000 -1.5743686 107.46603 -80.541649 -146.29805 -95.995941 -106.88711 -3.105485 102.90446
204500000 -1.580802 77.898438 -82.207237 105.27155 -99.725052 -77.84713 -2.060873 28.286604
214000000 -1.5935884 48.446835 -83.184723 12.502557 -93.839867 155.87976 -2.1687372 -41.524303
223500000 -1.5524772 19.326094 -87.267586 -78.361671 -89.497536 -76.246445 -2.4258091 -103.91396
233000000 -1.4871954 -9.3172598 -81.856827 -178.42151 -96.727219 173.47739 -2.2708721 -168.18074
242500000 -1.4817462 -37.916241 -80.665985 66.598007 -95.469017 4.4613471 -2.439158 119.34432
252000000 -1.5023761 -66.775314 -95.315804 -73.148926 -98.997475 161.33778 -3.2874258 45.780754
261500000 -1.5160536 -95.807228 -81.454033 -140.43642 -87.592545 -104.50352 -3.4594665 -21.702705
271000000 -1.5764815 -125.04314 -86.245125 140.93625 -91.881088 -117.0043 -2.4015181 -87.014626
280500000 -1.6869863 -154.78952 -89.415276 15.902369 -93.288094 -108.63854 -1.2835462 -157.56827
290000000 -1.772516 175.08807 -76.6092 -78.957855 -85.949158 166.71448 -1.7902378 130.11963
299500000 -1.8285456 144.99741 -76.528656 -175.94025 -84.132278 129.13748 -3.0080645 64.245201
309000000 -1.8912748 114.95155 -78.931328 91.285965 -88.962158 139.61237 -3.3545306 -0.80227512
318500000 -1.9278167 85.063095 -80.176575 -22.485783 -87.910492 105.84174 -2.7647696 -72.429153
328000000 -1.8986429 55.603313 -80.068893 -110.63622 -90.679619 137.30157 -2.5165746 -147.87335
337500000 -1.8687229 26.475183 -79.404755 170.09094 -99.901421 -65.270294 -2.7821212 143.52374
347000000 -1.8738194 -2.497035 -79.675385 57.897137 -84.165886 -154.43567 -2.5404344 80.161865
356500000 -1.8577741 -31.375652 -76.900917 -66.647522 -89.842102 38.166534 -1.8954237 12.157508
366000000 -1.8389968 -60.342804 -75.774895 -169.73582 -84.568245 56.467789 -2.2017472 -62.850979
375500000 -1.887277 -89.673447 -79.583809 98.478706 -88.110474 -152.50571 -3.3257442 -133.54443
385000000 -1.9666348 -119.47509 -81.476219 -19.143581 -96.872047 -3.2265687 -3.5056784 162.11862
394500000 -2.0241258 -149.5002 -78.276016 -123.98621 -93.054466 -170.7827 -2.3974826 96.481445
404000000 -2.0754476 -179.6208 -79.835777 168.81511 -88.046448 -74.27198 -1.5030613 22.674906
413500000 -2.1501448 150.07764 -81.047997 41.826256 -88.486931 150.36913 -2.3926554 -50.98164
423000000 -2.2001231 119.87768 -76.056244 -72.26152 -90.508629 153.46185 -3.4852929 -117.1399
432500000 -2.1803992 90.226646 -78.59417 -153.2365 -98.514153 143.25169 -3.4004552 176.41478
442000000 -2.146764 61.019222 -76.443611 115.21944 -88.506447 117.31943 -2.6147041 103.00018
451500000 -2.1442957 32.078419 -75.899055 -5.3988791 -94.450584 105.756 -2.6339269 28.250843
461000000 -2.1201074 3.4865534 -76.481125 -115.76414 -86.081551 166.29665 -3.0768449 -38.195629
470500000 -2.0737176 -24.80835 -77.256157 160.65454 -99.806046 80.96756 -2.878031 -101.31309
480000000 -2.0660985 -53.131214 -77.967773 84.672569 -92.42411 78.623062 -2.3439231 -171.08444
489500000 -2.1066527 -81.789543 -75.572388 -44.061642 -93.19146 43.500278 -2.7721407 112.65139
499000000 -2.1467049 -110.72977 -75.943176 -152.46103 -92.613869 -164.35687 -3.6465664 41.466225
508500000 -2.1725445 -139.78821 -75.513824 125.92796 -96.517601 -114.6625 -3.4560809 -24.033667
518000000 -2.2187543 -169.0851 -74.012184 6.610352 -97.897369 12.200623 -2.4185541 -91.197594
527500000 -2.2753375 161.41689 -76.982094 -104.10181 -89.925171 165.06197 -2.1454592 -163.35945
537000000 -2.2938135 132.08432 -76.801483 158.50748 -97.755264 87.780319 -3.1376538 127.37644
546500000 -2.2798755 103.1474 -77.47094 45.528374 -99.038986 1.4770294 -3.8353968 61.575619
556000000 -2.2632685 74.618332 -77.180138 -44.567883 -118.57204 68.227608 -3.4548841 -8.8151217
565500000 -2.2375102 46.46109 -75.63884 -153.59146 -90.385399 -159.07614 -2.931617 -85.985413
575000000 -2.1973898 18.672014 -75.768127 103.86903 -91.317352 113.79332 -3.2853127 -158.28316
584500000 -2.1658275 -8.897253 -78.53315 14.792889 -91.054886 105.92024 -3.5247099 139.63651
594000000 -2.1547303 -36.457489 -77.264923 -87.470329 -85.977264 123.76479 -2.9844928 78.809151
603500000 -2.1614733 -64.180611 -75.717857 179.8838 -91.286514 -175.13809 -2.4801524 9.0340233
613000000 -2.191642 -92.240211 -74.637024 77.349289 -97.895561 140.21632 -3.2660253 -66.360153
622500000 -2.241019 -120.77122 -78.153191 -32.533527 -106.54385 -72.337486 -4.1630373 -136.23624
632000000 -2.3021235 -149.6967 -77.214371 -119.80302 -92.260849 116.05865 -3.7842081 158.02794
641500000 -2.344079 -178.73232 -77.27906 147.15593 -96.389908 74.703682 -2.7154741 90.339081
651000000 -2.3843427 152.05159 -78.527115 26.351315 -87.543381 -176.09413 -2.5772731 20.083586
660500000 -2.4195232 122.77419 -76.313385 -62.376534 -100.13084 -50.337734 -3.4469006 -46.471161
670000000 -2.4110465 93.771004 -75.957039 -165.02966 -94.232605 -166.33231 -3.9960151 -112.23571
679500000 -2.3779373 65.245567 -76.16571 92.432594 -92.990295 62.324131 -3.8281362 174.87622
689000000 -2.353832 37.03326 -78.358299 -10.229246 -92.639908 35.336987 -3.7613308 97.144485
698500000 -2.3391018 8.9291897 -77.640266 -125.55082 -92.752754 72.996674 -3.9640777 27.401344
708000000 -2.3170283 -18.905205 -78.771507 166.42252 -91.982384 -127.34795 -3.651324 -33.562901
717500000 -2.303731 -46.595448 -77.279778 55.522659 -99.459984 -153.89981 -2.8250179 -95.426872
727000000 -2.3386593 -74.733604 -77.259674 -49.609722 -90.986984 176.3517 -2.6550915 -165.89044
736500000 -2.4079952 -103.44733 -75.168175 -149.52704 -102.00147 124.51694 -3.938659 120.88264
746000000 -2.4606462 -132.45212 -77.153023 113.70233 -102.35704 -160.7099 -4.900157 51.05093
755500000 -2.5133903 -161.77165 -75.425301 8.3966112 -95.628159 -174.29858 -4.2768264 -18.216642
765000000 -2.5925262 168.47743 -74.85331 -94.460983 -92.41526 151.55479 -3.1022511 -89.922394
774500000 -2.6451254 138.55005 -74.984795 166.02444 -97.170883 -5.085597 -3.1272533 -159.81252
784000000 -2.6433959 108.89703 -77.377197 58.926701 -92.940872 -1.0360779 -3.8952162 137.51364
793500000 -2.6281855 79.62619 -74.061768 -41.784702 -96.028992 86.473839 -4.2656965 75.005188
803000000 -2.610112 50.67894 -75.641876 -145.87628 -92.603363 74.542503 -4.2149663 2.3806849
812500000 -2.5729856 22.163399 -74.14164 111.08807 -97.526169 56.642925 -4.5758986 -78.074097
822000000 -2.5306582 -5.8425169 -75.809708 12.46702 -89.229385 137.31435 -4.9181032 -150.44629
831500000 -2.5138118 -33.628605 -76.283005 -95.893982 -96.595955 -1.6007563 -4.3686004 146.95947
841000000 -2.5226393 -61.494522 -74.965477 -179.27422 -95.581482 123.90089 -3.2836881 84.302742
850500000 -2.5461214 -89.518089 -75.690056 72.842819 -100.03904 -97.356422 -3.056673 14.428974
860000000 -2.5889053 -117.82298 -75.588699 -33.274349 -105.74848 -177.48859 -4.388649 -57.1675
869500000 -2.6495421 -146.55141 -75.471611 -130.58601 -87.967628 96.699173 -5.5309296 -127.31326
879000000 -2.7036936 -175.5974 -75.359604 139.08864 -97.959412 59.414818 -5.1626625 160.39677
888500000 -2.7381315 155.25867 -75.170876 30.870113 -88.723457 170.3791 -4.133606 86.64505
898000000 -2.7604594 126.16438 -75.058823 -81.548317 -86.599419 175.04892 -3.9135342 17.510605
907500000 -2.7543194 97.224602 -76.463089 -167.26114 -90.610977 133.56778 -4.206584 -44.740208
917000000 -2.7147002 68.66272 -76.20282 97.271652 -96.124817 92.652672 -4.3984337 -107.65205
926500000 -2.6630569 40.643917 -75.702003 -14.960826 -90.988274 -137.32791 -4.7637038 -179.57605
936000000 -2.6181576 13.106872 -74.317612 -116.80753 -88.463211 123.83871 -5.5526876 102.09377
945500000 -2.5757513 -14.098648 -74.146011 136.73561 -87.054306 73.88961 -5.7093062 28.608465
955000000 -2.5377975 -41.065903 -75.310219 33.013378 -89.856987 153.57716 -4.8188725 -37.605919
964500000 -2.5287924 -67.895638 -73.817741 -63.755413 -100.65081 -73.887115 -3.7783794 -102.63574
974000000 -2.5507073 -94.901817 -74.320518 -160.14955 -88.682655 91.889351 -3.7807171 -169.4888
983500000 -2.5958285 -122.41466 -75.651375 96.443253 -91.335388 -62.293827 -4.8119912 124.20126
993000000 -2.6456556 -150.30875 -76.547424 -2.916708 -94.163246 67.323364 -5.6944871 55.550514
1002500000 -2.6860168 -178.45709 -74.712952 -113.55446 -87.707443 -79.555954 -5.6887488 -19.61282
1012000000 -2.7356935 153.03928 -74.501404 149.86848 -89.444565 117.7776 -5.2645192 -95.286377
1021500000 -2.7714458 124.30285 -75.671562 53.837265 -93.344917 103.90398 -4.9548597 -162.08032
1031000000 -2.7644658 95.634056 -75.433701 -47.313583 -104.66127 -14.787629 -4.4918785 137.9077
1040500000 -2.7305067 67.298676 -74.872391 -148.31964 -91.161316 132.41911 -3.9808781 75.21759
1050000000 -2.7013702 39.273914 -74.840714 108.04403 -84.68055 104.55439 -4.4709158 3.9600585
1059500000 -2.6686196 11.509628 -76.015434 1.0443163 -86.757454 21.97246 -6.078002 -69.786392
1069000000 -2.6230567 -15.836275 -74.482307 -98.759476 -86.497345 141.54384 -6.7444482 -140.88361
1078500000 -2.5906367 -42.817684 -73.589828 173.9285 -100.94123 163.04808 -5.6175447 150.31763
1088000000 -2.5946672 -69.827904 -73.03212 74.453499 -90.300125 167.35263 -4.1031218 80.455811
1097500000 -2.6397398 -97.190559 -73.569778 -44.921101 -99.900703 -25.536652 -4.0075159 11.30156
1107000000 -2.6872478 -124.87236 -74.715248 -142.42361 -97.105354 -148.9057 -4.9456053 -52.069466
1116500000 -2.7388463 -152.97708 -73.76944 122.44699 -87.851875 160.12987 -5.6924481 -115.52641
1126000000 -2.8216531 178.32149 -73.044868 19.790291 -89.117645 -176.92543 -5.9242926 172.88106
1135500000 -2.8981512 149.13217 -72.735939 -84.98513 -104.87092 176.42639 -5.9372883 96.257751
1145000000 -2.9274769 119.72756 -72.725807 171.98206 -92.665672 -168.92955 -5.7018652 26.49115
1154500000 -2.9394033 90.377052 -73.241196 72.219162 -87.941933 157.52017 -4.9651613 -35.675591
1164000000 -2.9438879 61.10939 -73.396942 -27.025831 -97.263077 -178.89951 -4.1587319 -98.833115
1173500000 -2.9160404 32.068836 -72.080833 -130.37308 -99.630333 69.508278 -4.5124779 -167.80646
1183000000 -2.868561 3.6308587 -72.370789 130.15175 -90.46701 -130.05356 -6.1765227 122.34728
1192500000 -2.834456 -24.32856 -72.89991 30.560566 -93.873489 124.95258 -7.2809272 51.984028
1202000000 -2.8282213 -52.148941 -72.390755 -73.491264 -93.640221 -129.97729 -6.5317926 -21.3974
1211500000 -2.8291161 -79.809708 -71.965385 -172.35449 -91.651199 162.52063 -5.0503125 -96.022057
1221000000 -2.8461869 -107.41705 -71.857445 82.128212 -88.684074 114.03862 -4.7008061 -165.99052
1230500000 -2.9103262 -135.4081 -72.069427 -24.238569 -99.689529 -101.55247 -5.1717358 132.03078
1240000000 -2.9848125 -163.9565 -71.090164 -120.47373 -100.88649 62.829205 -5.6602073 71.023193
1249500000 -3.0341482 167.18546 -71.581039 141.82655 -83.063774 -12.259543 -6.1781321 2.6400416
1259000000 -3.0872002 138.13626 -71.065315 42.272926 -95.38324 -131.28918 -6.7638588 -73.248016
1268500000 -3.1364579 108.76667 -70.523079 -69.773613 -88.00634 -153.12233 -6.6412644 -147.52412
1278000000 -3.1364529 79.330864 -70.311768 -168.64568 -89.73497 146.76141 -5.6370111 144.13264
1287500000 -3.0882726 50.418037 -69.750191 82.627419 -97.132866 -80.905403 -4.7576694 77.511047
1297000000 -3.0381715 22.031832 -69.979698 -25.674854 -88.494781 -110.28414 -5.053781 11.105955
1306500000 -3.0006778 -6.0066423 -70.494789 -127.91315 -90.117744 -142.59779 -6.2426953 -53.710468
1316000000 -2.9468563 -33.530518 -70.344948 131.97797 -93.600685 -114.37409 -7.2116418 -122.00094
1325500000 -2.8866074 -60.490849 -69.238914 33.524429 -99.659103 -17.919594 -7.1474528 161.14659
1335000000 -2.8725686 -87.26976 -69.938034 -79.799774 -95.49395 140.32294 -6.4112358 82.78614
1344500000 -2.9013035 -114.18954 -69.505081 -174.50766 -88.930618 -174.80556 -5.836153 13.658159
1354000000 -2.9306526 -141.33057 -69.242439 82.452309 -100.30075 106.34962 -5.3820753 -47.923759
1363500000 -2.9537976 -168.65045 -69.21582 -27.194809 -104.01063 -1.9991163 -5.1923532 -110.40053
1373000000 -3.0055676 163.66171 -68.859413 -134.02408 -87.791985 -134.09033 -5.87815 -178.41672
1382500000 -3.0781798 135.48389 -70.211273 118.65506 -93.247803 84.641785 -7.1521668 110.66631
1392000000 -3.1074727 107.02752 -74.615425 13.072199 -93.630447 2.6143768 -7.4253058 39.704655
1401500000 -3.0872838 78.615845 -72.586945 -76.902832 -90.641838 100.61925 -6.1829257 -30.243176
1411000000 -3.0745728 50.321518 -70.801346 178.5831 -98.204559 163.52408 -4.9514866 -100.58539
1420500000 -3.0659735 22.162783 -72.301399 70.842285 -86.163437 143.55342 -5.208313 -168.05516
1430000000 -3.0041285 -5.5568609 -74.114639 -33.211319 -92.006462 50.787731 -6.3298793 130.08101
1439500000 -2.9323883 -32.653698 -73.207977 -118.62733 -87.163376 -81.760231 -7.2383351 66.201019
1449000000 -2.9142864 -59.423943 -73.156754 142.18484 -98.055473 -147.67783 -7.4427514 -8.3414783
1458500000 -2.9209487 -86.255981 -73.11644 34.012699 -94.935486 6.9044995 -7.0183496 -88.875389
1468000000 -2.917865 -113.05997 -72.429848 -69.387474 -92.359741 24.236803 -6.3724442 -160.63849
1477500000 -2.9301209 -139.83128 -72.460449 -165.49675 -92.487358 -157.13829 -5.6186099 137.2178
1487000000 -2.9979105 -167.16512 -74.024376 73.596413 -94.010323 148.2997 -5.1023884 76.376724
1496500000 -3.0772374 164.92058 -73.545647 -24.617662 -91.968552 83.521477 -5.5478492 12.22876
1506000000 -3.1192074 136.77773 -75.578972 -134.85455 -96.161766 101.20161 -6.862812 -54.152637
1515500000 -3.1719191 108.27869 -77.259712 135.30081 -94.7575 -165.94597 -7.6821737 -123.97101
1525000000 -3.2381835 79.240425 -77.418358 48.90234 -95.775658 -167.09293 -7.0123396 161.95549
1534500000 -3.2478864 50.063671 -77.663902 -58.652802 -94.094994 102.45496 -5.9145608 87.96302
1544000000 -3.2190664 21.215441 -77.211296 -157.34291 -96.574753 79.077011 -5.7705531 20.435846
1553500000 -3.203325 -7.3345895 -79.134407 98.109261 -96.176437 -5.6148572 -6.1935039 -40.413746
1563000000 -3.1817601 -35.67524 -79.839737 23.838484 -94.126999 99.205482 -6.6444769 -102.80327
1572500000 -3.1431847 -63.542816 -77.911636 -87.064812 -93.247505 -171.68013 -7.2175813 -174.67961
1582000000 -3.1319666 -91.032219 -77.317116 -178.05103 -92.209175 112.1311 -7.7410097 106.97904
1591500000 -3.1684568 -118.67241 -77.48468 89.23391 -106.42654 -119.1997 -7.3605123 34.443516
1601000000 -3.2146308 -146.57993 -79.683792 -9.2023211 -101.87843 -142.50609 -6.1930194 -30.051689
1610500000 -3.2543769 -174.64439 -77.283798 -111.01446 -97.532707 130.48529 -5.227479 -93.569138
1620000000 -3.3289504 156.94577 -76.990204 167.43042 -99.039146 128.56053 -5.5410933 -159.00453
1629500000 -3.4218056 127.96081 -77.035347 80.966904 -102.21663 159.82439 -6.9427757 135.69525
1639000000 -3.4762702 98.608017 -76.203537 -34.151066 -91.242973 -100.57828 -8.0556612 66.89402
1648500000 -3.4964688 69.170189 -74.950043 -127.7438 -100.67758 161.56631 -7.7734203 -8.5180178
1658000000 -3.5199187 39.655083 -72.928261 127.20408 -100.3832 -0.29118052 -6.7123818 -83.688393
1667500000 -3.5219421 10.227304 -73.028923 18.978895 -98.333176 -59.124073 -6.1657891 -150.96893
1677000000 -3.4670398 -18.742418 -73.757408 -90.470726 -98.807877 -148.10466 -6.1250076 148.13045
1686500000 -3.400681 -47.100964 -73.537941 170.59425 -94.665482 92.677994 -6.4889197 85.598572
1696000000 -3.3770213 -75.038582 -72.302673 81.546951 -97.377884 37.170902 -7.5601196 15.03751
1705500000 -3.3598542 -102.7214 -72.415428 -20.609764 -94.517761 171.70685 -8.685998 -62.349457
1715000000 -3.3328178 -130.1947 -71.493538 -124.9354 -92.472992 -163.09756 -8.2372427 -137.74551
1724500000 -3.3459256 -157.5627 -70.491547 141.45567 -85.628479 171.53889 -6.6231065 153.78842
1734000000 -3.396239 174.81497 -70.881546 33.431072 -103.45455 52.201427 -5.4947734 87.9431
1743500000 -3.4437356 146.8062 -71.623787 -73.094009 -91.878136 30.78545 -5.8116479 24.016504
1753000000 -3.4774671 118.66902 -70.380348 -162.60605 -94.865189 166.83583 -7.0207419 -37.852077
1762500000 -3.516644 90.309586 -69.582909 105.51131 -91.226433 160.77258 -8.1031485 -103.91476
1772000000 -3.558136 61.549465 -68.841377 2.4051726 -95.287361 149.41689 -8.2803421 -178.71394
1781500000 -3.5623975 32.794575 -66.958199 -96.116081 -98.148796 -104.32672 -7.6056499 105.32902
1791000000 -3.5341372 4.2926359 -66.205544 154.72287 -92.326424 147.00259 -6.8913612 37.342449
1800500000 -3.5114043 -23.993511 -65.697662 52.605583 -98.311531 147.07483 -6.4792547 -25.180519
1810000000 -3.4697897 -51.903694 -64.876244 -54.854111 -91.877609 13.084509 -6.6901841 -89.797554
1819500000 -3.4184983 -79.392288 -64.467468 -162.58807 -95.406639 -30.857586 -7.8580694 -160.26752
1829000000 -3.4023666 -106.56532 -64.648773 97.872421 -93.143997 170.22191 -8.9708443 125.19614
1838500000 -3.3990982 -133.58287 -64.720207 -10.803957 -83.281792 77.337776 -8.4026785 52.290852
1848000000 -3.4009485 -160.61125 -64.479904 -114.26987 -89.38311 -19.653975 -6.7086792 -15.319278
1857500000 -3.4433618 172.3035 -64.420189 149.3942 -95.672981 -110.09465 -5.6025095 -80.340622
1867000000 -3.5125124 144.96178 -63.596794 48.779755 -95.492432 -133.87299 -5.901545 -142.36697
1876500000 -3.586818 117.178 -62.082588 -56.617989 -90.506927 96.294952 -7.0496783 157.64101
1886000000 -3.6666059 89.130753 -61.151707 -158.24474 -92.173637 62.750568 -8.3119297 92.34227
1895500000 -3.7425635 60.789772 -59.599018 90.40406 -85.575974 -54.898556 -8.9587383 15.81522
1905000000 -3.8042824 32.107559 -59.144722 -25.843536 -87.776489 109.90144 -8.3869696 -63.209816
1914500000 -3.8391757 3.4922097 -59.614079 -142.65466 -86.309212 35.141506 -7.2770929 -132.78235
1924000000 -3.8472896 -24.921064 -61.168591 111.86426 -86.985329 -74.546936 -6.4158878 164.19887
1933500000 -3.834697 -53.157829 -62.344433 3.4547477 -91.461281 163.03532 -6.3735971 100.75916
1943000000 -3.8080904 -81.039917 -63.688583 -98.198227 -87.167519 165.92885 -7.4319201 34.571991
1952500000 -3.776206 -108.61027 -64.058601 162.09914 -86.811264 39.759598 -8.7038164 -34.666035
1962000000 -3.7626233 -136.09274 -64.322395 57.322342 -96.651604 -59.413967 -8.7127371 -106.71722
1971500000 -3.7523394 -163.50871 -65.121628 -45.459351 -88.43425 -159.83086 -7.4764428 -177.49611
1981000000 -3.757004 169.03644 -65.865059 -150.99513 -88.478302 77.690331 -6.5222683 115.32401
1990500000 -3.8029952 141.31128 -67.447701 116.03714 -99.705009 106.54534 -6.6048241 52.352085
2000000000 -3.866308 113.18213 -67.870956 21.59355 -101.02079 -17.292942 -7.4054027 -9.6786613
