!Keysight Technologies,N5242B,MY48420967,A.15.65.19
!Date: Saturday, February 04, 2023 02:27:18
!Correction: S11(C  1-Port  ) 
!S21(Off) 
!S12(Off) 
!S22(Off) 
!S2P File: Measurements: S11, S21, S12, S22:
# Hz S  dB   R 50
100000000 -1.3057997 40.343803 -84.458885 155.40936 -91.58416 177.82054 -2.1734817 73.134422
109500000 -1.2351363 11.034252 -85.746933 58.01511 -95.97126 -118.19873 -2.12713 6.4758258
119000000 -1.1629939 -17.842632 -81.574631 -94.49865 -98.136131 -65.251465 -2.1905026 -69.111504
128500000 -1.0744661 -46.219475 -82.643669 -173.36327 -92.770554 170.33086 -2.888448 -143.72603
138000000 -1.0568022 -74.636002 -84.474823 101.94473 -95.636261 160.94653 -2.9808939 151.1701
147500000 -1.125228 -103.57702 -81.459923 -29.543211 -92.033318 44.904835 -1.9084872 89.531151
157000000 -1.1905962 -132.87073 -80.860931 -110.79826 -97.681168 -86.516487 -0.6777007 20.526556
166500000 -1.2647934 -162.39331 -79.188469 166.31163 -89.970863 153.1467 -1.4559786 -54.363342
176000000 -1.3916101 167.62926 -86.428497 33.964256 -98.03968 142.50189 -3.3380706 -122.22872
185500000 -1.4990704 137.31721 -82.742554 -61.054913 -108.75897 12.115273 -4.0228977 172.66634
195000000 -1.5244378 107.31193 -79.790749 -144.27753 -94.784058 -157.08258 -3.0845859 103.05894
204500000 -1.5326186 77.731697 -82.096031 113.39758 -99.385353 -142.4989 -2.0395641 28.445787
214000000 -1.5476195 48.277943 -79.132172 -12.98937 -94.807663 178.0752 -2.1486459 -41.393478
223500000 -1.5080185 19.177414 -79.328537 -90.092842 -88.200737 -100.06049 -2.4071243 -103.7859
233000000 -1.4436092 -9.4542551 -80.419792 -172.25044 -88.25985 99.534737 -2.2511864 -168.04263
242500000 -1.4382808 -38.033371 -83.334145 90.923843 -94.38443 44.423691 -2.4166584 119.48445
252000000 -1.4591397 -66.869011 -83.88903 -64.74617 -89.663681 137.52299 -3.2664847 45.921928
261500000 -1.4716563 -95.881653 -79.984436 -144.98222 -84.93959 -91.713524 -3.4430478 -21.556601
271000000 -1.5305266 -125.10061 -82.921806 177.47183 -90.499481 78.525009 -2.3861663 -86.855515
280500000 -1.6398923 -154.82539 -83.302353 32.937256 -89.259033 65.302124 -1.2664359 -157.41037
290000000 -1.7237734 175.05737 -80.902962 -59.402477 -92.216331 106.62329 -1.7714094 130.25308
299500000 -1.7782859 144.96754 -79.948837 -166.67165 -97.674011 -74.610626 -2.9919648 64.366928
309000000 -1.8391374 114.93594 -78.181938 118.35886 -92.824783 168.84628 -3.3401155 -0.66624159
318500000 -1.8757243 85.045853 -77.612373 -32.692951 -92.338127 99.860512 -2.7501545 -72.275116
328000000 -1.8468227 55.573326 -79.295349 -111.37691 -88.797615 117.4445 -2.5024993 -147.7218
337500000 -1.8159696 26.438612 -82.555595 150.14339 -93.096634 -24.907434 -2.7703474 143.66577
347000000 -1.8195437 -2.5360718 -79.428841 34.637405 -85.655609 135.6581 -2.529741 80.302452
356500000 -1.8025736 -31.425917 -76.894997 -67.814941 -92.731995 66.615356 -1.8832146 12.305375
366000000 -1.7820733 -60.402328 -76.915901 -170.1844 -99.226707 -149.13664 -2.1869547 -62.700043
375500000 -1.8284155 -89.74472 -78.525131 84.51313 -90.183578 -118.81104 -3.3133891 -133.40669
385000000 -1.9063804 -119.54798 -78.532684 -12.389927 -95.465279 151.71123 -3.496258 162.26697
394500000 -1.9619561 -149.578 -76.804588 -89.8125 -93.62989 35.969208 -2.3890278 96.649895
404000000 -2.0124743 -179.70319 -76.803207 148.18591 -90.73391 35.12735 -1.4904346 22.86162
413500000 -2.0863087 149.98415 -79.482361 51.704784 -88.706421 -146.03755 -2.3777242 -50.813267
423000000 -2.1363087 119.78585 -79.254807 -69.28392 -101.00629 75.143456 -3.472084 -116.96944
432500000 -2.1163857 90.140381 -74.868217 -153.53976 -93.825905 90.691048 -3.3890994 176.60999
442000000 -2.0832143 60.922489 -78.479164 105.7696 -89.083519 -135.19667 -2.6038799 103.21832
451500000 -2.0816672 31.966187 -79.203987 1.2056938 -94.926201 -148.2626 -2.6226845 28.454653
461000000 -2.0563643 3.3666639 -77.92646 -103.10452 -88.485298 118.20657 -3.0667026 -38.004223
470500000 -2.0092299 -24.938257 -78.479797 172.81459 -92.042389 -88.751106 -2.8688443 -101.11172
480000000 -2.0027857 -53.275883 -76.760429 70.434059 -92.178955 120.40501 -2.3326046 -170.85347
489500000 -2.0424972 -81.958939 -75.940628 -31.137436 -91.804214 111.97554 -2.7573617 112.88892
499000000 -2.0799799 -110.91528 -76.541199 -138.00702 -97.309418 -69.941505 -3.6355226 41.683899
508500000 -2.1055253 -139.98442 -75.522308 127.80901 -91.567459 129.78725 -3.4493065 -23.815735
518000000 -2.151644 -169.28616 -73.870392 16.983658 -91.36425 175.88918 -2.4124594 -90.975037
527500000 -2.2068892 161.21295 -73.377243 -104.2002 -94.268738 -84.736282 -2.1345339 -163.1348
537000000 -2.2246678 131.87956 -75.083321 157.41591 -93.366486 -117.62927 -3.1253088 127.59221
546500000 -2.2096925 102.94267 -77.416985 68.41568 -94.159592 -55.339367 -3.8253655 61.801842
556000000 -2.1929145 74.417519 -78.772415 -41.631996 -92.772499 178.12849 -3.4481075 -8.5639639
565500000 -2.1675861 46.263466 -76.329147 -150.2744 -91.265335 111.57285 -2.9249852 -85.730461
575000000 -2.1270425 18.473267 -81.296211 125.89085 -89.865204 -163.72835 -3.2796657 -158.06306
584500000 -2.0943224 -9.0933876 -77.352997 15.923058 -88.063774 -118.70391 -3.5213764 139.82893
594000000 -2.0820317 -36.649818 -75.246033 -91.953903 -90.549858 53.660881 -2.983016 79.015533
603500000 -2.0872631 -64.377617 -76.882393 170.48193 -96.252907 91.579964 -2.4762259 9.2669144
613000000 -2.1156254 -92.447678 -77.598595 76.958092 -91.5355 -157.06096 -3.2598331 -66.125381
622500000 -2.1632354 -120.98649 -78.099014 -19.5285 -90.295609 -155.82797 -4.1605535 -136.01794
632000000 -2.2227485 -149.91739 -76.766647 -124.76839 -90.739738 32.813637 -3.7859819 158.24287
641500000 -2.2631454 -178.9572 -75.559952 142.44711 -113.99907 -116.6931 -2.7178998 90.56501
651000000 -2.3022523 151.81856 -78.655396 40.44445 -93.966011 -163.1893 -2.5758722 20.310402
660500000 -2.3376327 122.53867 -76.455276 -71.040146 -95.990166 105.01025 -3.4448819 -46.255184
670000000 -2.3285027 93.531883 -79.273514 -164.1597 -95.069443 -77.29657 -3.9961011 -111.9986
679500000 -2.2952664 65.006538 -75.898102 111.65092 -92.936195 116.50833 -3.8315918 175.14406
689000000 -2.2722824 36.788525 -76.280785 -1.170979 -99.107498 95.288536 -3.7655602 97.409294
698500000 -2.257992 8.6694794 -75.248596 -109.8959 -91.184593 33.311871 -3.968926 27.628336
708000000 -2.2345707 -19.170216 -76.59449 169.37585 -90.894386 129.6368 -3.658427 -33.350948
717500000 -2.2202678 -46.860687 -75.770454 63.404625 -88.175255 172.67162 -2.8321681 -95.192528
727000000 -2.2549925 -75.019104 -76.145805 -54.117813 -96.472992 122.02465 -2.6587002 -165.60837
736500000 -2.3221467 -103.7536 -74.351181 -151.4014 -87.821121 -116.6143 -3.9398308 121.17224
746000000 -2.372128 -132.76262 -76.263695 99.005516 -98.531387 -98.811127 -4.9068003 51.341175
755500000 -2.4231694 -162.08313 -75.481239 8.1069756 -103.89043 157.68295 -4.2908244 -17.929878
765000000 -2.5018384 168.15494 -76.434784 -96.544289 -96.322159 -125.0386 -3.1156228 -89.627289
774500000 -2.5525408 138.23003 -75.421822 160.95572 -100.64188 -23.722256 -3.1358421 -159.52135
784000000 -2.5511065 108.57687 -76.449242 57.446781 -93.715149 130.81017 -3.9021504 137.7955
793500000 -2.5359747 79.303795 -76.552116 -33.490589 -97.347946 67.221001 -4.2758956 75.319244
803000000 -2.5184159 50.355057 -74.705467 -135.56631 -89.974693 65.034767 -4.2293329 2.7608111
812500000 -2.4819751 21.839842 -75.002464 121.10217 -102.1804 60.616016 -4.5914555 -77.681419
822000000 -2.4405999 -6.1748199 -77.284813 14.282179 -99.387863 -108.79006 -4.9356103 -150.11794
831500000 -2.4229045 -33.970425 -77.23584 -106.60728 -95.824509 47.79842 -4.3889718 147.25504
841000000 -2.4311368 -61.846645 -75.08593 -178.90846 -98.125282 22.277349 -3.3050594 84.621536
850500000 -2.4536741 -89.889839 -75.311111 72.52169 -105.28938 40.446224 -3.0725582 14.806218
860000000 -2.4955826 -118.22014 -76.702751 -28.059301 -93.961967 42.585831 -4.4005628 -56.771355
869500000 -2.5545135 -146.97115 -75.523079 -134.55064 -86.849037 147.77065 -5.5498772 -126.91496
879000000 -2.6080766 -176.03537 -77.17057 135.59737 -89.649925 82.857315 -5.192564 160.78024
888500000 -2.6410074 154.80157 -76.019943 35.162769 -96.815796 -151.90187 -4.1638985 87.011398
898000000 -2.6631625 125.6897 -74.970856 -83.108391 -92.429222 -161.20923 -3.937964 17.848675
907500000 -2.6577368 96.73616 -76.040359 -171.29227 -92.61367 -178.32205 -4.2285256 -44.413147
917000000 -2.619338 68.161591 -76.607567 87.618584 -101.11266 88.841194 -4.4222565 -107.29419
926500000 -2.5683959 40.130314 -74.89547 -25.647701 -100.29302 -26.152161 -4.7912073 -179.15659
936000000 -2.524142 12.579057 -75.177254 -114.92926 -87.062439 -173.42905 -5.5839682 102.51727
945500000 -2.4830103 -14.641511 -75.722412 134.95053 -96.945389 127.25745 -5.7448621 28.952927
955000000 -2.4449229 -41.626846 -76.760956 40.221066 -91.600204 53.439098 -4.8554564 -37.31065
964500000 -2.4355104 -68.472412 -75.02243 -65.255417 -99.31015 -66.629982 -3.8133168 -102.33422
974000000 -2.4566965 -95.496231 -74.340233 -165.8902 -91.835999 158.36684 -3.8102951 -169.1561
983500000 -2.4998794 -123.03302 -75.697639 100.74527 -98.82325 69.847816 -4.8391743 124.55723
993000000 -2.5454357 -150.93932 -76.063431 -2.0921957 -94.462738 110.13638 -5.7282858 55.922573
1002500000 -2.5847328 -179.08374 -73.56427 -107.51186 -93.372116 84.052887 -5.7312493 -19.245325
1012000000 -2.6312051 152.41315 -75.062332 160.38158 -95.792068 -54.207447 -5.3062525 -94.959435
1021500000 -2.6656199 123.69035 -76.31192 52.677814 -88.940506 135.591 -4.9913836 -161.80797
1031000000 -2.6568632 95.048363 -75.514313 -45.505085 -91.469162 -58.36478 -4.5269599 138.16765
1040500000 -2.6238565 66.736458 -74.860443 -144.9978 -91.521179 -75.468102 -4.017395 75.524376
1050000000 -2.5947247 38.736645 -73.30175 107.92994 -106.43445 77.756203 -4.5059414 4.3469262
1059500000 -2.5626996 10.991581 -76.264603 7.7911015 -101.95724 -108.23895 -6.1130891 -69.390251
1069000000 -2.5191774 -16.33473 -74.909775 -85.779015 -90.952896 -41.67453 -6.7890196 -140.53925
1078500000 -2.4857688 -43.307564 -73.653641 178.24832 -89.256157 -152.07321 -5.6684771 150.61131
1088000000 -2.4893258 -70.321693 -72.833382 67.842712 -94.127914 118.81052 -4.1529498 80.767288
1097500000 -2.5343411 -97.689217 -73.767715 -46.033783 -94.114655 -51.754486 -4.047255 11.64613
1107000000 -2.579756 -125.3926 -73.843353 -143.81886 -96.589638 49.067101 -4.9804435 -51.717648
1116500000 -2.6289299 -153.51093 -74.31955 129.3311 -97.747688 -170.53888 -5.732543 -115.1455
1126000000 -2.7097633 177.76843 -74.465904 23.795361 -93.948586 -173.65051 -5.9741888 173.29494
1135500000 -2.7847068 148.55025 -72.89785 -80.526039 -94.196716 -177.05095 -5.990478 96.658501
1145000000 -2.8128574 119.12429 -74.474556 177.01604 -89.270714 -122.74635 -5.752728 26.827477
1154500000 -2.8235607 89.764336 -74.256882 75.518234 -89.693893 170.07681 -5.0151176 -35.366779
1164000000 -2.8282547 60.483852 -73.157333 -20.735146 -101.27132 -89.932648 -4.2096143 -98.470306
1173500000 -2.8024986 31.431776 -72.818687 -128.83249 -94.151604 93.663712 -4.5583873 -167.35312
1183000000 -2.7553561 2.9838808 -73.023163 132.22047 -91.919365 92.703697 -6.2218304 122.83702
1192500000 -2.7232325 -24.990648 -73.271324 30.012825 -105.44255 81.674828 -7.341063 52.450008
1202000000 -2.7181244 -52.825108 -72.873528 -72.076523 -95.954567 143.93143 -6.6083083 -20.990458
1211500000 -2.7194643 -80.50573 -72.049896 -168.69739 -96.096085 -61.771515 -5.1253133 -95.625008
1221000000 -2.7351885 -108.13741 -72.277542 87.385193 -98.092422 162.12967 -4.761961 -165.58917
1230500000 -2.7990432 -136.16107 -72.583534 -19.265944 -95.194824 137.34894 -5.2250447 132.42212
1240000000 -2.870235 -164.73193 -72.114029 -114.84245 -87.292091 83.018936 -5.7167149 71.440498
1249500000 -2.9172955 166.39197 -71.614235 140.8765 -102.77143 -71.664398 -6.2450976 3.1284165
1259000000 -2.9688869 137.31984 -72.255417 39.811623 -95.382591 -85.334618 -6.841579 -72.750214
1268500000 -3.0164495 107.93992 -71.123596 -67.360794 -91.473938 151.50244 -6.7227659 -147.11052
1278000000 -3.0150793 78.50676 -71.567795 -169.38628 -86.830574 87.298599 -5.7169623 144.48898
1287500000 -2.9681814 49.603226 -70.693222 82.719879 -101.99581 21.102699 -4.8316798 77.896324
1297000000 -2.9195318 21.225702 -70.647949 -19.186514 -98.431671 -175.57121 -5.1201 11.554789
1306500000 -2.8834884 -6.8161716 -71.115509 -123.96702 -87.85498 172.8744 -6.3102245 -53.227352
1316000000 -2.8312156 -34.334736 -71.467728 139.5374 -95.839165 -82.95385 -7.2964048 -121.4961
1325500000 -2.7725387 -61.295845 -71.526649 40.650143 -91.051186 -114.78644 -7.2518864 161.61656
1335000000 -2.7588179 -88.084183 -71.675644 -73.079025 -96.962814 152.32574 -6.5121417 83.18969
1344500000 -2.7879863 -115.01748 -73.364616 -167.46887 -90.816788 -72.155998 -5.9221778 14.001764
1354000000 -2.8151038 -142.16725 -71.523537 92.575935 -93.970047 37.971169 -5.4593062 -47.590641
1363500000 -2.8362591 -169.50299 -70.617744 -4.7285576 -94.956985 -38.435665 -5.2703023 -110.0149
1373000000 -2.8853893 162.80128 -69.760773 -116.00147 -95.486076 172.7522 -5.9571304 -177.9444
1382500000 -2.9560182 134.60641 -70.289383 129.10852 -85.325691 89.983376 -7.2365546 111.13396
1392000000 -2.9834559 106.15353 -73.362114 29.793938 -102.77937 14.636933 -7.5206308 40.075043
1401500000 -2.9601631 77.762764 -72.555237 -61.410892 -100.43726 46.090195 -6.2840714 -29.941965
1411000000 -2.9469521 49.478573 -69.995972 -158.46532 -109.72936 -148.0636 -5.0455966 -100.23399
1420500000 -2.9408481 21.336689 -70.102684 85.416779 -85.923485 175.31517 -5.2872272 -167.64348
1430000000 -2.8804629 -6.3630929 -72.629295 -16.179365 -98.285416 -158.16267 -6.4055452 130.50359
1439500000 -2.8095291 -33.446007 -71.371429 -111.69522 -101.43309 -83.109825 -7.3279009 66.653381
1449000000 -2.7932665 -60.218822 -71.096809 148.08322 -87.360474 -125.30032 -7.5567322 -7.8863311
1458500000 -2.801229 -87.049347 -73.33316 41.418598 -98.117348 141.40144 -7.1340694 -88.480141
1468000000 -2.797848 -113.8693 -72.587654 -63.785828 -93.335686 25.790781 -6.4699531 -160.326
1477500000 -2.8083074 -140.66753 -72.711418 -162.50032 -94.894302 -142.79074 -5.7043347 137.50494
1487000000 -2.8742864 -168.02843 -73.698799 92.989388 -89.15284 -66.706467 -5.1844912 76.708542
1496500000 -2.9512198 164.03214 -74.666107 -17.424427 -92.864502 145.16605 -5.6273303 12.653604
1506000000 -2.9905999 135.86264 -75.400055 -123.06069 -92.326569 -16.56459 -6.9474902 -53.671585
1515500000 -3.0402901 107.33442 -76.288574 141.0132 -92.955444 135.70091 -7.7850742 -123.5221
1525000000 -3.1029677 78.286964 -76.504555 64.440323 -95.273674 -145.34755 -7.1297221 162.32993
1534500000 -3.1115494 49.104424 -74.801262 -47.734627 -93.276413 93.930786 -6.0258017 88.340553
1544000000 -3.0829244 20.256912 -76.313797 -148.16312 -86.076767 122.3194 -5.8642192 20.830702
1553500000 -3.0676301 -8.2928944 -76.410713 118.75237 -96.087616 131.89072 -6.2816262 -40.003784
1563000000 -3.0469899 -36.628647 -80.789597 16.95652 -94.277191 -166.01891 -6.7437749 -102.32412
1572500000 -3.0092316 -64.492577 -77.151352 -79.565063 -101.06582 79.039192 -7.3348365 -174.11974
1582000000 -2.9995844 -91.994217 -76.105095 -173.04832 -93.100861 167.90413 -7.8697081 107.49727
1591500000 -3.0362527 -119.65292 -78.110565 98.93927 -95.401314 -145.52711 -7.4819579 34.81599
1601000000 -3.0805163 -147.5737 -77.312698 -7.0036712 -94.163834 71.378235 -6.3057728 -29.733313
1610500000 -3.1189044 -175.6613 -77.211823 -115.01473 -96.318855 77.326523 -5.3349862 -93.179947
1620000000 -3.1908827 155.90816 -76.054497 165.05887 -93.673019 143.45274 -5.641295 -158.48726
1629500000 -3.2806029 126.90154 -75.781754 64.004982 -95.885147 -37.144981 -7.0448661 136.28099
1639000000 -3.332629 97.538773 -75.679939 -39.60421 -95.088982 90.745773 -8.1817865 67.471634
1648500000 -3.3503861 68.102943 -74.519905 -133.93698 -105.70912 128.79895 -7.9234362 -8.0337887
1658000000 -3.3732986 38.592472 -72.847839 125.69392 -100.62096 -48.3088 -6.8566079 -83.265694
1667500000 -3.3759122 9.1708336 -73.756569 18.166018 -95.010109 67.775848 -6.2895594 -150.54796
1677000000 -3.322691 -19.780664 -72.123299 -87.767441 -99.14447 -11.83764 -6.2404199 148.58685
1686500000 -3.2578235 -48.125492 -72.567688 177.33319 -95.088463 130.91122 -6.6133704 86.174858
1696000000 -3.2371702 -76.055382 -73.299362 82.320183 -98.903374 -167.58607 -7.7017956 15.750754
1705500000 -3.2213478 -103.74192 -72.639 -30.10157 -103.38361 -75.385635 -8.8503866 -61.699116
1715000000 -3.1965888 -131.22441 -73.202766 -116.30447 -105.95689 20.726198 -8.4033489 -137.35426
1724500000 -3.2096331 -158.61661 -71.144974 147.10989 -86.104179 144.21706 -6.7760463 154.09052
1734000000 -3.2589514 173.7455 -70.852501 36.887268 -89.765335 18.51746 -5.6318274 88.342812
1743500000 -3.3052306 145.71175 -71.64325 -61.349094 -91.016029 116.5514 -5.9319611 24.527143
1753000000 -3.3378992 117.55051 -70.192856 -156.90282 -95.534332 32.647041 -7.1406507 -37.275639
1762500000 -3.3737631 89.176025 -69.884697 102.30991 -90.428513 -161.63272 -8.2474632 -103.3055
1772000000 -3.4128566 60.406445 -69.350296 -4.0570664 -99.661095 121.07005 -8.4544411 -178.16751
1781500000 -3.4166803 31.659601 -67.542152 -103.55415 -94.483093 -42.876389 -7.7777319 105.75533
1791000000 -3.3891914 3.1574845 -66.953453 154.55235 -90.287056 174.63 -7.0450025 37.733639
1800500000 -3.3658087 -25.121485 -66.753906 59.577461 -93.38781 163.40283 -6.6247673 -24.745478
1810000000 -3.3252749 -53.014103 -66.604195 -54.402866 -88.991188 22.431492 -6.8389263 -89.221291
1819500000 -3.2750621 -80.487656 -66.305847 -152.82793 -93.297737 -107.81805 -8.0177326 -159.58539
1829000000 -3.2607744 -107.66363 -66.301407 110.72659 -87.665146 179.85623 -9.144496 125.7556
1838500000 -3.258105 -134.68861 -64.662926 4.0921664 -90.286621 157.8382 -8.5767527 52.609627
1848000000 -3.2593613 -161.73262 -65.089172 -101.93404 -95.978935 67.349838 -6.8683138 -15.068637
1857500000 -3.2994707 171.16476 -64.247345 164.45848 -104.79988 -72.969612 -5.746417 -79.982353
1867000000 -3.3668058 143.79608 -62.539204 59.759033 -86.759315 -179.68611 -6.0286827 -141.88049
1876500000 -3.4370131 115.97788 -61.643394 -48.161835 -88.343185 99.756035 -7.177876 158.22458
1886000000 -3.5125124 87.902161 -60.576206 -152.34964 -89.995789 24.819317 -8.4673882 93.017677
1895500000 -3.5846949 59.539375 -58.977261 95.21106 -87.560654 -101.52998 -9.1554136 16.449108
1905000000 -3.6442323 30.830481 -58.666363 -23.118267 -90.472672 171.51187 -8.5837736 -62.786827
1914500000 -3.6770041 2.1869593 -59.666142 -139.58084 -86.454788 29.306658 -7.4499464 -132.45122
1924000000 -3.6852126 -26.242231 -61.369118 118.78258 -92.044601 -127.8757 -6.5730081 164.57803
1933500000 -3.676122 -54.488731 -62.353565 7.2094259 -85.818474 146.18538 -6.5257058 101.28421
1943000000 -3.6538377 -82.381233 -63.987682 -92.382759 -89.329834 72.340195 -7.5847001 35.224667
1952500000 -3.6275249 -109.95496 -64.311279 173.30981 -87.203918 26.140909 -8.8734875 -34.03524
1962000000 -3.6172509 -137.44751 -65.428925 72.567543 -92.354141 154.88248 -8.9016371 -106.26316
1971500000 -3.6107857 -164.87172 -64.522446 -29.653305 -84.388641 -167.22639 -7.6612043 -177.13718
1981000000 -3.6156979 167.66876 -64.386192 -135.66716 -97.349869 99.72522 -6.690917 115.76609
1990500000 -3.6622944 139.93723 -65.245743 120.11343 -88.635437 129.17685 -6.7594709 52.9105
2000000000 -3.7229207 111.7919 -66.140388 25.434235 -97.501305 -126.11452 -7.5644364 -8.99156
