!Keysight Technologies,N5242B,MY48420967,A.15.65.19
!Date: Monday, January 23, 2023 00:22:22
!Correction: S11(C  1-Port  ) 
!S21(Off) 
!S12(Off) 
!S22(Off) 
!S2P File: Measurements: S11, S21, S12, S22:
# Hz S  dB   R 50
100000000 -1.3899018 40.498005 -84.224861 127.23921 -95.387535 151.26883 -2.1156445 73.417877
109500000 -1.3028724 11.115145 -84.443451 -1.0035169 -94.158836 -137.57559 -2.0364423 6.9738011
119000000 -1.2082983 -17.561403 -81.479996 -81.141464 -94.038826 -167.47334 -2.0849197 -68.574379
128500000 -1.1312469 -45.92173 -83.765968 -175.36354 -101.13359 -107.87596 -2.8138182 -143.36217
138000000 -1.1218688 -74.465057 -87.646866 122.64574 -94.023857 -3.995568 -2.9424014 151.3643
147500000 -1.1699837 -103.31469 -81.672455 10.962261 -95.960106 -59.790207 -1.8846866 89.623589
157000000 -1.2279745 -132.46675 -81.562012 -128.9102 -90.549179 118.87797 -0.64578813 20.604645
166500000 -1.3125633 -162.01781 -79.547035 161.94296 -93.101898 -108.38783 -1.401898 -54.256763
176000000 -1.428375 167.99641 -83.448883 40.192268 -93.537384 -120.17196 -3.2665653 -122.03381
185500000 -1.5196899 137.79636 -82.195503 -53.586239 -101.73968 -66.524117 -3.9459512 173.0184
195000000 -1.5553397 107.80493 -81.708809 -151.19275 -95.035431 121.7049 -3.0104396 103.48069
204500000 -1.5623789 78.156891 -84.023285 126.7362 -90.000336 -135.8004 -1.9701843 28.739941
214000000 -1.5533311 48.755035 -88.372925 -13.759613 -86.428436 169.34308 -2.0907154 -41.2444
223500000 -1.513865 19.716717 -81.394653 -93.315353 -93.118279 -13.334367 -2.350239 -103.67502
233000000 -1.4650621 -8.9978638 -80.366356 176.77208 -100.48934 152.62277 -2.1762171 -167.88741
242500000 -1.4470178 -37.643623 -80.999298 62.904827 -93.364075 67.9907 -2.3174193 119.68386
252000000 -1.4482579 -66.388031 -80.240616 -83.783081 -89.368309 120.78997 -3.1624999 46.170925
261500000 -1.4758086 -95.380669 -79.786903 -146.47397 -88.970398 152.86671 -3.3521307 -21.240118
271000000 -1.5474036 -124.7154 -81.78537 171.69975 -92.051544 -76.182571 -2.3054948 -86.496658
280500000 -1.6336718 -154.46281 -82.800026 11.485375 -89.661949 -139.08141 -1.1794713 -157.1057
290000000 -1.7094241 175.52342 -82.640678 -92.365356 -92.937447 34.28952 -1.6816468 130.43742
299500000 -1.7883716 145.42715 -81.101143 -173.10258 -88.349106 -157.07942 -2.9006259 64.536415
309000000 -1.8504345 115.2689 -79.358742 103.75214 -92.747444 66.617615 -3.2381735 -0.41305193
318500000 -1.8662069 85.396118 -83.030891 -24.059502 -99.935097 131.72006 -2.6335518 -71.962303
328000000 -1.8428177 56.020294 -77.102516 -129.25369 -91.511589 -130.58936 -2.3878944 -147.48343
337500000 -1.8280861 26.864794 -77.753601 149.07213 -93.648331 -137.92833 -2.6706827 143.85275
347000000 -1.820303 -2.1589284 -80.38092 39.712883 -103.65376 5.6535263 -2.4344954 80.499344
356500000 -1.7956644 -31.04085 -76.980217 -78.047661 -97.25206 -111.94807 -1.7749856 12.49263
366000000 -1.7920923 -60.007774 -77.641792 -172.5011 -93.993912 124.05482 -2.0688109 -62.590385
375500000 -1.8430128 -89.339584 -78.230919 100.38516 -92.711136 -48.544601 -3.2036128 -133.28828
385000000 -1.9055727 -119.1276 -81.72142 -7.0836329 -88.939056 148.85481 -3.3942988 162.47136
394500000 -1.9686346 -149.17973 -78.996902 -103.56006 -93.666763 122.60747 -2.2832477 96.903923
404000000 -2.033006 -179.32448 -78.566437 140.48439 -98.769676 145.59415 -1.3751671 23.00152
413500000 -2.0939679 150.41763 -78.246582 34.422642 -91.009529 174.39697 -2.2703066 -50.790318
423000000 -2.1358571 120.25684 -78.468445 -56.221363 -91.671638 -64.440208 -3.3671486 -116.91072
432500000 -2.133158 90.552139 -76.680641 -156.35361 -89.640541 140.95451 -3.2708957 176.79517
442000000 -2.1034639 61.323692 -78.701271 100.31564 -117.07159 39.561749 -2.4693637 103.45696
451500000 -2.0829427 32.479053 -79.005455 -13.899095 -87.145348 -102.55875 -2.4942415 28.616018
461000000 -2.0585229 3.9064901 -78.556229 -111.8704 -86.833351 149.12997 -2.9595132 -37.871201
470500000 -2.0304198 -24.487087 -82.796936 173.44405 -87.581612 178.6653 -2.768471 -100.98526
480000000 -2.0187707 -52.790939 -76.186974 67.489342 -94.634033 94.775688 -2.2220027 -170.7776
489500000 -2.0414927 -81.350029 -75.992424 -45.617348 -107.60664 162.29546 -2.6378472 112.88781
499000000 -2.0892334 -110.29681 -76.33094 -133.7346 -91.575989 136.45442 -3.5128496 41.754181
508500000 -2.1281374 -139.43581 -74.178452 125.49837 -93.669212 -165.43509 -3.3196344 -23.586521
518000000 -2.1639409 -168.73082 -75.050011 0.75179315 -90.005219 -144.87653 -2.2688565 -90.648277
527500000 -2.2082653 161.84766 -73.238815 -102.60766 -91.954247 158.24966 -1.9868654 -162.90242
537000000 -2.2361672 132.50368 -77.412071 150.83073 -92.671219 69.002884 -2.9967794 127.7404
546500000 -2.2310126 103.50568 -78.442841 78.181747 -90.200279 177.62767 -3.711354 61.965034
556000000 -2.2044268 75.002625 -77.79245 -57.605782 -93.183044 15.781687 -3.3292253 -8.3786192
565500000 -2.17239 46.88139 -76.08931 -151.75386 -94.278656 -17.875366 -2.7941182 -85.605675
575000000 -2.1415279 19.063913 -77.64814 114.22997 -85.473663 106.86809 -3.1496739 -157.96524
584500000 -2.1090384 -8.5032988 -78.577553 46.002064 -101.07577 46.732677 -3.3885434 140.01506
594000000 -2.0896003 -36.039295 -76.772957 -71.06649 -108.9968 -99.800018 -2.8311694 79.308029
603500000 -2.1013148 -63.771538 -76.444344 178.19885 -97.690948 172.21275 -2.2980852 9.5427456
613000000 -2.1353762 -91.861908 -76.737251 80.777573 -94.928093 144.13063 -3.089478 -65.971489
622500000 -2.1773763 -120.34755 -78.548561 -29.519842 -95.887833 -173.23447 -4.0194497 -135.86504
632000000 -2.2329774 -149.20963 -76.265015 -126.83095 -92.658554 -177.74727 -3.6619682 158.43153
641500000 -2.2856648 -178.3177 -75.886047 135.52878 -89.663902 124.57724 -2.5904806 90.71563
651000000 -2.3257055 152.41811 -76.9981 38.371689 -96.325432 -106.71047 -2.439414 20.368742
660500000 -2.348268 123.23813 -76.727242 -72.546555 -98.395996 79.102661 -3.2993276 -46.199356
670000000 -2.345978 94.253387 -77.814575 -162.33846 -99.817871 3.2884429 -3.8287966 -111.83005
679500000 -2.3269846 65.605843 -76.796989 98.593758 -96.67263 -125.30215 -3.6384318 175.40872
689000000 -2.2940242 37.386253 -78.528572 -6.6018338 -96.868164 43.800632 -3.5781689 97.619919
698500000 -2.2668822 9.405405 -77.201942 -112.60905 -100.72215 176.70691 -3.8168457 27.781708
708000000 -2.2559946 -18.451654 -76.316574 155.84291 -95.475548 66.406563 -3.5239344 -33.203102
717500000 -2.2518437 -46.295895 -76.554703 63.785702 -95.195709 86.211769 -2.6878862 -95.076897
727000000 -2.2757721 -74.397125 -75.998047 -49.225769 -105.98972 -139.67589 -2.4930696 -165.63506
736500000 -2.3383422 -102.96978 -74.22937 -159.57979 -91.601059 175.99776 -3.7689331 121.07669
746000000 -2.4048128 -132.03882 -76.493484 93.873711 -97.425667 160.18924 -4.7347021 51.388283
755500000 -2.4622343 -161.47597 -77.57106 -0.79766124 -89.104622 152.83284 -4.1162028 -17.7341
765000000 -2.5255322 168.85963 -74.776772 -88.981247 -90.090546 133.0892 -2.9395623 -89.496414
774500000 -2.5767212 139.0274 -76.513824 166.59825 -93.681824 -167.67889 -2.9749668 -159.56584
784000000 -2.5899017 109.29755 -76.166496 59.67334 -94.697945 -124.20594 -3.7512901 137.71144
793500000 -2.5727942 79.970161 -77.100983 -44.758816 -92.732697 158.06331 -4.1074457 75.283157
803000000 -2.5454147 51.099323 -73.595818 -141.51668 -102.08908 -69.850677 -4.0208163 2.7591383
812500000 -2.5122786 22.632622 -75.483528 112.37889 -95.1381 129.44189 -4.3763041 -77.700592
822000000 -2.4748855 -5.4469457 -79.635719 -6.5610681 -98.227005 109.20562 -4.7523475 -150.06844
831500000 -2.4516973 -33.263336 -75.508369 -89.198845 -92.166229 90.393982 -4.2249489 147.3568
841000000 -2.4552393 -61.04517 -74.954918 179.06813 -86.166313 93.911308 -3.1332879 84.654648
850500000 -2.484338 -89.036659 -75.476654 84.337509 -92.164864 -94.603218 -2.8887293 14.620382
860000000 -2.5320024 -117.40072 -74.503647 -32.410748 -92.410545 143.32133 -4.2167277 -57.079128
869500000 -2.5835416 -146.11288 -75.115631 -139.25096 -100.59061 98.969887 -5.3543768 -127.08353
879000000 -2.6367037 -175.08353 -74.699211 131.85379 -89.765999 88.458336 -4.982235 160.83296
888500000 -2.6791174 155.77966 -77.263 27.619276 -96.431694 160.06799 -3.9551506 87.088486
898000000 -2.6990166 126.62559 -74.601128 -84.906937 -96.333031 -168.21255 -3.7477829 17.823179
907500000 -2.6868553 97.695686 -76.713905 174.15678 -100.66283 53.266296 -4.0488129 -44.47517
917000000 -2.6537018 69.196068 -74.817474 90.664429 -107.16205 7.5584102 -4.2252831 -107.35892
926500000 -2.6073139 41.150345 -74.512253 -21.989267 -91.926903 132.55374 -4.5601053 -179.25902
936000000 -2.5542796 13.558063 -74.008842 -126.08499 -103.46172 155.1837 -5.3442235 102.46461
945500000 -2.5054858 -13.593212 -73.962387 127.439 -107.53417 21.614738 -5.5295677 29.073793
955000000 -2.4732428 -40.515076 -77.266022 31.512751 -91.405258 -101.83697 -4.65765 -37.107918
964500000 -2.4696403 -67.40229 -77.914101 -58.785423 -103.6669 75.579872 -3.6125886 -102.22648
974000000 -2.4868317 -94.448814 -73.222557 -165.81699 -102.26557 -0.99292839 -3.6054807 -169.25722
983500000 -2.5274639 -121.8841 -75.354698 100.34624 -95.130455 133.26843 -4.6306205 124.3698
993000000 -2.579267 -149.73141 -73.59436 -9.9166861 -103.68985 -149.953 -5.497406 55.847607
1002500000 -2.6254568 -177.93311 -74.509987 -110.60841 -95.365417 52.768425 -5.4812918 -19.131214
1012000000 -2.6724052 153.53642 -74.672592 152.30234 -90.224594 158.66269 -5.0743279 -94.783829
1021500000 -2.7033992 124.84355 -76.654121 46.023773 -88.948532 171.28149 -4.7896361 -161.64053
1031000000 -2.6982305 96.186279 -76.824608 -49.034794 -91.430397 -109.9497 -4.3316011 138.32906
1040500000 -2.6749072 67.776886 -74.594788 -144.18188 -95.414757 -1.5504897 -3.7951484 75.598274
1050000000 -2.6441274 39.726528 -73.888573 102.78654 -107.62075 -93.481316 -4.2524595 4.1992679
1059500000 -2.597554 12.000482 -76.45755 0.55084765 -87.943619 116.53049 -5.8551683 -69.531509
1069000000 -2.5549703 -15.334429 -75.867157 -94.794685 -92.524002 115.53706 -6.54146 -140.37099
1078500000 -2.5354939 -42.385151 -73.864624 174.44496 -91.601646 -7.0138865 -5.434999 150.98746
1088000000 -2.5342112 -69.435707 -74.213295 71.403107 -87.001106 147.41508 -3.9201818 81.000023
1097500000 -2.565392 -96.729782 -74.834595 -44.858799 -95.589302 102.99479 -3.8321033 11.559867
1107000000 -2.6203697 -124.37019 -73.940536 -143.41501 -94.551598 -93.991508 -4.7813482 -51.946571
1116500000 -2.6864016 -152.55336 -75.175789 125.61835 -102.89833 160.52312 -5.5147095 -115.37013
1126000000 -2.7570057 178.74486 -74.325188 20.544832 -94.388214 53.472485 -5.7159967 173.15739
1135500000 -2.8214946 149.65697 -74.287689 -78.366417 -95.548309 -95.722115 -5.7187605 96.655548
1145000000 -2.8686242 120.23641 -74.050713 169.75751 -92.465416 -20.474148 -5.5020828 26.96859
1154500000 -2.8887851 90.758934 -74.262695 83.2127 -92.287926 -74.091171 -4.7728996 -35.158833
1164000000 -2.8761504 61.526299 -72.678391 -21.363417 -90.35318 138.62274 -3.951128 -98.387138
1173500000 -2.8487489 32.587978 -72.711472 -130.93718 -91.564377 109.8782 -4.2933879 -167.59004
1183000000 -2.8151326 4.0655546 -73.792046 124.70734 -96.853737 16.112743 -5.9707313 122.48045
1192500000 -2.7754757 -23.986235 -73.958092 33.355831 -99.54586 -140.62868 -7.0879827 52.280689
1202000000 -2.7519479 -51.679539 -72.911598 -65.879906 -96.633423 -100.45952 -6.3450241 -20.930096
1211500000 -2.7587252 -79.277542 -71.419556 -169.75235 -84.868958 64.205292 -4.8577023 -95.62487
1221000000 -2.7906439 -107.01112 -72.013351 84.090088 -88.907143 -98.010986 -4.5102706 -165.80408
1230500000 -2.8466773 -135.00021 -72.037819 -21.079304 -93.799255 -167.55801 -4.9821997 132.13312
1240000000 -2.9057796 -163.37854 -71.88958 -116.65171 -96.614105 -19.197378 -5.4497609 71.151367
1249500000 -2.9680567 167.78752 -71.40535 147.18155 -91.062935 175.85979 -5.9354639 2.8551519
1259000000 -3.0318515 138.61816 -71.410347 39.075371 -91.877182 -64.889809 -6.5168271 -72.876747
1268500000 -3.0687535 109.25925 -70.890144 -69.669456 -89.532188 148.01727 -6.4279885 -147.00673
1278000000 -3.0627544 79.93853 -70.809425 -171.07426 -88.446175 84.359222 -5.4466147 144.65215
1287500000 -3.0310214 51.006184 -70.228966 88.26973 -96.215851 -56.363323 -4.5627546 77.870995
1297000000 -2.9887016 22.494959 -70.038391 -19.828566 -90.397797 159.93359 -4.8505635 11.244126
1306500000 -2.9336185 -5.5176077 -70.612228 -121.37099 -90.048973 -169.05914 -6.0303526 -53.639141
1316000000 -2.8660433 -32.917263 -71.226715 139.79913 -90.402695 75.539131 -6.9750681 -121.77
1325500000 -2.8228822 -59.897411 -70.133743 38.382431 -89.290375 66.537376 -6.8992195 161.6328
1335000000 -2.8196075 -86.768097 -70.279221 -74.203514 -91.92601 -142.59572 -6.1882257 83.298828
1344500000 -2.828573 -113.6578 -70.246475 178.13821 -94.605301 179.1983 -5.644804 14.042293
1354000000 -2.8489146 -140.65749 -71.530136 74.074409 -90.574898 -159.86247 -5.1949182 -47.633923
1363500000 -2.8937998 -167.96407 -72.774879 -27.959522 -99.643677 -35.916267 -4.9811649 -110.21419
1373000000 -2.9530036 164.23918 -72.348206 -123.35745 -93.882935 119.28412 -5.6355891 -178.32408
1382500000 -3.0029526 136.07957 -72.51944 132.0508 -103.42689 44.966858 -6.8965788 110.87321
1392000000 -3.0295508 107.73605 -74.669235 34.88689 -89.002556 -26.717712 -7.1847277 40.243813
1401500000 -3.0360925 79.268639 -74.161942 -45.527901 -95.407143 -157.63177 -5.964457 -29.539707
1411000000 -3.0255947 50.855133 -70.867592 -149.05383 -100.86933 57.219902 -4.7358451 -100.06164
1420500000 -2.9935772 22.745045 -69.425682 101.90759 -95.02037 163.18896 -5.003171 -167.84013
1430000000 -2.9375565 -4.9193707 -70.563385 -11.151917 -96.380013 107.56186 -6.1283092 130.16866
1439500000 -2.8839188 -32.09816 -71.097672 -103.34893 -100.52274 159.47112 -7.0082417 66.356354
1449000000 -2.8513155 -58.918587 -69.964287 157.3192 -85.582565 -133.53354 -7.1738825 -7.973773
1458500000 -2.8393147 -85.641342 -69.068512 39.657784 -88.024002 126.3173 -6.7618661 -88.369087
1468000000 -2.8491964 -112.41644 -70.286484 -75.463699 -84.936684 30.58012 -6.1612692 -160.17735
1477500000 -2.8746076 -139.28569 -70.941628 -170.40166 -92.87191 -144.21266 -5.4284973 137.58003
1487000000 -2.929225 -166.57986 -71.808731 69.750458 -95.638954 -84.565628 -4.9020429 76.591904
1496500000 -3.0007477 165.61235 -71.97876 -28.192402 -94.394051 93.130959 -5.3232493 12.2583
1506000000 -3.0639296 137.38803 -72.515572 -140.06717 -94.982605 42.900806 -6.6144466 -54.133587
1515500000 -3.1209846 108.7745 -75.815788 125.74463 -96.528343 95.003967 -7.4127359 -123.65892
1525000000 -3.1661332 79.812439 -76.290611 41.834129 -94.566246 96.891823 -6.7505178 162.58116
1534500000 -3.180299 50.69511 -75.119553 -70.619759 -98.860619 20.890543 -5.6799564 88.520256
1544000000 -3.1712213 21.728991 -77.192596 -174.43091 -89.523689 -52.557423 -5.5678115 20.740877
1553500000 -3.1462021 -6.8904424 -77.7752 106.27624 -94.873199 -82.379906 -6.0021777 -40.272636
1563000000 -3.1058154 -35.117443 -81.560524 -1.8162735 -90.196022 164.06128 -6.4245977 -102.75182
1572500000 -3.0748081 -62.939545 -79.878288 -80.949455 -96.616051 94.202179 -6.9431815 -174.65475
1582000000 -3.077302 -90.552505 -80.427979 -164.7852 -91.673203 -50.803299 -7.451335 107.187
1591500000 -3.1016133 -118.20368 -77.900841 85.238853 -97.516083 -75.079758 -7.1100502 34.893692
1601000000 -3.1335399 -145.96178 -78.558441 3.9251914 -99.590706 36.614998 -5.97434 -29.560127
1610500000 -3.1863308 -173.99472 -76.780792 -106.50172 -86.389374 74.5783 -5.0111327 -93.250534
1620000000 -3.2732844 157.49171 -77.807129 162.52354 -103.93741 -164.86923 -5.3216486 -158.99835
1629500000 -3.3538272 128.49733 -76.234505 62.064442 -96.322121 -10.676598 -6.7112012 135.53612
1639000000 -3.4019427 99.243828 -75.191315 -43.144115 -100.68172 -36.978889 -7.7845087 66.878281
1648500000 -3.4386034 69.806351 -74.825073 -146.75177 -90.070053 156.22757 -7.474401 -8.140769
1658000000 -3.4680824 40.201454 -72.636772 117.96162 -88.715546 57.146797 -6.4357624 -83.149223
1667500000 -3.4561079 10.786325 -74.406952 12.706033 -97.00753 -67.15052 -5.9285188 -150.52357
1677000000 -3.3973393 -18.09915 -72.808403 -91.063385 -92.298668 106.0537 -5.9075727 148.44426
1686500000 -3.3373828 -46.45657 -72.506165 173.44052 -93.301186 164.1048 -6.2590837 85.741745
1696000000 -3.3120086 -74.426247 -74.013565 65.022629 -94.429939 160.16576 -7.2925854 14.970822
1705500000 -3.2911575 -102.086 -73.717072 -32.484325 -91.15416 80.446571 -8.3882618 -62.318989
1715000000 -3.2684195 -129.52625 -73.153984 -122.89188 -97.09362 126.78714 -7.9534402 -137.34776
1724500000 -3.2767484 -156.8819 -72.552879 144.07158 -91.016548 98.242302 -6.3647151 154.34178
1734000000 -3.3220849 175.5372 -71.659645 39.428028 -94.303802 -44.94117 -5.2455597 88.365898
1743500000 -3.3803058 147.56018 -71.318565 -62.919739 -91.776711 75.960106 -5.5727129 24.197418
1753000000 -3.4205768 119.36223 -71.61422 -159.92348 -94.644608 -100.60717 -6.7817783 -37.803009
1762500000 -3.4481032 90.993179 -71.36351 96.219322 -89.290848 129.12338 -7.8295693 -103.79821
1772000000 -3.4898617 62.308407 -69.313644 -8.1742735 -98.362617 125.87041 -7.9701395 -178.34007
1781500000 -3.5155618 33.528824 -67.922028 -109.32134 -104.43399 179.10207 -7.3063607 105.90159
1791000000 -3.4847398 4.9245648 -67.83844 149.49466 -87.728065 -64.270523 -6.6258774 37.956398
1800500000 -3.436686 -23.304756 -68.832077 47.316174 -95.054337 113.57156 -6.2279572 -24.62324
1810000000 -3.4001276 -51.104755 -68.177834 -55.26004 -93.223778 -12.924935 -6.428978 -89.410309
1819500000 -3.3730731 -78.662849 -69.030991 -155.86955 -109.76855 19.090782 -7.5840364 -160.09967
1829000000 -3.3454432 -105.95488 -67.798676 121.93053 -96.638489 135.34366 -8.6901751 125.39265
1838500000 -3.3178091 -132.88588 -66.213455 11.168693 -94.252899 69.662376 -8.1313686 52.730915
1848000000 -3.3304229 -159.78571 -65.541321 -95.146957 -87.305054 41.729767 -6.4435482 -14.776134
1857500000 -3.3958864 173.06598 -65.328285 173.34538 -97.021851 -135.85849 -5.3369136 -79.915657
1867000000 -3.4576592 145.61258 -62.930962 69.4776 -87.205002 143.54369 -5.6434641 -142.11238
1876500000 -3.5128095 117.90179 -61.918884 -36.695847 -88.345863 -179.2939 -6.7924466 157.83522
1886000000 -3.5990252 89.945671 -60.270687 -143.21768 -86.549423 11.605438 -8.0328674 92.589523
1895500000 -3.6946304 61.554989 -58.9258 100.40592 -88.472092 -135.25734 -8.6547222 16.239466
1905000000 -3.7601337 32.805885 -59.435715 -14.71743 -87.050003 -176.48985 -8.0979166 -62.673584
1914500000 -3.7809424 4.1991439 -59.531128 -126.50572 -86.911652 51.825981 -7.0140777 -132.26048
1924000000 -3.7822666 -24.150953 -60.368782 127.79474 -85.911964 -10.432741 -6.1529102 164.66637
1933500000 -3.7807992 -52.367172 -60.72607 15.896857 -92.209625 -169.03665 -6.0943899 101.07841
1943000000 -3.7605741 -80.334999 -62.139973 -93.168518 -94.513939 -172.41568 -7.1432023 34.738785
1952500000 -3.712137 -107.9687 -63.567154 165.65359 -95.971283 41.825665 -8.4196987 -34.477158
1962000000 -3.6790602 -135.3615 -64.449463 64.055656 -92.487068 -63.038097 -8.4449358 -106.42982
1971500000 -3.6839788 -162.70137 -64.855721 -34.105179 -91.474884 -156.61749 -7.2188473 -177.24721
1981000000 -3.7080674 169.73538 -65.798912 -133.58643 -106.07444 148.24117 -6.2681718 115.42358
1990500000 -3.7370403 141.93129 -66.238525 133.7511 -92.170822 7.3109961 -6.3448601 52.338085
2000000000 -3.7779737 113.91788 -66.570343 36.413952 -90.122116 47.30077 -7.1149168 -9.7025757
