!Keysight Technologies,N5242B,MY48420967,A.15.65.19
!Date: Monday, January 23, 2023 08:47:40
!Correction: S11(C  1-Port  ) 
!S21(Off) 
!S12(Off) 
!S22(Off) 
!S2P File: Measurements: S11, S21, S12, S22:
# Hz S  dB   R 50
100000000 -1.4808826 40.375816 -79.406487 153.38399 -91.343979 120.45135 -2.2838516 72.942039
109500000 -1.4049287 10.882005 -84.059074 12.561627 -93.481308 95.208557 -2.235559 6.2465549
119000000 -1.317214 -17.891628 -90.530426 -79.146584 -96.415398 116.13049 -2.3189631 -69.447395
128500000 -1.2495103 -46.327358 -81.480774 169.43411 -91.245872 160.9673 -3.0356286 -144.27185
138000000 -1.2494143 -74.914719 -84.520203 88.515717 -99.145424 41.605652 -3.1329784 150.35406
147500000 -1.3038055 -103.79578 -91.776642 -8.5326033 -94.695976 -73.758827 -2.076165 88.467407
157000000 -1.3671397 -132.94536 -83.666977 -108.99604 -92.294342 71.281189 -0.88983536 19.487265
166500000 -1.457779 -162.4724 -81.412331 144.14973 -101.00471 91.618416 -1.6755512 -54.987087
176000000 -1.5752066 167.57918 -81.805405 42.868832 -93.475655 82.656502 -3.5204272 -122.67226
185500000 -1.6656972 137.44038 -78.783501 -58.787369 -91.586304 -142.32307 -4.1857514 172.15799
195000000 -1.6993607 107.52058 -80.462044 -155.22406 -89.723686 -78.851761 -3.2519155 102.43465
204500000 -1.7034397 77.936829 -82.983345 124.9039 -90.962631 78.312248 -2.2201262 27.867521
214000000 -1.6916758 48.611271 -85.233147 -14.328079 -92.154823 -32.990414 -2.3209975 -41.828159
223500000 -1.6505498 19.647583 -80.37471 -126.05848 -88.935127 -141.98801 -2.5675597 -104.16969
233000000 -1.6009897 -9.0099449 -80.650894 173.99873 -94.888084 -171.67384 -2.4132819 -168.36382
242500000 -1.5835229 -37.603184 -86.449348 95.57769 -97.869492 -81.684593 -2.5806961 119.31241
252000000 -1.5869801 -66.307076 -79.935043 -53.769989 -84.223152 84.612236 -3.4155293 45.833252
261500000 -1.6201757 -95.273003 -78.597908 -161.87778 -96.058899 126.63145 -3.5811121 -21.711561
271000000 -1.6975839 -124.59557 -79.120323 170.11497 -89.147545 133.54347 -2.5346677 -87.087471
280500000 -1.7913321 -154.34816 -78.117584 -0.68096858 -88.67054 111.58113 -1.4340006 -157.58453
290000000 -1.8760748 175.61955 -84.547104 -66.631416 -86.525551 -156.23453 -1.9355882 130.21591
299500000 -1.9629371 145.48363 -81.466171 161.04605 -91.097488 3.3911111 -3.1445129 64.305382
309000000 -2.0338805 115.28462 -77.725891 101.61603 -87.288055 132.52225 -3.4938924 -0.87035924
318500000 -2.0578864 85.360573 -84.68428 -37.444618 -84.54731 137.2764 -2.9161756 -72.602333
328000000 -2.0435157 55.927467 -80.922714 -117.68182 -91.227676 -33.915699 -2.6715934 -148.08154
337500000 -2.0369794 26.735405 -80.952629 147.82005 -86.382416 -99.16291 -2.9299207 143.25516
347000000 -2.0402887 -2.3222864 -81.070427 56.407173 -103.82765 48.122318 -2.6938319 79.772072
356500000 -2.0261879 -31.22784 -78.855278 -66.526512 -88.221481 116.23708 -2.0712359 11.69563
366000000 -2.0363543 -60.196861 -77.511787 -176.97552 -100.11509 159.65926 -2.392477 -63.241875
375500000 -2.1009529 -89.519981 -80.44397 75.08075 -89.508896 -27.389473 -3.5035534 -133.96362
385000000 -2.1787796 -119.3045 -80.453728 0.48451152 -93.542236 -158.46429 -3.6732414 161.52057
394500000 -2.2536421 -149.33603 -77.383995 -117.44292 -86.14772 -19.977871 -2.5827451 95.69281
404000000 -2.3291473 -179.43495 -77.106476 148.5992 -98.878731 167.29196 -1.7283039 21.930325
413500000 -2.3990204 150.34863 -79.017235 44.76712 -94.395592 179.41629 -2.6218512 -51.535183
423000000 -2.446625 120.22763 -79.75695 -61.847328 -93.33445 49.549782 -3.6964173 -117.7352
432500000 -2.4474609 90.575951 -76.176498 -151.44539 -96.455627 92.279984 -3.6075635 175.67516
442000000 -2.4217179 61.418133 -77.531593 96.190979 -92.02478 63.633644 -2.8331904 102.27523
451500000 -2.4048917 32.637863 -81.855843 -0.78719473 -89.832695 76.313271 -2.848084 27.719645
461000000 -2.384742 4.1310382 -76.874763 -106.6 -97.709435 72.620277 -3.2799177 -38.659367
470500000 -2.3627424 -24.178749 -78.389496 171.24039 -100.59661 168.03857 -3.094332 -101.83453
480000000 -2.3587637 -52.412334 -77.705399 69.731476 -85.559555 86.241508 -2.5965862 -171.57413
489500000 -2.3913648 -80.89669 -75.962067 -44.902138 -96.042542 -97.887611 -3.0289922 112.37212
499000000 -2.4489541 -109.7824 -76.348038 -152.6534 -96.548965 -43.556931 -3.8666449 41.260395
508500000 -2.5001464 -138.89877 -76.599602 107.48242 -89.605835 -113.51465 -3.6541266 -24.229565
518000000 -2.5473163 -168.15257 -75.854233 14.023808 -92.35611 79.640625 -2.6247931 -91.272621
527500000 -2.5999153 162.47978 -76.237694 -108.90564 -105.70364 97.440483 -2.3649263 -163.15378
537000000 -2.6325998 133.14726 -76.589874 149.60753 -94.28772 131.71187 -3.3616188 127.70382
546500000 -2.6270354 104.14555 -77.969101 46.760719 -90.393478 89.771484 -4.0849705 61.785046
556000000 -2.5995789 75.639793 -78.381599 -42.71209 -96.583382 -154.8989 -3.740478 -8.7639561
565500000 -2.5684454 47.518364 -75.579987 -153.28294 -94.78154 -25.808645 -3.2138946 -85.862984
575000000 -2.5392046 19.694002 -80.844124 112.72293 -88.034798 127.24953 -3.513958 -158.07573
584500000 -2.5095313 -7.8771968 -79.612785 19.929291 -89.616936 148.96681 -3.7178407 139.83153
594000000 -2.4977992 -35.393421 -77.673676 -80.911621 -94.794884 79.376205 -3.1837506 79.046638
603500000 -2.5186915 -63.107201 -77.397278 169.47728 -97.440842 -36.171913 -2.7085736 9.4676323
613000000 -2.5650213 -91.189293 -76.672012 75.710197 -90.461967 -89.928764 -3.5037227 -65.80529
622500000 -2.6193314 -119.66402 -77.412682 -37.747597 -94.946495 128.7242 -4.4044299 -135.89113
632000000 -2.6882496 -148.5251 -77.910812 -138.8058 -87.658508 164.55901 -4.0349107 158.12816
641500000 -2.7513328 -177.63725 -75.608215 146.16193 -91.047287 -164.06993 -2.9787183 90.431244
651000000 -2.7990522 153.08662 -77.390823 19.0331 -93.040359 139.11133 -2.8298903 20.385679
660500000 -2.8276217 123.8867 -79.846497 -67.788826 -91.833282 116.77178 -3.6816945 -46.066227
670000000 -2.8288813 94.874123 -77.069298 177.22769 -118.09882 -115.69905 -4.2399893 -111.84869
679500000 -2.8095875 66.208771 -77.625 100.52595 -89.911667 142.47984 -4.098289 175.23006
689000000 -2.7793825 37.991631 -77.065552 -11.777783 -89.77478 128.90106 -4.022809 97.463272
698500000 -2.7558084 10.02177 -76.679138 -118.86412 -92.554138 -37.007164 -4.1939287 27.566471
708000000 -2.7509465 -17.815523 -78.573624 148.82823 -94.053551 43.996632 -3.8716493 -33.541382
717500000 -2.7566106 -45.605953 -78.381889 49.121933 -97.8125 109.34254 -3.0693202 -95.4216
727000000 -2.7948797 -73.647758 -78.006584 -56.586197 -91.595322 121.31912 -2.9304457 -165.6608
736500000 -2.8728366 -102.15416 -76.376045 -144.64349 -88.157097 145.39793 -4.2138886 121.22311
746000000 -2.9550974 -131.14989 -79.678886 106.06593 -91.085472 142.92664 -5.1719327 51.166225
755500000 -3.0260382 -160.51466 -75.890045 9.6023741 -88.42659 89.119156 -4.5504894 -18.367023
765000000 -3.1005116 169.88918 -75.754951 -103.18032 -95.308495 106.04918 -3.3778226 -90.054695
774500000 -3.1582785 140.12456 -76.392609 153.72131 -93.312012 74.583336 -3.3842013 -159.76262
784000000 -3.1737068 110.45222 -76.980721 62.181919 -90.919144 -18.4468 -4.1412463 137.59456
793500000 -3.1555209 81.178162 -78.377373 -46.767212 -96.647659 -121.47072 -4.540185 75.030342
803000000 -3.1237071 52.385677 -75.174988 -142.81383 -101.36304 138.15201 -4.5387764 2.4060004
812500000 -3.0870502 24.011509 -76.598587 108.9262 -90.836792 -168.61342 -4.8959889 -78.015121
822000000 -3.0489984 -3.9792857 -77.654015 21.694761 -90.522415 99.673447 -5.1883178 -150.52873
831500000 -3.0257456 -31.6842 -79.422653 -75.259209 -92.269547 -169.39806 -4.616179 146.74481
841000000 -3.0334086 -59.327801 -76.029594 -177.56671 -89.754005 -23.479467 -3.5530651 84.114616
850500000 -3.0727925 -87.189087 -76.960144 82.392715 -96.543365 -116.35011 -3.3594398 14.542398
860000000 -3.1312041 -115.43555 -77.110344 -42.524193 -92.951538 172.11464 -4.6969633 -56.832798
869500000 -3.1939757 -144.04549 -76.087723 -142.83115 -96.451439 -9.9611959 -5.8475337 -127.11304
879000000 -3.2571886 -172.93134 -74.961235 137.86168 -93.471405 125.85934 -5.4848952 160.40292
888500000 -3.307483 157.97623 -76.740898 32.833633 -95.695602 -81.990707 -4.4381943 86.748695
898000000 -3.3310573 128.82719 -75.124306 -83.816162 -91.575195 151.85832 -4.1808505 17.829607
907500000 -3.3185816 99.881615 -76.005669 -174.88545 -93.564011 -102.73464 -4.4599528 -44.280334
917000000 -3.2801113 71.347328 -75.690903 83.149445 -95.620255 40.339867 -4.6775956 -107.0051
926500000 -3.2261176 43.262989 -75.763313 -30.437891 -89.028366 134.62256 -5.0866313 -178.62584
936000000 -3.165837 15.652562 -74.891388 -139.67969 -97.022881 -63.504128 -5.8850951 103.1358
945500000 -3.1120822 -11.51579 -77.658302 125.63535 -95.49276 147.85358 -6.019793 29.406666
955000000 -3.0774915 -38.443192 -78.179237 34.875599 -104.4221 -104.98623 -5.1087165 -36.921017
964500000 -3.0755727 -65.308601 -78.886688 -70.494873 -92.824821 -120.85662 -4.059526 -101.76482
974000000 -3.101948 -92.315704 -75.153694 -165.06128 -98.479492 -22.384352 -4.045877 -168.26511
983500000 -3.1545272 -119.73207 -77.357864 89.137253 -88.566872 135.0255 -5.0726247 125.68446
993000000 -3.2196615 -147.56343 -78.29631 -14.807785 -93.972824 52.116344 -5.9945188 57.188778
1002500000 -3.2788188 -175.74951 -75.806908 -108.5489 -86.942871 129.69771 -6.0299792 -17.948864
1012000000 -3.3378356 155.69542 -75.710793 156.88684 -87.070648 -124.08131 -5.5831547 -93.75351
1021500000 -3.3767576 126.96996 -75.204636 44.853786 -93.518494 -178.28014 -5.2272978 -160.73421
1031000000 -3.3748791 98.263664 -77.704613 -58.365608 -91.743271 33.436298 -4.7503486 139.22899
1040500000 -3.3516452 69.797531 -76.483467 -149.45274 -92.249931 -97.66082 -4.2513146 76.837944
1050000000 -3.3151739 41.687756 -75.788979 104.71125 -96.317909 138.24597 -4.737854 6.0588236
1059500000 -3.2648778 13.937708 -77.670738 -2.9608579 -94.325508 174.287 -6.351645 -67.634605
1069000000 -3.2185438 -13.402273 -76.042236 -97.268219 -98.978859 117.47626 -7.064477 -139.15279
1078500000 -3.1990836 -40.442097 -74.755699 168.5995 -90.450157 -69.910362 -5.9656262 151.64847
1088000000 -3.2034476 -67.44973 -75.065125 63.175598 -98.773849 161.45302 -4.4399958 81.812668
1097500000 -3.2450483 -94.656693 -74.421249 -36.677723 -90.74482 103.22739 -4.2941003 12.783076
1107000000 -3.3169823 -122.22433 -75.72892 -142.60684 -94.288422 42.341232 -5.2092161 -50.626717
1116500000 -3.401906 -150.33481 -74.364105 122.79369 -90.674324 127.52608 -5.9854159 -114.09834
1126000000 -3.4915931 -178.95966 -74.532272 24.39296 -97.898438 -86.314362 -6.2597361 174.33215
1135500000 -3.5732849 152.02817 -74.030884 -80.345154 -94.460426 91.295044 -6.2602654 97.581558
1145000000 -3.6337962 122.64754 -74.497879 171.43439 -87.968391 -32.691097 -5.9791703 27.565805
1154500000 -3.6593184 93.195198 -74.859657 79.594292 -87.659203 -119.76286 -5.2210059 -34.697788
1164000000 -3.6461971 63.99028 -76.063965 -25.491209 -101.74065 144.78384 -4.4206924 -97.663338
1173500000 -3.6125815 35.08255 -73.855331 -128.72775 -96.848251 104.58704 -4.7776074 -166.28763
1183000000 -3.5709431 6.605289 -73.467377 125.24816 -89.518257 -64.016357 -6.4634471 123.96105
1192500000 -3.5231898 -21.363392 -74.355095 21.137075 -93.794449 -97.816742 -7.6367168 53.287739
1202000000 -3.495106 -48.957993 -74.435555 -71.278549 -90.733971 83.359131 -6.929739 -20.560137
1211500000 -3.5021129 -76.409142 -71.479225 -168.93698 -90.340118 128.30179 -5.4123363 -95.200874
1221000000 -3.5391951 -103.97039 -73.753769 84.618507 -90.43895 -58.66906 -4.9801774 -164.99345
1230500000 -3.6054704 -131.79601 -74.187737 -24.57144 -92.275558 -174.7787 -5.3987346 133.11902
1240000000 -3.6795838 -160.01122 -73.787125 -113.84348 -92.975677 137.10561 -5.8855147 72.321877
1249500000 -3.7548401 171.31725 -72.047287 141.68102 -91.461899 32.738667 -6.4354968 4.3046188
1259000000 -3.8330002 142.27121 -72.655495 32.715622 -99.44416 -24.334486 -7.0613732 -71.393707
1268500000 -3.8802934 112.96677 -71.019707 -75.138023 -102.54539 121.05649 -6.9565644 -145.87234
1278000000 -3.8755333 83.661987 -71.389404 -174.33521 -96.565529 -16.028454 -5.9418278 145.66553
1287500000 -3.8389161 54.708794 -72.015816 82.402931 -103.58601 -105.81134 -5.0300536 79.261536
1297000000 -3.7878454 26.166632 -71.192955 -15.991343 -101.75677 2.9904537 -5.2762051 13.168316
1306500000 -3.719429 -1.8930674 -71.659447 -127.80138 -93.809929 121.05949 -6.4522004 -51.368134
1316000000 -3.6380656 -29.330812 -71.625443 136.1133 -95.646851 24.031948 -7.4819894 -119.28571
1325500000 -3.5865307 -56.300873 -70.900581 30.904032 -90.572723 -158.82724 -7.509686 164.0789
1335000000 -3.5795259 -83.149689 -70.350266 -91.633492 -97.587769 -69.352089 -6.7728043 85.522446
1344500000 -3.5901318 -110.01663 -73.36071 174.77812 -90.626839 159.3172 -6.135705 16.088135
1354000000 -3.6174676 -136.97495 -73.326736 72.141296 -92.662643 85.290581 -5.6370187 -45.525238
1363500000 -3.676111 -164.25148 -73.8675 -32.53788 -92.973381 -143.10475 -5.4131465 -107.63834
1373000000 -3.7507966 167.97279 -74.287292 -139.0755 -97.892677 165.09256 -6.0613327 -175.12506
1382500000 -3.815424 139.79953 -74.698929 150.89566 -88.248405 97.130409 -7.3540859 114.23862
1392000000 -3.8557501 111.39449 -74.659531 50.891121 -89.638428 95.235435 -7.7231011 43.178463
1401500000 -3.8715024 82.82692 -71.031197 -55.508675 -89.981773 82.515289 -6.5428224 -26.922945
1411000000 -3.8615022 54.289169 -70.56414 -163.11261 -97.335953 -34.607197 -5.2663698 -97.125977
1420500000 -3.8254316 26.047068 -71.638939 85.127907 -93.064072 141.53532 -5.4271832 -164.60399
1430000000 -3.7610621 -1.7497036 -71.533241 -20.816345 -94.706566 3.8537107 -6.5202389 133.51672
1439500000 -3.6970704 -29.033537 -70.8806 -125.53433 -97.655937 -134.34569 -7.4871387 70.019661
1449000000 -3.6584311 -55.902294 -71.94194 133.46928 -89.120773 123.62368 -7.8043504 -4.0409417
1458500000 -3.6460831 -82.649292 -72.524979 18.274521 -99.149261 162.09956 -7.4220848 -84.881935
1468000000 -3.6600769 -109.42225 -74.898567 -94.296181 -108.32713 141.38832 -6.7217774 -157.4305
1477500000 -3.6972096 -136.25713 -76.603256 179.63654 -96.052727 160.46088 -5.9130282 140.01956
1487000000 -3.7676983 -163.50362 -78.688797 95.014107 -95.51915 103.12622 -5.3489013 79.261009
1496500000 -3.8596611 168.73785 -77.559456 -19.969404 -95.521515 90.651993 -5.7391281 15.413181
1506000000 -3.9425912 140.57169 -78.619698 -110.06579 -89.371422 63.38773 -7.0481133 -50.710243
1515500000 -4.0204768 112.00249 -77.210327 154.95923 -97.467255 -175.19684 -7.9586854 -120.38285
1525000000 -4.0828261 83.056503 -79.661621 52.092213 -100.64777 -106.64474 -7.3869491 165.41502
1534500000 -4.1056151 53.939095 -79.962982 -46.497406 -95.875145 133.1451 -6.2719822 91.192589
1544000000 -4.0970893 24.972778 -78.57679 -142.54298 -100.12213 -96.154175 -6.0555429 23.344486
1553500000 -4.0678105 -3.6415226 -79.051651 137.23831 -93.574524 -40.078674 -6.4490008 -37.698879
1563000000 -4.0183382 -31.831249 -78.51255 27.547899 -99.301605 -145.55019 -6.9143887 -99.911911
1572500000 -3.9781723 -59.572884 -78.072014 -54.804501 -97.560127 88.054771 -7.5185447 -171.42699
1582000000 -3.9786377 -87.057968 -77.020363 -158.63283 -106.59744 -64.15332 -8.0665369 110.09927
1591500000 -4.0070004 -114.55193 -77.160721 95.818222 -97.761406 76.659386 -7.6817732 36.967709
1601000000 -4.0465336 -142.12602 -79.220535 0.51603633 -103.28475 169.10068 -6.4935923 -27.824711
1610500000 -4.1135068 -169.93663 -76.98777 -106.71771 -92.40313 174.04129 -5.4916825 -91.205086
1620000000 -4.2202625 161.77187 -74.570938 152.87567 -89.619492 137.96216 -5.7487545 -156.41
1629500000 -4.3204007 132.96202 -75.824776 56.010662 -97.456619 112.11423 -7.1280475 138.42928
1639000000 -4.3883038 103.87006 -76.03611 -42.736649 -101.37036 -75.968674 -8.2909079 69.81012
1648500000 -4.439991 74.559296 -73.022255 -146.93845 -99.85025 42.159439 -8.0746393 -5.507575
1658000000 -4.4771276 45.015419 -73.239952 117.02531 -86.336548 -170.67046 -6.9984007 -80.726051
1667500000 -4.4644856 15.604617 -73.694977 0.025199974 -92.78302 141.32341 -6.3949981 -148.11154
1677000000 -4.3971572 -13.30792 -74.185722 -83.554489 -89.669907 -177.02414 -6.3227348 151.07069
1686500000 -4.3232913 -41.664623 -73.620041 171.26768 -88.650108 78.457817 -6.6755581 88.992027
1696000000 -4.2835927 -69.622513 -74.323746 80.44294 -97.831787 29.091644 -7.7470598 19.060236
1705500000 -4.2548003 -97.257614 -73.801163 -22.681917 -95.045998 -166.27711 -8.9351978 -58.155018
1715000000 -4.2273121 -124.66437 -73.761703 -122.73441 -92.578751 167.81026 -8.5494576 -134.03091
1724500000 -4.2355957 -151.95268 -71.18866 138.49345 -91.456573 119.84438 -6.9204221 157.29332
1734000000 -4.290638 -179.44128 -72.056274 33.534279 -90.091507 73.525444 -5.7066369 91.673805
1743500000 -4.3639679 152.63368 -72.205093 -71.871208 -106.44541 5.5737672 -5.9234452 27.943571
1753000000 -4.4208164 124.44616 -70.675674 -164.15881 -92.533279 -98.406265 -7.0982313 -33.650906
1762500000 -4.4633427 96.080322 -71.331314 98.133202 -95.118721 122.98809 -8.2321968 -99.033852
1772000000 -4.5220733 67.348534 -69.754066 -8.1406641 -97.542091 15.818418 -8.5193615 -173.23355
1781500000 -4.5584645 38.439602 -69.031052 -111.18893 -97.437813 -69.216377 -7.8885698 110.64898
1791000000 -4.5284929 9.6562538 -69.266655 149.59013 -86.64502 -173.26575 -7.1410265 42.32769
1800500000 -4.4745574 -18.732473 -69.748779 43.470783 -91.916092 121.63708 -6.6889839 -20.085186
1810000000 -4.4301791 -46.677849 -70.226639 -53.176163 -89.671471 24.291777 -6.8501811 -84.092545
1819500000 -4.3935919 -74.372177 -68.713432 -151.75117 -94.348999 -41.944523 -8.0038137 -153.9774
1829000000 -4.3600225 -101.76996 -68.364738 113.54035 -98.34861 -166.74889 -9.2371616 131.38246
1838500000 -4.3319898 -128.75645 -67.530693 16.252781 -94.586014 113.75231 -8.7914829 57.542126
1848000000 -4.3512797 -155.65625 -65.918518 -85.253464 -97.101807 21.692354 -7.0691371 -10.60537
1857500000 -4.4326997 177.24309 -65.309166 173.12831 -102.40131 -62.394154 -5.8355637 -75.581116
1867000000 -4.5191393 149.86002 -63.651119 68.414818 -93.993744 158.99997 -6.0078773 -137.53798
1876500000 -4.6000156 122.24757 -62.961475 -35.573017 -88.3433 126.25856 -7.1174974 162.82487
1886000000 -4.7127552 94.459908 -60.668728 -139.81709 -87.314804 57.230076 -8.4508467 98.431961
1895500000 -4.8351221 66.259018 -59.274467 108.05158 -85.27935 -78.449913 -9.2879782 22.513149
1905000000 -4.9164996 37.659424 -59.692539 -11.68188 -90.28141 -168.86523 -8.8255863 -57.428711
1914500000 -4.9287443 9.200284 -59.362411 -117.03555 -88.166122 74.462502 -7.6584506 -128.00763
1924000000 -4.9014101 -18.988241 -59.741055 130.75679 -91.567307 1.1782423 -6.7043672 168.76039
1933500000 -4.861999 -47.114464 -60.687412 17.792767 -98.609276 -170.76085 -6.5656033 105.60789
1943000000 -4.7987704 -75.116547 -62.053772 -87.836288 -91.445267 102.77332 -7.5723605 39.724331
1952500000 -4.7075953 -102.78457 -62.380638 168.2834 -90.430939 -24.389538 -8.9265938 -29.456503
1962000000 -4.6468062 -130.17682 -63.568031 65.040802 -88.338531 -53.430294 -9.078124 -102.03694
1971500000 -4.6358595 -157.48076 -64.103607 -38.74202 -92.70269 -168.47885 -7.8610392 -173.46101
1981000000 -4.6575131 175.02162 -64.898766 -141.56342 -88.042976 133.06255 -6.8114438 119.14727
1990500000 -4.6951427 147.33966 -65.916069 121.5764 -107.61791 -130.63712 -6.7898927 56.234776
2000000000 -4.7540016 119.52282 -65.34256 25.825012 -89.346893 -70.316048 -7.5327058 -5.3667126
