!Keysight Technologies,N5242B,MY48420967,A.15.65.19
!Date: Sunday, January 22, 2023 19:17:37
!Correction: S11(C  1-Port  ) 
!S21(Off) 
!S12(Off) 
!S22(Off) 
!S2P File: Measurements: S11, S21, S12, S22:
# Hz S  dB   R 50
100000000 -1.3015511 40.522373 -84.431877 151.04158 -92.07959 -176.15356 -2.0885806 73.511658
109500000 -1.2161434 11.16731 -85.324524 50.66328 -107.78524 119.74394 -2.0024998 7.1102018
119000000 -1.1217893 -17.503828 -80.542801 -63.469711 -95.051315 40.587555 -2.0443823 -68.415504
128500000 -1.0461885 -45.874615 -88.241753 -136.80373 -99.254326 123.81094 -2.7745194 -143.19217
138000000 -1.0380218 -74.433159 -82.894905 113.82569 -92.340767 -163.67474 -2.9086721 151.55363
147500000 -1.0868013 -103.30883 -85.808647 -21.716242 -93.49485 -11.183909 -1.8513776 89.844353
157000000 -1.1464221 -132.49397 -80.442863 -115.80756 -90.66864 33.147671 -0.60191363 20.833374
166500000 -1.2344166 -162.07977 -79.102898 160.1904 -94.659065 151.85121 -1.3515571 -54.094646
176000000 -1.3520929 167.90402 -83.841835 40.515556 -95.726685 -21.777849 -3.2192709 -121.88041
185500000 -1.446312 137.67593 -83.232292 -53.668175 -94.6819 -6.268147 -3.9025493 173.22185
195000000 -1.4864728 107.66843 -81.182045 -153.98486 -93.708977 -38.985947 -2.968251 103.72985
204500000 -1.4969491 78.007256 -82.602226 133.50906 -94.278641 128.61702 -1.9274052 28.967037
214000000 -1.4908364 48.605988 -82.482216 5.162055 -86.312874 175.19308 -2.0519619 -41.070274
223500000 -1.4547437 19.57127 -82.957809 -95.728172 -93.617256 153.40469 -2.3138442 -103.51671
233000000 -1.4078767 -9.1428957 -80.225304 -172.44382 -102.53008 127.06175 -2.1377225 -167.72432
242500000 -1.3910755 -37.779301 -82.343277 56.51115 -93.914352 77.923843 -2.2753139 119.83517
252000000 -1.3932694 -66.51432 -79.274956 -61.139614 -79.259178 118.19418 -3.1233292 46.30946
261500000 -1.4205741 -95.490013 -74.937836 -148.00523 -91.197876 -120.07214 -3.3190551 -21.078146
271000000 -1.4919585 -124.82582 -80.469742 124.92885 -85.934326 109.87063 -2.2747252 -86.32077
280500000 -1.5775676 -154.56651 -80.312195 44.317642 -96.714973 -138.70604 -1.1456076 -156.94136
290000000 -1.6526293 175.43723 -81.084259 -76.652412 -94.276131 -70.059128 -1.6463435 130.56213
299500000 -1.72955 145.35178 -78.97567 -165.82364 -99.644279 173.6411 -2.8680947 64.658066
309000000 -1.7907898 115.20083 -77.194778 79.478584 -84.820747 98.454994 -3.2055817 -0.25629175
318500000 -1.8060111 85.335213 -77.973854 -14.636346 -94.885712 -17.041285 -2.6003647 -71.774483
328000000 -1.7819625 55.97007 -76.202225 -113.76082 -101.593 17.030577 -2.3539958 -147.29643
337500000 -1.7643878 26.824389 -79.011116 147.4655 -102.98018 178.45287 -2.6405537 144.02957
347000000 -1.7554992 -2.198447 -80.350594 52.823738 -93.055725 60.994354 -2.4052827 80.696877
356500000 -1.7281444 -31.068037 -77.063225 -53.217091 -100.25488 -163.91824 -1.7412533 12.715304
366000000 -1.7219886 -60.032986 -77.386131 -172.05119 -93.985779 97.384903 -2.0300894 -62.382248
375500000 -1.7693535 -89.3657 -80.063194 89.964203 -93.658066 -170.66994 -3.1674497 -133.08365
385000000 -1.8298564 -119.14985 -80.01342 1.5529506 -94.494484 174.01425 -3.3636644 162.70673
394500000 -1.889607 -149.20456 -78.932198 -114.47488 -90.303154 -133.629 -2.2523575 97.184128
404000000 -1.952463 -179.35175 -76.439987 139.50963 -95.680084 -170.45352 -1.3353215 23.293297
413500000 -2.0113993 150.38776 -77.875702 46.838242 -96.316231 -1.6604909 -2.2277956 -50.54351
423000000 -2.0532293 120.22033 -78.020454 -67.653557 -86.656868 172.30525 -3.328347 -116.65649
432500000 -2.0508006 90.506569 -76.674545 -149.90591 -97.895813 -16.555811 -3.2348316 177.09486
442000000 -2.0222781 61.266769 -76.19355 103.04876 -101.5822 126.57758 -2.4301107 103.7872
451500000 -2.001622 32.405258 -79.640495 8.9666624 -100.18675 126.0528 -2.4556415 28.909521
461000000 -1.9766804 3.808557 -79.078804 -102.58025 -111.28006 -21.49708 -2.9250674 -37.60738
470500000 -1.9484735 -24.599686 -81.919525 163.72173 -100.36696 -55.181175 -2.7357616 -100.69857
480000000 -1.9356902 -52.924831 -75.866966 68.142944 -91.916718 -100.46886 -2.1831431 -170.46623
489500000 -1.9572204 -81.505043 -75.685028 -39.613907 -97.169556 100.29662 -2.5956883 113.17549
499000000 -2.0034387 -110.46382 -74.803368 -138.08714 -92.853157 158.80617 -3.4769561 42.021767
508500000 -2.0419412 -139.61575 -73.474838 120.07239 -101.64233 -19.191143 -3.2905023 -23.311119
518000000 -2.07623 -168.91216 -74.141724 14.87219 -92.653488 -99.155502 -2.2383215 -90.363945
527500000 -2.1189852 161.66393 -73.086037 -97.195137 -89.437981 105.09512 -1.950976 -162.63878
537000000 -2.1464877 132.32159 -76.725769 153.98627 -112.00993 159.66893 -2.9617162 127.97107
546500000 -2.1411743 103.33051 -76.236526 57.891155 -97.903038 111.04646 -3.6788528 62.216633
556000000 -2.1149266 74.833664 -79.162323 -41.221806 -91.266457 49.515732 -3.2980289 -8.0927944
565500000 -2.08354 46.721107 -75.790901 -143.53836 -90.439751 89.097015 -2.7620375 -85.321739
575000000 -2.052485 18.907484 -77.888107 104.72253 -98.039001 35.896973 -3.1214354 -157.72853
584500000 -2.0193517 -8.6609383 -79.812416 16.845335 -85.7351 99.063164 -3.3656187 140.2386
594000000 -1.9989328 -36.195179 -76.62973 -89.303833 -93.295197 -166.10175 -2.8082421 79.554176
603500000 -2.0086508 -63.925129 -75.566444 179.74004 -93.389717 85.510956 -2.2690611 9.8057232
613000000 -2.0399418 -92.021179 -76.167809 74.812912 -90.668846 174.05565 -3.0578203 -65.721069
622500000 -2.0797384 -120.51517 -78.218987 -25.106298 -101.51278 57.085487 -3.9936919 -135.61623
632000000 -2.1318879 -149.38441 -76.193222 -120.87543 -95.415459 125.54594 -3.6418955 158.68556
641500000 -2.182987 -178.50676 -77.441208 141.59286 -83.931519 122.82278 -2.570339 90.97924
651000000 -2.2214804 152.22804 -78.190254 33.926769 -97.504311 -16.002829 -2.4158392 20.618696
660500000 -2.2434313 123.04076 -77.756737 -83.132141 -90.91301 72.576851 -3.2751687 -45.957111
670000000 -2.2411726 94.049767 -78.643517 -150.31857 -86.837463 -155.56454 -3.8047745 -111.559
679500000 -2.2224131 65.3992 -76.7108 112.26847 -100.63522 134.62743 -3.6156542 175.72168
689000000 -2.1895394 37.173283 -78.142288 -5.1795135 -100.27415 -174.15576 -3.5567083 97.91864
698500000 -2.1620855 9.1802034 -76.711746 -113.57377 -91.562012 71.153862 -3.7998734 28.042721
708000000 -2.1498845 -18.678675 -77.438622 154.08978 -98.693329 65.819229 -3.5110021 -32.95229
717500000 -2.144001 -46.531448 -77.094315 50.920959 -88.666924 106.02309 -2.6743522 -94.800972
727000000 -2.1662686 -74.646439 -75.996758 -47.217884 -90.162186 -176.90796 -2.4721491 -165.33162
736500000 -2.2253599 -103.22073 -74.76963 -146.69724 -93.059738 30.652536 -3.7451749 121.37911
746000000 -2.2885594 -132.29318 -76.941429 110.9604 -103.56762 68.450928 -4.7178149 51.710308
755500000 -2.3431959 -161.73335 -78.16777 24.577909 -102.31403 -168.96712 -4.1067801 -17.390139
765000000 -2.4051471 168.6073 -74.691917 -93.249756 -97.326012 79.524666 -2.9294262 -89.144783
774500000 -2.454175 138.77393 -75.234352 165.47772 -92.192795 -83.403587 -2.960439 -159.24924
784000000 -2.4674876 109.05028 -75.116508 66.057655 -91.129143 101.47295 -3.7369378 138.02145
793500000 -2.4508061 79.71579 -75.888069 -29.96891 -92.589035 73.834953 -4.0946012 75.642914
803000000 -2.4246917 50.839993 -74.942902 -141.6167 -97.695168 -42.038658 -4.0081458 3.1936271
812500000 -2.3929853 22.371086 -74.283966 112.76038 -89.648079 -171.70923 -4.364089 -77.250549
822000000 -2.3560109 -5.7163482 -76.686096 9.056345 -102.60954 -130.32181 -4.7466292 -149.68242
831500000 -2.3328381 -33.552174 -75.700035 -91.790657 -92.112022 144.40779 -4.2258887 147.70998
841000000 -2.3354416 -61.350269 -75.321785 172.4841 -96.662804 -151.51848 -3.134418 85.034187
850500000 -2.3631225 -89.370201 -75.668358 84.830261 -95.790367 19.428911 -2.8809161 15.035933
860000000 -2.4081597 -117.75639 -75.444672 -30.381731 -98.497261 169.75537 -4.2043104 -56.654694
869500000 -2.4580905 -146.49425 -74.673073 -137.65617 -92.793365 23.740986 -5.3497581 -126.64304
879000000 -2.509738 -175.48459 -74.55294 129.10333 -96.197853 -88.085884 -4.9893365 161.28197
888500000 -2.551018 155.35529 -75.011658 24.407408 -94.509521 -101.22269 -3.9627786 87.512711
898000000 -2.5712345 126.18484 -76.11161 -71.252052 -93.45755 179.1532 -3.7516549 18.201078
907500000 -2.5602825 97.239227 -76.171883 -173.27296 -101.40895 140.36899 -4.0519338 -44.116299
917000000 -2.5280316 68.728867 -73.956093 89.65612 -93.809242 154.47856 -4.2289414 -106.97099
926500000 -2.4828289 40.671581 -74.408539 -27.171814 -91.312302 146.10835 -4.5634618 -178.81175
936000000 -2.4311323 13.067169 -73.892197 -129.63945 -109.02129 -156.55643 -5.3517022 102.90977
945500000 -2.3835628 -14.105226 -75.828186 133.91055 -92.739876 -132.5507 -5.5442123 29.460617
955000000 -2.3516686 -41.03849 -76.055412 33.871639 -93.32843 -69.672432 -4.6760798 -36.773037
964500000 -2.3461566 -67.947456 -75.588234 -69.743248 -104.07343 111.97755 -3.6285884 -101.89774
974000000 -2.3622704 -95.012764 -74.430977 -162.00604 -91.513168 170.33578 -3.6158886 -168.91942
983500000 -2.3995538 -122.46494 -75.122688 100.94179 -90.514366 116.88164 -4.6385965 124.71163
993000000 -2.4475863 -150.32129 -75.999519 5.9936872 -100.1889 -99.512291 -5.5108347 56.209576
1002500000 -2.49015 -178.52861 -75.105247 -111.60468 -86.120079 -86.517395 -5.5015588 -18.762459
1012000000 -2.5339305 152.94456 -75.071167 154.66466 -95.594437 123.53284 -5.095706 -94.462112
1021500000 -2.5633292 124.25911 -76.930801 44.363461 -86.303078 97.829315 -4.8093238 -161.37305
1031000000 -2.5564208 95.628937 -76.292366 -55.970119 -93.296844 -13.717918 -4.3504457 138.58014
1040500000 -2.5339556 67.242805 -74.711571 -142.64998 -94.266777 -151.21622 -3.8136504 75.888741
1050000000 -2.5032842 39.219349 -73.978088 111.45574 -92.370865 -120.0349 -4.2672501 4.5479064
1059500000 -2.4578471 11.518274 -75.180573 2.4010873 -95.701294 54.802799 -5.8709307 -69.172752
1069000000 -2.4168 -15.802814 -74.001381 -89.595673 -91.588013 166.93747 -6.5666475 -140.04672
1078500000 -2.3969452 -42.839905 -74.512405 173.00801 -95.97657 139.50351 -5.4664197 151.28224
1088000000 -2.3953538 -69.891403 -74.15583 75.487503 -89.137108 91.146545 -3.9512088 81.31282
1097500000 -2.4250703 -97.192276 -74.537819 -42.119579 -95.993752 103.26306 -3.8540337 11.889297
1107000000 -2.4765732 -124.84157 -74.116661 -145.41652 -88.332527 -151.2453 -4.7989264 -51.615326
1116500000 -2.5401485 -153.04022 -72.85511 124.91487 -103.49506 -105.55282 -5.5369592 -115.00796
1126000000 -2.6082096 178.24033 -74.710754 20.22761 -104.6563 75.145081 -5.7454557 173.5686
1135500000 -2.6707525 149.13142 -72.719681 -79.949265 -93.048492 152.43301 -5.7523537 97.058701
1145000000 -2.7158751 119.69625 -73.122459 179.05278 -93.887268 -105.82956 -5.5356836 27.31801
1154500000 -2.734762 90.209129 -74.297508 79.272942 -90.712372 -52.937706 -4.8079166 -34.82869
1164000000 -2.7234631 60.960114 -73.362869 -17.224072 -89.08387 105.93944 -3.9852164 -98.010498
1173500000 -2.6972756 32.009922 -71.823868 -128.60011 -94.932053 63.985275 -4.3216853 -167.13362
1183000000 -2.6652744 3.4755769 -73.470284 130.62772 -87.659119 6.2505927 -5.9985495 122.96972
1192500000 -2.6277702 -24.589903 -73.668945 34.442699 -95.127266 -126.4374 -7.1307936 52.771599
1202000000 -2.6057868 -52.307934 -72.641273 -65.837486 -96.506187 61.894737 -6.4053473 -20.481184
1211500000 -2.611419 -79.926765 -71.760193 -166.81982 -94.67588 89.483101 -4.9172812 -95.191986
1221000000 -2.6434288 -107.68789 -72.134193 80.963196 -95.367401 -104.76197 -4.5568085 -165.38448
1230500000 -2.6959667 -135.70836 -72.129234 -20.614515 -88.553772 162.64261 -5.021987 132.53491
1240000000 -2.7523348 -164.1098 -71.715729 -120.69772 -85.743164 76.069756 -5.4924507 71.584183
1249500000 -2.8119628 167.03641 -70.982002 143.56458 -82.261124 85.104393 -5.9871202 3.354625
1259000000 -2.8731766 137.85095 -71.841026 34.629772 -118.09586 -41.829216 -6.5793686 -72.359512
1268500000 -2.9076972 108.47919 -71.197067 -68.627197 -87.122108 -178.93033 -6.4959955 -146.57249
1278000000 -2.901808 79.168449 -70.361465 -167.13998 -91.277275 163.6438 -5.5149088 145.02875
1287500000 -2.8706472 50.242157 -70.629951 85.46833 -89.066826 72.861618 -4.626164 78.270348
1297000000 -2.8301744 21.73634 -70.970634 -24.865751 -90.053192 -164.99207 -4.9058747 11.692831
1306500000 -2.7774487 -6.268651 -70.127846 -123.41394 -93.639343 -173.79224 -6.0864158 -53.166733
1316000000 -2.7120862 -33.672585 -70.490067 133.87515 -90.394844 45.954166 -7.047399 -121.26772
1325500000 -2.6711166 -60.659752 -69.763237 39.973797 -86.118454 -156.72507 -6.9914446 162.11742
1335000000 -2.6682196 -87.535202 -69.860458 -86.062561 -84.766441 -94.247833 -6.2779942 83.708099
1344500000 -2.6751885 -114.44392 -71.278893 -174.20074 -89.008232 20.502558 -5.7209263 14.389571
1354000000 -2.6949 -141.46521 -72.124176 72.433525 -90.346451 128.40457 -5.263505 -47.307865
1363500000 -2.7364562 -168.78302 -73.02549 -27.697556 -95.956367 26.124954 -5.0497079 -109.83597
1373000000 -2.7927504 163.40266 -73.72876 -128.05316 -89.100052 153.59407 -5.7041621 -177.87982
1382500000 -2.8390827 135.23445 -72.583885 144.97528 -89.052879 -85.819153 -6.9709239 111.31829
1392000000 -2.8624566 106.88759 -74.133667 39.869675 -102.33035 102.32205 -7.2701688 40.599529
1401500000 -2.8669379 78.435295 -73.527275 -54.287868 -85.387115 32.526367 -6.0549226 -29.242756
1411000000 -2.8566964 50.036484 -71.503288 -145.10919 -91.912682 -87.219643 -4.8204169 -99.726059
1420500000 -2.825258 21.944248 -69.572014 108.82476 -91.366127 127.94353 -5.0739803 -167.45554
1430000000 -2.7705722 -5.7013535 -71.058205 -9.9848585 -98.787674 168.75688 -6.1953092 130.56346
1439500000 -2.7190959 -32.867184 -71.574203 -98.655128 -104.32015 143.57425 -7.0886636 66.773712
1449000000 -2.6873348 -59.682419 -70.157822 158.4872 -90.755196 148.11839 -7.276063 -7.5420232
1458500000 -2.6761289 -86.412201 -70.06971 42.261402 -91.716019 138.49901 -6.8662796 -88.002617
1468000000 -2.6858006 -113.19331 -70.454529 -64.923859 -84.907562 -1.1396511 -6.250195 -159.89206
1477500000 -2.7103624 -140.08305 -71.743919 -162.12617 -93.558891 -134.09106 -5.5060115 137.84261
1487000000 -2.7616601 -167.40182 -70.642059 80.334274 -91.403435 168.02986 -4.9759717 76.893013
1496500000 -2.8296952 164.77081 -72.92234 -19.145031 -90.492531 -149.44 -5.3957987 12.646559
1506000000 -2.8889399 136.52728 -73.064003 -127.10069 -100.60139 167.45663 -6.6920462 -53.704281
1515500000 -2.9430146 107.89467 -75.428665 146.48607 -88.699738 -47.164169 -7.506846 -123.2503
1525000000 -2.9846725 78.923309 -75.332024 52.002449 -89.607559 165.4502 -6.8584542 162.92632
1534500000 -2.9974294 49.808102 -74.807907 -61.218502 -91.961662 103.94272 -5.7833552 88.862587
1544000000 -2.9895771 20.845634 -75.894585 -167.48894 -94.073708 67.570229 -5.6564469 21.103867
1553500000 -2.9651353 -7.7651219 -81.533302 104.45139 -94.189522 -109.16328 -6.0859952 -39.89127
1563000000 -2.9260762 -35.987041 -83.032524 1.0923936 -103.29366 152.10419 -6.5181184 -102.31468
1572500000 -2.8967891 -63.812462 -78.506073 -81.311546 -93.837524 -158.31331 -7.0550385 -174.13425
1582000000 -2.8998644 -91.429451 -78.820648 -168.17538 -91.911896 115.99651 -7.5717177 107.67274
1591500000 -2.9241309 -119.08783 -79.882057 103.33058 -102.09853 -7.8147516 -7.2250009 35.24147
1601000000 -2.9552481 -146.867 -78.81015 -6.7187266 -89.628357 -178.80388 -6.0814571 -29.259083
1610500000 -3.0048063 -174.92033 -76.434479 -109.2153 -95.84082 164.22934 -5.1144991 -92.88372
1620000000 -3.087769 156.53856 -75.703148 161.02588 -91.384445 84.516876 -5.4184818 -158.50023
1629500000 -3.1653185 127.52758 -77.645454 62.889965 -99.394478 177.81003 -6.8098726 136.10211
1639000000 -3.210439 98.260094 -76.851105 -47.810375 -94.995735 -177.9184 -7.906281 67.440292
1648500000 -3.2449963 68.811264 -74.007294 -148.89064 -106.31138 -157.96242 -7.620759 -7.6611619
1658000000 -3.2727528 39.215729 -74.772331 123.99979 -90.6922 72.444939 -6.5767536 -82.72654
1667500000 -3.2615335 9.8057127 -73.602226 18.289248 -93.63131 174.79309 -6.0507598 -150.09537
1677000000 -3.2050109 -19.075531 -72.928429 -82.343384 -94.564888 160.80458 -6.022459 148.91086
1686500000 -3.1477132 -47.426952 -71.895302 167.3251 -95.947006 150.70799 -6.382556 86.322456
1696000000 -3.1250892 -75.393044 -74.199562 74.295746 -99.894211 22.613783 -7.4353662 15.691496
1705500000 -3.1064787 -103.06408 -74.542328 -30.047764 -88.128586 -49.485634 -8.5532894 -61.659439
1715000000 -3.0847313 -130.51482 -73.466042 -119.60606 -90.300835 100.39813 -8.1204777 -136.93784
1724500000 -3.0923808 -157.89238 -73.129128 139.89572 -96.113304 154.03604 -6.5183258 154.65469
1734000000 -3.1369534 174.49193 -71.970802 38.34594 -95.591545 -30.626322 -5.3844156 88.768265
1743500000 -3.1916838 146.49445 -71.93882 -65.575905 -97.672218 -89.481689 -5.6957278 24.713449
1753000000 -3.2291968 118.2805 -71.148804 -159.91443 -92.028793 -136.57741 -6.9039803 -37.219257
1762500000 -3.2543449 89.885635 -70.725555 110.62386 -88.299446 171.86058 -7.9774456 -103.19625
1772000000 -3.2931635 61.196472 -69.65242 5.9670339 -99.770226 -5.5275846 -8.1477203 -177.81108
1781500000 -3.3161423 32.421146 -68.175781 -106.76702 -87.189423 14.64398 -7.4817214 106.32095
1791000000 -3.2860816 3.8307083 -69.820267 153.1143 -92.900673 -133.21188 -6.7821293 38.331875
1800500000 -3.2385564 -24.388525 -68.659866 56.050827 -96.134697 -76.173134 -6.377008 -24.196379
1810000000 -3.2034674 -52.175587 -67.474144 -48.864079 -91.940819 93.978714 -6.5827279 -88.850967
1819500000 -3.1785316 -79.726143 -67.282433 -155.63589 -102.67148 -5.6121836 -7.7495098 -159.4373
1829000000 -3.1514528 -107.0121 -68.443115 121.4688 -89.756233 -114.50358 -8.871109 125.9244
1838500000 -3.1243801 -133.95264 -66.498566 13.891335 -90.593063 79.81208 -8.3102379 53.001095
1848000000 -3.1362677 -160.86371 -66.069962 -91.903328 -91.807358 33.360012 -6.6057539 -14.56954
1857500000 -3.1985357 171.95491 -65.316833 172.46272 -91.853104 -116.76849 -5.4828954 -79.591568
1867000000 -3.2567763 144.4787 -63.267208 70.781288 -85.345337 -151.48766 -5.7738895 -141.66313
1876500000 -3.3082545 116.73668 -61.7724 -37.584206 -85.797241 80.354156 -6.9247017 158.38182
1886000000 -3.3894835 88.739594 -60.390564 -142.903 -87.809334 4.9380779 -8.194766 93.215904
1895500000 -3.4792082 60.313141 -59.274456 103.1841 -83.830147 -105.70332 -8.8585472 16.791719
1905000000 -3.5419757 31.547398 -59.495781 -11.654322 -87.253098 151.56483 -8.3017883 -62.313873
1914500000 -3.5611546 2.9272094 -59.397259 -124.10367 -90.394585 61.075348 -7.1911869 -131.98312
1924000000 -3.5637391 -25.447321 -60.374886 128.85445 -97.518143 -92.859886 -6.3142581 164.99379
1933500000 -3.5654922 -53.673512 -60.805279 17.49889 -95.999184 -177.04202 -6.252059 101.56451
1943000000 -3.54971 -81.634621 -62.138206 -92.920868 -86.817375 108.73762 -7.3036737 35.360146
1952500000 -3.5080562 -109.27052 -63.635815 167.6806 -87.225586 18.303364 -8.5977812 -33.880421
1962000000 -3.4803035 -136.65858 -65.199448 68.819725 -88.368797 -54.945148 -8.6402245 -106.01992
1971500000 -3.4886806 -164.00308 -64.985191 -29.054142 -93.483276 -6.4967718 -7.4119549 -176.93222
1981000000 -3.5153952 168.4377 -65.377075 -128.04701 -88.889053 130.7747 -6.4448814 115.81421
1990500000 -3.5434704 140.63364 -65.892273 134.83566 -92.732445 57.387012 -6.5081878 52.858185
2000000000 -3.5813556 112.60833 -66.095482 35.239929 -95.299721 -121.86604 -7.2839913 -9.0558615
