!Keysight Technologies,N5242B,MY48420967,A.15.65.19
!Date: Saturday, February 04, 2023 04:14:45
!Correction: S11(C  1-Port  ) 
!S21(Off) 
!S12(Off) 
!S22(Off) 
!S2P File: Measurements: S11, S21, S12, S22:
# Hz S  dB   R 50
100000000 -1.2989553 40.366566 -82.746918 145.08614 -93.580292 -168.95479 -2.1713998 73.138504
109500000 -1.2280515 11.050747 -82.181877 11.372844 -106.9111 -62.552685 -2.1249635 6.4853315
119000000 -1.1564174 -17.828207 -84.018387 -90.491203 -93.327904 166.10104 -2.1881866 -69.096138
128500000 -1.0680646 -46.2062 -83.534676 -177.8616 -102.73 6.0195365 -2.8865652 -143.71957
138000000 -1.0507457 -74.637955 -83.922897 84.478729 -94.608917 -144.34549 -2.9789875 151.17789
147500000 -1.1193404 -103.58615 -85.239944 -10.711224 -88.480919 177.23248 -1.9071695 89.544563
157000000 -1.1853192 -132.89006 -79.871315 -101.61658 -95.760475 -18.540558 -0.67453754 20.540882
166500000 -1.2589384 -162.42322 -79.318474 149.41739 -99.095802 133.55956 -1.452902 -54.354729
176000000 -1.3863255 167.59668 -84.203911 35.506001 -89.038979 92.320465 -3.3355083 -122.21667
185500000 -1.4936436 137.28275 -80.907097 -52.665897 -95.589661 42.46344 -4.0209246 172.68242
195000000 -1.5184875 107.28163 -81.50901 -134.39565 -91.227692 82.013992 -3.0822122 103.07819
204500000 -1.5275913 77.71035 -79.139778 122.03623 -89.387703 5.2606835 -2.0367804 28.457638
214000000 -1.542128 48.265049 -79.983681 1.5413915 -88.130882 81.412155 -2.1460681 -41.382732
223500000 -1.5022897 19.165829 -83.26693 -96.794342 -95.244171 15.260428 -2.405117 -103.77697
233000000 -1.4378533 -9.4569235 -81.097816 -175.70966 -97.664589 21.771746 -2.2481158 -168.02977
242500000 -1.432658 -38.033195 -81.083984 63.674644 -87.479156 156.63 -2.4136951 119.49629
252000000 -1.4537137 -66.866135 -85.211784 -51.107048 -93.70327 170.37119 -3.2632599 45.933277
261500000 -1.4659926 -95.877365 -78.211227 -136.92059 -92.398666 61.742348 -3.440217 -21.548147
271000000 -1.5241642 -125.09364 -78.958351 154.81578 -86.413887 110.01425 -2.383836 -86.843376
280500000 -1.6336635 -154.82661 -80.074188 30.623306 -93.968712 146.24602 -1.2636935 -157.39488
290000000 -1.7182759 175.05319 -78.366257 -82.689232 -87.567429 124.67586 -1.7682624 130.26407
299500000 -1.7712599 144.96704 -79.257675 175.61797 -84.961777 160.57643 -2.9890025 64.373032
309000000 -1.8336527 114.92406 -81.032051 85.482239 -100.31384 -81.393196 -3.3365095 -0.64838135
318500000 -1.8694315 85.029778 -79.794823 -21.71913 -91.454903 -131.70415 -2.7472396 -72.257141
328000000 -1.8397788 55.558308 -78.739456 -120.97102 -99.199173 -138.5623 -2.4992359 -147.70779
337500000 -1.8089833 26.422197 -78.135223 157.1133 -96.426071 -161.08133 -2.767416 143.67697
347000000 -1.8123541 -2.5550427 -80.982956 26.927834 -93.824844 -151.86911 -2.5272045 80.319771
356500000 -1.795709 -31.449165 -79.496185 -67.939049 -95.49054 -137.78455 -1.8805317 12.325086
366000000 -1.775527 -60.424068 -74.121651 -168.91148 -93.861229 -179.74796 -2.1838214 -62.686977
375500000 -1.8212178 -89.765915 -81.604568 76.16111 -101.47401 101.22827 -3.3101809 -133.39024
385000000 -1.8995756 -119.57243 -79.293213 -2.1093078 -95.024078 14.232876 -3.4939761 162.28352
394500000 -1.9548109 -149.6019 -78.227516 -113.59059 -91.212578 -33.080017 -2.3865924 96.668678
404000000 -2.0046885 -179.7256 -77.682755 153.36488 -87.173843 151.28838 -1.4870379 22.875925
413500000 -2.077651 149.96658 -78.100739 44.707367 -89.234535 -166.43343 -2.3746274 -50.799423
423000000 -2.1274638 119.76151 -78.629372 -54.24683 -86.96154 10.6954 -3.4693024 -116.95911
432500000 -2.1089554 90.114311 -76.754799 -144.78441 -95.73085 -162.29495 -3.3872361 176.62407
442000000 -2.0758522 60.894566 -77.22506 102.87069 -92.071999 118.72079 -2.6010087 103.23397
451500000 -2.0735841 31.940533 -78.260109 13.474861 -95.037735 -110.95067 -2.6195586 28.468737
461000000 -2.0483303 3.3378363 -78.031136 -97.09169 -94.642509 -165.99715 -3.0640681 -37.990467
470500000 -2.0010307 -24.968298 -78.665871 176.71605 -96.458687 71.497772 -2.866169 -101.09794
480000000 -1.9942034 -53.307892 -79.345284 73.551712 -92.82251 -83.069138 -2.3293288 -170.83997
489500000 -2.0334008 -81.980217 -75.59549 -40.565262 -97.35125 149.51476 -2.7545931 112.89686
499000000 -2.0717061 -110.93768 -75.994911 -128.63428 -92.48835 -130.26982 -3.6330156 41.69426
508500000 -2.0969698 -140.00636 -75.446053 116.96619 -100.45193 10.70917 -3.4472609 -23.80341
518000000 -2.1433449 -169.3082 -73.520134 13.067471 -91.161232 158.47482 -2.4097452 -90.956009
527500000 -2.1985843 161.19254 -74.101891 -112.7434 -98.419655 120.84538 -2.1322172 -163.11737
537000000 -2.2160478 131.85254 -75.408401 163.5222 -87.384308 -9.2088127 -3.1224952 127.60152
546500000 -2.2018843 102.91767 -76.861786 65.553917 -102.0228 135.52107 -3.8233032 61.81337
556000000 -2.1856999 74.382454 -77.236832 -33.694248 -103.61619 -121.64556 -3.4454911 -8.5476656
565500000 -2.1599653 46.223061 -75.73658 -149.7429 -95.501846 -162.76978 -2.922137 -85.715263
575000000 -2.1202669 18.42901 -78.034874 105.72866 -94.451393 172.96164 -3.2772028 -158.05421
584500000 -2.0868416 -9.1436176 -76.97509 11.840015 -94.039703 -65.204224 -3.5190456 139.84349
594000000 -2.0750921 -36.711746 -78.325447 -87.896126 -93.511482 -153.20685 -2.9806213 79.030777
603500000 -2.0800939 -64.445175 -77.179909 -178.65924 -103.99854 154.3214 -2.4735425 9.2823362
613000000 -2.1080594 -92.516403 -77.869286 84.002083 -104.46487 108.26746 -3.2570112 -66.111275
622500000 -2.1554539 -121.05677 -77.472229 -26.507956 -88.960831 120.21664 -4.1578178 -136.00349
632000000 -2.2136385 -149.98784 -78.858879 -133.38487 -93.800682 -88.639664 -3.7837236 158.26221
641500000 -2.2548532 -179.02855 -75.708199 156.47107 -90.537628 94.966553 -2.7153788 90.58065
651000000 -2.2932007 151.75578 -77.151093 28.646729 -92.656097 6.2841702 -2.5732849 20.323767
660500000 -2.328402 122.48261 -76.646614 -68.414589 -88.566452 112.10948 -3.4426925 -46.236889
670000000 -2.3197186 93.482651 -76.35392 -162.30916 -105.55599 113.5358 -3.9938328 -111.98135
679500000 -2.2867131 64.962692 -76.646095 111.77345 -98.908653 142.94395 -3.8294179 175.16348
689000000 -2.2633705 36.749828 -76.119667 -13.559965 -91.534515 14.72167 -3.7624397 97.426888
698500000 -2.2483065 8.6383514 -76.273628 -122.83901 -92.233299 130.32002 -3.9668562 27.647152
708000000 -2.2261071 -19.197609 -76.899628 151.04739 -88.721657 159.32564 -3.6565387 -33.332169
717500000 -2.2118695 -46.894035 -78.452934 61.986965 -93.781288 -58.058372 -2.8304908 -95.173103
727000000 -2.2457752 -75.051941 -74.39399 -54.854591 -97.407539 -11.91225 -2.6563437 -165.58971
736500000 -2.3128626 -103.78377 -76.425377 -147.8279 -99.085739 -121.95407 -3.9373083 121.19018
746000000 -2.3629107 -132.80269 -77.417053 113.20841 -98.33519 7.0786872 -4.9054394 51.358948
755500000 -2.4140322 -162.13054 -75.064247 10.185078 -103.16447 -151.34784 -4.2893429 -17.905668
765000000 -2.4922955 168.10495 -73.941055 -98.167664 -101.34646 171.16737 -3.1141241 -89.605827
774500000 -2.5430908 138.17047 -75.042786 168.47249 -102.20168 127.84818 -3.1342008 -159.50687
784000000 -2.5412061 108.51743 -77.146851 55.126823 -85.356636 119.66988 -3.9005694 137.81006
793500000 -2.5262074 79.242393 -76.894096 -48.035492 -89.768654 112.58453 -4.2749362 75.339081
803000000 -2.5086944 50.29171 -75.311546 -141.14816 -92.046936 3.1397557 -4.2274585 2.785881
812500000 -2.4720621 21.772816 -75.793839 114.02817 -94.469643 -94.683334 -4.5894322 -77.659378
822000000 -2.4305308 -6.2383194 -77.105278 6.9112196 -97.072838 135.89154 -4.9344392 -150.09879
831500000 -2.4131203 -34.036221 -76.464821 -85.282372 -91.680672 64.540665 -4.3883681 147.26816
841000000 -2.421566 -61.917091 -75.055794 -175.3447 -92.060783 136.67677 -3.3042643 84.637123
850500000 -2.4435742 -89.957947 -75.309189 79.367279 -98.914589 35.694618 -3.0711327 14.821592
860000000 -2.4860313 -118.29001 -75.810516 -32.647057 -93.560806 132.97861 -4.3988948 -56.75642
869500000 -2.544703 -147.04517 -77.202789 -138.59569 -96.793251 62.937542 -5.5488486 -126.90247
879000000 -2.5978611 -176.11143 -77.664291 132.16173 -93.490143 72.628059 -5.191895 160.79993
888500000 -2.6320047 154.72238 -75.900429 25.573408 -98.950523 115.69196 -4.1630096 87.032501
898000000 -2.6541319 125.60339 -76.073685 -79.476982 -94.540695 -124.63855 -3.9368436 17.862347
907500000 -2.6483564 96.643867 -77.738167 -168.66763 -91.310715 -63.81963 -4.2276926 -44.399345
917000000 -2.6097662 68.066589 -75.310783 87.428673 -87.278671 64.158478 -4.4221158 -107.27697
926500000 -2.5586944 40.030758 -75.995995 -14.54814 -99.595505 40.563148 -4.7906995 -179.13911
936000000 -2.5149848 12.474881 -74.621239 -118.05436 -95.148384 50.57069 -5.5826893 102.53622
945500000 -2.4735503 -14.747191 -74.410637 139.16586 -91.743851 -42.204914 -5.744009 28.971664
955000000 -2.4358537 -41.732681 -76.317657 43.078945 -96.88308 70.404358 -4.8550897 -37.293056
964500000 -2.42664 -68.580177 -75.570557 -66.161674 -92.721519 -168.01341 -3.8129759 -102.31858
974000000 -2.4469061 -95.609718 -73.982933 -166.00571 -96.475227 130.77101 -3.8094716 -169.14104
983500000 -2.4895723 -123.13708 -75.77092 95.917595 -89.062057 164.70518 -4.8390203 124.5705
993000000 -2.5356557 -151.03888 -76.53067 -1.9457374 -93.610519 131.04712 -5.7279415 55.941349
1002500000 -2.5740669 -179.18477 -74.305977 -107.71954 -91.425797 -126.59158 -5.7312365 -19.226763
1012000000 -2.6206677 152.31863 -74.177429 157.70938 -93.918373 -76.44545 -5.3059578 -94.942429
1021500000 -2.6545856 123.59983 -75.761597 54.873955 -90.406265 -57.763035 -4.9913611 -161.79007
1031000000 -2.6468267 94.966492 -75.115021 -47.96685 -94.637642 55.941677 -4.5269561 138.18665
1040500000 -2.6133728 66.652771 -73.86763 -151.21741 -99.515465 -70.773529 -4.0172739 75.543358
1050000000 -2.5844071 38.658585 -74.122139 112.08785 -94.64344 36.501423 -4.505373 4.3660293
1059500000 -2.5521076 10.912756 -75.117149 -0.46392456 -100.56505 -15.835931 -6.1125703 -69.366966
1069000000 -2.5084763 -16.418833 -75.856636 -88.327583 -87.329735 158.09334 -6.7886004 -140.51752
1078500000 -2.4759145 -43.389004 -73.364296 177.37009 -106.93189 -157.17586 -5.6690869 150.63086
1088000000 -2.4793978 -70.402672 -73.925102 64.573563 -93.041916 -176.64212 -4.1535883 80.786949
1097500000 -2.5238073 -97.779488 -73.719513 -41.076893 -95.298241 174.55063 -4.0468616 11.662351
1107000000 -2.5697222 -125.47916 -74.00531 -135.26236 -98.818298 165.72025 -4.9801388 -51.698795
1116500000 -2.6181676 -153.60471 -73.907143 122.61146 -92.525124 121.87579 -5.7330961 -115.12829
1126000000 -2.6987004 177.67241 -73.423027 21.874821 -100.54336 45.618877 -5.9749498 173.31964
1135500000 -2.7736387 148.45688 -74.118652 -78.989388 -90.771263 66.627434 -5.9914899 96.679626
1145000000 -2.8010242 119.04386 -73.347954 175.15207 -99.16301 -87.212463 -5.7534122 26.847042
1154500000 -2.8117368 89.676086 -73.187721 80.92749 -96.661987 -175.43604 -5.0160389 -35.347687
1164000000 -2.8165584 60.396297 -73.292854 -23.266586 -90.207993 166.14499 -4.2102761 -98.448448
1173500000 -2.7906232 31.34798 -71.217995 -124.20953 -86.642021 -3.0119154 -4.5581403 -167.33214
1183000000 -2.7446051 2.9015739 -73.232521 126.17239 -95.093506 -126.51069 -6.2224102 122.86109
1192500000 -2.7124619 -25.072565 -73.308228 29.12253 -104.63501 69.802223 -7.3432817 52.477501
1202000000 -2.7072017 -52.918365 -72.310776 -66.55571 -89.360893 95.813393 -6.6107235 -20.969631
1211500000 -2.7089331 -80.603439 -71.776588 -171.10022 -102.61784 -121.03771 -5.1267343 -95.604813
1221000000 -2.7249997 -108.2423 -71.80204 80.395592 -88.886787 -136.86795 -4.762569 -165.56735
1230500000 -2.7881477 -136.27861 -73.382286 -22.437366 -89.660698 176.67407 -5.2263231 132.44205
1240000000 -2.8607521 -164.85933 -72.097496 -111.53397 -99.887245 -176.08055 -5.7176857 71.469223
1249500000 -2.9078438 166.2514 -71.66922 144.65208 -93.464249 131.50145 -6.2459774 3.1576188
1259000000 -2.9582105 137.16699 -71.566162 35.888935 -89.900322 -99.669167 -6.8443255 -72.722015
1268500000 -3.005826 107.77843 -71.576622 -67.892143 -100.26553 139.07648 -6.7255521 -147.09103
1278000000 -3.0039546 78.342567 -70.375626 -170.4077 -91.153015 -51.982037 -5.7189975 144.50958
1287500000 -2.9567821 49.442268 -71.292473 87.9506 -85.723755 90.073318 -4.8344598 77.919357
1297000000 -2.9083695 21.057554 -70.193741 -14.661001 -92.31929 138.34705 -5.1218786 11.576645
1306500000 -2.8732574 -6.9782295 -71.452011 -113.61708 -107.90358 82.0131 -6.3119917 -53.20332
1316000000 -2.8195975 -34.490665 -70.854073 137.19225 -86.677597 150.25284 -7.2990766 -121.46523
1325500000 -2.7612386 -61.447189 -71.437531 34.842781 -87.86937 78.355499 -7.255619 161.64378
1335000000 -2.7483065 -88.231628 -71.531143 -71.743584 -94.945335 -172.84418 -6.5155816 83.208839
1344500000 -2.7767129 -115.16602 -71.897949 -162.0899 -86.020935 132.65619 -5.9244194 14.013666
1354000000 -2.8042836 -142.31163 -71.603165 102.03664 -96.944748 138.78059 -5.4622884 -47.57563
1363500000 -2.8248463 -169.64333 -70.157928 -7.6366749 -90.200798 -88.087936 -5.27247 -109.99209
1373000000 -2.8744671 162.65701 -69.505585 -114.94763 -93.839996 -170.89481 -5.9594193 -177.92105
1382500000 -2.9440887 134.46333 -69.867783 132.39581 -106.02727 131.60127 -7.2397556 111.1607
1392000000 -2.9709637 106.01628 -73.065765 31.002205 -88.147789 -86.575691 -7.5238128 40.095589
1401500000 -2.9480386 77.624123 -72.009201 -56.097427 -96.019897 49.456478 -6.2869315 -29.926529
1411000000 -2.9355414 49.345352 -70.430878 -157.50603 -103.212 114.07606 -5.0479941 -100.21509
1420500000 -2.9285803 21.203249 -70.10865 87.823761 -97.690849 149.10417 -5.289052 -167.62543
1430000000 -2.8681612 -6.4949889 -72.44368 -22.782337 -91.665482 -98.302132 -6.4070673 130.52751
1439500000 -2.7976286 -33.570847 -72.297066 -112.24858 -99.486053 88.111237 -7.3310142 66.680176
1449000000 -2.7815888 -60.342468 -71.796951 146.32211 -96.790573 4.5050097 -7.5614257 -7.8617034
1458500000 -2.7889245 -87.175034 -72.656525 36.008099 -86.471222 -176.65936 -7.1381545 -88.464905
1468000000 -2.784899 -113.98756 -71.995651 -69.187233 -88.741875 28.556572 -6.4738755 -160.30988
1477500000 -2.7965231 -140.77951 -72.347084 -163.97153 -91.342094 -108.04192 -5.7066932 137.51761
1487000000 -2.8623114 -168.14369 -72.65892 80.576614 -94.757141 122.23174 -5.1867876 76.725601
1496500000 -2.9384618 163.91519 -73.908707 -17.746405 -96.440689 -91.575882 -5.6293402 12.675261
1506000000 -2.9778066 135.75014 -73.564064 -118.81498 -94.243874 -126.89605 -6.950069 -53.650047
1515500000 -3.0271783 107.22369 -76.115273 154.79597 -94.997055 75.028992 -7.7893896 -123.50413
1525000000 -3.0903943 78.170921 -76.956635 53.939198 -97.74147 -158.33676 -7.1346879 162.35136
1534500000 -3.0987742 48.988514 -75.589188 -49.428463 -93.831345 160.94714 -6.0297885 88.361626
1544000000 -3.0707781 20.141815 -75.651352 -145.72003 -95.795494 -176.28902 -5.867094 20.854425
1553500000 -3.0555203 -8.4150419 -75.588127 107.66663 -99.724701 -158.05008 -6.2850218 -39.979584
1563000000 -3.0355542 -36.747231 -76.702614 2.7225027 -86.904305 -106.23724 -6.7469683 -102.29548
1572500000 -2.9977772 -64.624626 -77.998474 -86.812469 -89.566254 61.552525 -7.3397136 -174.08311
1582000000 -2.9887836 -92.13044 -79.509476 -170.57054 -106.24879 -15.145467 -7.8747964 107.53079
1591500000 -3.024997 -119.79626 -78.6194 102.00372 -91.591934 22.106209 -7.486268 34.838413
1601000000 -3.0700979 -147.73268 -79.453484 -1.0182283 -92.848328 128.66837 -6.3094463 -29.711939
1610500000 -3.1073234 -175.82678 -75.858803 -108.50882 -92.176483 161.15645 -5.3391657 -93.149185
1620000000 -3.1800828 155.72371 -78.585487 143.12143 -90.051941 85.401321 -5.6444554 -158.45212
1629500000 -3.269057 126.70863 -79.723206 71.84227 -105.52656 28.760752 -7.0483851 136.31973
1639000000 -3.3205137 97.342499 -77.407372 -24.349974 -93.930954 -44.534065 -8.1870089 67.507759
1648500000 -3.3385861 67.897217 -75.038536 -132.51814 -95.874832 158.19737 -7.9298639 -8.00208
1658000000 -3.3609431 38.384663 -73.220116 133.73232 -96.021515 165.13336 -6.8622589 -83.23629
1667500000 -3.3630359 8.9593172 -75.217545 22.816553 -100.64905 179.71342 -6.2940893 -150.52382
1677000000 -3.309561 -19.987917 -74.030708 -83.35376 -96.728775 98.944244 -6.2453775 148.62051
1686500000 -3.246032 -48.330273 -72.971695 173.28789 -98.377785 175.77591 -6.618434 86.214676
1696000000 -3.2246642 -76.261124 -73.373985 81.015831 -83.562454 86.311554 -7.7079391 15.795163
1705500000 -3.2092164 -103.94235 -72.875938 -17.608238 -97.340675 -22.639465 -8.8583279 -61.659569
1715000000 -3.184819 -131.42226 -71.856422 -117.8838 -91.22052 89.066353 -8.4118195 -137.32602
1724500000 -3.1974039 -158.81563 -72.699005 151.13356 -99.972832 120.43039 -6.7821097 154.11002
1734000000 -3.2461712 173.54697 -71.607109 40.547096 -94.107948 52.989002 -5.6379628 88.366737
1743500000 -3.2919476 145.51114 -71.037178 -55.042587 -89.708786 -16.42539 -5.9367051 24.565193
1753000000 -3.3244164 117.35867 -70.058601 -157.69398 -97.936424 -103.8322 -7.1458292 -37.239376
1762500000 -3.3600562 88.979172 -70.929955 105.74809 -104.66288 167.9348 -8.2549992 -103.26601
1772000000 -3.3992908 60.214001 -69.274536 -3.7301695 -91.064789 66.960831 -8.4626589 -178.13342
1781500000 -3.4024043 31.473625 -67.513153 -98.227043 -91.788864 18.66466 -7.785274 105.77589
1791000000 -3.3740621 2.9821594 -67.570129 155.03987 -90.287575 -151.04231 -7.050662 37.753471
1800500000 -3.3515148 -25.287865 -67.907997 55.076405 -95.503365 154.63853 -6.6305985 -24.715481
1810000000 -3.3108289 -53.173759 -66.506477 -50.216522 -95.915886 84.416153 -6.8454285 -89.192528
1819500000 -3.2617316 -80.639687 -66.922272 -149.68527 -92.993591 -149.55556 -8.0250864 -159.54866
1829000000 -3.2470381 -107.80671 -65.73597 111.1552 -101.90388 138.59584 -9.1527662 125.78769
1838500000 -3.2442119 -134.82573 -64.564095 8.9093761 -93.713722 87.411873 -8.5847473 52.617348
1848000000 -3.2455623 -161.86699 -64.804092 -95.398224 -96.61174 -61.650585 -6.8749924 -15.063887
1857500000 -3.2870576 171.03232 -64.263023 167.51678 -89.168335 -89.477371 -5.751792 -79.962158
1867000000 -3.3534076 143.65842 -62.637455 65.951889 -86.52076 179.83949 -6.0331602 -141.85587
1876500000 -3.423568 115.83799 -61.300053 -45.15992 -88.360298 69.80191 -7.1822262 158.25798
1886000000 -3.4994779 87.757225 -60.306362 -149.67331 -94.075348 24.363224 -8.4762249 93.052895
1895500000 -3.5713508 59.384117 -59.078735 97.080254 -86.977242 -121.05812 -9.1647882 16.482655
1905000000 -3.6313341 30.666935 -58.724777 -19.455023 -84.251389 171.95715 -8.5935612 -62.768593
1914500000 -3.663851 2.0153546 -59.732582 -137.59457 -91.152412 34.600826 -7.4568677 -132.43124
1924000000 -3.6722512 -26.420788 -61.155251 119.16991 -88.672218 -9.368885 -6.5792027 164.60674
1933500000 -3.6631246 -54.675053 -62.424225 10.011666 -87.97731 172.22942 -6.5316858 101.3187
1943000000 -3.6411552 -82.572372 -63.984238 -90.448837 -91.192711 167.36221 -7.5910692 35.268925
1952500000 -3.6152799 -110.15688 -63.506176 172.26427 -101.49588 -118.49246 -8.8820972 -33.988255
1962000000 -3.6048064 -137.65448 -64.690849 73.144524 -99.064056 -46.391434 -8.9091463 -106.22565
1971500000 -3.5984895 -165.07944 -63.729904 -28.407717 -91.152313 122.67517 -7.6701403 -177.10985
1981000000 -3.6041176 167.45357 -63.929993 -135.18481 -86.093376 115.99829 -6.6976476 115.79337
1990500000 -3.6503382 139.71416 -65.216354 123.32088 -87.580322 3.9676254 -6.7657971 52.947033
2000000000 -3.710187 111.56137 -65.844643 24.109049 -92.697258 4.6170669 -7.5705795 -8.9457674
